! Coilcraft 0603HC-12N Chip Inductor				
! 03 June 2002			
# MHZ S MA R 50
!Freq             MagS11           AngS11           MagS21           AngS21           MagS12           AngS12           MagS22           AngS22
1                0.00124954966    37.0276432       0.999002712      -0.0431569227    0.999002712      -0.0431569227    0.00124954966    37.0276432       
16.71            0.0126986302     81.3102297       0.998160371      -0.720570499     0.998160371      -0.720570499     0.0126986302     81.3102297       
32.42            0.0244802716     83.5479916       0.997545759      -1.39730001      0.997545759      -1.39730001      0.0244802716     83.5479916       
48.13            0.0362629012     84.0318872       0.996882205      -2.07336522      0.996882205      -2.07336522      0.0362629012     84.0318872       
63.84            0.0480323139     84.0031573       0.996127944      -2.74868188      0.996127944      -2.74868188      0.0480323139     84.0031573       
79.55            0.0597822947     83.7494074       0.995266834      -3.42313941      0.995266834      -3.42313941      0.0597822947     83.7494074       
95.26            0.0715081252     83.3753805       0.994290947      -4.09661593      0.994290947      -4.09661593      0.0715081252     83.3753805       
110.97           0.0832055431     82.9290606       0.993195986      -4.768984        0.993195986      -4.768984        0.0832055431     82.9290606       
126.68           0.0948704778     82.435803        0.991979578      -5.44011331      0.991979578      -5.44011331      0.0948704778     82.435803        
142.39           0.106498967      81.9103953       0.990640509      -6.10987232      0.990640509      -6.10987232      0.106498967      81.9103953       
158.1            0.11808713       81.3621142       0.98917833       -6.77812923      0.98917833       -6.77812923      0.11808713       81.3621142       
173.81           0.129631158      80.7971172       0.987593132      -7.44475272      0.987593132      -7.44475272      0.129631158      80.7971172       
189.52           0.141127319      80.2196812       0.98588541       -8.10961245      0.98588541       -8.10961245      0.141127319      80.2196812       
205.23           0.152571954      79.6328898       0.984055983      -8.77257951      0.984055983      -8.77257951      0.152571954      79.6328898       
220.94           0.163961488      79.0390381       0.982105928      -9.43352673      0.982105928      -9.43352673      0.163961488      79.0390381       
236.65           0.175292431      78.4398806       0.980036539      -10.092329       0.980036539      -10.092329       0.175292431      78.4398806       
252.36           0.186561384      77.8367912       0.977849301      -10.7488634      0.977849301      -10.7488634      0.186561384      77.8367912       
268.07           0.197765044      77.2308679       0.975545859      -11.4030096      0.975545859      -11.4030096      0.197765044      77.2308679       
283.78           0.208900208      76.6230045       0.973128006      -12.05465        0.973128006      -12.05465        0.208900208      76.6230045       
299.49           0.219963778      76.0139408       0.970597661      -12.7036697      0.970597661      -12.7036697      0.219963778      76.0139408       
315.2            0.230952762      75.4042978       0.967956858      -13.3499568      0.967956858      -13.3499568      0.230952762      75.4042978       
330.91           0.24186428       74.7946037       0.965207735      -13.9934027      0.965207735      -13.9934027      0.24186428       74.7946037       
346.62           0.252695568      74.1853131       0.962352522      -14.6339019      0.962352522      -14.6339019      0.252695568      74.1853131       
362.33           0.263443974      73.5768213       0.959393533      -15.2713523      0.959393533      -15.2713523      0.263443974      73.5768213       
378.04           0.274106968      72.9694748       0.956333155      -15.9056552      0.956333155      -15.9056552      0.274106968      72.9694748       
393.75           0.284682138      72.3635805       0.95317384       -16.5367154      0.95317384       -16.5367154      0.284682138      72.3635805       
409.46           0.295167194      71.7594112       0.949918102      -17.1644413      0.949918102      -17.1644413      0.295167194      71.7594112       
425.17           0.305559968      71.1572119       0.9465685        -17.7887449      0.9465685        -17.7887449      0.305559968      71.1572119       
440.88           0.315858415      70.5572028       0.943127642      -18.4095419      0.943127642      -18.4095419      0.315858415      70.5572028       
456.59           0.326060612      69.9595836       0.939598169      -19.0267516      0.939598169      -19.0267516      0.326060612      69.9595836       
472.3            0.336164758      69.3645354       0.935982756      -19.6402971      0.935982756      -19.6402971      0.336164758      69.3645354       
488.01           0.346169177      68.7722233       0.932284099      -20.2501053      0.932284099      -20.2501053      0.346169177      68.7722233       
503.72           0.356072311      68.1827981       0.928504916      -20.8561067      0.928504916      -20.8561067      0.356072311      68.1827981       
519.43           0.365872725      67.5963978       0.924647935      -21.4582356      0.924647935      -21.4582356      0.365872725      67.5963978       
535.14           0.375569101      67.0131489       0.920715894      -22.0564299      0.920715894      -22.0564299      0.375569101      67.0131489       
550.85           0.385160239      66.4331676       0.916711532      -22.6506313      0.916711532      -22.6506313      0.385160239      66.4331676       
566.56           0.394645056      65.8565601       0.912637586      -23.2407851      0.912637586      -23.2407851      0.394645056      65.8565601       
582.27           0.40402258       65.2834243       0.908496787      -23.8268403      0.908496787      -23.8268403      0.40402258       65.2834243       
597.98           0.413291951      64.7138497       0.904291854      -24.4087495      0.904291854      -24.4087495      0.413291951      64.7138497       
613.69           0.422452421      64.1479185       0.900025489      -24.9864686      0.900025489      -24.9864686      0.422452421      64.1479185       
629.4            0.431503343      63.5857057       0.895700376      -25.5599573      0.895700376      -25.5599573      0.431503343      63.5857057       
645.11           0.440444177      63.02728         0.891319177      -26.1291785      0.891319177      -26.1291785      0.440444177      63.02728         
660.82           0.449274483      62.4727037       0.886884524      -26.6940986      0.886884524      -26.6940986      0.449274483      62.4727037       
676.53           0.457993919      61.9220336       0.882399024      -27.2546871      0.882399024      -27.2546871      0.457993919      61.9220336       
692.24           0.466602238      61.3753209       0.877865246      -27.8109169      0.877865246      -27.8109169      0.466602238      61.3753209       
707.95           0.475099282      60.8326117       0.873285728      -28.3627641      0.873285728      -28.3627641      0.475099282      60.8326117       
723.66           0.483484984      60.2939474       0.868662967      -28.9102075      0.868662967      -28.9102075      0.483484984      60.2939474       
739.37           0.491759361      59.7593646       0.86399942       -29.4532294      0.86399942       -29.4532294      0.491759361      59.7593646       
755.08           0.499922512      59.2288956       0.859297503      -29.9918145      0.859297503      -29.9918145      0.499922512      59.2288956       
770.79           0.507974614      58.7025688       0.854559587      -30.5259508      0.854559587      -30.5259508      0.507974614      58.7025688       
786.5            0.51591592       58.1804083       0.849787996      -31.0556287      0.849787996      -31.0556287      0.51591592       58.1804083       
802.21           0.523746753      57.6624348       0.844985007      -31.5808413      0.844985007      -31.5808413      0.523746753      57.6624348       
817.92           0.531467505      57.1486653       0.840152847      -32.1015843      0.840152847      -32.1015843      0.531467505      57.1486653       
833.63           0.539078635      56.6391133       0.835293696      -32.617856       0.835293696      -32.617856       0.539078635      56.6391133       
849.34           0.546580662      56.1337895       0.830409679      -33.1296568      0.830409679      -33.1296568      0.546580662      56.1337895       
865.05           0.553974162      55.6327011       0.825502872      -33.6369897      0.825502872      -33.6369897      0.553974162      55.6327011       
880.76           0.561259769      55.1358527       0.820575297      -34.1398596      0.820575297      -34.1398596      0.561259769      55.1358527       
896.47           0.568438168      54.643246        0.815628923      -34.6382738      0.815628923      -34.6382738      0.568438168      54.643246        
912.18           0.575510094      54.1548802       0.810665666      -35.1322413      0.810665666      -35.1322413      0.575510094      54.1548802       
927.89           0.582476325      53.6707519       0.805687389      -35.6217735      0.805687389      -35.6217735      0.582476325      53.6707519       
943.6            0.589337687      53.1908556       0.8006959        -36.1068831      0.8006959        -36.1068831      0.589337687      53.1908556       
959.31           0.596095041      52.7151833       0.795692953      -36.5875851      0.795692953      -36.5875851      0.596095041      52.7151833       
975.02           0.602749288      52.2437249       0.790680249      -37.0638957      0.790680249      -37.0638957      0.602749288      52.2437249       
990.73           0.609301365      51.7764685       0.785659437      -37.535833       0.785659437      -37.535833       0.609301365      51.7764685       
1006.44          0.615752237      51.3134002       0.78063211       -38.0034166      0.78063211       -38.0034166      0.615752237      51.3134002       
1022.15          0.622102902      50.8545043       0.77559981       -38.4666675      0.77559981       -38.4666675      0.622102902      50.8545043       
1037.86          0.628354382      50.3997635       0.770564026      -38.925608       0.770564026      -38.925608       0.628354382      50.3997635       
1053.57          0.634507726      49.9491589       0.765526197      -39.3802616      0.765526197      -39.3802616      0.634507726      49.9491589       
1069.28          0.640564003      49.50267         0.760487709      -39.8306533      0.760487709      -39.8306533      0.640564003      49.50267         
1084.99          0.646524304      49.060275        0.755449899      -40.2768091      0.755449899      -40.2768091      0.646524304      49.060275        
1100.7           0.652389735      48.6219508       0.750414052      -40.7187559      0.750414052      -40.7187559      0.652389735      48.6219508       
1116.41          0.658161421      48.1876732       0.745381408      -41.1565217      0.745381408      -41.1565217      0.658161421      48.1876732       
1132.12          0.663840498      47.7574165       0.740353155      -41.5901357      0.740353155      -41.5901357      0.663840498      47.7574165       
1147.83          0.669428116      47.3311543       0.735330437      -42.0196275      0.735330437      -42.0196275      0.669428116      47.3311543       
1163.54          0.674925433      46.908859        0.73031435       -42.4450278      0.73031435       -42.4450278      0.674925433      46.908859        
1179.25          0.680333617      46.4905022       0.725305945      -42.8663681      0.725305945      -42.8663681      0.680333617      46.4905022       
1194.96          0.685653842      46.0760545       0.72030623       -43.2836803      0.72030623       -43.2836803      0.685653842      46.0760545       
1210.67          0.690887288      45.6654858       0.715316168      -43.6969972      0.715316168      -43.6969972      0.690887288      45.6654858       
1226.38          0.696035138      45.2587654       0.71033668       -44.1063521      0.71033668       -44.1063521      0.696035138      45.2587654       
1242.09          0.701098577      44.8558617       0.705368646      -44.5117786      0.705368646      -44.5117786      0.701098577      44.8558617       
1257.8           0.706078792      44.4567427       0.700412907      -44.9133112      0.700412907      -44.9133112      0.706078792      44.4567427       
1273.51          0.71097697       44.0613757       0.695470262      -45.3109845      0.695470262      -45.3109845      0.71097697       44.0613757       
1289.22          0.715794296      43.6697277       0.690541475      -45.7048335      0.690541475      -45.7048335      0.715794296      43.6697277       
1304.93          0.720531953      43.2817649       0.68562727       -46.0948937      0.68562727       -46.0948937      0.720531953      43.2817649       
1320.64          0.725191119      42.8974534       0.680728338      -46.4812007      0.680728338      -46.4812007      0.725191119      42.8974534       
1336.35          0.72977297       42.516759        0.675845331      -46.8637906      0.675845331      -46.8637906      0.72977297       42.516759        
1352.06          0.734278676      42.139647        0.67097887       -47.2426994      0.67097887       -47.2426994      0.734278676      42.139647        
1367.77          0.738709399      41.7660824       0.666129543      -47.6179635      0.666129543      -47.6179635      0.738709399      41.7660824       
1383.48          0.743066297      41.3960301       0.661297905      -47.9896193      0.661297905      -47.9896193      0.743066297      41.3960301       
1399.19          0.747350519      41.0294549       0.656484479      -48.3577035      0.656484479      -48.3577035      0.747350519      41.0294549       
1414.9           0.751563203      40.6663212       0.651689761      -48.7222527      0.651689761      -48.7222527      0.751563203      40.6663212       
1430.61          0.755705484      40.3065934       0.646914216      -49.0833036      0.646914216      -49.0833036      0.755705484      40.3065934       
1446.32          0.759778481      39.9502359       0.64215828       -49.4408928      0.64215828       -49.4408928      0.759778481      39.9502359       
1462.03          0.763783308      39.5972129       0.637422364      -49.7950572      0.637422364      -49.7950572      0.763783308      39.5972129       
1477.74          0.767721065      39.2474886       0.632706853      -50.1458333      0.632706853      -50.1458333      0.767721065      39.2474886       
1493.45          0.771592844      38.9010273       0.628012105      -50.4932577      0.628012105      -50.4932577      0.771592844      38.9010273       
1509.16          0.775399724      38.5577933       0.623338455      -50.837367       0.623338455      -50.837367       0.775399724      38.5577933       
1524.87          0.779142771      38.2177508       0.618686214      -51.1781976      0.618686214      -51.1781976      0.779142771      38.2177508       
1540.58          0.782823041      37.8808641       0.61405567       -51.5157857      0.61405567       -51.5157857      0.782823041      37.8808641       
1556.29          0.786441577      37.5470978       0.609447091      -51.8501674      0.609447091      -51.8501674      0.786441577      37.5470978       
1572             0.789999409      37.2164165       0.604860722      -52.1813787      0.604860722      -52.1813787      0.789999409      37.2164165       
1587.71          0.793497556      36.8887848       0.60029679       -52.5094555      0.60029679       -52.5094555      0.793497556      36.8887848       
1603.42          0.796937022      36.5641676       0.5957555        -52.8344331      0.5957555        -52.8344331      0.796937022      36.5641676       
1619.13          0.800318797      36.2425299       0.59123704       -53.1563471      0.59123704       -53.1563471      0.800318797      36.2425299       
1634.84          0.80364386       35.9238369       0.586741581      -53.4752325      0.586741581      -53.4752325      0.80364386       35.9238369       
1650.55          0.806913176      35.6080541       0.582269276      -53.7911243      0.582269276      -53.7911243      0.806913176      35.6080541       
1666.26          0.810127696      35.295147        0.577820262      -54.104057       0.577820262      -54.104057       0.810127696      35.295147        
1681.97          0.813288356      34.9850815       0.573394658      -54.414065       0.573394658      -54.414065       0.813288356      34.9850815       
1697.68          0.816396082      34.6778236       0.568992571      -54.7211824      0.568992571      -54.7211824      0.816396082      34.6778236       
1713.39          0.819451783      34.3733397       0.564614093      -55.0254431      0.564614093      -55.0254431      0.819451783      34.3733397       
1729.1           0.822456355      34.0715963       0.5602593        -55.3268805      0.5602593        -55.3268805      0.822456355      34.0715963       
1744.81          0.825410681      33.7725602       0.555928258      -55.6255278      0.555928258      -55.6255278      0.825410681      33.7725602       
1760.52          0.82831563       33.4761986       0.551621017      -55.921418       0.551621017      -55.921418       0.82831563       33.4761986       
1776.23          0.831172058      33.1824788       0.547337618      -56.2145836      0.547337618      -56.2145836      0.831172058      33.1824788       
1791.94          0.833980806      32.8913684       0.543078089      -56.5050568      0.543078089      -56.5050568      0.833980806      32.8913684       
1807.65          0.836742702      32.6028355       0.538842446      -56.7928696      0.538842446      -56.7928696      0.836742702      32.6028355       
1823.36          0.839458561      32.3168483       0.534630697      -57.0780536      0.534630697      -57.0780536      0.839458561      32.3168483       
1839.07          0.842129184      32.0333754       0.530442838      -57.3606401      0.530442838      -57.3606401      0.842129184      32.0333754       
1854.78          0.844755359      31.7523855       0.526278857      -57.6406598      0.526278857      -57.6406598      0.844755359      31.7523855       
1870.49          0.847337862      31.473848        0.522138732      -57.9181435      0.522138732      -57.9181435      0.847337862      31.473848        
1886.2           0.849877453      31.1977323       0.518022431      -58.1931212      0.518022431      -58.1931212      0.849877453      31.1977323       
1901.91          0.852374881      30.9240082       0.513929917      -58.4656229      0.513929917      -58.4656229      0.852374881      30.9240082       
1917.62          0.854830882      30.6526459       0.509861143      -58.7356781      0.509861143      -58.7356781      0.854830882      30.6526459       
1933.33          0.857246178      30.3836157       0.505816055      -59.0033158      0.505816055      -59.0033158      0.857246178      30.3836157       
1949.04          0.859621482      30.1168886       0.501794593      -59.2685649      0.501794593      -59.2685649      0.859621482      30.1168886       
1964.75          0.861957489      29.8524356       0.497796688      -59.5314538      0.497796688      -59.5314538      0.861957489      29.8524356       
1980.46          0.864254886      29.5902281       0.493822269      -59.7920106      0.493822269      -59.7920106      0.864254886      29.5902281       
1996.17          0.866514347      29.3302379       0.489871254      -60.0502629      0.489871254      -60.0502629      0.866514347      29.3302379       
