! Coilcraft 0603HC-10N Chip Inductor				
! 03 June 2002			
# MHZ S MA R 50
!Freq             MagS11           AngS11           MagS21           AngS21           MagS12           AngS12           MagS22           AngS22
1                0.0011089442     34.44091         0.99908564       -0.035967086     0.99908564       -0.035967086     0.0011089442     34.44091         
21.7             0.0137118052     82.2580173       0.998245319      -0.779859814     0.998245319      -0.779859814     0.0137118052     82.2580173       
42.4             0.0266559731     84.0877307       0.997606694      -1.5229747       0.997606694      -1.5229747       0.0266559731     84.0877307       
63.1             0.0395949718     84.3591542       0.996887152      -2.26527889      0.996887152      -2.26527889      0.0395949718     84.3591542       
83.8             0.0525147305     84.1807802       0.996046614      -3.00662756      0.996046614      -3.00662756      0.0525147305     84.1807802       
104.5            0.0654078878     83.8061565       0.99506992       -3.74684865      0.99506992       -3.74684865      0.0654078878     83.8061565       
125.2            0.078268321      83.3271653       0.993949897      -4.48575896      0.993949897      -4.48575896      0.078268321      83.3271653       
145.9            0.0910902986     82.7858102       0.992682929      -5.22317028      0.992682929      -5.22317028      0.0910902986     82.7858102       
166.6            0.103868276      82.2042775       0.99126732       -5.95889244      0.99126732       -5.95889244      0.103868276      82.2042775       
187.3            0.116596837      81.5955193       0.989702553      -6.69273514      0.989702553      -6.69273514      0.116596837      81.5955193       
208              0.129270681      80.9676794       0.987988911      -7.4245091       0.987988911      -7.4245091       0.129270681      80.9676794       
228.7            0.141884622      80.3261827       0.986127258      -8.15402697      0.986127258      -8.15402697      0.141884622      80.3261827       
249.4            0.154433599      79.6748155       0.984118909      -8.88110397      0.984118909      -8.88110397      0.154433599      79.6748155       
270.1            0.166912681      79.0163244       0.981965543      -9.60555847      0.981965543      -9.60555847      0.166912681      79.0163244       
290.8            0.179317074      78.3527686       0.979669143      -10.3272124      0.979669143      -10.3272124      0.179317074      78.3527686       
311.5            0.191642136      77.6857355       0.977231949      -11.0458917      0.977231949      -11.0458917      0.191642136      77.6857355       
332.2            0.203883379      77.0164797       0.974656428      -11.7614267      0.974656428      -11.7614267      0.203883379      77.0164797       
352.9            0.216036477      76.3460138       0.971945244      -12.4736522      0.971945244      -12.4736522      0.216036477      76.3460138       
373.6            0.228097274      75.6751708       0.969101237      -13.1824081      0.969101237      -13.1824081      0.228097274      75.6751708       
394.3            0.240061792      75.0046473       0.9661274        -13.8875391      0.9661274        -13.8875391      0.240061792      75.0046473       
415              0.251926229      74.3350342       0.963026865      -14.5888954      0.963026865      -14.5888954      0.251926229      74.3350342       
435.7            0.26368697       73.6668395       0.959802886      -15.2863328      0.959802886      -15.2863328      0.26368697       73.6668395       
456.4            0.275340585      73.0005041       0.956458822      -15.9797126      0.956458822      -15.9797126      0.275340585      73.0005041       
477.1            0.286883835      72.3364148       0.952998127      -16.6689018      0.952998127      -16.6689018      0.286883835      72.3364148       
497.8            0.298313672      71.6749135       0.949424332      -17.3537733      0.949424332      -17.3537733      0.298313672      71.6749135       
518.5            0.309627242      71.0163045       0.945741041      -18.034206       0.945741041      -18.034206       0.309627242      71.0163045       
539.2            0.320821882      70.3608601       0.94195191       -18.7100848      0.94195191       -18.7100848      0.320821882      70.3608601       
559.9            0.331895123      69.7088252       0.938060641      -19.3813004      0.938060641      -19.3813004      0.331895123      69.7088252       
580.6            0.342844686      69.0604208       0.934070972      -20.0477497      0.934070972      -20.0477497      0.342844686      69.0604208       
601.3            0.353668484      68.4158468       0.929986665      -20.7093358      0.929986665      -20.7093358      0.353668484      68.4158468       
622              0.364364615      67.7752846       0.925811496      -21.3659674      0.925811496      -21.3659674      0.364364615      67.7752846       
642.7            0.374931366      67.1388989       0.921549248      -22.0175596      0.921549248      -22.0175596      0.374931366      67.1388989       
663.4            0.385367203      66.5068392       0.917203699      -22.6640333      0.917203699      -22.6640333      0.385367203      66.5068392       
684.1            0.395670773      65.8792415       0.91277862       -23.3053151      0.91277862       -23.3053151      0.395670773      65.8792415       
704.8            0.405840895      65.2562291       0.908277759      -23.9413375      0.908277759      -23.9413375      0.405840895      65.2562291       
725.5            0.41587656       64.6379137       0.903704841      -24.572039       0.903704841      -24.572039       0.41587656       64.6379137       
746.2            0.425776925      64.0243963       0.899063556      -25.1973631      0.899063556      -25.1973631      0.425776925      64.0243963       
766.9            0.435541308      63.415768        0.894357557      -25.8172594      0.894357557      -25.8172594      0.435541308      63.415768        
787.6            0.445169181      62.8121107       0.889590451      -26.4316826      0.889590451      -26.4316826      0.445169181      62.8121107       
808.3            0.454660167      62.2134975       0.884765796      -27.0405925      0.884765796      -27.0405925      0.454660167      62.2134975       
829              0.464014035      61.6199933       0.879887093      -27.6439543      0.879887093      -27.6439543      0.464014035      61.6199933       
849.7            0.473230692      61.0316555       0.874957784      -28.241738       0.874957784      -28.241738       0.473230692      61.0316555       
870.4            0.482310177      60.4485341       0.869981248      -28.8339186      0.869981248      -28.8339186      0.482310177      60.4485341       
891.1            0.491252659      59.8706723       0.864960797      -29.4204755      0.864960797      -29.4204755      0.491252659      59.8706723       
911.8            0.500058427      59.298107        0.85989967       -30.0013929      0.85989967       -30.0013929      0.500058427      59.298107        
932.5            0.508727886      58.730869        0.854801035      -30.5766593      0.854801035      -30.5766593      0.508727886      58.730869        
953.2            0.51726155       58.1689833       0.849667982      -31.1462673      0.849667982      -31.1462673      0.51726155       58.1689833       
973.9            0.525660037      57.6124694       0.844503526      -31.7102135      0.844503526      -31.7102135      0.525660037      57.6124694       
994.6            0.533924065      57.0613418       0.839310598      -32.2684987      0.839310598      -32.2684987      0.533924065      57.0613418       
1015.3           0.542054441      56.5156101       0.834092051      -32.8211271      0.834092051      -32.8211271      0.542054441      56.5156101       
1036             0.550052061      55.9752792       0.828850654      -33.3681066      0.828850654      -33.3681066      0.550052061      55.9752792       
1056.7           0.5579179        55.4403499       0.823589093      -33.9094484      0.823589093      -33.9094484      0.5579179        55.4403499       
1077.4           0.565653009      54.9108188       0.81830997       -34.4451671      0.81830997       -34.4451671      0.565653009      54.9108188       
1098.1           0.573258511      54.3866785       0.813015803      -34.9752802      0.813015803      -34.9752802      0.573258511      54.3866785       
1118.8           0.580735592      53.8679182       0.807709026      -35.4998083      0.807709026      -35.4998083      0.580735592      53.8679182       
1139.5           0.588085498      53.3545236       0.802391989      -36.0187747      0.802391989      -36.0187747      0.588085498      53.3545236       
1160.2           0.595309531      52.846477        0.797066957      -36.5322051      0.797066957      -36.5322051      0.595309531      52.846477        
1180.9           0.602409041      52.3437581       0.791736114      -37.040128       0.791736114      -37.040128       0.602409041      52.3437581       
1201.6           0.609385427      51.8463434       0.786401559      -37.5425741      0.786401559      -37.5425741      0.609385427      51.8463434       
1222.3           0.616240127      51.3542069       0.781065311      -38.0395762      0.781065311      -38.0395762      0.616240127      51.3542069       
1243             0.622974617      50.86732         0.775729309      -38.5311692      0.775729309      -38.5311692      0.622974617      50.86732         
1263.7           0.629590406      50.3856522       0.770395411      -39.0173899      0.770395411      -39.0173899      0.629590406      50.3856522       
1284.4           0.636089032      49.9091702       0.765065398      -39.498277       0.765065398      -39.498277       0.636089032      49.9091702       
1305.1           0.642472059      49.4378394       0.759740974      -39.9738706      0.759740974      -39.9738706      0.642472059      49.4378394       
1325.8           0.648741072      48.9716227       0.754423768      -40.4442126      0.754423768      -40.4442126      0.648741072      48.9716227       
1346.5           0.654897675      48.5104819       0.749115335      -40.9093462      0.749115335      -40.9093462      0.654897675      48.5104819       
1367.2           0.66094349       48.0543768       0.743817159      -41.3693158      0.743817159      -41.3693158      0.66094349       48.0543768       
1387.9           0.666880147      47.6032659       0.738530651      -41.824167       0.738530651      -41.824167       0.666880147      47.6032659       
1408.6           0.672709289      47.1571064       0.733257157      -42.2739468      0.733257157      -42.2739468      0.672709289      47.1571064       
1429.3           0.678432566      46.7158543       0.727997953      -42.7187028      0.727997953      -42.7187028      0.678432566      46.7158543       
1450             0.684051631      46.2794644       0.722754252      -43.1584837      0.722754252      -43.1584837      0.684051631      46.2794644       
1470.7           0.68956814       45.8478906       0.717527203      -43.5933389      0.717527203      -43.5933389      0.68956814       45.8478906       
1491.4           0.694983748      45.4210859       0.712317893      -44.0233185      0.712317893      -44.0233185      0.694983748      45.4210859       
1512.1           0.70030011       44.9990025       0.70712735       -44.4484734      0.70712735       -44.4484734      0.70030011       44.9990025       
1532.8           0.705518874      44.581592        0.701956546      -44.8688547      0.701956546      -44.8688547      0.705518874      44.581592        
1553.5           0.710641685      44.1688052       0.696806393      -45.2845144      0.696806393      -45.2845144      0.710641685      44.1688052       
1574.2           0.715670179      43.7605924       0.691677754      -45.6955045      0.691677754      -45.6955045      0.715670179      43.7605924       
1594.9           0.720605982      43.3569035       0.686571435      -46.1018775      0.686571435      -46.1018775      0.720605982      43.3569035       
1615.6           0.725450712      42.9576881       0.681488196      -46.5036863      0.681488196      -46.5036863      0.725450712      42.9576881       
1636.3           0.730205973      42.5628954       0.676428745      -46.9009836      0.676428745      -46.9009836      0.730205973      42.5628954       
1657             0.734873357      42.1724742       0.671393745      -47.2938227      0.671393745      -47.2938227      0.734873357      42.1724742       
1677.7           0.739454442      41.7863735       0.666383814      -47.6822567      0.666383814      -47.6822567      0.739454442      41.7863735       
1698.4           0.743950789      41.4045417       0.661399525      -48.0663388      0.661399525      -48.0663388      0.743950789      41.4045417       
1719.1           0.748363947      41.0269274       0.656441411      -48.446122       0.656441411      -48.446122       0.748363947      41.0269274       
1739.8           0.752695443      40.6534792       0.651509965      -48.8216597      0.651509965      -48.8216597      0.752695443      40.6534792       
1760.5           0.75694679       40.2841457       0.646605639      -49.1930047      0.646605639      -49.1930047      0.75694679       40.2841457       
1781.2           0.761119481      39.9188754       0.641728852      -49.5602099      0.641728852      -49.5602099      0.761119481      39.9188754       
1801.9           0.765214992      39.5576171       0.636879984      -49.923328       0.636879984      -49.923328       0.765214992      39.5576171       
1822.6           0.769234778      39.2003196       0.632059383      -50.2824113      0.632059383      -50.2824113      0.769234778      39.2003196       
1843.3           0.773180274      38.8469321       0.627267366      -50.6375122      0.627267366      -50.6375122      0.773180274      38.8469321       
1864             0.777052895      38.4974038       0.622504215      -50.9886825      0.622504215      -50.9886825      0.777052895      38.4974038       
1884.7           0.780854037      38.1516843       0.617770186      -51.3359737      0.617770186      -51.3359737      0.780854037      38.1516843       
1905.4           0.784585072      37.8097233       0.613065504      -51.6794372      0.613065504      -51.6794372      0.784585072      37.8097233       
1926.1           0.788247354      37.4714712       0.608390371      -52.0191237      0.608390371      -52.0191237      0.788247354      37.4714712       
1946.8           0.791842214      37.1368782       0.603744958      -52.3550838      0.603744958      -52.3550838      0.791842214      37.1368782       
1967.5           0.795370961      36.8058952       0.599129415      -52.6873676      0.599129415      -52.6873676      0.795370961      36.8058952       
1988.2           0.798834886      36.4784734       0.594543868      -53.0160246      0.594543868      -53.0160246      0.798834886      36.4784734       
2008.9           0.802235254      36.1545645       0.58998842       -53.3411041      0.58998842       -53.3411041      0.802235254      36.1545645       
2029.6           0.805573311      35.8341205       0.585463153      -53.6626549      0.585463153      -53.6626549      0.805573311      35.8341205       
2050.3           0.80885028       35.5170937       0.580968129      -53.9807252      0.580968129      -53.9807252      0.80885028       35.5170937       
2071             0.812067364      35.2034372       0.576503392      -54.2953627      0.576503392      -54.2953627      0.812067364      35.2034372       
2091.7           0.815225744      34.8931041       0.572068967      -54.6066148      0.572068967      -54.6066148      0.815225744      34.8931041       
2112.4           0.818326579      34.5860485       0.56766486       -54.9145281      0.56766486       -54.9145281      0.818326579      34.5860485       
2133.1           0.821371007      34.2822246       0.563291064      -55.219149       0.563291064      -55.219149       0.821371007      34.2822246       
2153.8           0.824360146      33.9815872       0.558947555      -55.5205232      0.558947555      -55.5205232      0.824360146      33.9815872       
2174.5           0.82729509       33.6840915       0.554634293      -55.8186958      0.554634293      -55.8186958      0.82729509       33.6840915       
2195.2           0.830176917      33.3896935       0.550351228      -56.1137115      0.550351228      -56.1137115      0.830176917      33.3896935       
2215.9           0.83300668       33.0983494       0.546098292      -56.4056143      0.546098292      -56.4056143      0.83300668       33.0983494       
2236.6           0.835785413      32.810016        0.54187541       -56.6944478      0.54187541       -56.6944478      0.835785413      32.810016        
2257.3           0.838514132      32.5246509       0.537682492      -56.980255       0.537682492      -56.980255       0.838514132      32.5246509       
2278             0.84119383       32.2422117       0.533519437      -57.2630783      0.533519437      -57.2630783      0.84119383       32.2422117       
2298.7           0.843825482      31.962657        0.529386136      -57.5429596      0.529386136      -57.5429596      0.843825482      31.962657        
2319.4           0.846410042      31.6859457       0.525282469      -57.8199402      0.525282469      -57.8199402      0.846410042      31.6859457       
2340.1           0.848948448      31.4120373       0.521208307      -58.0940609      0.521208307      -58.0940609      0.848948448      31.4120373       
2360.8           0.851441616      31.1408917       0.517163514      -58.3653617      0.517163514      -58.3653617      0.851441616      31.1408917       
2381.5           0.853890445      30.8724697       0.513147943      -58.6338825      0.513147943      -58.6338825      0.853890445      30.8724697       
2402.2           0.856295815      30.6067322       0.509161443      -58.8996621      0.509161443      -58.8996621      0.856295815      30.6067322       
2422.9           0.858658588      30.3436409       0.505203855      -59.1627393      0.505203855      -59.1627393      0.858658588      30.3436409       
2443.6           0.860979609      30.0831579       0.501275012      -59.4231518      0.501275012      -59.4231518      0.860979609      30.0831579       
2464.3           0.863259704      29.8252458       0.497374743      -59.6809371      0.497374743      -59.6809371      0.863259704      29.8252458       
2485             0.865499683      29.569868        0.493502872      -59.9361321      0.493502872      -59.9361321      0.865499683      29.569868        
2505.7           0.867700339      29.3169881       0.489659216      -60.1887731      0.489659216      -60.1887731      0.867700339      29.3169881       
2526.4           0.869862448      29.0665705       0.485843587      -60.4388959      0.485843587      -60.4388959      0.869862448      29.0665705       
2547.1           0.871986771      28.8185797       0.482055796      -60.6865356      0.482055796      -60.6865356      0.871986771      28.8185797       
2567.8           0.874074051      28.5729812       0.478295647      -60.931727       0.478295647      -60.931727       0.874074051      28.5729812       
2588.5           0.876125016      28.3297407       0.474562942      -61.1745042      0.474562942      -61.1745042      0.876125016      28.3297407       
2609.2           0.878140379      28.0888246       0.470857478      -61.4149008      0.470857478      -61.4149008      0.878140379      28.0888246       
2629.9           0.880120838      27.8501996       0.46717905       -61.65295        0.46717905       -61.65295        0.880120838      27.8501996       
