! Coilcraft 0603HC-1N6 Chip Inductor				
! 03 June 2002			
# MHZ S MA R 50
!Freq             MagS11           AngS11           MagS21           AngS21           MagS12           AngS12           MagS22           AngS22
1                0.000338973481   13.9342597       0.999671005      -0.00467846029   0.999671005      -0.00467846029   0.000338973481   13.9342597       
60.35            0.00495483588    83.6262739       0.999462078      -0.282289424     0.999462078      -0.282289424     0.00495483588    83.6262739       
119.7            0.00979058028    85.8212212       0.999334278      -0.559849246     0.999334278      -0.559849246     0.00979058028    85.8212212       
179.05           0.0146306559     86.4638285       0.999204312      -0.837374882     0.999204312      -0.837374882     0.0146306559     86.4638285       
238.4            0.0194713645     86.6814324       0.999061977      -1.11487229      0.999061977      -1.11487229      0.0194713645     86.6814324       
297.75           0.024311822      86.7185392       0.998903298      -1.39234474      0.998903298      -1.39234474      0.024311822      86.7185392       
357.1            0.0291516533     86.6610597       0.998726232      -1.66979435      0.998726232      -1.66979435      0.0291516533     86.6610597       
416.45           0.0339906345     86.5473614       0.998529567      -1.94722253      0.998529567      -1.94722253      0.0339906345     86.5473614       
475.8            0.038828599      86.3973039       0.998312515      -2.2246303       0.998312515      -2.2246303       0.038828599      86.3973039       
535.15           0.0436654049     86.2222584       0.99807453       -2.50201841      0.99807453       -2.50201841      0.0436654049     86.2222584       
594.5            0.0485009227     86.0292339       0.997815216      -2.77938738      0.997815216      -2.77938738      0.0485009227     86.0292339       
653.85           0.0533350292     85.8228014       0.99753428       -3.0567376       0.99753428       -3.0567376       0.0533350292     85.8228014       
713.2            0.0581676043     85.6060771       0.997231492      -3.33406934      0.997231492      -3.33406934      0.0581676043     85.6060771       
772.55           0.0629985299     85.3812642       0.996906675      -3.61138278      0.996906675      -3.61138278      0.0629985299     85.3812642       
831.9            0.0678276887     85.1499669       0.996559685      -3.88867802      0.996559685      -3.88867802      0.0678276887     85.1499669       
891.25           0.072654964      84.9133836       0.996190408      -4.1659551       0.996190408      -4.1659551       0.072654964      84.9133836       
950.6            0.0774802393     84.6724286       0.995798749      -4.44321401      0.995798749      -4.44321401      0.0774802393     84.6724286       
1009.95          0.0823033981     84.4278126       0.995384632      -4.72045467      0.995384632      -4.72045467      0.0823033981     84.4278126       
1069.3           0.0871243238     84.1800969       0.994947992      -4.997677        0.994947992      -4.997677        0.0871243238     84.1800969       
1128.65          0.0919428999     83.9297315       0.994488776      -5.27488083      0.994488776      -5.27488083      0.0919428999     83.9297315       
1188             0.0967590095     83.6770814       0.994006942      -5.55206601      0.994006942      -5.55206601      0.0967590095     83.6770814       
1247.35          0.101572535      83.4224463       0.993502452      -5.82923232      0.993502452      -5.82923232      0.101572535      83.4224463       
1306.7           0.106383361      83.1660743       0.992975278      -6.10637954      0.992975278      -6.10637954      0.106383361      83.1660743       
1366.05          0.111191368      82.9081734       0.992425396      -6.38350739      0.992425396      -6.38350739      0.111191368      82.9081734       
1425.4           0.115996439      82.6489189       0.991852786      -6.66061561      0.991852786      -6.66061561      0.115996439      82.6489189       
1484.75          0.120798457      82.3884597       0.991257433      -6.93770388      0.991257433      -6.93770388      0.120798457      82.3884597       
1544.1           0.125597304      82.1269235       0.990639326      -7.21477186      0.990639326      -7.21477186      0.125597304      82.1269235       
1603.45          0.130392861      81.86442         0.989998458      -7.49181921      0.989998458      -7.49181921      0.130392861      81.86442         
1662.8           0.13518501       81.6010447       0.989334823      -7.76884556      0.989334823      -7.76884556      0.13518501       81.6010447       
1722.15          0.139973633      81.3368804       0.98864842       -8.04585049      0.98864842       -8.04585049      0.139973633      81.3368804       
1781.5           0.144758612      81.0719999       0.987939248      -8.32283361      0.987939248      -8.32283361      0.144758612      81.0719999       
1840.85          0.149539826      80.8064671       0.98720731       -8.59979447      0.98720731       -8.59979447      0.149539826      80.8064671       
1900.2           0.154317157      80.5403386       0.986452611      -8.87673262      0.986452611      -8.87673262      0.154317157      80.5403386       
1959.55          0.159090487      80.2736647       0.985675158      -9.15364759      0.985675158      -9.15364759      0.159090487      80.2736647       
2018.9           0.163859696      80.00649         0.984874958      -9.43053887      0.984874958      -9.43053887      0.163859696      80.00649         
2078.25          0.168624663      79.7388546       0.984052022      -9.70740595      0.984052022      -9.70740595      0.168624663      79.7388546       
2137.6           0.173385271      79.4707945       0.983206361      -9.9842483       0.983206361      -9.9842483       0.173385271      79.4707945       
2196.95          0.178141399      79.2023421       0.982337989      -10.2610654      0.982337989      -10.2610654      0.178141399      79.2023421       
2256.3           0.182892928      78.9335265       0.98144692       -10.5378566      0.98144692       -10.5378566      0.182892928      78.9335265       
2315.65          0.187639736      78.6643743       0.980533171      -10.8146213      0.980533171      -10.8146213      0.187639736      78.6643743       
2375             0.192381705      78.3949096       0.979596758      -11.091359       0.979596758      -11.091359       0.192381705      78.3949096       
2434.35          0.197118714      78.1251545       0.978637701      -11.368069       0.978637701      -11.368069       0.197118714      78.1251545       
2493.7           0.201850642      77.8551289       0.977656019      -11.6447506      0.977656019      -11.6447506      0.201850642      77.8551289       
2553.05          0.20657737       77.5848513       0.976651733      -11.9214032      0.976651733      -11.9214032      0.20657737       77.5848513       
2612.4           0.211298776      77.3143386       0.975624865      -12.1980261      0.975624865      -12.1980261      0.211298776      77.3143386       
2671.75          0.21601474       77.0436064       0.97457544       -12.4746185      0.97457544       -12.4746185      0.21601474       77.0436064       
2731.1           0.220725141      76.7726691       0.973503482      -12.7511798      0.973503482      -12.7511798      0.220725141      76.7726691       
2790.45          0.225429857      76.5015399       0.972409015      -13.0277091      0.972409015      -13.0277091      0.225429857      76.5015399       
2849.8           0.230128769      76.2302313       0.971292068      -13.3042058      0.971292068      -13.3042058      0.230128769      76.2302313       
2909.15          0.234821755      75.9587546       0.970152668      -13.5806689      0.970152668      -13.5806689      0.234821755      75.9587546       
2968.5           0.239508694      75.6871205       0.968990843      -13.8570977      0.968990843      -13.8570977      0.239508694      75.6871205       
3027.85          0.244189464      75.4153391       0.967806624      -14.1334913      0.967806624      -14.1334913      0.244189464      75.4153391       
3087.2           0.248863943      75.1434196       0.966600042      -14.4098489      0.966600042      -14.4098489      0.248863943      75.1434196       
3146.55          0.253532011      74.8713707       0.965371128      -14.6861696      0.965371128      -14.6861696      0.253532011      74.8713707       
3205.9           0.258193546      74.5992008       0.964119915      -14.9624524      0.964119915      -14.9624524      0.258193546      74.5992008       
3265.25          0.262848426      74.3269173       0.962846439      -15.2386965      0.962846439      -15.2386965      0.262848426      74.3269173       
3324.6           0.26749653       74.0545278       0.961550733      -15.5149008      0.961550733      -15.5149008      0.26749653       74.0545278       
3383.95          0.272137735      73.7820389       0.960232833      -15.7910644      0.960232833      -15.7910644      0.272137735      73.7820389       
3443.3           0.276771919      73.5094572       0.958892777      -16.0671864      0.958892777      -16.0671864      0.276771919      73.5094572       
3502.65          0.281398962      73.2367889       0.957530603      -16.3432656      0.957530603      -16.3432656      0.281398962      73.2367889       
3562             0.28601874       72.9640397       0.95614635       -16.619301       0.95614635       -16.619301       0.28601874       72.9640397       
3621.35          0.290631132      72.6912154       0.954740057      -16.8952915      0.954740057      -16.8952915      0.290631132      72.6912154       
3680.7           0.295236015      72.418321        0.953311766      -17.1712361      0.953311766      -17.1712361      0.295236015      72.418321        
3740.05          0.299833269      72.1453618       0.951861519      -17.4471337      0.951861519      -17.4471337      0.299833269      72.1453618       
3799.4           0.304422769      71.8723426       0.950389358      -17.722983       0.950389358      -17.722983       0.304422769      71.8723426       
3858.75          0.309004395      71.5992679       0.948895328      -17.9987829      0.948895328      -17.9987829      0.309004395      71.5992679       
3918.1           0.313578023      71.3261423       0.947379474      -18.2745321      0.947379474      -18.2745321      0.313578023      71.3261423       
3977.45          0.318143532      71.0529699       0.945841841      -18.5502296      0.945841841      -18.5502296      0.318143532      71.0529699       
4036.8           0.3227008        70.7797551       0.944282478      -18.825874       0.944282478      -18.825874       0.3227008        70.7797551       
4096.15          0.327249704      70.5065016       0.942701431      -19.101464       0.942701431      -19.101464       0.327249704      70.5065016       
4155.5           0.331790123      70.2332134       0.941098749      -19.3769984      0.941098749      -19.3769984      0.331790123      70.2332134       
4214.85          0.336321933      69.9598941       0.939474484      -19.6524758      0.939474484      -19.6524758      0.336321933      69.9598941       
4274.2           0.340845012      69.6865474       0.937828685      -19.9278948      0.937828685      -19.9278948      0.340845012      69.6865474       
4333.55          0.345359239      69.4131768       0.936161405      -20.2032541      0.936161405      -20.2032541      0.345359239      69.4131768       
4392.9           0.349864492      69.1397857       0.934472697      -20.4785523      0.934472697      -20.4785523      0.349864492      69.1397857       
4452.25          0.354360647      68.8663773       0.932762615      -20.7537879      0.932762615      -20.7537879      0.354360647      68.8663773       
4511.6           0.358847584      68.592955        0.931031215      -21.0289595      0.931031215      -21.0289595      0.358847584      68.592955        
4570.95          0.36332518       68.3195218       0.929278551      -21.3040656      0.929278551      -21.3040656      0.36332518       68.3195218       
4630.3           0.367793314      68.0460808       0.927504683      -21.5791046      0.927504683      -21.5791046      0.367793314      68.0460808       
4689.65          0.372251863      67.7726352       0.925709667      -21.854075       0.925709667      -21.854075       0.372251863      67.7726352       
4749             0.376700706      67.4991877       0.923893563      -22.1289752      0.923893563      -22.1289752      0.376700706      67.4991877       
4808.35          0.38113972       67.2257415       0.922056432      -22.4038037      0.922056432      -22.4038037      0.38113972       67.2257415       
4867.7           0.385568786      66.9522992       0.920198335      -22.6785588      0.920198335      -22.6785588      0.385568786      66.9522992       
4927.05          0.38998778       66.6788637       0.918319334      -22.9532388      0.918319334      -22.9532388      0.38998778       66.6788637       
4986.4           0.394396582      66.4054378       0.916419493      -23.2278421      0.916419493      -23.2278421      0.394396582      66.4054378       
5045.75          0.398795071      66.1320243       0.914498876      -23.5023669      0.914498876      -23.5023669      0.398795071      66.1320243       
5105.1           0.403183126      65.8586257       0.912557549      -23.7768115      0.912557549      -23.7768115      0.403183126      65.8586257       
5164.45          0.407560625      65.5852449       0.91059558       -24.0511741      0.91059558       -24.0511741      0.407560625      65.5852449       
5223.8           0.411927449      65.3118844       0.908613034      -24.3254529      0.908613034      -24.3254529      0.411927449      65.3118844       
5283.15          0.416283476      65.0385469       0.906609983      -24.5996461      0.906609983      -24.5996461      0.416283476      65.0385469       
5342.5           0.420628586      64.765235        0.904586495      -24.8737518      0.904586495      -24.8737518      0.420628586      64.765235        
5401.85          0.424962659      64.4919511       0.902542641      -25.1477681      0.902542641      -25.1477681      0.424962659      64.4919511       
5461.2           0.429285575      64.218698        0.900478494      -25.4216931      0.900478494      -25.4216931      0.429285575      64.218698        
5520.55          0.433597215      63.9454782       0.898394127      -25.6955249      0.898394127      -25.6955249      0.433597215      63.9454782       
5579.9           0.437897459      63.672294        0.896289613      -25.9692614      0.896289613      -25.9692614      0.437897459      63.672294        
5639.25          0.442186188      63.3991482       0.89416503       -26.2429007      0.89416503       -26.2429007      0.442186188      63.3991482       
5698.6           0.446463282      63.1260432       0.892020453      -26.5164407      0.892020453      -26.5164407      0.446463282      63.1260432       
5757.95          0.450728624      62.8529815       0.889855959      -26.7898793      0.889855959      -26.7898793      0.450728624      62.8529815       
5817.3           0.454982094      62.5799656       0.887671628      -27.0632145      0.887671628      -27.0632145      0.454982094      62.5799656       
5876.65          0.459223576      62.306998        0.88546754       -27.3364441      0.88546754       -27.3364441      0.459223576      62.306998        
5936             0.46345295       62.0340811       0.883243774      -27.6095659      0.883243774      -27.6095659      0.46345295       62.0340811       
5995.35          0.467670099      61.7612175       0.881000414      -27.8825778      0.881000414      -27.8825778      0.467670099      61.7612175       
6054.7           0.471874908      61.4884096       0.878737543      -28.1554775      0.878737543      -28.1554775      0.471874908      61.4884096       
6114.05          0.476067257      61.2156599       0.876455245      -28.4282628      0.876455245      -28.4282628      0.476067257      61.2156599       
6173.4           0.480247032      60.942971        0.874153604      -28.7009314      0.874153604      -28.7009314      0.480247032      60.942971        
6232.75          0.484414116      60.6703452       0.871832709      -28.973481       0.871832709      -28.973481       0.484414116      60.6703452       
6292.1           0.488568394      60.397785        0.869492646      -29.2459093      0.869492646      -29.2459093      0.488568394      60.397785        
6351.45          0.49270975       60.125293        0.867133505      -29.5182138      0.867133505      -29.5182138      0.49270975       60.125293        
6410.8           0.49683807       59.8528716       0.864755374      -29.7903921      0.864755374      -29.7903921      0.49683807       59.8528716       
6470.15          0.500953239      59.5805234       0.862358346      -30.062442       0.862358346      -30.062442       0.500953239      59.5805234       
6529.5           0.505055143      59.3082508       0.859942512      -30.3343607      0.859942512      -30.3343607      0.505055143      59.3082508       
6588.85          0.50914367       59.0360564       0.857507966      -30.606146       0.857507966      -30.606146       0.50914367       59.0360564       
6648.2           0.513218705      58.7639426       0.855054801      -30.8777951      0.855054801      -30.8777951      0.513218705      58.7639426       
6707.55          0.517280137      58.491912        0.852583115      -31.1493057      0.852583115      -31.1493057      0.517280137      58.491912        
6766.9           0.521327854      58.2199671       0.850093002      -31.420675       0.850093002      -31.420675       0.521327854      58.2199671       
6826.25          0.525361743      57.9481105       0.847584561      -31.6919006      0.847584561      -31.6919006      0.525361743      57.9481105       
6885.6           0.529381696      57.6763447       0.84505789       -31.9629796      0.84505789       -31.9629796      0.529381696      57.6763447       
6944.95          0.5333876        57.4046722       0.842513091      -32.2339096      0.842513091      -32.2339096      0.5333876        57.4046722       
7004.3           0.537379346      57.1330957       0.839950262      -32.5046876      0.839950262      -32.5046876      0.537379346      57.1330957       
7063.65          0.541356826      56.8616177       0.837369508      -32.7753111      0.837369508      -32.7753111      0.541356826      56.8616177       
7123             0.545319931      56.5902407       0.834770931      -33.0457772      0.834770931      -33.0457772      0.545319931      56.5902407       
7182.35          0.549268552      56.3189674       0.832154635      -33.3160831      0.832154635      -33.3160831      0.549268552      56.3189674       
7241.7           0.553202582      56.0478004       0.829520727      -33.586226       0.829520727      -33.586226       0.553202582      56.0478004       
7301.05          0.557121916      55.7767424       0.826869312      -33.856203       0.826869312      -33.856203       0.557121916      55.7767424       
7360.4           0.561026446      55.5057958       0.824200498      -34.1260113      0.824200498      -34.1260113      0.561026446      55.5057958       
7419.75          0.564916068      55.2349634       0.821514394      -34.3956479      0.821514394      -34.3956479      0.564916068      55.2349634       
7479.1           0.568790677      54.9642479       0.81881111       -34.6651099      0.81881111       -34.6651099      0.568790677      54.9642479       
7538.45          0.572650169      54.6936518       0.816090756      -34.9343943      0.816090756      -34.9343943      0.572650169      54.6936518       
