! Coilcraft 0603HC-7N5 Chip Inductor				
! 03 June 2002			
# MHZ S MA R 50
!Freq             MagS11           AngS11           MagS21           AngS21           MagS12           AngS12           MagS22           AngS22
1                0.000877499503   32.427338        0.999259438      -0.0269800064    0.999259438      -0.0269800064    0.000877499503   32.427338        
19.2             0.00912223817    81.6060836       0.998709128      -0.517742242     0.998709128      -0.517742242     0.00912223817    81.6060836       
37.4             0.0176603006     84.0836615       0.998334199      -1.00820238      0.998334199      -1.00820238      0.0176603006     84.0836615       
55.6             0.0262049369     84.7544814       0.997945486      -1.49839332      0.997945486      -1.49839332      0.0262049369     84.7544814       
73.8             0.0347464211     84.9054503       0.997515103      -1.98829734      0.997515103      -1.98829734      0.0347464211     84.9054503       
92               0.0432815173     84.8300424       0.997032126      -2.4778838       0.997032126      -2.4778838       0.0432815173     84.8300424       
110.2            0.0518082051     84.6341068       0.99649101       -2.96711638      0.99649101       -2.96711638      0.0518082051     84.6341068       
128.4            0.0603248272     84.3657697       0.995888552      -3.45595565      0.995888552      -3.45595565      0.0603248272     84.3657697       
146.6            0.068829866      84.0502904       0.99522277       -3.94436039      0.99522277       -3.94436039      0.068829866      84.0502904       
164.8            0.0773218678     83.7023024       0.994492395      -4.43228824      0.994492395      -4.43228824      0.0773218678     83.7023024       
183              0.0857994143     83.3309212       0.993696612      -4.91969618      0.993696612      -4.91969618      0.0857994143     83.3309212       
201.2            0.0942611095     82.9421507       0.992834913      -5.40654076      0.992834913      -5.40654076      0.0942611095     82.9421507       
219.4            0.102705575      82.5401248       0.991907015      -5.89277834      0.991907015      -5.89277834      0.102705575      82.5401248       
237.6            0.111131449      82.1277954       0.990912802      -6.37836521      0.990912802      -6.37836521      0.111131449      82.1277954       
255.8            0.119537383      81.7073346       0.989852285      -6.86325773      0.989852285      -6.86325773      0.119537383      81.7073346       
274              0.127922045      81.2803833       0.988725583      -7.3474124       0.988725583      -7.3474124       0.127922045      81.2803833       
292.2            0.136284119      80.8482086       0.987532902      -7.83078595      0.987532902      -7.83078595      0.136284119      80.8482086       
310.4            0.144622304      80.4118086       0.98627452       -8.31333538      0.98627452       -8.31333538      0.144622304      80.4118086       
328.6            0.152935319      79.971983        0.984950783      -8.79501806      0.984950783      -8.79501806      0.152935319      79.971983        
346.8            0.161221901      79.5293827       0.983562088      -9.27579175      0.983562088      -9.27579175      0.161221901      79.5293827       
365              0.169480805      79.0845449       0.982108888      -9.75561463      0.982108888      -9.75561463      0.169480805      79.0845449       
383.2            0.177710808      78.6379186       0.980591676      -10.2344454      0.980591676      -10.2344454      0.177710808      78.6379186       
401.4            0.185910708      78.1898834       0.979010989      -10.7122432      0.979010989      -10.7122432      0.185910708      78.1898834       
419.6            0.194079325      77.7407639       0.977367403      -11.1889677      0.977367403      -11.1889677      0.194079325      77.7407639       
437.8            0.2022155        77.2908399       0.975661526      -11.6645794      0.975661526      -11.6645794      0.2022155        77.2908399       
456              0.210318102      76.8403553       0.973894001      -12.139039       0.973894001      -12.139039       0.210318102      76.8403553       
474.2            0.218386021      76.389524        0.972065499      -12.6123082      0.972065499      -12.6123082      0.218386021      76.389524        
492.4            0.226418171      75.9385353       0.970176721      -13.084349       0.970176721      -13.084349       0.226418171      75.9385353       
510.6            0.234413496      75.4875577       0.968228392      -13.5551245      0.968228392      -13.5551245      0.234413496      75.4875577       
528.8            0.242370963      75.0367425       0.966221263      -14.0245981      0.966221263      -14.0245981      0.242370963      75.0367425       
547              0.250289565      74.586226        0.964156108      -14.492734       0.964156108      -14.492734       0.250289565      74.586226        
565.2            0.258168324      74.1361317       0.962033721      -14.9594974      0.962033721      -14.9594974      0.258168324      74.1361317       
583.4            0.26600629       73.6865724       0.959854917      -15.424854       0.959854917      -15.424854       0.26600629       73.6865724       
601.6            0.273802538      73.237651        0.957620528      -15.8887701      0.957620528      -15.8887701      0.273802538      73.237651        
619.8            0.281556175      72.7894625       0.955331406      -16.3512133      0.955331406      -16.3512133      0.281556175      72.7894625       
638              0.289266335      72.3420943       0.952988415      -16.8121514      0.952988415      -16.8121514      0.289266335      72.3420943       
656.2            0.296932179      71.8956274       0.950592438      -17.2715534      0.950592438      -17.2715534      0.296932179      71.8956274       
674.4            0.304552899      71.450137        0.948144367      -17.729389       0.948144367      -17.729389       0.304552899      71.450137        
692.6            0.312127716      71.0056932       0.94564511       -18.1856285      0.94564511       -18.1856285      0.312127716      71.0056932       
710.8            0.31965588       70.5623614       0.943095584      -18.6402434      0.943095584      -18.6402434      0.31965588       70.5623614       
729              0.32713667       70.1202028       0.940496717      -19.0932057      0.940496717      -19.0932057      0.32713667       70.1202028       
747.2            0.334569394      69.6792748       0.937849447      -19.5444884      0.937849447      -19.5444884      0.334569394      69.6792748       
765.4            0.341953391      69.2396314       0.935154717      -19.9940652      0.935154717      -19.9940652      0.341953391      69.2396314       
783.6            0.349288027      68.801323        0.932413481      -20.4419109      0.932413481      -20.4419109      0.349288027      68.801323        
801.8            0.3565727        68.3643976       0.929626696      -20.8880009      0.929626696      -20.8880009      0.3565727        68.3643976       
820              0.363806834      67.9289001       0.926795326      -21.3323114      0.926795326      -21.3323114      0.363806834      67.9289001       
838.2            0.370989885      67.4948729       0.923920337      -21.7748197      0.923920337      -21.7748197      0.370989885      67.4948729       
856.4            0.378121336      67.0623561       0.9210027        -22.2155036      0.9210027        -22.2155036      0.378121336      67.0623561       
874.6            0.385200698      66.6313876       0.918043388      -22.6543421      0.918043388      -22.6543421      0.385200698      66.6313876       
892.8            0.392227512      66.2020032       0.915043376      -23.0913147      0.915043376      -23.0913147      0.392227512      66.2020032       
911              0.399201347      65.7742365       0.912003638      -23.526402       0.912003638      -23.526402       0.399201347      65.7742365       
929.2            0.406121798      65.3481197       0.90892515       -23.9595852      0.90892515       -23.9595852      0.406121798      65.3481197       
947.4            0.41298849       64.9236828       0.905808885      -24.3908465      0.905808885      -24.3908465      0.41298849       64.9236828       
965.6            0.419801073      64.5009543       0.902655816      -24.8201688      0.902655816      -24.8201688      0.419801073      64.5009543       
983.8            0.426559225      64.0799612       0.899466913      -25.2475359      0.899466913      -25.2475359      0.426559225      64.0799612       
1002             0.433262649      63.6607288       0.896243143      -25.6729323      0.896243143      -25.6729323      0.433262649      63.6607288       
1020.2           0.439911076      63.2432812       0.892985469      -26.0963434      0.892985469      -26.0963434      0.439911076      63.2432812       
1038.4           0.446504262      62.8276408       0.88969485       -26.5177553      0.88969485       -26.5177553      0.446504262      62.8276408       
1056.6           0.453041987      62.4138288       0.886372239      -26.9371549      0.886372239      -26.9371549      0.453041987      62.4138288       
1074.8           0.459524057      62.0018653       0.883018586      -27.3545298      0.883018586      -27.3545298      0.459524057      62.0018653       
1093             0.465950301      61.5917689       0.879634832      -27.7698686      0.879634832      -27.7698686      0.465950301      61.5917689       
1111.2           0.472320572      61.1835572       0.876221912      -28.1831603      0.876221912      -28.1831603      0.472320572      61.1835572       
1129.4           0.478634748      60.7772465       0.872780754      -28.5943949      0.872780754      -28.5943949      0.478634748      60.7772465       
1147.6           0.484892728      60.3728522       0.869312279      -29.0035631      0.869312279      -29.0035631      0.484892728      60.3728522       
1165.8           0.491094433      59.9703884       0.865817398      -29.4106562      0.865817398      -29.4106562      0.491094433      59.9703884       
1184             0.497239807      59.5698684       0.862297016      -29.8156662      0.862297016      -29.8156662      0.497239807      59.5698684       
1202.2           0.503328813      59.1713043       0.858752027      -30.2185859      0.858752027      -30.2185859      0.503328813      59.1713043       
1220.4           0.509361438      58.7747075       0.855183315      -30.6194087      0.855183315      -30.6194087      0.509361438      58.7747075       
1238.6           0.515337686      58.3800883       0.851591756      -31.0181287      0.851591756      -31.0181287      0.515337686      58.3800883       
1256.8           0.521257582      57.987456        0.847978214      -31.4147407      0.847978214      -31.4147407      0.521257582      57.987456        
1275             0.527121171      57.5968194       0.844343545      -31.80924        0.844343545      -31.80924        0.527121171      57.5968194       
1293.2           0.532928513      57.208186        0.840688591      -32.2016226      0.840688591      -32.2016226      0.532928513      57.208186        
1311.4           0.53867969       56.8215629       0.837014186      -32.5918852      0.837014186      -32.5918852      0.53867969       56.8215629       
1329.6           0.544374799      56.4369561       0.83332115       -32.980025       0.83332115       -32.980025       0.544374799      56.4369561       
1347.8           0.550013954      56.0543711       0.829610294      -33.3660397      0.829610294      -33.3660397      0.550013954      56.0543711       
1366             0.555597286      55.6738125       0.825882415      -33.7499278      0.825882415      -33.7499278      0.555597286      55.6738125       
1384.2           0.561124941      55.2952842       0.822138299      -34.1316881      0.822138299      -34.1316881      0.561124941      55.2952842       
1402.4           0.566597081      54.9187894       0.81837872       -34.5113203      0.81837872       -34.5113203      0.566597081      54.9187894       
1420.6           0.572013881      54.5443307       0.81460444       -34.8888242      0.81460444       -34.8888242      0.572013881      54.5443307       
1438.8           0.577375533      54.1719101       0.810816207      -35.2642004      0.810816207      -35.2642004      0.577375533      54.1719101       
1457             0.582682241      53.8015289       0.807014758      -35.6374499      0.807014758      -35.6374499      0.582682241      53.8015289       
1475.2           0.58793422       53.4331877       0.803200817      -36.0085743      0.803200817      -36.0085743      0.58793422       53.4331877       
1493.4           0.593131701      53.0668866       0.799375095      -36.3775755      0.799375095      -36.3775755      0.593131701      53.0668866       
1511.6           0.598274924      52.7026253       0.79553829       -36.7444559      0.79553829       -36.7444559      0.598274924      52.7026253       
1529.8           0.603364144      52.3404027       0.791691087      -37.1092186      0.791691087      -37.1092186      0.603364144      52.3404027       
1548             0.608399624      51.9802174       0.787834159      -37.4718668      0.787834159      -37.4718668      0.608399624      51.9802174       
1566.2           0.613381639      51.6220672       0.783968166      -37.8324043      0.783968166      -37.8324043      0.613381639      51.6220672       
1584.4           0.618310474      51.2659497       0.780093754      -38.1908352      0.780093754      -38.1908352      0.618310474      51.2659497       
1602.6           0.623186422      50.9118618       0.776211556      -38.5471641      0.776211556      -38.5471641      0.623186422      50.9118618       
1620.8           0.628009787      50.5598002       0.772322194      -38.9013959      0.772322194      -38.9013959      0.628009787      50.5598002       
1639             0.632780881      50.209761        0.768426275      -39.2535361      0.768426275      -39.2535361      0.632780881      50.209761        
1657.2           0.637500025      49.8617398       0.764524394      -39.6035901      0.764524394      -39.6035901      0.637500025      49.8617398       
1675.4           0.642167546      49.5157319       0.760617132      -39.951564       0.760617132      -39.951564       0.642167546      49.5157319       
1693.6           0.64678378       49.1717322       0.756705061      -40.2974642      0.756705061      -40.2974642      0.64678378       49.1717322       
1711.8           0.65134907       48.8297353       0.752788735      -40.6412973      0.752788735      -40.6412973      0.65134907       48.8297353       
1730             0.655863764      48.4897353       0.748868699      -40.9830703      0.748868699      -40.9830703      0.655863764      48.4897353       
1748.2           0.660328216      48.151726        0.744945485      -41.3227904      0.744945485      -41.3227904      0.660328216      48.151726        
1766.4           0.664742789      47.8157008       0.741019611      -41.6604652      0.741019611      -41.6604652      0.664742789      47.8157008       
1784.6           0.669107848      47.4816531       0.737091584      -41.9961025      0.737091584      -41.9961025      0.669107848      47.4816531       
1802.8           0.673423764      47.1495754       0.733161899      -42.3297103      0.733161899      -42.3297103      0.673423764      47.1495754       
1821             0.677690913      46.8194606       0.729231038      -42.661297       0.729231038      -42.661297       0.677690913      46.8194606       
1839.2           0.681909675      46.4913007       0.725299471      -42.9908711      0.725299471      -42.9908711      0.681909675      46.4913007       
1857.4           0.686080434      46.1650879       0.721367657      -43.3184414      0.721367657      -43.3184414      0.686080434      46.1650879       
1875.6           0.690203578      45.8408139       0.717436042      -43.644017       0.717436042      -43.644017       0.690203578      45.8408139       
1893.8           0.694279498      45.5184701       0.713505062      -43.9676069      0.713505062      -43.9676069      0.694279498      45.5184701       
1912             0.698308587      45.1980479       0.709575141      -44.2892206      0.709575141      -44.2892206      0.698308587      45.1980479       
1930.2           0.702291242      44.8795383       0.70564669       -44.6088678      0.70564669       -44.6088678      0.702291242      44.8795383       
1948.4           0.706227862      44.5629321       0.701720111      -44.926558       0.701720111      -44.926558       0.706227862      44.5629321       
1966.6           0.710118848      44.2482201       0.697795794      -45.2423014      0.697795794      -45.2423014      0.710118848      44.2482201       
1984.8           0.713964604      43.9353926       0.693874119      -45.556108       0.693874119      -45.556108       0.713964604      43.9353926       
2003             0.717765533      43.6244399       0.689955455      -45.867988       0.689955455      -45.867988       0.717765533      43.6244399       
2021.2           0.721522042      43.3153522       0.686040159      -46.1779518      0.686040159      -46.1779518      0.721522042      43.3153522       
2039.4           0.725234539      43.0081193       0.682128579      -46.4860099      0.682128579      -46.4860099      0.725234539      43.0081193       
2057.6           0.728903429      42.7027311       0.678221054      -46.792173       0.678221054      -46.792173       0.728903429      42.7027311       
2075.8           0.732529123      42.3991772       0.67431791       -47.0964517      0.67431791       -47.0964517      0.732529123      42.3991772       
2094             0.736112029      42.0974471       0.670419465      -47.398857       0.670419465      -47.398857       0.736112029      42.0974471       
2112.2           0.739652556      41.7975303       0.666526028      -47.6993998      0.666526028      -47.6993998      0.739652556      41.7975303       
2130.4           0.743151113      41.4994159       0.662637897      -47.9980912      0.662637897      -47.9980912      0.743151113      41.4994159       
2148.6           0.74660811       41.2030932       0.658755361      -48.2949423      0.658755361      -48.2949423      0.74660811       41.2030932       
2166.8           0.750023954      40.9085513       0.6548787        -48.5899643      0.6548787        -48.5899643      0.750023954      40.9085513       
2185             0.753399054      40.615779        0.651008185      -48.8831685      0.651008185      -48.8831685      0.753399054      40.615779        
2203.2           0.756733817      40.3247653       0.647144079      -49.1745663      0.647144079      -49.1745663      0.756733817      40.3247653       
2221.4           0.76002865       40.035499        0.643286635      -49.464169       0.643286635      -49.464169       0.76002865       40.035499        
2239.6           0.763283957      39.7479689       0.639436098      -49.7519881      0.639436098      -49.7519881      0.763283957      39.7479689       
2257.8           0.766500144      39.4621635       0.635592705      -50.0380351      0.635592705      -50.0380351      0.766500144      39.4621635       
2276             0.769677613      39.1780715       0.631756684      -50.3223216      0.631756684      -50.3223216      0.769677613      39.1780715       
2294.2           0.772816764      38.8956815       0.627928256      -50.6048592      0.627928256      -50.6048592      0.772816764      38.8956815       
2312.4           0.775917999      38.614982        0.624107634      -50.8856594      0.624107634      -50.8856594      0.775917999      38.614982        
