! Coilcraft 0603HC-18N Chip Inductor				
! 03 June 2002			
# MHZ S MA R 50
!Freq             MagS11           AngS11           MagS21           AngS21           MagS12           AngS12           MagS22           AngS22
1                0.00173746774    40.4823333       0.998679108      -0.0647144235    0.998679108      -0.0647144235    0.00173746774    40.4823333       
13.22            0.0150773904     80.7854425       0.997696639      -0.854723476     0.997696639      -0.854723476     0.0150773904     80.7854425       
25.44            0.0288075541     83.0651856       0.996932006      -1.64374387      0.996932006      -1.64374387      0.0288075541     83.0651856       
37.66            0.0425363237     83.5024673       0.996083572      -2.43174824      0.996083572      -2.43174824      0.0425363237     83.5024673       
49.88            0.0562431698     83.3981912       0.995103466      -3.21857237      0.995103466      -3.21857237      0.0562431698     83.3981912       
62.1             0.0699184262     83.0562808       0.993973392      -4.00401729      0.993973392      -4.00401729      0.0699184262     83.0562808       
74.32            0.083554509      82.5876984       0.992684678      -4.78786978      0.992684678      -4.78786978      0.083554509      82.5876984       
86.54            0.0971445006     82.0433432       0.991232972      -5.56991021      0.991232972      -5.56991021      0.0971445006     82.0433432       
98.76            0.110681793      81.4501442       0.989616262      -6.34991654      0.989616262      -6.34991654      0.110681793      81.4501442       
110.98           0.12415998       80.8238333       0.987833983      -7.12766661      0.987833983      -7.12766661      0.12415998       80.8238333       
123.2            0.137572824      80.1743027       0.985886546      -7.90293971      0.985886546      -7.90293971      0.137572824      80.1743027       
135.42           0.150914252      79.5081397       0.983775074      -8.6755177       0.983775074      -8.6755177       0.150914252      79.5081397       
147.64           0.164178356      78.8299386       0.981501246      -9.44518591      0.981501246      -9.44518591      0.164178356      78.8299386       
159.86           0.177359408      78.1430286       0.979067179      -10.2117338      0.979067179      -10.2117338      0.177359408      78.1430286       
172.08           0.190451864      77.4499022       0.976475361      -10.9749555      0.976475361      -10.9749555      0.190451864      77.4499022       
184.3            0.203450377      76.7524778       0.973728593      -11.7346505      0.973728593      -11.7346505      0.203450377      76.7524778       
196.52           0.216349804      76.052268        0.970829942      -12.4906239      0.970829942      -12.4906239      0.216349804      76.052268        
208.74           0.229145215      75.3504912       0.967782713      -13.2426866      0.967782713      -13.2426866      0.229145215      75.3504912       
220.96           0.241831901      74.6481466       0.964590416      -13.9906563      0.964590416      -13.9906563      0.241831901      74.6481466       
233.18           0.25440538       73.9460675       0.961256738      -14.7343569      0.961256738      -14.7343569      0.25440538       73.9460675       
245.4            0.266861401      73.2449581       0.957785526      -15.4736192      0.957785526      -15.4736192      0.266861401      73.2449581       
257.62           0.279195949      72.5454213       0.954180762      -16.2082813      0.954180762      -16.2082813      0.279195949      72.5454213       
269.84           0.291405248      71.8479786       0.950446545      -16.9381883      0.950446545      -16.9381883      0.291405248      71.8479786       
282.06           0.303485766      71.153085        0.946587073      -17.6631927      0.946587073      -17.6631927      0.303485766      71.153085        
294.28           0.315434208      70.4611409       0.94260663       -18.3831543      0.94260663       -18.3831543      0.315434208      70.4611409       
306.5            0.327247525      69.7725007       0.938509563      -19.0979405      0.938509563      -19.0979405      0.327247525      69.7725007       
318.72           0.338922907      69.0874795       0.934300275      -19.8074263      0.934300275      -19.8074263      0.338922907      69.0874795       
330.94           0.350457786      68.4063593       0.929983205      -20.5114941      0.929983205      -20.5114941      0.350457786      68.4063593       
343.16           0.361849829      67.7293924       0.925562818      -21.210034       0.925562818      -21.210034       0.361849829      67.7293924       
355.38           0.373096937      67.0568059       0.92104359       -21.9029434      0.92104359       -21.9029434      0.373096937      67.0568059       
367.6            0.384197242      66.3888039       0.916430001      -22.5901272      0.916430001      -22.5901272      0.384197242      66.3888039       
379.82           0.3951491        65.7255704       0.911726515      -23.2714977      0.911726515      -23.2714977      0.3951491        65.7255704       
392.04           0.405951089      65.0672708       0.906937581      -23.9469744      0.906937581      -23.9469744      0.405951089      65.0672708       
404.26           0.416601999      64.414054        0.902067611      -24.6164841      0.902067611      -24.6164841      0.416601999      64.414054        
416.48           0.427100829      63.7660536       0.897120982      -25.2799604      0.897120982      -25.2799604      0.427100829      63.7660536       
428.7            0.437446782      63.1233895       0.892102019      -25.9373439      0.892102019      -25.9373439      0.437446782      63.1233895       
440.92           0.447639254      62.4861683       0.887014992      -26.5885818      0.887014992      -26.5885818      0.447639254      62.4861683       
453.14           0.457677828      61.854485        0.881864108      -27.233628       0.881864108      -27.233628       0.457677828      61.854485        
465.36           0.467562269      61.2284234       0.876653504      -27.8724426      0.876653504      -27.8724426      0.467562269      61.2284234       
477.58           0.477292514      60.6080568       0.871387239      -28.504992       0.871387239      -28.504992       0.477292514      60.6080568       
489.8            0.486868666      59.9934492       0.866069293      -29.1312485      0.866069293      -29.1312485      0.486868666      59.9934492       
502.02           0.496290984      59.3846553       0.86070356       -29.7511901      0.86070356       -29.7511901      0.496290984      59.3846553       
514.24           0.505559877      58.7817213       0.855293843      -30.3648007      0.855293843      -30.3648007      0.505559877      58.7817213       
526.46           0.514675895      58.1846857       0.849843852      -30.9720691      0.849843852      -30.9720691      0.514675895      58.1846857       
538.68           0.523639724      57.5935792       0.844357201      -31.5729896      0.844357201      -31.5729896      0.523639724      57.5935792       
550.9            0.532452172      57.0084259       0.838837402      -32.1675613      0.838837402      -32.1675613      0.532452172      57.0084259       
563.12           0.541114168      56.4292431       0.83328787       -32.755788       0.83328787       -32.755788       0.541114168      56.4292431       
575.34           0.549626752      55.8560417       0.827711913      -33.3376781      0.827711913      -33.3376781      0.549626752      55.8560417       
587.56           0.557991065      55.2888273       0.822112738      -33.9132442      0.822112738      -33.9132442      0.557991065      55.2888273       
599.78           0.566208345      54.7275997       0.816493443      -34.482503       0.816493443      -34.482503       0.566208345      54.7275997       
612              0.574279919      54.1723536       0.810857026      -35.045475       0.810857026      -35.045475       0.574279919      54.1723536       
624.22           0.582207196      53.6230791       0.805206374      -35.6021846      0.805206374      -35.6021846      0.582207196      53.6230791       
636.44           0.589991658      53.0797616       0.799544271      -36.1526594      0.799544271      -36.1526594      0.589991658      53.0797616       
648.66           0.59763486       52.5423825       0.793873397      -36.6969303      0.793873397      -36.6969303      0.59763486       52.5423825       
660.88           0.605138414      52.0109191       0.788196326      -37.2350313      0.788196326      -37.2350313      0.605138414      52.0109191       
673.1            0.612503994      51.4853452       0.78251553       -37.7669993      0.78251553       -37.7669993      0.612503994      51.4853452       
685.32           0.619733319      50.9656312       0.776833377      -38.292874       0.776833377      -38.292874       0.619733319      50.9656312       
697.54           0.626828157      50.4517441       0.771152136      -38.8126972      0.771152136      -38.8126972      0.626828157      50.4517441       
709.76           0.633790315      49.9436484       0.765473979      -39.3265134      0.765473979      -39.3265134      0.633790315      49.9436484       
721.98           0.640621633      49.4413053       0.759800976      -39.8343691      0.759800976      -39.8343691      0.640621633      49.4413053       
734.2            0.647323983      48.9446741       0.754135106      -40.3363129      0.754135106      -40.3363129      0.647323983      48.9446741       
746.42           0.653899262      48.4537114       0.748478252      -40.8323951      0.748478252      -40.8323951      0.653899262      48.4537114       
758.64           0.660349387      47.9683717       0.742832207      -41.3226676      0.742832207      -41.3226676      0.660349387      47.9683717       
770.86           0.666676293      47.4886078       0.737198675      -41.8071842      0.737198675      -41.8071842      0.666676293      47.4886078       
783.08           0.672881927      47.0143705       0.731579272      -42.2859997      0.731579272      -42.2859997      0.672881927      47.0143705       
795.3            0.678968248      46.545609        0.725975532      -42.7591703      0.725975532      -42.7591703      0.678968248      46.545609        
807.52           0.684937219      46.0822711       0.720388905      -43.2267533      0.720388905      -43.2267533      0.684937219      46.0822711       
819.74           0.690790806      45.6243033       0.714820761      -43.6888072      0.714820761      -43.6888072      0.690790806      45.6243033       
831.96           0.696530977      45.171651        0.709272396      -44.1453911      0.709272396      -44.1453911      0.696530977      45.171651        
844.18           0.702159695      44.7242584       0.703745027      -44.596565       0.703745027      -44.596565       0.702159695      44.7242584       
856.4            0.70767892       44.2820688       0.698239801      -45.0423896      0.698239801      -45.0423896      0.70767892       44.2820688       
868.62           0.713090602      43.8450248       0.692757796      -45.4829261      0.692757796      -45.4829261      0.713090602      43.8450248       
880.84           0.718396683      43.4130682       0.687300021      -45.9182362      0.687300021      -45.9182362      0.718396683      43.4130682       
893.06           0.723599093      42.9861404       0.681867421      -46.3483819      0.681867421      -46.3483819      0.723599093      42.9861404       
905.28           0.728699747      42.5641821       0.676460879      -46.7734258      0.676460879      -46.7734258      0.728699747      42.5641821       
917.5            0.733700546      42.1471336       0.671081215      -47.1934302      0.671081215      -47.1934302      0.733700546      42.1471336       
929.72           0.738603374      41.734935        0.665729194      -47.6084581      0.665729194      -47.6084581      0.738603374      41.734935        
941.94           0.743410095      41.3275262       0.660405525      -48.0185721      0.660405525      -48.0185721      0.743410095      41.3275262       
954.16           0.748122556      40.9248469       0.655110863      -48.423835       0.655110863      -48.423835       0.748122556      40.9248469       
966.38           0.75274258       40.5268366       0.649845811      -48.8243096      0.649845811      -48.8243096      0.75274258       40.5268366       
978.6            0.757271972      40.1334349       0.644610926      -49.2200586      0.644610926      -49.2200586      0.757271972      40.1334349       
990.82           0.761712511      39.7445816       0.639406714      -49.6111442      0.639406714      -49.6111442      0.761712511      39.7445816       
1003.04          0.766065953      39.3602162       0.63423364       -49.9976288      0.63423364       -49.9976288      0.766065953      39.3602162       
1015.26          0.770334032      38.9802787       0.629092123      -50.3795741      0.629092123      -50.3795741      0.770334032      38.9802787       
1027.48          0.774518455      38.6047092       0.623982543      -50.757042       0.623982543      -50.757042       0.774518455      38.6047092       
1039.7           0.778620904      38.2334481       0.618905242      -51.1300935      0.618905242      -51.1300935      0.778620904      38.2334481       
1051.92          0.782643036      37.866436        0.613860521      -51.4987895      0.613860521      -51.4987895      0.782643036      37.866436        
1064.14          0.786586479      37.503614        0.608848649      -51.8631904      0.608848649      -51.8631904      0.786586479      37.503614        
1076.36          0.790452839      37.1449234       0.60386986       -52.2233562      0.60386986       -52.2233562      0.790452839      37.1449234       
1088.58          0.794243691      36.7903059       0.598924356      -52.5793463      0.598924356      -52.5793463      0.794243691      36.7903059       
1100.8           0.797960586      36.4397038       0.594012309      -52.9312197      0.594012309      -52.9312197      0.797960586      36.4397038       
1113.02          0.801605046      36.0930599       0.58913386       -53.2790346      0.58913386       -53.2790346      0.801605046      36.0930599       
1125.24          0.805178567      35.7503172       0.584289125      -53.6228489      0.584289125      -53.6228489      0.805178567      35.7503172       
1137.46          0.808682618      35.4114195       0.579478194      -53.9627198      0.579478194      -53.9627198      0.808682618      35.4114195       
1149.68          0.81211864       35.0763111       0.57470113       -54.2987038      0.57470113       -54.2987038      0.81211864       35.0763111       
1161.9           0.815488048      34.7449367       0.569957974      -54.6308571      0.569957974      -54.6308571      0.815488048      34.7449367       
1174.12          0.818792229      34.4172417       0.565248745      -54.9592348      0.565248745      -54.9592348      0.818792229      34.4172417       
1186.34          0.822032544      34.093172        0.560573441      -55.2838917      0.560573441      -55.2838917      0.822032544      34.093172        
1198.56          0.825210327      33.7726743       0.555932042      -55.6048817      0.555932042      -55.6048817      0.825210327      33.7726743       
1210.78          0.828326886      33.4556957       0.551324505      -55.9222583      0.551324505      -55.9222583      0.828326886      33.4556957       
1223             0.831383503      33.142184        0.546750774      -56.236074       0.546750774      -56.236074       0.831383503      33.142184        
1235.22          0.834381434      32.8320878       0.542210775      -56.5463809      0.542210775      -56.5463809      0.834381434      32.8320878       
1247.44          0.837321908      32.5253559       0.537704418      -56.8532302      0.537704418      -56.8532302      0.837321908      32.5253559       
1259.66          0.840206131      32.2219383       0.533231599      -57.1566725      0.533231599      -57.1566725      0.840206131      32.2219383       
1271.88          0.843035283      31.9217852       0.5287922        -57.4567576      0.5287922        -57.4567576      0.843035283      31.9217852       
1284.1           0.845810518      31.6248477       0.524386091      -57.7535347      0.524386091      -57.7535347      0.845810518      31.6248477       
1296.32          0.848532968      31.3310776       0.520013128      -58.0470523      0.520013128      -58.0470523      0.848532968      31.3310776       
1308.54          0.851203739      31.0404271       0.51567316       -58.3373581      0.51567316       -58.3373581      0.851203739      31.0404271       
1320.76          0.853823915      30.7528494       0.51136602       -58.6244991      0.51136602       -58.6244991      0.853823915      30.7528494       
1332.98          0.856394555      30.468298        0.507091537      -58.9085217      0.507091537      -58.9085217      0.856394555      30.468298        
1345.2           0.858916696      30.1867275       0.502849527      -59.1894715      0.502849527      -59.1894715      0.858916696      30.1867275       
1357.42          0.861391353      29.9080926       0.498639798      -59.4673934      0.498639798      -59.4673934      0.861391353      29.9080926       
1369.64          0.863819519      29.6323493       0.494462154      -59.7423317      0.494462154      -59.7423317      0.863819519      29.6323493       
1381.86          0.866202163      29.3594537       0.490316386      -60.0143298      0.490316386      -60.0143298      0.866202163      29.3594537       
1394.08          0.868540235      29.0893628       0.486202284      -60.2834306      0.486202284      -60.2834306      0.868540235      29.0893628       
1406.3           0.870834663      28.8220343       0.482119628      -60.5496762      0.482119628      -60.5496762      0.870834663      28.8220343       
1418.52          0.873086356      28.5574265       0.478068194      -60.8131081      0.478068194      -60.8131081      0.873086356      28.5574265       
1430.74          0.875296199      28.2954983       0.474047753      -61.073767       0.474047753      -61.073767       0.875296199      28.2954983       
1442.96          0.877465062      28.0362093       0.470058071      -61.3316931      0.470058071      -61.3316931      0.877465062      28.0362093       
1455.18          0.879593792      27.7795195       0.466098911      -61.5869257      0.466098911      -61.5869257      0.879593792      27.7795195       
1467.4           0.881683218      27.52539         0.46217003       -61.8395037      0.46217003       -61.8395037      0.881683218      27.52539         
1479.62          0.883734152      27.273782        0.458271183      -62.0894652      0.458271183      -62.0894652      0.883734152      27.273782        
1491.84          0.885747385      27.0246576       0.454402123      -62.3368475      0.454402123      -62.3368475      0.885747385      27.0246576       
1504.06          0.887723693      26.7779795       0.450562598      -62.5816876      0.450562598      -62.5816876      0.887723693      26.7779795       
1516.28          0.889663831      26.533711        0.446752355      -62.8240216      0.446752355      -62.8240216      0.889663831      26.533711        
1528.5           0.891568541      26.2918158       0.442971139      -63.063885       0.442971139      -63.063885       0.891568541      26.2918158       
1540.72          0.893438545      26.0522585       0.439218693      -63.3013127      0.439218693      -63.3013127      0.893438545      26.0522585       
1552.94          0.89527455       25.815004        0.435494759      -63.5363392      0.435494759      -63.5363392      0.89527455       25.815004        
