! Coilcraft 0603HC-6N8 Chip Inductor				
! 03 June 2002			
# MHZ S MA R 50
!Freq             MagS11           AngS11           MagS21           AngS21           MagS12           AngS12           MagS22           AngS22
1                0.000801695697   32.155441        0.99932137       -0.0244633882    0.99932137       -0.0244633882    0.000801695697   32.155441        
24.44            0.0105006427     82.6997401       0.998720005      -0.597541183     0.998720005      -0.597541183     0.0105006427     82.6997401       
47.88            0.0204777212     84.6310125       0.998292121      -1.17021931      0.998292121      -1.17021931      0.0204777212     84.6310125       
71.32            0.03045595       85.0382365       0.997827259      -1.74251231      0.997827259      -1.74251231      0.03045595       85.0382365       
94.76            0.0404265401     85.0083853       0.997295986      -2.31437124      0.997295986      -2.31437124      0.0404265401     85.0083853       
118.2            0.0503857413     84.7881739       0.996686927      -2.88573144      0.996686927      -2.88573144      0.0503857413     84.7881739       
141.64           0.0603307244     84.4665993       0.995994425      -3.45652142      0.995994425      -3.45652142      0.0603307244     84.4665993       
165.08           0.0702589326     84.0841836       0.995215326      -4.02666619      0.995215326      -4.02666619      0.0702589326     84.0841836       
188.52           0.0801679169     83.6622401       0.99434779       -4.59608881      0.99434779       -4.59608881      0.0801679169     83.6622401       
211.96           0.0900552845     83.2131492       0.993390755      -5.16471137      0.993390755      -5.16471137      0.0900552845     83.2131492       
235.4            0.0999186803     82.7446482       0.992343669      -5.73245545      0.992343669      -5.73245545      0.0999186803     82.7446482       
258.84           0.109755781      82.261853        0.991206331      -6.29924261      0.991206331      -6.29924261      0.109755781      82.261853        
282.28           0.119564295      81.7683027       0.989978804      -6.86499459      0.989978804      -6.86499459      0.119564295      81.7683027       
305.72           0.129341963      81.2665383       0.988661352      -7.42963357      0.988661352      -7.42963357      0.129341963      81.2665383       
329.16           0.139086557      80.7584417       0.987254406      -7.99308235      0.987254406      -7.99308235      0.139086557      80.7584417       
352.6            0.148795889      80.2454449       0.98575853       -8.55526446      0.98575853       -8.55526446      0.148795889      80.2454449       
376.04           0.158467807      79.7286631       0.984174405      -9.11610435      0.984174405      -9.11610435      0.158467807      79.7286631       
399.48           0.168100201      79.2089826       0.982502814      -9.67552742      0.982502814      -9.67552742      0.168100201      79.2089826       
422.92           0.177691004      78.6871212       0.980744629      -10.2334602      0.980744629      -10.2334602      0.177691004      78.6871212       
446.36           0.187238193      78.1636693       0.978900802      -10.7898304      0.978900802      -10.7898304      0.187238193      78.1636693       
469.8            0.196739795      77.6391201       0.976972358      -11.3445669      0.976972358      -11.3445669      0.196739795      77.6391201       
493.24           0.206193883      77.113891        0.974960389      -11.8976         0.974960389      -11.8976         0.206193883      77.113891        
516.68           0.215598585      76.5883393       0.972866047      -12.4488613      0.972866047      -12.4488613      0.215598585      76.5883393       
540.12           0.224952078      76.0627746       0.970690538      -12.998284       0.970690538      -12.998284       0.224952078      76.0627746       
563.56           0.234252594      75.5374674       0.968435121      -13.5458028      0.968435121      -13.5458028      0.234252594      75.5374674       
587              0.243498422      75.0126566       0.966101101      -14.0913537      0.966101101      -14.0913537      0.243498422      75.0126566       
610.44           0.252687905      74.4885544       0.963689829      -14.6348746      0.963689829      -14.6348746      0.252687905      74.4885544       
633.88           0.261819444      73.9653511       0.961202691      -15.1763048      0.961202691      -15.1763048      0.261819444      73.9653511       
657.32           0.270891501      73.443218        0.958641112      -15.7155855      0.958641112      -15.7155855      0.270891501      73.443218        
680.76           0.279902594      72.9223107       0.95600655       -16.2526595      0.95600655       -16.2526595      0.279902594      72.9223107       
704.2            0.288851302      72.4027707       0.953300493      -16.7874713      0.953300493      -16.7874713      0.288851302      72.4027707       
727.64           0.297736265      71.8847278       0.950524456      -17.3199671      0.950524456      -17.3199671      0.297736265      71.8847278       
751.08           0.306556181      71.368301        0.947679977      -17.8500951      0.947679977      -17.8500951      0.306556181      71.368301        
774.52           0.315309813      70.8536004       0.944768616      -18.3778051      0.944768616      -18.3778051      0.315309813      70.8536004       
797.96           0.323995981      70.3407274       0.941791954      -18.9030488      0.941791954      -18.9030488      0.323995981      70.3407274       
821.4            0.332613569      69.8297763       0.938751584      -19.4257798      0.938751584      -19.4257798      0.332613569      69.8297763       
844.84           0.341161518      69.3208346       0.935649115      -19.9459532      0.935649115      -19.9459532      0.341161518      69.3208346       
868.28           0.349638834      68.8139838       0.932486168      -20.4635262      0.932486168      -20.4635262      0.349638834      68.8139838       
891.72           0.358044581      68.3092996       0.929264371      -20.9784579      0.929264371      -20.9784579      0.358044581      68.3092996       
915.16           0.366377882      67.8068529       0.925985359      -21.4907091      0.925985359      -21.4907091      0.366377882      67.8068529       
938.6            0.37463792       67.3067098       0.922650773      -22.0002423      0.922650773      -22.0002423      0.37463792       67.3067098       
962.04           0.382823939      66.8089318       0.919262253      -22.5070219      0.919262253      -22.5070219      0.382823939      66.8089318       
985.48           0.390935237      66.3135767       0.915821442      -23.0110143      0.915821442      -23.0110143      0.390935237      66.3135767       
1008.92          0.398971172      65.820698        0.912329981      -23.5121874      0.912329981      -23.5121874      0.398971172      65.820698        
1032.36          0.406931158      65.3303461       0.908789506      -24.0105112      0.908789506      -24.0105112      0.406931158      65.3303461       
1055.8           0.414814663      64.8425677       0.905201648      -24.505957       0.905201648      -24.505957       0.414814663      64.8425677       
1079.24          0.42262121       64.3574064       0.901568032      -24.9984982      0.901568032      -24.9984982      0.42262121       64.3574064       
1102.68          0.430350378      63.8749027       0.897890272      -25.48811        0.897890272      -25.48811        0.430350378      63.8749027       
1126.12          0.438001794      63.3950943       0.894169973      -25.9747688      0.894169973      -25.9747688      0.438001794      63.3950943       
1149.56          0.445575139      62.9180161       0.890408729      -26.4584532      0.890408729      -26.4584532      0.445575139      62.9180161       
1173             0.453070144      62.4437004       0.886608118      -26.9391433      0.886608118      -26.9391433      0.453070144      62.4437004       
1196.44          0.460486587      61.9721769       0.882769706      -27.4168205      0.882769706      -27.4168205      0.460486587      61.9721769       
1219.88          0.467824295      61.5034731       0.878895041      -27.8914682      0.878895041      -27.8914682      0.467824295      61.5034731       
1243.32          0.475083141      61.037614        0.874985657      -28.3630712      0.874985657      -28.3630712      0.475083141      61.037614        
1266.76          0.482263042      60.5746224       0.871043065      -28.8316158      0.871043065      -28.8316158      0.482263042      60.5746224       
1290.2           0.48936396       60.1145193       0.867068763      -29.2970898      0.867068763      -29.2970898      0.48936396       60.1145193       
1313.64          0.496385898      59.6573233       0.863064223      -29.7594825      0.863064223      -29.7594825      0.496385898      59.6573233       
1337.08          0.503328899      59.2030512       0.859030899      -30.2187845      0.859030899      -30.2187845      0.503328899      59.2030512       
1360.52          0.510193049      58.7517179       0.854970223      -30.6749881      0.854970223      -30.6749881      0.510193049      58.7517179       
1383.96          0.516978468      58.3033366       0.850883604      -31.1280867      0.850883604      -31.1280867      0.516978468      58.3033366       
1407.4           0.523685315      57.8579186       0.846772428      -31.578075       0.846772428      -31.578075       0.523685315      57.8579186       
1430.84          0.530313784      57.4154737       0.842638057      -32.0249492      0.842638057      -32.0249492      0.530313784      57.4154737       
1454.28          0.536864102      56.9760099       0.838481828      -32.4687065      0.838481828      -32.4687065      0.536864102      56.9760099       
1477.72          0.543336529      56.539534        0.834305055      -32.9093455      0.834305055      -32.9093455      0.543336529      56.539534        
1501.16          0.549731356      56.1060509       0.830109024      -33.346866       0.830109024      -33.346866       0.549731356      56.1060509       
1524.6           0.556048905      55.6755643       0.825894997      -33.7812688      0.825894997      -33.7812688      0.556048905      55.6755643       
1548.04          0.562289526      55.2480767       0.821664211      -34.2125558      0.821664211      -34.2125558      0.562289526      55.2480767       
1571.48          0.568453594      54.8235889       0.817417874      -34.6407302      0.817417874      -34.6407302      0.568453594      54.8235889       
1594.92          0.574541513      54.4021008       0.813157171      -35.065796       0.813157171      -35.065796       0.574541513      54.4021008       
1618.36          0.580553709      53.9836109       0.808883257      -35.4877582      0.808883257      -35.4877582      0.580553709      53.9836109       
1641.8           0.586490633      53.5681165       0.804597262      -35.906623       0.804597262      -35.906623       0.586490633      53.5681165       
1665.24          0.592352758      53.155614        0.80030029       -36.3223973      0.80030029       -36.3223973      0.592352758      53.155614        
1688.68          0.598140577      52.7460985       0.795993416      -36.7350889      0.795993416      -36.7350889      0.598140577      52.7460985       
1712.12          0.603854602      52.3395642       0.791677691      -37.1447065      0.791677691      -37.1447065      0.603854602      52.3395642       
1735.56          0.609495365      51.9360045       0.787354137      -37.5512597      0.787354137      -37.5512597      0.609495365      51.9360045       
1759             0.615063415      51.5354115       0.783023749      -37.9547589      0.783023749      -37.9547589      0.615063415      51.5354115       
1782.44          0.620559316      51.1377766       0.778687499      -38.355215       0.778687499      -38.355215       0.620559316      51.1377766       
1805.88          0.625983649      50.7430905       0.774346328      -38.7526399      0.774346328      -38.7526399      0.625983649      50.7430905       
1829.32          0.631337009      50.3513428       0.770001155      -39.1470461      0.770001155      -39.1470461      0.631337009      50.3513428       
1852.76          0.636620001      49.9625225       0.765652869      -39.5384468      0.765652869      -39.5384468      0.636620001      49.9625225       
1876.2           0.641833247      49.576618        0.761302337      -39.9268556      0.761302337      -39.9268556      0.641833247      49.576618        
1899.64          0.646977375      49.1936166       0.756950399      -40.3122871      0.756950399      -40.3122871      0.646977375      49.1936166       
1923.08          0.652053028      48.8135054       0.752597868      -40.694756       0.752597868      -40.694756       0.652053028      48.8135054       
1946.52          0.657060854      48.4362706       0.748245535      -41.074278       0.748245535      -41.074278       0.657060854      48.4362706       
1969.96          0.662001513      48.0618979       0.743894165      -41.450869       0.743894165      -41.450869       0.662001513      48.0618979       
1993.4           0.666875669      47.6903723       0.739544499      -41.8245454      0.739544499      -41.8245454      0.666875669      47.6903723       
2016.84          0.671683997      47.3216784       0.735197253      -42.1953242      0.735197253      -42.1953242      0.671683997      47.3216784       
2040.28          0.676427175      46.9558004       0.730853122      -42.5632227      0.730853122      -42.5632227      0.676427175      46.9558004       
2063.72          0.681105887      46.5927218       0.726512775      -42.9282588      0.726512775      -42.9282588      0.681105887      46.5927218       
2087.16          0.685720821      46.2324257       0.722176861      -43.2904505      0.722176861      -43.2904505      0.685720821      46.2324257       
2110.6           0.69027267       45.874895        0.717846003      -43.6498163      0.717846003      -43.6498163      0.69027267       45.874895        
2134.04          0.694762129      45.5201121       0.713520806      -44.006375       0.713520806      -44.006375       0.694762129      45.5201121       
2157.48          0.699189897      45.1680588       0.709201851      -44.3601458      0.709201851      -44.3601458      0.699189897      45.1680588       
2180.92          0.703556674      44.8187169       0.704889698      -44.711148       0.704889698      -44.711148       0.703556674      44.8187169       
2204.36          0.707863162      44.4720677       0.700584888      -45.0594014      0.700584888      -45.0594014      0.707863162      44.4720677       
2227.8           0.712110061      44.1280923       0.696287939      -45.4049259      0.696287939      -45.4049259      0.712110061      44.1280923       
2251.24          0.716298076      43.7867714       0.691999351      -45.7477415      0.691999351      -45.7477415      0.716298076      43.7867714       
2274.68          0.720427909      43.4480857       0.687719604      -46.0878686      0.687719604      -46.0878686      0.720427909      43.4480857       
2298.12          0.72450026       43.1120153       0.68344916       -46.4253279      0.68344916       -46.4253279      0.72450026       43.1120153       
2321.56          0.728515831      42.7785405       0.679188461      -46.7601398      0.679188461      -46.7601398      0.728515831      42.7785405       
2345             0.732475321      42.4476411       0.674937931      -47.0923253      0.674937931      -47.0923253      0.732475321      42.4476411       
2368.44          0.736379426      42.119297        0.670697978      -47.4219054      0.670697978      -47.4219054      0.736379426      42.119297        
2391.88          0.740228842      41.7934876       0.66646899       -47.7489012      0.66646899       -47.7489012      0.740228842      41.7934876       
2415.32          0.744024259      41.4701925       0.66225134       -48.0733337      0.66225134       -48.0733337      0.744024259      41.4701925       
2438.76          0.747766367      41.149391        0.658045384      -48.3952244      0.658045384      -48.3952244      0.747766367      41.149391        
2462.2           0.751455852      40.8310624       0.653851463      -48.7145945      0.653851463      -48.7145945      0.751455852      40.8310624       
2485.64          0.755093394      40.5151858       0.649669901      -49.0314654      0.649669901      -49.0314654      0.755093394      40.5151858       
2509.08          0.758679672      40.2017403       0.645501008      -49.3458586      0.645501008      -49.3458586      0.758679672      40.2017403       
2532.52          0.762215359      39.8907049       0.641345078      -49.6577956      0.641345078      -49.6577956      0.762215359      39.8907049       
2555.96          0.765701124      39.5820586       0.637202392      -49.9672978      0.637202392      -49.9672978      0.765701124      39.5820586       
2579.4           0.769137631      39.2757804       0.633073215      -50.2743868      0.633073215      -50.2743868      0.769137631      39.2757804       
2602.84          0.77252554       38.9718492       0.628957802      -50.579084       0.628957802      -50.579084       0.77252554       38.9718492       
2626.28          0.775865504      38.6702438       0.624856391      -50.881411       0.624856391      -50.881411       0.775865504      38.6702438       
2649.72          0.779158172      38.3709433       0.62076921       -51.1813891      0.62076921       -51.1813891      0.779158172      38.3709433       
2673.16          0.782404188      38.0739265       0.616696473      -51.4790398      0.616696473      -51.4790398      0.782404188      38.0739265       
2696.6           0.785604188      37.7791725       0.612638382      -51.7743845      0.612638382      -51.7743845      0.785604188      37.7791725       
2720.04          0.788758806      37.4866601       0.608595129      -52.0674445      0.608595129      -52.0674445      0.788758806      37.4866601       
2743.48          0.791868666      37.1963684       0.604566893      -52.3582411      0.604566893      -52.3582411      0.791868666      37.1963684       
2766.92          0.794934388      36.9082764       0.600553842      -52.6467954      0.600553842      -52.6467954      0.794934388      36.9082764       
2790.36          0.797956586      36.6223634       0.596556134      -52.9331286      0.596556134      -52.9331286      0.797956586      36.6223634       
2813.8           0.800935867      36.3386085       0.592573918      -53.2172617      0.592573918      -53.2172617      0.800935867      36.3386085       
2837.24          0.803872831      36.0569909       0.58860733       -53.4992156      0.58860733       -53.4992156      0.803872831      36.0569909       
2860.68          0.806768074      35.77749         0.584656499      -53.7790112      0.584656499      -53.7790112      0.806768074      35.77749         
2884.12          0.809622183      35.5000852       0.580721544      -54.0566693      0.580721544      -54.0566693      0.809622183      35.5000852       
2907.56          0.81243574       35.2247561       0.576802574      -54.3322104      0.576802574      -54.3322104      0.81243574       35.2247561       
2931             0.815209318      34.9514822       0.572899691      -54.605655       0.572899691      -54.605655       0.815209318      34.9514822       
2954.44          0.817943486      34.6802434       0.569012987      -54.8770237      0.569012987      -54.8770237      0.817943486      34.6802434       
2977.88          0.820638806      34.4110193       0.565142547      -55.1463365      0.565142547      -55.1463365      0.820638806      34.4110193       
