! Coilcraft 0603HC-22N Chip Inductor				
! 03 June 2002			
# MHZ S MA R 50
!Freq             MagS11           AngS11           MagS21           AngS21           MagS12           AngS12           MagS22           AngS22
1                0.00194633176    45.0934585       0.998626934      -0.0790912822    0.998626934      -0.0790912822    0.00194633176    45.0934585       
13.97            0.0194119552     81.7380066       0.997395527      -1.10362212      0.997395527      -1.10362212      0.0194119552     81.7380066       
26.94            0.0372231613     83.2935414       0.99633906       -2.12640779      0.99633906       -2.12640779      0.0372231613     83.2935414       
39.91            0.0550067236     83.3095157       0.995092225      -3.14721082      0.995092225      -3.14721082      0.0550067236     83.3095157       
52.88            0.072736316      82.8720415       0.993599265      -4.1655836       0.993599265      -4.1655836       0.072736316      82.8720415       
65.85            0.0903946889     82.2358113       0.991840321      -5.18102921      0.991840321      -5.18102921      0.0903946889     82.2358113       
78.82            0.107966428      81.4943641       0.989807473      -6.19303443      0.989807473      -6.19303443      0.107966428      81.4943641       
91.79            0.125436873      80.6909274       0.98749838       -7.20108301      0.98749838       -7.20108301      0.125436873      80.6909274       
104.76           0.142791898      79.8485884       0.984913888      -8.20466284      0.984913888      -8.20466284      0.142791898      79.8485884       
117.73           0.160017879      78.9809949       0.982056932      -9.20327049      0.982056932      -9.20327049      0.160017879      78.9809949       
130.7            0.177101718      78.0968542       0.978931948      -10.1964145      0.978931948      -10.1964145      0.177101718      78.0968542       
143.67           0.194030876      77.2020655       0.975544527      -11.1836179      0.975544527      -11.1836179      0.194030876      77.2020655       
156.64           0.210793414      76.3008248       0.971901187      -12.1644202      0.971901187      -12.1644202      0.210793414      76.3008248       
169.61           0.227378026      75.3962392       0.968009202      -13.138379       0.968009202      -13.138379       0.227378026      75.3962392       
182.58           0.243774068      74.4906885       0.963876482      -14.1050715      0.963876482      -14.1050715      0.243774068      74.4906885       
195.55           0.259971586      73.5860472       0.959511465      -15.0640954      0.959511465      -15.0640954      0.259971586      73.5860472       
208.52           0.275961328      72.6838273       0.954923028      -16.01507        0.954923028      -16.01507        0.275961328      72.6838273       
221.49           0.291734768      71.7852719       0.950120409      -16.9576367      0.950120409      -16.9576367      0.291734768      71.7852719       
234.46           0.3072841        70.8914197       0.945113135      -17.8914596      0.945113135      -17.8914596      0.3072841        70.8914197       
247.43           0.322602255      70.0031496       0.939910956      -18.8162259      0.939910956      -18.8162259      0.322602255      70.0031496       
260.4            0.337682886      69.1212128       0.934523785      -19.731646       0.934523785      -19.731646       0.337682886      69.1212128       
273.37           0.35252037       68.2462561       0.928961642      -20.6374537      0.928961642      -20.6374537      0.35252037       68.2462561       
286.34           0.367109791      67.3788394       0.923234599      -21.5334057      0.923234599      -21.5334057      0.367109791      67.3788394       
299.31           0.381446929      66.5194488       0.917352737      -22.419282       0.917352737      -22.419282       0.381446929      66.5194488       
312.28           0.395528239      65.6685072       0.911326096      -23.294885       0.911326096      -23.294885       0.395528239      65.6685072       
325.25           0.409350832      64.8263818       0.905164637      -24.1600394      0.905164637      -24.1600394      0.409350832      64.8263818       
338.22           0.422912449      63.9933912       0.898878202      -25.0145918      0.898878202      -25.0145918      0.422912449      63.9933912       
351.19           0.436211435      63.1698102       0.892476487      -25.8584096      0.892476487      -25.8584096      0.436211435      63.1698102       
364.16           0.449246712      62.3558747       0.885969003      -26.691381       0.885969003      -26.691381       0.449246712      62.3558747       
377.13           0.46201775       61.5517849       0.879365055      -27.5134135      0.879365055      -27.5134135      0.46201775       61.5517849       
390.1            0.474524538      60.7577092       0.872673717      -28.3244341      0.872673717      -28.3244341      0.474524538      60.7577092       
403.07           0.486767548      59.9737861       0.865903812      -29.1243876      0.865903812      -29.1243876      0.486767548      59.9737861       
416.04           0.498747709      59.2001276       0.859063894      -29.9132362      0.859063894      -29.9132362      0.498747709      59.2001276       
429.01           0.510466373      58.4368207       0.852162234      -30.6909587      0.852162234      -30.6909587      0.510466373      58.4368207       
441.98           0.521925286      57.6839299       0.845206809      -31.4575492      0.845206809      -31.4575492      0.521925286      57.6839299       
454.95           0.533126553      56.9414988       0.838205293      -32.213017       0.838205293      -32.213017       0.533126553      56.9414988       
467.92           0.54407261       56.2095516       0.83116505       -32.9573848      0.83116505       -32.9573848      0.54407261       56.2095516       
480.89           0.554766197      55.488095        0.824093129      -33.6906885      0.824093129      -33.6906885      0.554766197      55.488095        
493.86           0.565210324      54.7771196       0.816996263      -34.4129761      0.816996263      -34.4129761      0.565210324      54.7771196       
506.83           0.575408247      54.0766008       0.809880867      -35.1243067      0.809880867      -35.1243067      0.575408247      54.0766008       
519.8            0.58536344       53.3865007       0.802753042      -35.82475        0.802753042      -35.82475        0.58536344       53.3865007       
532.77           0.595079571      52.7067688       0.795618572      -36.5143852      0.795618572      -36.5143852      0.595079571      52.7067688       
545.74           0.604560476      52.0373432       0.788482934      -37.1933005      0.788482934      -37.1933005      0.604560476      52.0373432       
558.71           0.613810136      51.3781518       0.7813513        -37.8615919      0.7813513        -37.8615919      0.613810136      51.3781518       
571.68           0.622832659      50.7291131       0.774228543      -38.519363       0.774228543      -38.519363       0.622832659      50.7291131       
584.65           0.631632254      50.0901372       0.767119246      -39.1667239      0.767119246      -39.1667239      0.631632254      50.0901372       
597.62           0.640213216      49.4611265       0.760027708      -39.8037907      0.760027708      -39.8037907      0.640213216      49.4611265       
610.59           0.64857991       48.8419766       0.75295795       -40.4306849      0.75295795       -40.4306849      0.64857991       48.8419766       
623.56           0.656736748      48.2325771       0.745913731      -41.0475326      0.745913731      -41.0475326      0.656736748      48.2325771       
636.53           0.664688181      47.6328123       0.738898547      -41.6544643      0.738898547      -41.6544643      0.664688181      47.6328123       
649.5            0.67243868       47.0425616       0.731915652      -42.2516139      0.731915652      -42.2516139      0.67243868       47.0425616       
662.47           0.679992727      46.4617006       0.724968056      -42.8391185      0.724968056      -42.8391185      0.679992727      46.4617006       
675.44           0.687354798      45.8901011       0.718058544      -43.4171178      0.718058544      -43.4171178      0.687354798      45.8901011       
688.41           0.69452936       45.3276319       0.711189681      -43.9857538      0.711189681      -43.9857538      0.69452936       45.3276319       
701.38           0.701520854      44.7741594       0.704363823      -44.5451702      0.704363823      -44.5451702      0.701520854      44.7741594       
714.35           0.708333692      44.2295478       0.697583126      -45.0955121      0.697583126      -45.0955121      0.708333692      44.2295478       
727.32           0.714972243      43.6936599       0.690849557      -45.6369256      0.690849557      -45.6369256      0.714972243      43.6936599       
740.29           0.721440833      43.1663568       0.684164904      -46.1695575      0.684164904      -46.1695575      0.721440833      43.1663568       
753.26           0.727743735      42.6474991       0.67753078       -46.6935549      0.67753078       -46.6935549      0.727743735      42.6474991       
766.23           0.733885163      42.1369466       0.670948642      -47.2090653      0.670948642      -47.2090653      0.733885163      42.1369466       
779.2            0.739869269      41.6345587       0.664419787      -47.7162358      0.664419787      -47.7162358      0.739869269      41.6345587       
792.17           0.745700139      41.1401951       0.657945374      -48.215213       0.657945374      -48.215213       0.745700139      41.1401951       
805.14           0.751381788      40.6537155       0.651526421      -48.706143       0.651526421      -48.706143       0.751381788      40.6537155       
818.11           0.756918158      40.1749801       0.64516382       -49.1891713      0.64516382       -49.1891713      0.756918158      40.1749801       
831.08           0.762313116      39.7038497       0.638858341      -49.6644421      0.638858341      -49.6644421      0.762313116      39.7038497       
844.05           0.76757045       39.240186        0.632610642      -50.1320984      0.632610642      -50.1320984      0.76757045       39.240186        
857.02           0.772693873      38.7838519       0.626421274      -50.5922822      0.626421274      -50.5922822      0.772693873      38.7838519       
869.99           0.777687012      38.3347112       0.620290689      -51.0451339      0.620290689      -51.0451339      0.777687012      38.3347112       
882.96           0.782553416      37.892629        0.614219246      -51.4907922      0.614219246      -51.4907922      0.782553416      37.892629        
895.93           0.787296554      37.4574721       0.608207218      -51.9293943      0.608207218      -51.9293943      0.787296554      37.4574721       
908.9            0.791919809      37.0291086       0.602254797      -52.3610758      0.602254797      -52.3610758      0.791919809      37.0291086       
921.87           0.796426485      36.6074083       0.596362098      -52.7859702      0.596362098      -52.7859702      0.796426485      36.6074083       
934.84           0.800819805      36.1922425       0.590529168      -53.2042091      0.590529168      -53.2042091      0.800819805      36.1922425       
947.81           0.805102908      35.7834847       0.58475599       -53.6159224      0.58475599       -53.6159224      0.805102908      35.7834847       
960.78           0.809278853      35.3810098       0.579042485      -54.0212377      0.579042485      -54.0212377      0.809278853      35.3810098       
973.75           0.813350623      34.9846949       0.57338852       -54.4202809      0.57338852       -54.4202809      0.813350623      34.9846949       
986.72           0.817321117      34.5944188       0.567793909      -54.8131754      0.567793909      -54.8131754      0.817321117      34.5944188       
999.69           0.821193158      34.2100624       0.562258422      -55.2000428      0.562258422      -55.2000428      0.821193158      34.2100624       
1012.66          0.824969495      33.8315085       0.556781781      -55.5810026      0.556781781      -55.5810026      0.824969495      33.8315085       
1025.63          0.828652797      33.4586421       0.551363673      -55.9561718      0.551363673      -55.9561718      0.828652797      33.4586421       
1038.6           0.832245663      33.09135         0.546003747      -56.3256657      0.546003747      -56.3256657      0.832245663      33.09135         
1051.57          0.835750616      32.7295211       0.540701616      -56.6895972      0.540701616      -56.6895972      0.835750616      32.7295211       
1064.54          0.83917011       32.3730464       0.535456868      -57.048077       0.535456868      -57.048077       0.83917011       32.3730464       
1077.51          0.842506528      32.0218189       0.530269058      -57.4012139      0.530269058      -57.4012139      0.842506528      32.0218189       
1090.48          0.845762185      31.6757337       0.525137721      -57.7491143      0.525137721      -57.7491143      0.845762185      31.6757337       
1103.45          0.848939329      31.3346879       0.520062367      -58.0918826      0.520062367      -58.0918826      0.848939329      31.3346879       
1116.42          0.852040144      30.9985805       0.515042487      -58.4296212      0.515042487      -58.4296212      0.852040144      30.9985805       
1129.39          0.855066748      30.6673127       0.510077552      -58.7624301      0.510077552      -58.7624301      0.855066748      30.6673127       
1142.36          0.858021198      30.3407876       0.505167021      -59.0904076      0.505167021      -59.0904076      0.858021198      30.3407876       
1155.33          0.860905492      30.0189101       0.500310335      -59.4136496      0.500310335      -59.4136496      0.860905492      30.0189101       
1168.3           0.863721567      29.7015875       0.495506926      -59.7322503      0.495506926      -59.7322503      0.863721567      29.7015875       
1181.27          0.866471303      29.3887285       0.490756213      -60.0463017      0.490756213      -60.0463017      0.866471303      29.3887285       
1194.24          0.869156525      29.0802441       0.486057607      -60.3558938      0.486057607      -60.3558938      0.869156525      29.0802441       
1207.21          0.871779003      28.776047        0.481410512      -60.6611148      0.481410512      -60.6611148      0.871779003      28.776047        
1220.18          0.874340453      28.4760518       0.476814324      -60.9620509      0.476814324      -60.9620509      0.874340453      28.4760518       
1233.15          0.876842543      28.1801748       0.472268434      -61.2587865      0.472268434      -61.2587865      0.876842543      28.1801748       
1246.12          0.879286888      27.8883344       0.46777223       -61.551404       0.46777223       -61.551404       0.879286888      27.8883344       
1259.09          0.881675056      27.6004504       0.463325097      -61.8399841      0.463325097      -61.8399841      0.881675056      27.6004504       
1272.06          0.884008567      27.3164446       0.458926417      -62.1246057      0.458926417      -62.1246057      0.884008567      27.3164446       
1285.03          0.886288896      27.0362403       0.454575572      -62.4053459      0.454575572      -62.4053459      0.886288896      27.0362403       
1298             0.888517473      26.7597628       0.450271941      -62.6822801      0.450271941      -62.6822801      0.888517473      26.7597628       
1310.97          0.890695687      26.4869386       0.446014907      -62.9554819      0.446014907      -62.9554819      0.890695687      26.4869386       
1323.94          0.892824882      26.2176961       0.441803853      -63.2250235      0.441803853      -63.2250235      0.892824882      26.2176961       
1336.91          0.894906366      25.9519653       0.437638161      -63.4909753      0.437638161      -63.4909753      0.894906366      25.9519653       
1349.88          0.896941403      25.6896777       0.43351722       -63.753406       0.43351722       -63.753406       0.896941403      25.6896777       
1362.85          0.898931223      25.4307661       0.429440417      -64.012383       0.429440417      -64.012383       0.898931223      25.4307661       
1375.82          0.900877016      25.1751652       0.425407147      -64.267972       0.425407147      -64.267972       0.900877016      25.1751652       
1388.79          0.902779938      24.9228108       0.421416805      -64.5202371      0.421416805      -64.5202371      0.902779938      24.9228108       
1401.76          0.904641112      24.6736402       0.417468792      -64.7692413      0.417468792      -64.7692413      0.904641112      24.6736402       
1414.73          0.906461624      24.4275923       0.413562514      -65.0150458      0.413562514      -65.0150458      0.906461624      24.4275923       
1427.7           0.90824253       24.1846072       0.409697381      -65.2577106      0.409697381      -65.2577106      0.90824253       24.1846072       
1440.67          0.909984853      23.9446263       0.405872807      -65.4972943      0.405872807      -65.4972943      0.909984853      23.9446263       
1453.64          0.911689587      23.7075924       0.402088215      -65.733854       0.402088215      -65.733854       0.911689587      23.7075924       
1466.61          0.913357697      23.4734494       0.398343031      -65.9674457      0.398343031      -65.9674457      0.913357697      23.4734494       
1479.58          0.914990116      23.2421428       0.394636686      -66.1981241      0.394636686      -66.1981241      0.914990116      23.2421428       
1492.55          0.916587754      23.013619        0.390968621      -66.4259424      0.390968621      -66.4259424      0.916587754      23.013619        
1505.52          0.918151491      22.7878256       0.387338279      -66.650953       0.387338279      -66.650953       0.918151491      22.7878256       
1518.49          0.919682182      22.5647116       0.383745111      -66.8732066      0.383745111      -66.8732066      0.919682182      22.5647116       
1531.46          0.921180656      22.3442269       0.380188576      -67.0927532      0.380188576      -67.0927532      0.921180656      22.3442269       
1544.43          0.922647721      22.1263227       0.376668138      -67.3096414      0.376668138      -67.3096414      0.922647721      22.1263227       
1557.4           0.924084157      21.9109511       0.373183268      -67.5239186      0.373183268      -67.5239186      0.924084157      21.9109511       
1570.37          0.925490723      21.6980654       0.369733444      -67.7356314      0.369733444      -67.7356314      0.925490723      21.6980654       
1583.34          0.926868158      21.4876199       0.366318151      -67.9448251      0.366318151      -67.9448251      0.926868158      21.4876199       
1596.31          0.928217176      21.2795698       0.36293688       -68.151544       0.36293688       -68.151544       0.928217176      21.2795698       
1609.28          0.929538474      21.0738715       0.359589131      -68.3558315      0.359589131      -68.3558315      0.929538474      21.0738715       
1622.25          0.930832725      20.8704822       0.356274407      -68.5577299      0.356274407      -68.5577299      0.930832725      20.8704822       
1635.22          0.932100586      20.6693601       0.352992223      -68.7572804      0.352992223      -68.7572804      0.932100586      20.6693601       
1648.19          0.933342693      20.4704643       0.349742097      -68.9545236      0.349742097      -68.9545236      0.933342693      20.4704643       
