! Coilcraft 0603HC-3N9 Chip Inductor				
! 03 June 2002			
# MHZ S MA R 50
!Freq             MagS11           AngS11           MagS21           AngS21           MagS12           AngS12           MagS22           AngS22
1                0.000677664877   20.0366162       0.999363379      -0.0133115204    0.999363379      -0.0133115204    0.000677664877   20.0366162       
38.4             0.00898923837    82.2049337       0.998820495      -0.51089552      0.998820495      -0.51089552      0.00898923837    82.2049337       
75.8             0.0176495021     84.4993899       0.998462754      -1.00818717      0.998462754      -1.00818717      0.0176495021     84.4993899       
113.2            0.0263147609     85.0761642       0.998085768      -1.50521488      0.998085768      -1.50521488      0.0263147609     85.0761642       
150.6            0.0349762654     85.1684522       0.99766301       -2.0019564       0.99766301       -2.0019564       0.0349762654     85.1684522       
188              0.0436309778     85.0514589       0.997184215      -2.49837711      0.997184215      -2.49837711      0.0436309778     85.0514589       
225.4            0.0522769014     84.8235484       0.996644214      -2.994437        0.996644214      -2.994437        0.0522769014     84.8235484       
262.8            0.0609123466     84.5292162       0.996040045      -3.49009312      0.996040045      -3.49009312      0.0609123466     84.5292162       
300.2            0.0695357409     84.1917407       0.995369894      -3.98530089      0.995369894      -3.98530089      0.0695357409     84.1917407       
337.6            0.078145566      83.8245788       0.994632617      -4.48001468      0.994632617      -4.48001468      0.078145566      83.8245788       
375              0.0867403339     83.4361006       0.993827499      -4.97418828      0.993827499      -4.97418828      0.0867403339     83.4361006       
412.4            0.0953185776     83.031814        0.992954115      -5.46777512      0.992954115      -5.46777512      0.0953185776     83.031814        
449.8            0.103878847      82.6155094       0.992012253      -5.96072849      0.992012253      -5.96072849      0.103878847      82.6155094       
487.2            0.112419707      82.1898926       0.991001859      -6.45300171      0.991001859      -6.45300171      0.112419707      82.1898926       
524.6            0.120939741      81.7569554       0.989923007      -6.94454819      0.989923007      -6.94454819      0.120939741      81.7569554       
562              0.129437544      81.3182026       0.988775869      -7.43532154      0.988775869      -7.43532154      0.129437544      81.3182026       
599.4            0.137911732      80.8747975       0.987560705      -7.92527566      0.987560705      -7.92527566      0.137911732      80.8747975       
636.8            0.146360938      80.427657        0.986277846      -8.41436481      0.986277846      -8.41436481      0.146360938      80.427657        
674.2            0.154783815      79.9775167       0.984927686      -8.90254363      0.984927686      -8.90254363      0.154783815      79.9775167       
711.6            0.163179033      79.5249764       0.983510678      -9.38976722      0.983510678      -9.38976722      0.163179033      79.5249764       
749              0.171545288      79.0705319       0.98202732       -9.87599119      0.98202732       -9.87599119      0.171545288      79.0705319       
786.4            0.179881296      78.6145984       0.98047816       -10.3611717      0.98047816       -10.3611717      0.179881296      78.6145984       
823.8            0.188185794      78.1575277       0.978863785      -10.8452654      0.978863785      -10.8452654      0.188185794      78.1575277       
861.2            0.196457547      77.6996211       0.977184821      -11.3282296      0.977184821      -11.3282296      0.196457547      77.6996211       
898.6            0.204695343      77.2411395       0.975441931      -11.8100224      0.975441931      -11.8100224      0.204695343      77.2411395       
936              0.212897996      76.7823104       0.973635809      -12.2906022      0.973635809      -12.2906022      0.212897996      76.7823104       
973.4            0.221064346      76.323334        0.971767179      -12.7699286      0.971767179      -12.7699286      0.221064346      76.323334        
1010.8           0.229193262      75.8643881       0.969836796      -13.2479614      0.969836796      -13.2479614      0.229193262      75.8643881       
1048.2           0.237283638      75.4056315       0.967845439      -13.7246615      0.967845439      -13.7246615      0.237283638      75.4056315       
1085.6           0.245334399      74.9472067       0.965793915      -14.1999904      0.965793915      -14.1999904      0.245334399      74.9472067       
1123             0.253344497      74.4892429       0.963683051      -14.6739105      0.963683051      -14.6739105      0.253344497      74.4892429       
1160.4           0.261312916      74.0318574       0.961513698      -15.1463849      0.961513698      -15.1463849      0.261312916      74.0318574       
1197.8           0.269238666      73.5751574       0.959286726      -15.6173775      0.959286726      -15.6173775      0.269238666      73.5751574       
1235.2           0.277120791      73.1192414       0.957003025      -16.0868531      0.957003025      -16.0868531      0.277120791      73.1192414       
1272.6           0.284958364      72.6642001       0.9546635        -16.5547774      0.9546635        -16.5547774      0.284958364      72.6642001       
1310             0.292750489      72.2101174       0.952269075      -17.0211167      0.952269075      -17.0211167      0.292750489      72.2101174       
1347.4           0.3004963        71.7570711       0.949820687      -17.4858386      0.949820687      -17.4858386      0.3004963        71.7570711       
1384.8           0.308194964      71.3051337       0.947319287      -17.9489112      0.947319287      -17.9489112      0.308194964      71.3051337       
1422.2           0.315845679      70.8543728       0.944765838      -18.4103035      0.944765838      -18.4103035      0.315845679      70.8543728       
1459.6           0.323447674      70.4048516       0.942161314      -18.8699857      0.942161314      -18.8699857      0.323447674      70.4048516       
1497             0.331000209      69.9566295       0.9395067        -19.3279285      0.9395067        -19.3279285      0.331000209      69.9566295       
1534.4           0.338502577      69.5097621       0.936802989      -19.7841039      0.936802989      -19.7841039      0.338502577      69.5097621       
1571.8           0.345954102      69.0643017       0.934051181      -20.2384845      0.934051181      -20.2384845      0.345954102      69.0643017       
1609.2           0.353354139      68.6202976       0.931252285      -20.6910438      0.931252285      -20.6910438      0.353354139      68.6202976       
1646.6           0.360702075      68.1777962       0.928407312      -21.1417565      0.928407312      -21.1417565      0.360702075      68.1777962       
1684             0.367997327      67.7368413       0.925517281      -21.5905979      0.925517281      -21.5905979      0.367997327      67.7368413       
1721.4           0.375239345      67.2974743       0.922583213      -22.0375444      0.922583213      -22.0375444      0.375239345      67.2974743       
1758.8           0.382427608      66.8597341       0.919606132      -22.4825733      0.919606132      -22.4825733      0.382427608      66.8597341       
1796.2           0.389561627      66.4236577       0.916587063      -22.9256625      0.916587063      -22.9256625      0.389561627      66.4236577       
1833.6           0.396640941      65.9892799       0.913527033      -23.3667913      0.913527033      -23.3667913      0.396640941      65.9892799       
1871             0.403665121      65.5566336       0.910427068      -23.8059394      0.910427068      -23.8059394      0.403665121      65.5566336       
1908.4           0.410633768      65.1257499       0.907288194      -24.2430878      0.907288194      -24.2430878      0.410633768      65.1257499       
1945.8           0.41754651       64.6966581       0.904111433      -24.678218       0.904111433      -24.678218       0.41754651       64.6966581       
1983.2           0.424403006      64.2693859       0.900897808      -25.1113127      0.900897808      -25.1113127      0.424403006      64.2693859       
2020.6           0.431202941      63.8439595       0.897648335      -25.5423554      0.897648335      -25.5423554      0.431202941      63.8439595       
2058             0.437946031      63.4204034       0.894364029      -25.9713302      0.894364029      -25.9713302      0.437946031      63.4204034       
2095.4           0.444632017      62.9987407       0.891045898      -26.3982224      0.891045898      -26.3982224      0.444632017      62.9987407       
2132.8           0.451260667      62.5789933       0.887694947      -26.8230179      0.887694947      -26.8230179      0.451260667      62.5789933       
2170.2           0.457831779      62.1611816       0.884312172      -27.2457035      0.884312172      -27.2457035      0.457831779      62.1611816       
2207.6           0.464345173      61.7453247       0.880898564      -27.6662669      0.880898564      -27.6662669      0.464345173      61.7453247       
2245             0.470800696      61.3314405       0.877455108      -28.0846965      0.877455108      -28.0846965      0.470800696      61.3314405       
2282.4           0.477198219      60.9195457       0.873982777      -28.5009814      0.873982777      -28.5009814      0.477198219      60.9195457       
2319.8           0.48353764       60.5096559       0.870482541      -28.9151118      0.870482541      -28.9151118      0.48353764       60.5096559       
2357.2           0.489818879      60.1017856       0.866955356      -29.3270784      0.866955356      -29.3270784      0.489818879      60.1017856       
2394.6           0.496041878      59.6959481       0.863402172      -29.7368727      0.863402172      -29.7368727      0.496041878      59.6959481       
2432             0.502206605      59.2921558       0.859823929      -30.1444871      0.859823929      -30.1444871      0.502206605      59.2921558       
2469.4           0.508313046      58.89042         0.856221554      -30.5499144      0.856221554      -30.5499144      0.508313046      58.89042         
2506.8           0.514361212      58.490751        0.852595967      -30.9531485      0.852595967      -30.9531485      0.514361212      58.490751        
2544.2           0.520351134      58.0931584       0.848948074      -31.3541837      0.848948074      -31.3541837      0.520351134      58.0931584       
2581.6           0.526282862      57.6976506       0.845278772      -31.7530152      0.845278772      -31.7530152      0.526282862      57.6976506       
2619             0.532156466      57.3042353       0.841588945      -32.1496388      0.841588945      -32.1496388      0.532156466      57.3042353       
2656.4           0.537972037      56.9129193       0.837879464      -32.5440508      0.837879464      -32.5440508      0.537972037      56.9129193       
2693.8           0.543729683      56.5237085       0.83415119       -32.9362484      0.83415119       -32.9362484      0.543729683      56.5237085       
2731.2           0.54942953       56.1366081       0.830404971      -33.3262294      0.830404971      -33.3262294      0.54942953       56.1366081       
2768.6           0.55507172       55.7516225       0.82664164       -33.7139919      0.82664164       -33.7139919      0.55507172       55.7516225       
2806             0.560656415      55.3687553       0.82286202       -34.0995349      0.82286202       -34.0995349      0.560656415      55.3687553       
2843.4           0.566183789      54.9880095       0.81906692       -34.482858       0.81906692       -34.482858       0.566183789      54.9880095       
2880.8           0.571654036      54.6093873       0.815257134      -34.8639611      0.815257134      -34.8639611      0.571654036      54.6093873       
2918.2           0.577067362      54.2328902       0.811433445      -35.242845       0.811433445      -35.242845       0.577067362      54.2328902       
2955.6           0.582423987      53.8585192       0.807596621      -35.6195107      0.807596621      -35.6195107      0.582423987      53.8585192       
2993             0.587724147      53.4862745       0.803747416      -35.99396        0.803747416      -35.99396        0.587724147      53.4862745       
3030.4           0.592968089      53.1161557       0.799886573      -36.3661949      0.799886573      -36.3661949      0.592968089      53.1161557       
3067.8           0.598156074      52.748162        0.796014817      -36.7362183      0.796014817      -36.7362183      0.598156074      52.748162        
3105.2           0.603288375      52.3822917       0.792132863      -37.1040332      0.792132863      -37.1040332      0.603288375      52.3822917       
3142.6           0.608365276      52.0185429       0.78824141       -37.4696432      0.78824141       -37.4696432      0.608365276      52.0185429       
3180             0.613387073      51.6569129       0.784341143      -37.8330524      0.784341143      -37.8330524      0.613387073      51.6569129       
3217.4           0.618354072      51.2973986       0.780432734      -38.1942653      0.780432734      -38.1942653      0.618354072      51.2973986       
3254.8           0.623266589      50.9399965       0.776516841      -38.5532867      0.776516841      -38.5532867      0.623266589      50.9399965       
3292.2           0.628124949      50.5847024       0.772594108      -38.910122       0.772594108      -38.910122       0.628124949      50.5847024       
3329.6           0.632929486      50.2315119       0.768665164      -39.2647769      0.768665164      -39.2647769      0.632929486      50.2315119       
3367             0.637680545      49.88042         0.764730626      -39.6172574      0.764730626      -39.6172574      0.637680545      49.88042         
3404.4           0.642378475      49.5314212       0.760791096      -39.9675699      0.760791096      -39.9675699      0.642378475      49.5314212       
3441.8           0.647023636      49.1845098       0.756847164      -40.3157212      0.756847164      -40.3157212      0.647023636      49.1845098       
3479.2           0.651616393      48.8396795       0.752899404      -40.6617185      0.752899404      -40.6617185      0.651616393      48.8396795       
3516.6           0.656157119      48.4969238       0.748948378      -41.0055691      0.748948378      -41.0055691      0.656157119      48.4969238       
3554             0.660646193      48.1562359       0.744994635      -41.3472808      0.744994635      -41.3472808      0.660646193      48.1562359       
3591.4           0.665083999      47.8176083       0.74103871       -41.6868615      0.74103871       -41.6868615      0.665083999      47.8176083       
3628.8           0.669470929      47.4810334       0.737081125      -42.0243197      0.737081125      -42.0243197      0.669470929      47.4810334       
3666.2           0.673807376      47.1465035       0.733122388      -42.3596638      0.733122388      -42.3596638      0.673807376      47.1465035       
3703.6           0.678093741      46.8140102       0.729162996      -42.6929028      0.729162996      -42.6929028      0.678093741      46.8140102       
3741             0.682330429      46.483545        0.725203431      -43.0240456      0.725203431      -43.0240456      0.682330429      46.483545        
3778.4           0.686517846      46.1550992       0.721244166      -43.3531016      0.721244166      -43.3531016      0.686517846      46.1550992       
3815.8           0.690656406      45.8286636       0.717285657      -43.6800803      0.717285657      -43.6800803      0.690656406      45.8286636       
3853.2           0.694746522      45.5042291       0.713328351      -44.0049915      0.713328351      -44.0049915      0.694746522      45.5042291       
3890.6           0.698788614      45.181786        0.709372682      -44.3278451      0.709372682      -44.3278451      0.698788614      45.181786        
3928             0.702783101      44.8613246       0.70541907       -44.6486513      0.70541907       -44.6486513      0.702783101      44.8613246       
3965.4           0.706730407      44.5428349       0.701467927      -44.9674203      0.701467927      -44.9674203      0.706730407      44.5428349       
4002.8           0.710630955      44.2263068       0.697519651      -45.2841626      0.697519651      -45.2841626      0.710630955      44.2263068       
4040.2           0.714485173      43.9117298       0.693574627      -45.5988889      0.693574627      -45.5988889      0.714485173      43.9117298       
4077.6           0.718293489      43.5990934       0.689633232      -45.91161        0.689633232      -45.91161        0.718293489      43.5990934       
4115             0.722056332      43.2883869       0.685695831      -46.2223367      0.685695831      -46.2223367      0.722056332      43.2883869       
4152.4           0.725774131      42.9795995       0.681762776      -46.5310803      0.681762776      -46.5310803      0.725774131      42.9795995       
4189.8           0.729447318      42.6727199       0.67783441       -46.8378517      0.67783441       -46.8378517      0.729447318      42.6727199       
4227.2           0.733076324      42.3677372       0.673911067      -47.1426624      0.673911067      -47.1426624      0.733076324      42.3677372       
4264.6           0.736661579      42.0646399       0.669993066      -47.4455237      0.669993066      -47.4455237      0.736661579      42.0646399       
4302             0.740203516      41.7634167       0.666080721      -47.7464471      0.666080721      -47.7464471      0.740203516      41.7634167       
4339.4           0.743702565      41.464056        0.662174332      -48.0454442      0.662174332      -48.0454442      0.743702565      41.464056        
4376.8           0.747159157      41.1665462       0.658274192      -48.3425267      0.658274192      -48.3425267      0.747159157      41.1665462       
4414.2           0.750573722      40.8708754       0.654380582      -48.6377063      0.654380582      -48.6377063      0.750573722      40.8708754       
4451.6           0.753946689      40.5770318       0.650493776      -48.9309947      0.650493776      -48.9309947      0.753946689      40.5770318       
4489             0.757278487      40.2850036       0.646614036      -49.222404       0.646614036      -49.222404       0.757278487      40.2850036       
4526.4           0.760569542      39.9947787       0.642741618      -49.5119458      0.642741618      -49.5119458      0.760569542      39.9947787       
4563.8           0.76382028       39.7063451       0.638876767      -49.7996324      0.638876767      -49.7996324      0.76382028       39.7063451       
4601.2           0.767031125      39.4196905       0.635019719      -50.0854755      0.635019719      -50.0854755      0.767031125      39.4196905       
4638.6           0.770202501      39.1348029       0.631170704      -50.3694873      0.631170704      -50.3694873      0.770202501      39.1348029       
4676             0.773334827      38.85167         0.627329941      -50.6516797      0.627329941      -50.6516797      0.773334827      38.85167         
4713.4           0.776428523      38.5702795       0.623497641      -50.9320649      0.623497641      -50.9320649      0.776428523      38.5702795       
4750.8           0.779484006      38.2906191       0.61967401       -51.2106549      0.61967401       -51.2106549      0.779484006      38.2906191       
