! Coilcraft 0603HC-15N Chip Inductor				
! 03 June 2002			
# MHZ S MA R 50
!Freq             MagS11           AngS11           MagS21           AngS21           MagS12           AngS12           MagS22           AngS22
1                0.00145605251    40.2290694       0.998888792      -0.0539400045    0.998888792      -0.0539400045    0.00145605251    40.2290694       
16.71            0.0158502686     81.5923519       0.99780566       -0.900406189     0.99780566       -0.900406189     0.0158502686     81.5923519       
32.42            0.0305717439     83.4343034       0.99696707       -1.74570752      0.99696707       -1.74570752      0.0305717439     83.4343034       
48.13            0.0452814014     83.6709049       0.996025526      -2.58979171      0.996025526      -2.58979171      0.0452814014     83.6709049       
63.84            0.0599612346     83.4347389       0.99492916       -3.43244415      0.99492916       -3.43244415      0.0599612346     83.4347389       
79.55            0.0746010031     82.9903471       0.993658498      -4.27341039      0.993658498      -4.27341039      0.0746010031     82.9903471       
95.26            0.0891919321     82.4347027       0.992204562      -5.11242025      0.992204562      -5.11242025      0.0891919321     82.4347027       
110.97           0.103725739      81.8125064       0.990563105      -5.94919699      0.990563105      -5.94919699      0.103725739      81.8125064       
126.68           0.118194407      81.147535        0.988732463      -6.78346209      0.988732463      -6.78346209      0.118194407      81.147535        
142.39           0.13259013       80.4537594       0.986712578      -7.614938        0.986712578      -7.614938        0.13259013       80.4537594       
158.1            0.146905306      79.7400201       0.984504499      -8.44335007      0.984504499      -8.44335007      0.146905306      79.7400201       
173.81           0.161132546      79.0122453       0.98211009       -9.26842797      0.98211009       -9.26842797      0.161132546      79.0122453       
189.52           0.175264691      78.2746005       0.979531853      -10.0899067      0.979531853      -10.0899067      0.175264691      78.2746005       
205.23           0.189294824      77.5301292       0.976772803      -10.9075277      0.976772803      -10.9075277      0.189294824      77.5301292       
220.94           0.203216291      76.7811293       0.973836387      -11.7210392      0.973836387      -11.7210392      0.203216291      76.7811293       
236.65           0.21702271       76.0293854       0.970726417      -12.5301972      0.970726417      -12.5301972      0.21702271       76.0293854       
252.36           0.230707984      75.2763176       0.967447021      -13.334766       0.967447021      -13.334766       0.230707984      75.2763176       
268.07           0.244266316      74.5230798       0.964002598      -14.1345184      0.964002598      -14.1345184      0.244266316      74.5230798       
283.78           0.257692214      73.7706268       0.960397781      -14.9292363      0.960397781      -14.9292363      0.257692214      73.7706268       
299.49           0.270980496      73.0197609       0.956637408      -15.7187109      0.956637408      -15.7187109      0.270980496      73.0197609       
315.2            0.284126304      72.2711657       0.952726488      -16.5027432      0.952726488      -16.5027432      0.284126304      72.2711657       
330.91           0.297125098      71.5254298       0.948670178      -17.2811439      0.948670178      -17.2811439      0.297125098      71.5254298       
346.62           0.309972664      70.7830653       0.944473757      -18.0537337      0.944473757      -18.0537337      0.309972664      70.7830653       
362.33           0.322665115      70.0445206       0.940142599      -18.8203434      0.940142599      -18.8203434      0.322665115      70.0445206       
378.04           0.335198886      69.3101917       0.935682158      -19.5808142      0.935682158      -19.5808142      0.335198886      69.3101917       
393.75           0.347570736      68.5804291       0.931097939      -20.3349973      0.931097939      -20.3349973      0.347570736      68.5804291       
409.46           0.359777743      67.8555449       0.926395487      -21.0827542      0.926395487      -21.0827542      0.359777743      67.8555449       
425.17           0.371817299      67.1358176       0.921580361      -21.8239565      0.921580361      -21.8239565      0.371817299      67.1358176       
440.88           0.383687104      66.4214956       0.91665812       -22.558486       0.91665812       -22.558486       0.383687104      66.4214956       
456.59           0.395385161      65.7128013       0.91163431       -23.2862341      0.91163431       -23.2862341      0.395385161      65.7128013       
472.3            0.406909766      65.0099331       0.906514443      -24.0071025      0.906514443      -24.0071025      0.406909766      65.0099331       
488.01           0.418259502      64.3130682       0.901303987      -24.7210022      0.901303987      -24.7210022      0.418259502      64.3130682       
503.72           0.429433228      63.6223642       0.896008351      -25.4278536      0.896008351      -25.4278536      0.429433228      63.6223642       
519.43           0.440430071      62.9379607       0.890632874      -26.1275865      0.890632874      -26.1275865      0.440430071      62.9379607       
535.14           0.451249415      62.2599811       0.885182816      -26.8201396      0.885182816      -26.8201396      0.451249415      62.2599811       
550.85           0.46189089       61.5885335       0.879663344      -27.5054604      0.879663344      -27.5054604      0.46189089       61.5885335       
566.56           0.472354361      60.9237117       0.874079528      -28.1835046      0.874079528      -28.1835046      0.472354361      60.9237117       
582.27           0.482639917      60.2655968       0.868436327      -28.8542362      0.868436327      -28.8542362      0.482639917      60.2655968       
597.98           0.492747863      59.6142574       0.86273859       -29.5176273      0.86273859       -29.5176273      0.492747863      59.6142574       
613.69           0.502678702      58.9697509       0.856991041      -30.1736571      0.856991041      -30.1736571      0.502678702      58.9697509       
629.4            0.51243313       58.3321239       0.851198282      -30.8223126      0.851198282      -30.8223126      0.51243313       58.3321239       
645.11           0.52201202       57.7014131       0.845364783      -31.4635872      0.845364783      -31.4635872      0.52201202       57.7014131       
660.82           0.531416414      57.0776461       0.83949488       -32.0974815      0.83949488       -32.0974815      0.531416414      57.0776461       
676.53           0.540647509      56.4608416       0.833592773      -32.724002       0.833592773      -32.724002       0.540647509      56.4608416       
692.24           0.54970665       55.8510101       0.827662523      -33.3431614      0.827662523      -33.3431614      0.54970665       55.8510101       
707.95           0.558595313      55.2481547       0.821708051      -33.954978       0.821708051      -33.954978       0.558595313      55.2481547       
723.66           0.567315101      54.6522714       0.815733136      -34.5594757      0.815733136      -34.5594757      0.567315101      54.6522714       
739.37           0.575867732      54.0633494       0.809741414      -35.1566833      0.809741414      -35.1566833      0.575867732      54.0633494       
755.08           0.584255025      53.4813717       0.803736382      -35.7466344      0.803736382      -35.7466344      0.584255025      53.4813717       
770.79           0.592478897      52.9063159       0.797721394      -36.3293671      0.797721394      -36.3293671      0.592478897      52.9063159       
786.5            0.600541349      52.3381538       0.791699664      -36.9049238      0.791699664      -36.9049238      0.600541349      52.3381538       
802.21           0.608444459      51.7768525       0.785674267      -37.4733507      0.785674267      -37.4733507      0.608444459      51.7768525       
817.92           0.616190373      51.2223746       0.779648141      -38.0346977      0.779648141      -38.0346977      0.616190373      51.2223746       
833.63           0.623781298      50.674678        0.77362409       -38.5890181      0.77362409       -38.5890181      0.623781298      50.674678        
849.34           0.631219494      50.1337173       0.767604785      -39.1363683      0.767604785      -39.1363683      0.631219494      50.1337173       
865.05           0.638507266      49.5994429       0.761592766      -39.6768076      0.761592766      -39.6768076      0.638507266      49.5994429       
880.76           0.645646957      49.0718024       0.755590447      -40.210398       0.755590447      -40.210398       0.645646957      49.0718024       
896.47           0.652640943      48.55074         0.749600116      -40.7372037      0.749600116      -40.7372037      0.652640943      48.55074         
912.18           0.659491626      48.0361973       0.743623942      -41.2572914      0.743623942      -41.2572914      0.659491626      48.0361973       
927.89           0.666201428      47.5281133       0.737663974      -41.7707295      0.737663974      -41.7707295      0.666201428      47.5281133       
943.6            0.672772785      47.026425        0.731722148      -42.2775883      0.731722148      -42.2775883      0.672772785      47.026425        
959.31           0.679208145      46.5310671       0.725800288      -42.7779398      0.725800288      -42.7779398      0.679208145      46.5310671       
975.02           0.685509958      46.0419726       0.719900111      -43.2718573      0.719900111      -43.2718573      0.685509958      46.0419726       
990.73           0.691680679      45.5590728       0.714023228      -43.7594152      0.714023228      -43.7594152      0.691680679      45.5590728       
1006.44          0.697722755      45.0822977       0.708171152      -44.2406891      0.708171152      -44.2406891      0.697722755      45.0822977       
1022.15          0.70363863       44.6115759       0.702345297      -44.7157557      0.702345297      -44.7157557      0.70363863       44.6115759       
1037.86          0.709430735      44.1468351       0.696546986      -45.1846921      0.696546986      -45.1846921      0.709430735      44.1468351       
1053.57          0.715101488      43.6880019       0.690777448      -45.6475762      0.690777448      -45.6475762      0.715101488      43.6880019       
1069.28          0.720653292      43.2350024       0.68503783       -46.1044866      0.68503783       -46.1044866      0.720653292      43.2350024       
1084.99          0.72608853       42.7877619       0.679329193      -46.5555018      0.679329193      -46.5555018      0.72608853       42.7877619       
1100.7           0.731409561      42.3462051       0.673652519      -47.000701       0.673652519      -47.000701       0.731409561      42.3462051       
1116.41          0.736618725      41.9102566       0.668008716      -47.4401634      0.668008716      -47.4401634      0.736618725      41.9102566       
1132.12          0.741718332      41.4798406       0.662398615      -47.8739681      0.662398615      -47.8739681      0.741718332      41.4798406       
1147.83          0.746710669      41.0548811       0.656822982      -48.3021943      0.656822982      -48.3021943      0.746710669      41.0548811       
1163.54          0.751597989      40.6353022       0.651282513      -48.724921       0.651282513      -48.724921       0.751597989      40.6353022       
1179.25          0.756382518      40.221028        0.645777841      -49.1422272      0.645777841      -49.1422272      0.756382518      40.221028        
1194.96          0.761066451      39.8119826       0.64030954       -49.5541912      0.64030954       -49.5541912      0.761066451      39.8119826       
1210.67          0.765651948      39.4080905       0.634878124      -49.9608913      0.634878124      -49.9608913      0.765651948      39.4080905       
1226.38          0.770141137      39.0092764       0.629484056      -50.3624052      0.629484056      -50.3624052      0.770141137      39.0092764       
1242.09          0.774536111      38.6154654       0.624127742      -50.7588101      0.624127742      -50.7588101      0.774536111      38.6154654       
1257.8           0.77883893       38.2265829       0.618809542      -51.1501828      0.618809542      -51.1501828      0.77883893       38.2265829       
1273.51          0.783051617      37.8425549       0.613529769      -51.5365993      0.613529769      -51.5365993      0.783051617      37.8425549       
1289.22          0.787176158      37.4633079       0.60828869       -51.9181351      0.60828869       -51.9181351      0.787176158      37.4633079       
1304.93          0.791214505      37.0887689       0.60308653       -52.294865       0.60308653       -52.294865       0.791214505      37.0887689       
1320.64          0.795168574      36.7188656       0.597923476      -52.6668631      0.597923476      -52.6668631      0.795168574      36.7188656       
1336.35          0.799040242      36.3535264       0.592799674      -53.0342026      0.592799674      -53.0342026      0.799040242      36.3535264       
1352.06          0.802831352      35.9926801       0.587715239      -53.3969561      0.587715239      -53.3969561      0.802831352      35.9926801       
1367.77          0.80654371       35.6362567       0.582670248      -53.7551953      0.582670248      -53.7551953      0.80654371       35.6362567       
1383.48          0.810179085      35.2841866       0.577664749      -54.1089911      0.577664749      -54.1089911      0.810179085      35.2841866       
1399.19          0.813739209      34.9364009       0.57269876       -54.4584135      0.57269876       -54.4584135      0.813739209      34.9364009       
1414.9           0.817225781      34.5928319       0.567772271      -54.8035316      0.567772271      -54.8035316      0.817225781      34.5928319       
1430.61          0.820640461      34.2534124       0.562885244      -55.1444138      0.562885244      -55.1444138      0.820640461      34.2534124       
1446.32          0.823984874      33.9180762       0.55803762       -55.4811272      0.55803762       -55.4811272      0.823984874      33.9180762       
1462.03          0.827260612      33.5867577       0.553229312      -55.8137385      0.553229312      -55.8137385      0.827260612      33.5867577       
1477.74          0.830469231      33.2593925       0.548460216      -56.142313       0.548460216      -56.142313       0.830469231      33.2593925       
1493.45          0.833612252      32.9359169       0.543730206      -56.4669154      0.543730206      -56.4669154      0.833612252      32.9359169       
1509.16          0.836691163      32.616268        0.539039135      -56.7876092      0.539039135      -56.7876092      0.836691163      32.616268        
1524.87          0.839707418      32.3003839       0.534386843      -57.1044571      0.534386843      -57.1044571      0.839707418      32.3003839       
1540.58          0.842662439      31.9882037       0.529773149      -57.4175209      0.529773149      -57.4175209      0.842662439      31.9882037       
1556.29          0.845557614      31.6796671       0.52519786       -57.7268613      0.52519786       -57.7268613      0.845557614      31.6796671       
1572             0.8483943        31.3747151       0.520660767      -58.0325382      0.520660767      -58.0325382      0.8483943        31.3747151       
1587.71          0.851173823      31.0732891       0.516161649      -58.3346104      0.516161649      -58.3346104      0.851173823      31.0732891       
1603.42          0.853897478      30.7753319       0.511700272      -58.6331359      0.511700272      -58.6331359      0.853897478      30.7753319       
1619.13          0.856566529      30.4807869       0.507276392      -58.9281717      0.507276392      -58.9281717      0.856566529      30.4807869       
1634.84          0.85918221       30.1895984       0.502889755      -59.2197737      0.502889755      -59.2197737      0.85918221       30.1895984       
1650.55          0.861745726      29.9017117       0.498540096      -59.5079972      0.498540096      -59.5079972      0.861745726      29.9017117       
1666.26          0.864258256      29.6170729       0.494227142      -59.7928963      0.494227142      -59.7928963      0.864258256      29.6170729       
1681.97          0.866720946      29.3356291       0.489950612      -60.0745243      0.489950612      -60.0745243      0.866720946      29.3356291       
1697.68          0.869134919      29.0573282       0.48571022       -60.3529335      0.48571022       -60.3529335      0.869134919      29.0573282       
1713.39          0.871501269      28.7821188       0.481505671      -60.6281755      0.481505671      -60.6281755      0.871501269      28.7821188       
1729.1           0.873821064      28.5099506       0.477336664      -60.9003006      0.477336664      -60.9003006      0.873821064      28.5099506       
1744.81          0.876095345      28.2407742       0.473202896      -61.1693587      0.473202896      -61.1693587      0.876095345      28.2407742       
1760.52          0.87832513       27.9745407       0.469104056      -61.4353985      0.469104056      -61.4353985      0.87832513       27.9745407       
1776.23          0.880511411      27.7112023       0.46503983       -61.6984678      0.46503983       -61.6984678      0.880511411      27.7112023       
1791.94          0.882655156      27.4507121       0.461009901      -61.9586139      0.461009901      -61.9586139      0.882655156      27.4507121       
1807.65          0.884757309      27.1930237       0.457013949      -62.2158828      0.457013949      -62.2158828      0.884757309      27.1930237       
1823.36          0.886818793      26.9380918       0.453051651      -62.47032        0.453051651      -62.47032        0.886818793      26.9380918       
1839.07          0.888840506      26.6858718       0.449122681      -62.72197        0.449122681      -62.72197        0.888840506      26.6858718       
1854.78          0.890823325      26.4363198       0.445226712      -62.9708764      0.445226712      -62.9708764      0.890823325      26.4363198       
1870.49          0.892768105      26.1893928       0.441363416      -63.2170823      0.441363416      -63.2170823      0.892768105      26.1893928       
1886.2           0.894675682      25.9450484       0.437532463      -63.4606298      0.437532463      -63.4606298      0.894675682      25.9450484       
1901.91          0.896546869      25.7032452       0.433733522      -63.7015602      0.433733522      -63.7015602      0.896546869      25.7032452       
1917.62          0.898382461      25.4639422       0.429966264      -63.939914       0.429966264      -63.939914       0.898382461      25.4639422       
1933.33          0.900183232      25.2270995       0.426230356      -64.1757312      0.426230356      -64.1757312      0.900183232      25.2270995       
1949.04          0.901949939      24.9926777       0.422525469      -64.4090507      0.422525469      -64.4090507      0.901949939      24.9926777       
1964.75          0.903683318      24.7606382       0.41885127       -64.6399108      0.41885127       -64.6399108      0.903683318      24.7606382       
1980.46          0.905384089      24.5309429       0.415207432      -64.8683492      0.415207432      -64.8683492      0.905384089      24.5309429       
1996.17          0.907052952      24.3035547       0.411593624      -65.0944028      0.411593624      -65.0944028      0.907052952      24.3035547       
