! Coilcraft 0603HC-24N Chip Inductor				
! 03 June 2002			
# MHZ S MA R 50
!Freq             MagS11           AngS11           MagS21           AngS21           MagS12           AngS12           MagS22           AngS22
1                0.00212377161    45.0654374       0.998501115      -0.086270536     0.998501115      -0.086270536     0.00212377161    45.0654374       
11.22            0.0170656519     80.4380301       0.997307144      -0.966854278     0.997307144      -0.966854278     0.0170656519     80.4380301       
21.44            0.0323653233     82.6177713       0.996358571      -1.846066        0.996358571      -1.846066        0.0323653233     82.6177713       
31.66            0.0476558387     82.9852069       0.995304518      -2.72385073      0.995304518      -2.72385073      0.0476558387     82.9852069       
41.88            0.0629134954     82.8098076       0.994087105      -3.59997151      0.994087105      -3.59997151      0.0629134954     82.8098076       
52.1             0.0781259053     82.3940525       0.992684381      -4.47414501      0.992684381      -4.47414501      0.0781259053     82.3940525       
62.32            0.0932828956     81.849599        0.991086213      -5.34606947      0.991086213      -5.34606947      0.0932828956     81.849599        
72.54            0.108375041      81.2280783       0.98928784       -6.21543562      0.98928784       -6.21543562      0.108375041      81.2280783       
82.76            0.123393301      80.5569929       0.987287448      -7.08193223      0.987287448      -7.08193223      0.123393301      80.5569929       
92.98            0.138328928      79.8525113       0.98508506       -7.94524947      0.98508506       -7.94524947      0.138328928      79.8525113       
103.2            0.153173435      79.1248637       0.982681968      -8.80508118      0.982681968      -8.80508118      0.153173435      79.1248637       
113.42           0.167918608      78.3809062       0.980080396      -9.66112655      0.980080396      -9.66112655      0.167918608      78.3809062       
123.64           0.182556519      77.6254524       0.977283292      -10.5130914      0.977283292      -10.5130914      0.182556519      77.6254524       
133.86           0.197079536      76.8620145       0.974294195      -11.3606892      0.974294195      -11.3606892      0.197079536      76.8620145       
144.08           0.211480348      76.0932403       0.971117129      -12.203642       0.971117129      -12.203642       0.211480348      76.0932403       
154.3            0.225751974      75.3211821       0.967756532      -13.0416812      0.967756532      -13.0416812      0.225751974      75.3211821       
164.52           0.239887779      74.5474694       0.964217188      -13.874548       0.964217188      -13.874548       0.239887779      74.5474694       
174.74           0.253881483      73.7734226       0.960504186      -14.7019941      0.960504186      -14.7019941      0.253881483      73.7734226       
184.96           0.267727175      73.0001314       0.956622869      -15.5237821      0.956622869      -15.5237821      0.267727175      73.0001314       
195.18           0.281419315      72.2285083       0.952578798      -16.3396858      0.952578798      -16.3396858      0.281419315      72.2285083       
205.4            0.29495274       71.4593278       0.948377719      -17.1494903      0.948377719      -17.1494903      0.29495274       71.4593278       
215.62           0.308322669      70.6932546       0.944025526      -17.9529926      0.944025526      -17.9529926      0.308322669      70.6932546       
225.84           0.321524704      69.930864        0.939528235      -18.7500017      0.939528235      -18.7500017      0.321524704      69.930864        
236.06           0.334554827      69.172658        0.934891956      -19.5403382      0.934891956      -19.5403382      0.334554827      69.172658        
246.28           0.347409397      68.4190771       0.930122866      -20.323835       0.930122866      -20.323835       0.347409397      68.4190771       
256.5            0.360085149      67.6705095       0.925227184      -21.1003368      0.925227184      -21.1003368      0.360085149      67.6705095       
266.72           0.372579186      66.9272988       0.920211151      -21.8697003      0.920211151      -21.8697003      0.372579186      66.9272988       
276.94           0.384888971      66.1897492       0.915081007      -22.631794       0.915081007      -22.631794       0.384888971      66.1897492       
287.16           0.397012321      65.4581311       0.909842968      -23.3864979      0.909842968      -23.3864979      0.397012321      65.4581311       
297.38           0.408947397      64.7326839       0.904503216      -24.1337038      0.904503216      -24.1337038      0.408947397      64.7326839       
307.6            0.420692691      64.0136199       0.899067874      -24.8733144      0.899067874      -24.8733144      0.420692691      64.0136199       
317.82           0.432247018      63.3011269       0.893542993      -25.6052435      0.893542993      -25.6052435      0.432247018      63.3011269       
328.04           0.443609502      62.59537         0.887934539      -26.3294159      0.887934539      -26.3294159      0.443609502      62.59537         
338.26           0.454779564      61.8964943       0.88224838       -27.0457665      0.88224838       -27.0457665      0.454779564      61.8964943       
348.48           0.465756909      61.2046258       0.876490273      -27.7542404      0.876490273      -27.7542404      0.465756909      61.2046258       
358.7            0.476541512      60.5198734       0.870665854      -28.4547926      0.870665854      -28.4547926      0.476541512      60.5198734       
368.92           0.487133606      59.8423301       0.86478063       -29.1473873      0.86478063       -29.1473873      0.487133606      59.8423301       
379.14           0.497533664      59.1720741       0.858839969      -29.8319979      0.858839969      -29.8319979      0.497533664      59.1720741       
389.36           0.50774239       58.5091701       0.852849095      -30.5086065      0.852849095      -30.5086065      0.50774239       58.5091701       
399.58           0.517760704      57.8536698       0.846813081      -31.1772034      0.846813081      -31.1772034      0.517760704      57.8536698       
409.8            0.527589723      57.2056134       0.840736847      -31.837787       0.840736847      -31.837787       0.527589723      57.2056134       
420.02           0.537230755      56.5650299       0.83462515       -32.490363       0.83462515       -32.490363       0.537230755      56.5650299       
430.24           0.54668528       55.9319381       0.828482588      -33.1349445      0.828482588      -33.1349445      0.54668528       55.9319381       
440.46           0.555954939      55.3063475       0.822313594      -33.7715512      0.822313594      -33.7715512      0.555954939      55.3063475       
450.68           0.565041522      54.6882586       0.816122434      -34.4002093      0.816122434      -34.4002093      0.565041522      54.6882586       
460.9            0.573946954      54.0776637       0.809913211      -35.0209508      0.809913211      -35.0209508      0.573946954      54.0776637       
471.12           0.582673281      53.4745475       0.803689859      -35.6338136      0.803689859      -35.6338136      0.582673281      53.4745475       
481.34           0.591222664      52.8788876       0.797456147      -36.2388409      0.797456147      -36.2388409      0.591222664      52.8788876       
491.56           0.599597362      52.2906553       0.791215682      -36.8360806      0.791215682      -36.8360806      0.599597362      52.2906553       
501.78           0.607799725      51.7098155       0.784971907      -37.4255854      0.784971907      -37.4255854      0.607799725      51.7098155       
512              0.615832181      51.1363277       0.778728103      -38.0074122      0.778728103      -38.0074122      0.615832181      51.1363277       
522.22           0.62369723       50.5701463       0.772487398      -38.5816217      0.772487398      -38.5816217      0.62369723       50.5701463       
532.44           0.631397429      50.011221        0.76625276       -39.1482784      0.76625276       -39.1482784      0.631397429      50.011221        
542.66           0.63893539       49.4594971       0.760027008      -39.7074502      0.760027008      -39.7074502      0.63893539       49.4594971       
552.88           0.646313767      48.914916        0.753812812      -40.2592076      0.753812812      -40.2592076      0.646313767      48.914916        
563.1            0.653535248      48.3774154       0.747612698      -40.8036244      0.747612698      -40.8036244      0.653535248      48.3774154       
573.32           0.660602551      47.84693         0.741429052      -41.3407766      0.741429052      -41.3407766      0.660602551      47.84693         
583.54           0.667518416      47.3233913       0.735264121      -41.8707423      0.735264121      -41.8707423      0.667518416      47.3233913       
593.76           0.674285595      46.8067282       0.729120022      -42.3936019      0.729120022      -42.3936019      0.674285595      46.8067282       
603.98           0.680906851      46.2968675       0.722998742      -42.9094375      0.722998742      -42.9094375      0.680906851      46.2968675       
614.2            0.68738495       45.7937337       0.716902144      -43.4183325      0.716902144      -43.4183325      0.68738495       45.7937337       
624.42           0.693722656      45.2972492       0.710831974      -43.9203719      0.710831974      -43.9203719      0.693722656      45.2972492       
634.64           0.699922728      44.8073354       0.704789858      -44.4156417      0.704789858      -44.4156417      0.699922728      44.8073354       
644.86           0.705987912      44.3239116       0.698777316      -44.904229       0.698777316      -44.904229       0.705987912      44.3239116       
655.08           0.71192094       43.8468965       0.692795757      -45.3862215      0.692795757      -45.3862215      0.71192094       43.8468965       
665.3            0.717724527      43.3762075       0.686846491      -45.8617077      0.686846491      -45.8617077      0.717724527      43.3762075       
675.52           0.723401364      42.9117611       0.680930727      -46.3307764      0.680930727      -46.3307764      0.723401364      42.9117611       
685.74           0.728954119      42.4534735       0.675049583      -46.7935169      0.675049583      -46.7935169      0.728954119      42.4534735       
695.96           0.734385432      42.00126         0.669204085      -47.2500186      0.669204085      -47.2500186      0.734385432      42.00126         
706.18           0.739697912      41.5550358       0.663395174      -47.7003708      0.663395174      -47.7003708      0.739697912      41.5550358       
716.4            0.744894139      41.1147158       0.657623708      -48.1446631      0.657623708      -48.1446631      0.744894139      41.1147158       
726.62           0.749976655      40.6802148       0.651890469      -48.5829847      0.651890469      -48.5829847      0.749976655      40.6802148       
736.84           0.754947971      40.2514477       0.646196162      -49.0154245      0.646196162      -49.0154245      0.754947971      40.2514477       
747.06           0.759810556      39.8283294       0.640541425      -49.4420713      0.640541425      -49.4420713      0.759810556      39.8283294       
757.28           0.764566846      39.4107752       0.634926824      -49.8630132      0.634926824      -49.8630132      0.764566846      39.4107752       
767.5            0.769219232      38.9987006       0.629352866      -50.2783378      0.629352866      -50.2783378      0.769219232      38.9987006       
777.72           0.77377007       38.5920214       0.623819995      -50.6881324      0.623819995      -50.6881324      0.77377007       38.5920214       
787.94           0.77822167       38.1906542       0.618328598      -51.0924834      0.618328598      -51.0924834      0.77822167       38.1906542       
798.16           0.782576304      37.7945158       0.612879008      -51.4914763      0.612879008      -51.4914763      0.782576304      37.7945158       
808.38           0.7868362        37.4035239       0.607471506      -51.8851964      0.607471506      -51.8851964      0.7868362        37.4035239       
818.6            0.791003545      37.0175967       0.602106327      -52.2737275      0.602106327      -52.2737275      0.791003545      37.0175967       
828.82           0.79508048       36.6366531       0.596783659      -52.6571531      0.596783659      -52.6571531      0.79508048       36.6366531       
839.04           0.799069108      36.2606129       0.591503645      -53.0355555      0.591503645      -53.0355555      0.799069108      36.2606129       
849.26           0.802971485      35.8893968       0.586266391      -53.4090161      0.586266391      -53.4090161      0.802971485      35.8893968       
859.48           0.806789627      35.522926        0.581071963      -53.7776153      0.581071963      -53.7776153      0.806789627      35.522926        
869.7            0.810525505      35.1611228       0.575920391      -54.1414327      0.575920391      -54.1414327      0.810525505      35.1611228       
879.92           0.81418105       34.8039106       0.570811672      -54.5005466      0.570811672      -54.5005466      0.81418105       34.8039106       
890.14           0.817758148      34.4512135       0.565745772      -54.8550345      0.565745772      -54.8550345      0.817758148      34.4512135       
900.36           0.821258647      34.1029565       0.560722627      -55.2049726      0.560722627      -55.2049726      0.821258647      34.1029565       
910.58           0.82468435       33.7590659       0.555742146      -55.5504361      0.555742146      -55.5504361      0.82468435       33.7590659       
920.8            0.828037022      33.4194686       0.550804211      -55.8914993      0.550804211      -55.8914993      0.828037022      33.4194686       
931.02           0.831318385      33.0840929       0.545908682      -56.2282352      0.545908682      -56.2282352      0.831318385      33.0840929       
941.24           0.834530123      32.7528679       0.541055395      -56.5607157      0.541055395      -56.5607157      0.834530123      32.7528679       
951.46           0.83767388       32.4257237       0.536244166      -56.8890116      0.536244166      -56.8890116      0.83767388       32.4257237       
961.68           0.840751261      32.1025917       0.531474792      -57.2131927      0.531474792      -57.2131927      0.840751261      32.1025917       
971.9            0.843763833      31.783404        0.526747052      -57.5333275      0.526747052      -57.5333275      0.843763833      31.783404        
982.12           0.846713126      31.468094        0.522060708      -57.8494835      0.522060708      -57.8494835      0.846713126      31.468094        
992.34           0.849600632      31.1565961       0.517415507      -58.161727       0.517415507      -58.161727       0.849600632      31.1565961       
1002.56          0.852427809      30.8488457       0.512811183      -58.4701233      0.512811183      -58.4701233      0.852427809      30.8488457       
1012.78          0.855196077      30.5447793       0.508247456      -58.7747365      0.508247456      -58.7747365      0.855196077      30.5447793       
1023             0.857906823      30.2443344       0.503724035      -59.0756297      0.503724035      -59.0756297      0.857906823      30.2443344       
1033.22          0.860561398      29.9474495       0.499240617      -59.3728646      0.499240617      -59.3728646      0.860561398      29.9474495       
1043.44          0.863161121      29.6540643       0.494796891      -59.6665023      0.494796891      -59.6665023      0.863161121      29.6540643       
1053.66          0.865707279      29.3641193       0.490392535      -59.9566023      0.490392535      -59.9566023      0.865707279      29.3641193       
1063.88          0.868201123      29.0775562       0.486027222      -60.2432234      0.486027222      -60.2432234      0.868201123      29.0775562       
1074.1           0.870643878      28.7943177       0.481700615      -60.5264232      0.481700615      -60.5264232      0.870643878      28.7943177       
1084.32          0.873036735      28.5143473       0.477412371      -60.8062582      0.477412371      -60.8062582      0.873036735      28.5143473       
1094.54          0.875380856      28.2375898       0.473162143      -61.082784       0.473162143      -61.082784       0.875380856      28.2375898       
1104.76          0.877677372      27.9639907       0.468949577      -61.3560551      0.468949577      -61.3560551      0.877677372      27.9639907       
1114.98          0.879927388      27.6934967       0.464774316      -61.6261248      0.464774316      -61.6261248      0.879927388      27.6934967       
1125.2           0.88213198       27.4260553       0.460635998      -61.8930457      0.460635998      -61.8930457      0.88213198       27.4260553       
1135.42          0.884292197      27.1616149       0.45653426       -62.1568692      0.45653426       -62.1568692      0.884292197      27.1616149       
1145.64          0.886409059      26.9001251       0.452468732      -62.4176458      0.452468732      -62.4176458      0.886409059      26.9001251       
1155.86          0.888483564      26.6415362       0.448439047      -62.6754251      0.448439047      -62.6754251      0.888483564      26.6415362       
1166.08          0.890516681      26.3857995       0.444444832      -62.9302555      0.444444832      -62.9302555      0.890516681      26.3857995       
1176.3           0.892509357      26.132867        0.440485715      -63.1821848      0.440485715      -63.1821848      0.892509357      26.132867        
1186.52          0.894462513      25.882692        0.436561323      -63.4312595      0.436561323      -63.4312595      0.894462513      25.882692        
1196.74          0.896377047      25.6352282       0.432671281      -63.6775256      0.432671281      -63.6775256      0.896377047      25.6352282       
1206.96          0.898253836      25.3904304       0.428815216      -63.9210279      0.428815216      -63.9210279      0.898253836      25.3904304       
1217.18          0.900093731      25.1482544       0.424992752      -64.1618103      0.424992752      -64.1618103      0.900093731      25.1482544       
1227.4           0.901897564      24.9086564       0.421203517      -64.3999161      0.421203517      -64.3999161      0.901897564      24.9086564       
1237.62          0.903666146      24.6715939       0.417447138      -64.6353875      0.417447138      -64.6353875      0.903666146      24.6715939       
1247.84          0.905400265      24.4370248       0.413723242      -64.868266       0.413723242      -64.868266       0.905400265      24.4370248       
1258.06          0.90710069       24.2049079       0.41003146       -65.0985921      0.41003146       -65.0985921      0.90710069       24.2049079       
1268.28          0.908768172      23.975203        0.406371421      -65.3264057      0.406371421      -65.3264057      0.908768172      23.975203        
1278.5           0.910403441      23.7478704       0.402742759      -65.5517457      0.402742759      -65.5517457      0.910403441      23.7478704       
1288.72          0.91200721       23.5228713       0.399145108      -65.7746504      0.399145108      -65.7746504      0.91200721       23.5228713       
1298.94          0.913580171      23.3001674       0.395578104      -65.9951572      0.395578104      -65.9951572      0.913580171      23.3001674       
