! Coilcraft 0603HC-3N6 Chip Inductor				
! 03 June 2002			
# MHZ S MA R 50
!Freq             MagS11           AngS11           MagS21           AngS21           MagS12           AngS12           MagS22           AngS22
1                0.000624977953   21.1925038       0.999417314      -0.0129524486    0.999417314      -0.0129524486    0.000624977953   21.1925038       
38.9             0.008860055      82.2269494       0.998840259      -0.503569792     0.998840259      -0.503569792     0.008860055      82.2269494       
76.8             0.0174005459     84.4553976       0.998468966      -0.993884703     0.998468966      -0.993884703     0.0174005459     84.4553976       
114.7            0.0259447862     85.0241668       0.998084396      -1.48393279      0.998084396      -1.48393279      0.0259447862     85.0241668       
152.6            0.0344850443     85.1198459       0.997658162      -1.97369618      0.997658162      -1.97369618      0.0344850443     85.1198459       
190.5            0.0430185695     85.0097117       0.997179269      -2.46314397      0.997179269      -2.46314397      0.0430185695     85.0097117       
228.4            0.0515435187     84.7899064       0.996642165      -2.9522395       0.996642165      -2.9522395       0.0515435187     84.7899064       
266.3            0.0600583144     84.5041349       0.996043654      -3.44094306      0.996043654      -3.44094306      0.0600583144     84.5041349       
304.2            0.0685614792     84.1753535       0.995381764      -3.92921311      0.995381764      -3.92921311      0.0685614792     84.1753535       
342.1            0.0770515809     83.8168772       0.994655233      -4.41700702      0.994655233      -4.41700702      0.0770515809     83.8168772       
380              0.085527213      83.4370117       0.993863253      -4.90428147      0.993863253      -4.90428147      0.085527213      83.4370117       
417.9            0.0939869862     83.0412358       0.993005323      -5.39099273      0.993005323      -5.39099273      0.0939869862     83.0412358       
455.8            0.102429525      82.6333277       0.992081165      -5.87709689      0.992081165      -5.87709689      0.102429525      82.6333277       
493.7            0.110853469      82.2159894       0.991090666      -6.36254998      0.991090666      -6.36254998      0.110853469      82.2159894       
531.6            0.119257469      81.791213        0.990033842      -6.84730806      0.990033842      -6.84730806      0.119257469      81.791213        
569.5            0.127640191      81.3605057       0.988910815      -7.33132739      0.988910815      -7.33132739      0.127640191      81.3605057       
607.4            0.136000319      80.9250335       0.987721794      -7.81456443      0.987721794      -7.81456443      0.136000319      80.9250335       
645.3            0.144336549      80.4857164       0.986467059      -8.29697593      0.986467059      -8.29697593      0.144336549      80.4857164       
683.2            0.152647597      80.043293        0.985146958      -8.77851899      0.985146958      -8.77851899      0.152647597      80.043293        
721.1            0.160932197      79.5983658       0.98376189       -9.25915112      0.98376189       -9.25915112      0.160932197      79.5983658       
759              0.169189101      79.1514328       0.98231231       -9.73883025      0.98231231       -9.73883025      0.169189101      79.1514328       
796.9            0.177417085      78.7029112       0.980798712      -10.2175148      0.980798712      -10.2175148      0.177417085      78.7029112       
834.8            0.185614941      78.2531546       0.979221637      -10.6951637      0.979221637      -10.6951637      0.185614941      78.2531546       
872.7            0.193781487      77.8024657       0.977581659      -11.1717365      0.977581659      -11.1717365      0.193781487      77.8024657       
910.6            0.201915562      77.3511063       0.97587939       -11.6471931      0.97587939       -11.6471931      0.201915562      77.3511063       
948.5            0.21001603       76.8993049       0.974115473      -12.1214943      0.974115473      -12.1214943      0.21001603       76.8993049       
986.4            0.218081778      76.4472624       0.972290581      -12.5946014      0.972290581      -12.5946014      0.218081778      76.4472624       
1024.3           0.226111719      75.9951571       0.970405415      -13.0664763      0.970405415      -13.0664763      0.226111719      75.9951571       
1062.2           0.234104792      75.5431478       0.968460703      -13.5370816      0.968460703      -13.5370816      0.234104792      75.5431478       
1100.1           0.24205996       75.0913777       0.966457197      -14.0063806      0.966457197      -14.0063806      0.24205996       75.0913777       
1138             0.249976216      74.6399757       0.964395671      -14.4743375      0.964395671      -14.4743375      0.249976216      74.6399757       
1175.9           0.257852577      74.1890594       0.962276922      -14.9409169      0.962276922      -14.9409169      0.257852577      74.1890594       
1213.8           0.26568809       73.7387357       0.960101764      -15.4060844      0.960101764      -15.4060844      0.26568809       73.7387357       
1251.7           0.273481828      73.2891031       0.957871032      -15.8698062      0.957871032      -15.8698062      0.273481828      73.2891031       
1289.6           0.281232896      72.840252        0.955585578      -16.3320495      0.955585578      -16.3320495      0.281232896      72.840252        
1327.5           0.288940422      72.3922662       0.95324627       -16.7927821      0.95324627       -16.7927821      0.288940422      72.3922662       
1365.4           0.296603568      71.9452233       0.950853988      -17.2519725      0.950853988      -17.2519725      0.296603568      71.9452233       
1403.3           0.304221522      71.4991956       0.948409628      -17.7095903      0.948409628      -17.7095903      0.304221522      71.4991956       
1441.2           0.311793502      71.0542504       0.945914099      -18.1656057      0.945914099      -18.1656057      0.311793502      71.0542504       
1479.1           0.319318757      70.6104507       0.943368319      -18.6199898      0.943368319      -18.6199898      0.319318757      70.6104507       
1517             0.326796562      70.1678555       0.940773218      -19.0727145      0.940773218      -19.0727145      0.326796562      70.1678555       
1554.9           0.334226225      69.7265204       0.938129733      -19.5237525      0.938129733      -19.5237525      0.334226225      69.7265204       
1592.8           0.341607081      69.2864973       0.935438811      -19.9730775      0.935438811      -19.9730775      0.341607081      69.2864973       
1630.7           0.348938495      68.8478355       0.932701406      -20.4206638      0.932701406      -20.4206638      0.348938495      68.8478355       
1668.6           0.356219862      68.4105812       0.929918476      -20.8664867      0.929918476      -20.8664867      0.356219862      68.4105812       
1706.5           0.363450605      67.974778        0.927090986      -21.3105224      0.927090986      -21.3105224      0.363450605      67.974778        
1744.4           0.370630178      67.5404671       0.924219904      -21.7527476      0.924219904      -21.7527476      0.370630178      67.5404671       
1782.3           0.377758061      67.1076877       0.921306203      -22.1931403      0.921306203      -22.1931403      0.377758061      67.1076877       
1820.2           0.384833766      66.6764764       0.918350856      -22.6316791      0.918350856      -22.6316791      0.384833766      66.6764764       
1858.1           0.391856831      66.2468681       0.915354839      -23.0683433      0.915354839      -23.0683433      0.391856831      66.2468681       
1896             0.398826822      65.8188958       0.912319129      -23.5031134      0.912319129      -23.5031134      0.398826822      65.8188958       
1933.9           0.405743335      65.3925906       0.909244702      -23.9359703      0.909244702      -23.9359703      0.405743335      65.3925906       
1971.8           0.412605993      64.967982        0.906132532      -24.366896       0.906132532      -24.366896       0.412605993      64.967982        
2009.7           0.419414444      64.5450977       0.902983594      -24.7958734      0.902983594      -24.7958734      0.419414444      64.5450977       
2047.6           0.426168366      64.1239642       0.899798859      -25.2228858      0.899798859      -25.2228858      0.426168366      64.1239642       
2085.5           0.43286746       63.7046061       0.896579294      -25.6479178      0.896579294      -25.6479178      0.43286746       63.7046061       
2123.4           0.439511457      63.287047        0.893325865      -26.0709544      0.893325865      -26.0709544      0.439511457      63.287047        
2161.3           0.446100111      62.8713088       0.890039532      -26.4919817      0.890039532      -26.4919817      0.446100111      62.8713088       
2199.2           0.452633201      62.4574123       0.886721249      -26.9109863      0.886721249      -26.9109863      0.452633201      62.4574123       
2237.1           0.459110533      62.0453771       0.883371965      -27.3279557      0.883371965      -27.3279557      0.459110533      62.0453771       
2275             0.465531936      61.6352215       0.879992624      -27.7428782      0.879992624      -27.7428782      0.465531936      61.6352215       
2312.9           0.471897261      61.2269625       0.876584163      -28.1557427      0.876584163      -28.1557427      0.471897261      61.2269625       
2350.8           0.478206386      60.8206162       0.87314751       -28.5665391      0.87314751       -28.5665391      0.478206386      60.8206162       
2388.7           0.484459209      60.4161976       0.869683586      -28.9752577      0.869683586      -28.9752577      0.484459209      60.4161976       
2426.6           0.490655651      60.0137207       0.866193306      -29.3818898      0.866193306      -29.3818898      0.490655651      60.0137207       
2464.5           0.496795655      59.6131982       0.862677572      -29.7864271      0.862677572      -29.7864271      0.496795655      59.6131982       
2502.4           0.502879185      59.2146422       0.859137282      -30.1888624      0.859137282      -30.1888624      0.502879185      59.2146422       
2540.3           0.508906226      58.8180636       0.85557332       -30.5891889      0.85557332       -30.5891889      0.508906226      58.8180636       
2578.2           0.514876784      58.4234725       0.851986563      -30.9874004      0.851986563      -30.9874004      0.514876784      58.4234725       
2616.1           0.520790882      58.0308782       0.848377876      -31.3834915      0.848377876      -31.3834915      0.520790882      58.0308782       
2654             0.526648564      57.6402889       0.844748115      -31.7774574      0.844748115      -31.7774574      0.526648564      57.6402889       
2691.9           0.532449893      57.2517123       0.841098125      -32.169294       0.841098125      -32.169294       0.532449893      57.2517123       
2729.8           0.538194949      56.8651549       0.837428738      -32.5589977      0.837428738      -32.5589977      0.538194949      56.8651549       
2767.7           0.543883829      56.4806229       0.833740778      -32.9465656      0.833740778      -32.9465656      0.543883829      56.4806229       
2805.6           0.549516648      56.0981213       0.830035053      -33.3319953      0.830035053      -33.3319953      0.549516648      56.0981213       
2843.5           0.555093536      55.7176546       0.826312364      -33.7152849      0.826312364      -33.7152849      0.555093536      55.7176546       
2881.4           0.56061464       55.3392266       0.822573496      -34.0964333      0.822573496      -34.0964333      0.56061464       55.3392266       
2919.3           0.566080122      54.9628404       0.818819225      -34.4754398      0.818819225      -34.4754398      0.566080122      54.9628404       
2957.2           0.571490158      54.5884984       0.815050312      -34.8523041      0.815050312      -34.8523041      0.571490158      54.5884984       
2995.1           0.576844939      54.2162024       0.811267507      -35.2270267      0.811267507      -35.2270267      0.576844939      54.2162024       
3033             0.582144669      53.8459535       0.807471547      -35.5996084      0.807471547      -35.5996084      0.582144669      53.8459535       
3070.9           0.587389564      53.4777524       0.803663157      -35.9700505      0.803663157      -35.9700505      0.587389564      53.4777524       
3108.8           0.592579856      53.1115989       0.799843048      -36.3383549      0.799843048      -36.3383549      0.592579856      53.1115989       
3146.7           0.597715786      52.7474926       0.796011919      -36.7045237      0.796011919      -36.7045237      0.597715786      52.7474926       
3184.6           0.602797607      52.3854323       0.792170456      -37.0685599      0.792170456      -37.0685599      0.602797607      52.3854323       
3222.5           0.607825584      52.0254164       0.788319331      -37.4304664      0.788319331      -37.4304664      0.607825584      52.0254164       
3260.4           0.612799992      51.6674428       0.784459205      -37.790247       0.784459205      -37.790247       0.612799992      51.6674428       
3298.3           0.617721116      51.3115088       0.780590725      -38.1479055      0.780590725      -38.1479055      0.617721116      51.3115088       
3336.2           0.622589252      50.9576113       0.776714525      -38.5034463      0.776714525      -38.5034463      0.622589252      50.9576113       
3374.1           0.627404702      50.6057469       0.772831225      -38.8568743      0.772831225      -38.8568743      0.627404702      50.6057469       
3412             0.63216778       50.2559114       0.768941435      -39.2081944      0.768941435      -39.2081944      0.63216778       50.2559114       
3449.9           0.636878806      49.9081006       0.765045749      -39.5574123      0.765045749      -39.5574123      0.636878806      49.9081006       
3487.8           0.641538109      49.5623096       0.761144749      -39.9045337      0.761144749      -39.9045337      0.641538109      49.5623096       
3525.7           0.646146025      49.2185332       0.757239005      -40.2495648      0.757239005      -40.2495648      0.646146025      49.2185332       
3563.6           0.650702897      48.8767659       0.753329075      -40.592512       0.753329075      -40.592512       0.650702897      48.8767659       
3601.5           0.655209075      48.5370017       0.749415502      -40.9333821      0.749415502      -40.9333821      0.655209075      48.5370017       
3639.4           0.659664914      48.1992344       0.745498818      -41.2721822      0.745498818      -41.2721822      0.659664914      48.1992344       
3677.3           0.664070776      47.8634573       0.741579542      -41.6089196      0.741579542      -41.6089196      0.664070776      47.8634573       
3715.2           0.668427027      47.5296636       0.737658181      -41.9436019      0.737658181      -41.9436019      0.668427027      47.5296636       
3753.1           0.67273404       47.197846        0.733735231      -42.276237       0.733735231      -42.276237       0.67273404       47.197846        
3791             0.67699219       46.867997        0.729811172      -42.6068331      0.729811172      -42.6068331      0.67699219       46.867997        
3828.9           0.681201858      46.5401088       0.725886476      -42.9353983      0.725886476      -42.9353983      0.681201858      46.5401088       
3866.8           0.68536343       46.2141733       0.721961601      -43.2619414      0.721961601      -43.2619414      0.68536343       46.2141733       
3904.7           0.689477293      45.8901823       0.718036995      -43.5864712      0.718036995      -43.5864712      0.689477293      45.8901823       
3942.6           0.69354384       45.5681271       0.714113092      -43.9089965      0.714113092      -43.9089965      0.69354384       45.5681271       
3980.5           0.697563464      45.247999        0.710190316      -44.2295267      0.710190316      -44.2295267      0.697563464      45.247999        
4018.4           0.701536563      44.929789        0.706269079      -44.548071       0.706269079      -44.548071       0.701536563      44.929789        
4056.3           0.705463536      44.6134878       0.702349784      -44.864639       0.702349784      -44.864639       0.705463536      44.6134878       
4094.2           0.709344787      44.2990861       0.69843282       -45.1792404      0.69843282       -45.1792404      0.709344787      44.2990861       
4132.1           0.713180717      43.9865742       0.694518566      -45.4918851      0.694518566      -45.4918851      0.713180717      43.9865742       
4170             0.716971734      43.6759424       0.690607391      -45.8025831      0.690607391      -45.8025831      0.716971734      43.6759424       
4207.9           0.720718242      43.3671807       0.686699654      -46.1113446      0.686699654      -46.1113446      0.720718242      43.3671807       
4245.8           0.72442065       43.060279        0.682795703      -46.4181797      0.682795703      -46.4181797      0.72442065       43.060279        
4283.7           0.728079367      42.755227        0.678895874      -46.723099       0.678895874      -46.723099       0.728079367      42.755227        
4321.6           0.731694802      42.4520144       0.675000495      -47.0261129      0.675000495      -47.0261129      0.731694802      42.4520144       
4359.5           0.735267364      42.1506305       0.671109885      -47.327232       0.671109885      -47.327232       0.735267364      42.1506305       
4397.4           0.738797463      41.8510648       0.66722435       -47.626467       0.66722435       -47.626467       0.738797463      41.8510648       
4435.3           0.742285509      41.5533065       0.663344191      -47.9238288      0.663344191      -47.9238288      0.742285509      41.5533065       
4473.2           0.745731912      41.2573446       0.659469695      -48.2193282      0.659469695      -48.2193282      0.745731912      41.2573446       
4511.1           0.74913708       40.9631683       0.655601142      -48.5129761      0.655601142      -48.5129761      0.74913708       40.9631683       
4549             0.752501424      40.6707664       0.651738804      -48.8047836      0.651738804      -48.8047836      0.752501424      40.6707664       
4586.9           0.755825349      40.3801278       0.647882943      -49.0947617      0.647882943      -49.0947617      0.755825349      40.3801278       
4624.8           0.759109264      40.0912412       0.644033811      -49.3829217      0.644033811      -49.3829217      0.759109264      40.0912412       
4662.7           0.762353575      39.8040954       0.640191655      -49.6692746      0.640191655      -49.6692746      0.762353575      39.8040954       
4700.6           0.765558686      39.5186789       0.63635671       -49.9538317      0.63635671       -49.9538317      0.765558686      39.5186789       
4738.5           0.768725002      39.2349803       0.632529205      -50.2366042      0.632529205      -50.2366042      0.768725002      39.2349803       
4776.4           0.771852923      38.9529882       0.628709361      -50.5176034      0.628709361      -50.5176034      0.771852923      38.9529882       
4814.3           0.774942851      38.672691        0.62489739       -50.7968407      0.62489739       -50.7968407      0.774942851      38.672691        
