! Coilcraft 1008CS-822 Chip Inductor				
! 02 July 2002			
# MHZ S MA R 50
!Freq             MagS11           AngS11           MagS21           AngS21           MagS12           AngS12           MagS22           AngS22
1                0.431763531      53.5700414       0.82074547       -25.0406571      0.82074547       -25.0406571      0.431763531      53.5700414       
1.25             0.509842346      50.2188003       0.779414042      -30.1787154      0.779414042      -30.1787154      0.509842346      50.2188003       
1.5              0.577000827      46.8247256       0.73710553       -34.8103932      0.73710553       -34.8103932      0.577000827      46.8247256       
1.75             0.634115391      43.5885067       0.695348733      -38.9585667      0.695348733      -38.9585667      0.634115391      43.5885067       
2                0.682386048      40.5887203       0.655166845      -42.6606848      0.655166845      -42.6606848      0.682386048      40.5887203       
2.25             0.723081202      37.8477339       0.617165123      -45.9607192      0.617165123      -45.9607192      0.723081202      37.8477339       
2.5              0.757397482      35.3612181       0.58164061       -48.9037532      0.58164061       -48.9037532      0.757397482      35.3612181       
2.75             0.786395848      33.1126382       0.548681033      -51.5327835      0.548681033      -51.5327835      0.786395848      33.1126382       
3                0.810983119      31.0806619       0.518241862      -53.8870975      0.518241862      -53.8870975      0.810983119      31.0806619       
3.25             0.831917446      29.2429555       0.490201379      -56.0016572      0.490201379      -56.0016572      0.831917446      29.2429555       
3.5              0.849824519      27.5780638       0.464397764      -57.9070673      0.464397764      -57.9070673      0.849824519      27.5780638       
3.75             0.865217074      26.0662602       0.440652894      -59.6298515      0.440652894      -59.6298515      0.865217074      26.0662602       
4                0.878513983      24.6898483       0.418786916      -61.1928655      0.418786916      -61.1928655      0.878513983      24.6898483       
4.25             0.890057284      23.4331774       0.398626689      -62.6157484      0.398626689      -62.6157484      0.890057284      23.4331774       
4.5              0.900126661      22.2825196       0.380010265      -63.9153618      0.380010265      -63.9153618      0.900126661      22.2825196       
4.75             0.908951402      21.2258872       0.362788913      -65.1061903      0.362788913      -65.1061903      0.908951402      21.2258872       
5                0.916720125      20.2528332       0.346827639      -66.2006952      0.346827639      -66.2006952      0.916720125      20.2528332       
5.25             0.923588597      19.3542568       0.332004851      -67.2096204      0.332004851      -67.2096204      0.923588597      19.3542568       
5.5              0.929686007      18.522225        0.318211558      -68.1422524      0.318211558      -68.1422524      0.929686007      18.522225        
5.75             0.935119974      17.7498127       0.305350342      -69.0066412      0.305350342      -69.0066412      0.935119974      17.7498127       
6                0.939980555      17.0309631       0.293334262      -69.8097858      0.293334262      -69.8097858      0.939980555      17.0309631       
6.25             0.944343447      16.3603669       0.282085769      -70.55779        0.282085769      -70.55779        0.944343447      16.3603669       
6.5              0.948272564      15.7333587       0.271535674      -71.2559938      0.271535674      -71.2559938      0.948272564      15.7333587       
6.75             0.951822105      15.1458285       0.261622209      -71.909083       0.261622209      -71.909083       0.951822105      15.1458285       
7                0.955038227      14.5941456       0.252290166      -72.5211821      0.252290166      -72.5211821      0.955038227      14.5941456       
7.25             0.957960403      14.0750944       0.24349014       -73.0959324      0.24349014       -73.0959324      0.957960403      14.0750944       
7.5              0.960622524      13.5858193       0.235177847      -73.6365575      0.235177847      -73.6365575      0.960622524      13.5858193       
7.75             0.963053802      13.1237777       0.227313529      -74.1459193      0.227313529      -74.1459193      0.963053802      13.1237777       
8                0.965279507      12.6866998       0.219861427      -74.6265656      0.219861427      -74.6265656      0.965279507      12.6866998       
8.25             0.967321582      12.2725541       0.212789323      -75.08077        0.212789323      -75.08077        0.967321582      12.2725541       
8.5              0.969199145      11.8795183       0.206068134      -75.5105665      0.206068134      -75.5105665      0.969199145      11.8795183       
8.75             0.970928907      11.5059531       0.199671562      -75.9177792      0.199671562      -75.9177792      0.970928907      11.5059531       
9                0.972525524      11.1503812       0.193575778      -76.3040473      0.193575778      -76.3040473      0.972525524      11.1503812       
9.25             0.974001887      10.8114677       0.187759156      -76.6708468      0.187759156      -76.6708468      0.974001887      10.8114677       
9.5              0.975369371      10.4880039       0.182202031      -77.0195097      0.182202031      -77.0195097      0.975369371      10.4880039       
9.75             0.976638037      10.1788931       0.17688649       -77.35124        0.17688649       -77.35124        0.976638037      10.1788931       
10               0.977816814      9.88313832       0.171796187      -77.6671277      0.171796187      -77.6671277      0.977816814      9.88313832       
10.25            0.978913642      9.59983103       0.166916184      -77.9681615      0.166916184      -77.9681615      0.978913642      9.59983103       
10.5             0.979935603      9.32814213       0.162232801      -78.2552392      0.162232801      -78.2552392      0.979935603      9.32814213       
10.75            0.980889027      9.06731342       0.157733497      -78.5291771      0.157733497      -78.5291771      0.980889027      9.06731342       
11               0.981779586      8.81665032       0.153406751      -78.7907184      0.153406751      -78.7907184      0.981779586      8.81665032       
11.25            0.982612372      8.57551549       0.149241964      -79.0405402      0.149241964      -79.0405402      0.982612372      8.57551549       
11.5             0.983391971      8.34332307       0.145229375      -79.2792598      0.145229375      -79.2792598      0.983391971      8.34332307       
11.75            0.984122515      8.1195337        0.141359975      -79.5074407      0.141359975      -79.5074407      0.984122515      8.1195337        
12               0.984807741      7.90365006       0.137625444      -79.7255969      0.137625444      -79.7255969      0.984807741      7.90365006       
12.25            0.98545103       7.69521288       0.134018081      -79.9341977      0.134018081      -79.9341977      0.98545103       7.69521288       
12.5             0.98605545       7.49379744       0.130530755      -80.1336715      0.130530755      -80.1336715      0.98605545       7.49379744       
12.75            0.986623791      7.2990104        0.127156849      -80.3244091      0.127156849      -80.3244091      0.986623791      7.2990104        
13               0.987158589      7.110487         0.12389022       -80.5067668      0.12389022       -80.5067668      0.987158589      7.110487         
13.25            0.98766216       6.92788852       0.120725153      -80.6810688      0.120725153      -80.6810688      0.98766216       6.92788852       
13.5             0.988136618      6.75090005       0.11765633       -80.8476101      0.11765633       -80.8476101      0.988136618      6.75090005       
13.75            0.988583896      6.57922843       0.114678792      -81.0066582      0.114678792      -81.0066582      0.988583896      6.57922843       
14               0.989005767      6.41260044       0.111787914      -81.1584551      0.111787914      -81.1584551      0.989005767      6.41260044       
14.25            0.989403855      6.25076113       0.108979374      -81.3032188      0.108979374      -81.3032188      0.989403855      6.25076113       
14.5             0.989779656      6.09347235       0.106249132      -81.4411448      0.106249132      -81.4411448      0.989779656      6.09347235       
14.75            0.990134543      5.94051139       0.103593405      -81.5724076      0.103593405      -81.5724076      0.990134543      5.94051139       
15               0.990469785      5.79166977       0.101008649      -81.6971615      0.101008649      -81.6971615      0.990469785      5.79166977       
15.25            0.990786548      5.64675212       0.0984915419     -81.8155414      0.0984915419     -81.8155414      0.990786548      5.64675212       
15.5             0.991085912      5.50557516       0.0960389632     -81.9276643      0.0960389632     -81.9276643      0.991085912      5.50557516       
15.75            0.991368877      5.36796684       0.0936479815     -82.033629       0.0936479815     -82.033629       0.991368877      5.36796684       
16               0.991636366      5.23376543       0.0913158405     -82.1335175      0.0913158405     -82.1335175      0.991636366      5.23376543       
16.25            0.991889237      5.10281882       0.0890399457     -82.2273951      0.0890399457     -82.2273951      0.991889237      5.10281882       
16.5             0.992128285      4.97498378       0.0868178532     -82.3153105      0.0868178532     -82.3153105      0.992128285      4.97498378       
16.75            0.99235425       4.85012536       0.0846472592     -82.3972963      0.0846472592     -82.3972963      0.99235425       4.85012536       
17               0.992567819      4.72811626       0.0825259902     -82.4733692      0.0825259902     -82.4733692      0.992567819      4.72811626       
17.25            0.992769633      4.60883636       0.080451994      -82.5435297      0.080451994      -82.5435297      0.992769633      4.60883636       
17.5             0.992960287      4.49217218       0.0784233317     -82.6077621      0.0784233317     -82.6077621      0.992960287      4.49217218       
17.75            0.993140339      4.37801642       0.0764381701     -82.6660344      0.0764381701     -82.6660344      0.993140339      4.37801642       
18               0.993310308      4.26626759       0.074494775      -82.7182977      0.074494775      -82.7182977      0.993310308      4.26626759       
18.25            0.993470681      4.15682962       0.0725915044     -82.7644862      0.0725915044     -82.7644862      0.993470681      4.15682962       
18.5             0.993621912      4.04961144       0.0707268028     -82.8045161      0.0707268028     -82.8045161      0.993621912      4.04961144       
18.75            0.993764427      3.94452676       0.0688991959     -82.8382854      0.0688991959     -82.8382854      0.993764427      3.94452676       
19               0.993898625      3.84149368       0.0671072857     -82.8656725      0.0671072857     -82.8656725      0.993898625      3.84149368       
19.25            0.99402488       3.74043447       0.0653497454     -82.8865357      0.0653497454     -82.8865357      0.99402488       3.74043447       
19.5             0.994143543      3.64127526       0.0636253156     -82.9007117      0.0636253156     -82.9007117      0.994143543      3.64127526       
19.75            0.994254944      3.54394587       0.0619327999     -82.9080145      0.0619327999     -82.9080145      0.994254944      3.54394587       
20               0.994359395      3.44837951       0.0602710619     -82.9082336      0.0602710619     -82.9082336      0.994359395      3.44837951       
20.25            0.994457186      3.35451263       0.0586390212     -82.9011322      0.0586390212     -82.9011322      0.994457186      3.35451263       
20.5             0.994548594      3.26228473       0.0570356503     -82.8864452      0.0570356503     -82.8864452      0.994548594      3.26228473       
20.75            0.994633876      3.17163814       0.0554599724     -82.8638771      0.0554599724     -82.8638771      0.994633876      3.17163814       
21               0.994713278      3.08251787       0.0539110578     -82.8330989      0.0539110578     -82.8330989      0.994713278      3.08251787       
21.25            0.994787031      2.99487151       0.0523880222     -82.7937452      0.0523880222     -82.7937452      0.994787031      2.99487151       
21.5             0.994855351      2.90864899       0.0508900239     -82.7454107      0.0508900239     -82.7454107      0.994855351      2.90864899       
21.75            0.994918446      2.82380254       0.0494162623     -82.6876461      0.0494162623     -82.6876461      0.994918446      2.82380254       
22               0.994976509      2.74028649       0.0479659754     -82.6199539      0.0479659754     -82.6199539      0.994976509      2.74028649       
22.25            0.995029725      2.6580572        0.0465384385     -82.5417827      0.0465384385     -82.5417827      0.995029725      2.6580572        
22.5             0.995078269      2.57707294       0.0451329625     -82.4525213      0.0451329625     -82.4525213      0.995078269      2.57707294       
22.75            0.995122305      2.49729377       0.0437488923     -82.351492       0.0437488923     -82.351492       0.995122305      2.49729377       
23               0.99516199       2.41868148       0.0423856062     -82.2379425      0.0423856062     -82.2379425      0.99516199       2.41868148       
23.25            0.995197473      2.34119946       0.0410425141     -82.1110366      0.0410425141     -82.1110366      0.995197473      2.34119946       
23.5             0.995228895      2.26481263       0.0397190571     -81.969844       0.0397190571     -81.969844       0.995228895      2.26481263       
23.75            0.99525639       2.18948739       0.0384147065     -81.8133273      0.0384147065     -81.8133273      0.99525639       2.18948739       
24               0.995280084      2.11519148       0.0371289635     -81.6403281      0.0371289635     -81.6403281      0.995280084      2.11519148       
24.25            0.9953001        2.041894         0.0358613588     -81.4495499      0.0358613588     -81.4495499      0.9953001        2.041894         
24.5             0.995316552      1.96956526       0.0346114522     -81.2395386      0.0346114522     -81.2395386      0.995316552      1.96956526       
24.75            0.995329549      1.89817676       0.0333788332     -81.0086591      0.0333788332     -81.0086591      0.995329549      1.89817676       
25               0.995339197      1.82770113       0.0321631214     -80.7550677      0.0321631214     -80.7550677      0.995339197      1.82770113       
25.25            0.995345594      1.75811208       0.0309639668     -80.4766795      0.0309639668     -80.4766795      0.995345594      1.75811208       
25.5             0.995348835      1.68938431       0.0297810513     -80.1711298      0.0297810513     -80.1711298      0.995348835      1.68938431       
25.75            0.99534901       1.62149354       0.0286140903     -79.8357271      0.0286140903     -79.8357271      0.99534901       1.62149354       
26               0.995346206      1.55441636       0.027462835      -79.4673971      0.027462835      -79.4673971      0.995346206      1.55441636       
26.25            0.995340505      1.48813028       0.0263270748     -79.062615       0.0263270748     -79.062615       0.995340505      1.48813028       
26.5             0.995331985      1.42261364       0.0252066415     -78.6173228      0.0252066415     -78.6173228      0.995331985      1.42261364       
26.75            0.995320722      1.35784557       0.0241014137     -78.1268287      0.0241014137     -78.1268287      0.995320722      1.35784557       
27               0.995306788      1.29380598       0.0230113231     -77.5856834      0.0230113231     -77.5856834      0.995306788      1.29380598       
27.25            0.99529025       1.23047551       0.0219363625     -76.9875268      0.0219363625     -76.9875268      0.99529025       1.23047551       
27.5             0.995271175      1.16783549       0.0208765951     -76.3248981      0.0208765951     -76.3248981      0.995271175      1.16783549       
27.75            0.995249626      1.10586793       0.0198321682     -75.5889982      0.0198321682     -75.5889982      0.995249626      1.10586793       
28               0.995225663      1.04455547       0.0188033292     -74.7693915      0.0188033292     -74.7693915      0.995225663      1.04455547       
28.25            0.995199343      0.983881352      0.0177904473     -73.8536293      0.0177904473     -73.8536293      0.995199343      0.983881352      
28.5             0.995170722      0.923829417      0.0167940415     -72.8267716      0.0167940415     -72.8267716      0.995170722      0.923829417      
28.75            0.995139853      0.864384057      0.0158148178     -71.6707793      0.0158148178     -71.6707793      0.995139853      0.864384057      
29               0.995106787      0.805530202      0.0148537174     -70.3637386      0.0148537174     -70.3637386      0.995106787      0.805530202      
29.25            0.995071572      0.747253291      0.0139119825     -68.8788734      0.0139119825     -68.8788734      0.995071572      0.747253291      
29.5             0.995034256      0.689539257      0.0129912432     -67.1832931      0.0129912432     -67.1832931      0.995034256      0.689539257      
29.75            0.994994883      0.632374504      0.0120936353     -65.2364278      0.0120936353     -65.2364278      0.994994883      0.632374504      
30               0.994953496      0.575745885      0.0112219594     -62.9881197      0.0112219594     -62.9881197      0.994953496      0.575745885      
30.25            0.994910138      0.519640687      0.0103798952     -60.3764155      0.0103798952     -60.3764155      0.994910138      0.519640687      
30.5             0.994864848      0.464046614      0.00957228648    -57.3252766      0.00957228648    -57.3252766      0.994864848      0.464046614      
30.75            0.994817665      0.408951766      0.00880551277    -53.7428156      0.00880551277    -53.7428156      0.994817665      0.408951766      
31               0.994768626      0.354344629      0.00808794581    -49.5214459      0.00808794581    -49.5214459      0.994768626      0.354344629      
31.25            0.994717765      0.300214053      0.00743045254    -44.5427122      0.00743045254    -44.5427122      0.994717765      0.300214053      
31.5             0.994665118      0.246549245      0.00684680851    -38.6915257      0.00684680851    -38.6915257      0.994665118      0.246549245      
31.75            0.994610718      0.19333975       0.00635371248    -31.8859581      0.00635371248    -31.8859581      0.994610718      0.19333975       
32               0.994554596      0.140575438      0.00596986806    -24.1258932      0.00596986806    -24.1258932      0.994554596      0.140575438      
32.25            0.994496783      0.088246496      0.00571353924    -15.5503567      0.00571353924    -15.5503567      0.994496783      0.088246496      
32.5             0.994437309      0.0363434106     0.00559853939    -6.46921343      0.00559853939    -6.46921343      0.994437309      0.0363434106     
32.75            0.994376202      -0.0151430401    0.00562996982    2.67556542       0.00562996982    2.67556542       0.994376202      -0.0151430401    
