! Coilcraft 1008CS-222 Chip Inductor				
! 02 July 2002			
# MHZ S MA R 50
!Freq             MagS11           AngS11           MagS21           AngS21           MagS12           AngS12           MagS22           AngS22
1                0.139315591      61.6853754       0.941939733      -7.48156732      0.941939733      -7.48156732      0.139315591      61.6853754       
1.75             0.229254642      63.0989702       0.919295832      -12.8497459      0.919295832      -12.8497459      0.229254642      63.0989702       
2.5              0.313902616      61.0943368       0.89166884       -17.9496578      0.89166884       -17.9496578      0.313902616      61.0943368       
3.25             0.391450526      58.1158857       0.860059815      -22.7350616      0.860059815      -22.7350616      0.391450526      58.1158857       
4                0.461198451      54.8721357       0.825805063      -27.1786735      0.825805063      -27.1786735      0.461198451      54.8721357       
4.75             0.52308686       51.6420386       0.790185491      -31.2712851      0.790185491      -31.2712851      0.52308686       51.6420386       
5.5              0.577471503      48.5494174       0.754275342      -35.0181674      0.754275342      -35.0181674      0.577471503      48.5494174       
6.25             0.624952582      45.6487278       0.718896866      -38.4347951      0.718896866      -38.4347951      0.624952582      45.6487278       
7                0.666245523      42.9595647       0.684631101      -41.5429307      0.684631101      -41.5429307      0.666245523      42.9595647       
7.75             0.70209165       40.483111        0.651854708      -44.3675088      0.651854708      -44.3675088      0.70209165       40.483111        
8.5              0.733202724      38.2108566       0.620784388      -46.9343952      0.620784388      -46.9343952      0.733202724      38.2108566       
9.25             0.760230891      36.1294936       0.591518876      -49.2689114      0.591518876      -49.2689114      0.760230891      36.1294936       
10               0.783755853      34.2237261       0.564074212      -51.3949508      0.564074212      -51.3949508      0.783755853      34.2237261       
10.75            0.804282724      32.4778769       0.538411316      -53.3345168      0.538411316      -53.3345168      0.804282724      32.4778769       
11.5             0.822245872      30.8767785       0.514456473      -55.1075435      0.514456473      -55.1075435      0.822245872      30.8767785       
12.25            0.838015687      29.406235        0.492115997      -56.7318909      0.492115997      -56.7318909      0.838015687      29.406235        
13               0.851906395      28.0532276       0.471286378      -58.2234445      0.471286378      -58.2234445      0.851906395      28.0532276       
13.75            0.864183847      26.8059711       0.451861097      -59.5962668      0.451861097      -59.5962668      0.864183847      26.8059711       
14.5             0.875072741      25.6538847       0.433735023      -60.8627727      0.433735023      -60.8627727      0.875072741      25.6538847       
15.25            0.884763043      24.5875179       0.41680714       -62.0339071      0.41680714       -62.0339071      0.884763043      24.5875179       
16               0.893415543      23.5984565       0.400982108      -63.1193158      0.400982108      -63.1193158      0.893415543      23.5984565       
16.75            0.901166583      22.6792204       0.386171043      -64.1275031      0.386171043      -64.1275031      0.901166583      22.6792204       
17.5             0.908132041      21.8231641       0.372291791      -65.0659743      0.372291791      -65.0659743      0.908132041      21.8231641       
18.25            0.914410658      21.0243821       0.359268872      -65.941362       0.359268872      -65.941362       0.914410658      21.0243821       
19               0.920086814      20.277623        0.347033221      -66.7595372      0.347033221      -66.7595372      0.920086814      20.277623        
19.75            0.925232831      19.5782116       0.335521824      -67.5257068      0.335521824      -67.5257068      0.925232831      19.5782116       
20.5             0.929910885      18.9219796       0.324677284      -68.2444976      0.324677284      -68.2444976      0.929910885      18.9219796       
21.25            0.934174597      18.305205        0.314447377      -68.92003        0.314447377      -68.92003        0.934174597      18.305205        
22               0.938070352      17.7245583       0.304784609      -69.5559811      0.304784609      -69.5559811      0.938070352      17.7245583       
22.75            0.941638401      17.1770554       0.295645781      -70.1556394      0.295645781      -70.1556394      0.941638401      17.1770554       
23.5             0.944913776      16.6600169       0.286991596      -70.7219526      0.286991596      -70.7219526      0.944913776      16.6600169       
24.25            0.94792706       16.1710325       0.27878628       -71.2575686      0.27878628       -71.2575686      0.94792706       16.1710325       
25               0.950705029      15.7079293       0.270997244      -71.764871       0.270997244      -71.764871       0.950705029      15.7079293       
25.75            0.953271193      15.2687449       0.263594772      -72.2460099      0.263594772      -72.2460099      0.953271193      15.2687449       
26.5             0.955646252      14.8517035       0.256551739      -72.7029292      0.256551739      -72.7029292      0.955646252      14.8517035       
27.25            0.957848479      14.4551953       0.249843357      -73.1373896      0.249843357      -73.1373896      0.957848479      14.4551953       
28               0.959894051      14.0777578       0.24344695       -73.550989       0.24344695       -73.550989       0.959894051      14.0777578       
28.75            0.961797322      13.7180605       0.237341744      -73.9451807      0.237341744      -73.9451807      0.961797322      13.7180605       
29.5             0.963571061      13.3748902       0.231508689      -74.3212884      0.231508689      -74.3212884      0.963571061      13.3748902       
30.25            0.965226655      13.0471393       0.225930287      -74.6805206      0.225930287      -74.6805206      0.965226655      13.0471393       
31               0.96677428       12.7337944       0.220590454      -75.023982       0.220590454      -75.023982       0.96677428       12.7337944       
31.75            0.968223052      12.4339271       0.215474377      -75.3526846      0.215474377      -75.3526846      0.968223052      12.4339271       
32.5             0.969581156      12.1466852       0.210568405      -75.6675568      0.210568405      -75.6675568      0.969581156      12.1466852       
33.25            0.970855951      11.8712854       0.205859936      -75.9694514      0.205859936      -75.9694514      0.970855951      11.8712854       
34               0.972054075      11.6070068       0.201337326      -76.2591538      0.201337326      -76.2591538      0.972054075      11.6070068       
34.75            0.97318152       11.3531845       0.196989801      -76.5373874      0.196989801      -76.5373874      0.97318152       11.3531845       
35.5             0.97424371       11.1092047       0.192807378      -76.8048205      0.192807378      -76.8048205      0.97424371       11.1092047       
36.25            0.975245559      10.8744999       0.188780803      -77.0620703      0.188780803      -77.0620703      0.975245559      10.8744999       
37               0.976191534      10.6485447       0.184901478      -77.3097086      0.184901478      -77.3097086      0.976191534      10.6485447       
37.75            0.977085694      10.4308518       0.181161414      -77.5482652      0.181161414      -77.5482652      0.977085694      10.4308518       
38.5             0.977931742      10.2209693       0.177553175      -77.7782319      0.177553175      -77.7782319      0.977931742      10.2209693       
39.25            0.978733054      10.0184768       0.174069832      -78.0000656      0.174069832      -78.0000656      0.978733054      10.0184768       
40               0.979492717      9.82298328       0.170704925      -78.2141915      0.170704925      -78.2141915      0.979492717      9.82298328       
40.75            0.98021356       9.63412443       0.167452422      -78.4210057      0.167452422      -78.4210057      0.98021356       9.63412443       
41.5             0.980898172      9.45156047       0.164306685      -78.6208775      0.164306685      -78.6208775      0.980898172      9.45156047       
42.25            0.981548934      9.27497412       0.16126244       -78.8141518      0.16126244       -78.8141518      0.981548934      9.27497412       
43               0.982168034      9.10406883       0.158314749      -79.0011508      0.158314749      -79.0011508      0.982168034      9.10406883       
43.75            0.982757484      8.93856712       0.155458983      -79.1821761      0.155458983      -79.1821761      0.982757484      8.93856712       
44.5             0.983319142      8.77820906       0.152690799      -79.3575101      0.152690799      -79.3575101      0.983319142      8.77820906       
45.25            0.983854722      8.62275098       0.15000612       -79.5274176      0.15000612       -79.5274176      0.983854722      8.62275098       
46               0.984365807      8.47196419       0.147401114      -79.6921468      0.147401114      -79.6921468      0.984365807      8.47196419       
46.75            0.984853863      8.32563385       0.144872174      -79.8519312      0.144872174      -79.8519312      0.984853863      8.32563385       
47.5             0.985320246      8.18355798       0.142415908      -80.0069901      0.142415908      -80.0069901      0.985320246      8.18355798       
48.25            0.985766216      8.04554651       0.140029117      -80.1575298      0.140029117      -80.1575298      0.985766216      8.04554651       
49               0.986192941      7.91142043       0.137708787      -80.3037447      0.137708787      -80.3037447      0.986192941      7.91142043       
49.75            0.986601508      7.78101096       0.13545207       -80.4458179      0.13545207       -80.4458179      0.986601508      7.78101096       
50.5             0.986992926      7.65415891       0.13325628       -80.5839222      0.13325628       -80.5839222      0.986992926      7.65415891       
51.25            0.987368137      7.53071395       0.131118876      -80.7182206      0.131118876      -80.7182206      0.987368137      7.53071395       
52               0.987728017      7.41053405       0.129037456      -80.8488672      0.129037456      -80.8488672      0.987728017      7.41053405       
52.75            0.988073386      7.29348489       0.127009746      -80.9760076      0.127009746      -80.9760076      0.988073386      7.29348489       
53.5             0.988405007      7.17943938       0.125033591      -81.0997794      0.125033591      -81.0997794      0.988405007      7.17943938       
54.25            0.988723595      7.06827715       0.123106949      -81.2203133      0.123106949      -81.2203133      0.988723595      7.06827715       
55               0.989029819      6.95988412       0.121227885      -81.3377326      0.121227885      -81.3377326      0.989029819      6.95988412       
55.75            0.989324305      6.85415213       0.119394561      -81.4521544      0.119394561      -81.4521544      0.989324305      6.85415213       
56.5             0.989607639      6.75097853       0.117605231      -81.5636899      0.117605231      -81.5636899      0.989607639      6.75097853       
57.25            0.989880372      6.65026585       0.115858237      -81.6724445      0.115858237      -81.6724445      0.989880372      6.65026585       
58               0.990143021      6.55192147       0.114152002      -81.7785181      0.114152002      -81.7785181      0.990143021      6.55192147       
58.75            0.990396071      6.45585735       0.112485027      -81.8820061      0.112485027      -81.8820061      0.990396071      6.45585735       
59.5             0.990639978      6.36198969       0.110855881      -81.9829988      0.110855881      -81.9829988      0.990639978      6.36198969       
60.25            0.990875172      6.27023878       0.109263206      -82.0815821      0.109263206      -82.0815821      0.990875172      6.27023878       
61               0.991102058      6.18052865       0.107705705      -82.1778381      0.107705705      -82.1778381      0.991102058      6.18052865       
61.75            0.991321015      6.09278693       0.106182141      -82.2718446      0.106182141      -82.2718446      0.991321015      6.09278693       
62.5             0.991532404      6.00694459       0.104691335      -82.363676       0.104691335      -82.363676       0.991532404      6.00694459       
63.25            0.991736563      5.9229358        0.103232161      -82.4534029      0.103232161      -82.4534029      0.991736563      5.9229358        
64               0.991933813      5.84069769       0.101803544      -82.541093       0.101803544      -82.541093       0.991933813      5.84069769       
64.75            0.992124456      5.76017025       0.100404457      -82.6268106      0.100404457      -82.6268106      0.992124456      5.76017025       
65.5             0.992308778      5.68129611       0.0990339171     -82.7106171      0.0990339171     -82.7106171      0.992308778      5.68129611       
66.25            0.992487049      5.60402043       0.0976909851     -82.7925714      0.0976909851     -82.7925714      0.992487049      5.60402043       
67               0.992659525      5.52829077       0.0963747619     -82.8727293      0.0963747619     -82.8727293      0.992659525      5.52829077       
67.75            0.99282645       5.45405694       0.0950843871     -82.9511445      0.0950843871     -82.9511445      0.99282645       5.45405694       
68.5             0.992988052      5.38127089       0.0938190363     -83.0278682      0.0938190363     -83.0278682      0.992988052      5.38127089       
69.25            0.993144549      5.30988659       0.0925779198     -83.1029493      0.0925779198     -83.1029493      0.993144549      5.30988659       
70               0.993296149      5.23985994       0.0913602804     -83.1764346      0.0913602804     -83.1764346      0.993296149      5.23985994       
70.75            0.993443048      5.17114866       0.0901653919     -83.248369       0.0901653919     -83.248369       0.993443048      5.17114866       
71.5             0.993585431      5.1037122        0.0889925578     -83.3187954      0.0889925578     -83.3187954      0.993585431      5.1037122        
72.25            0.993723477      5.03751165       0.0878411094     -83.3877547      0.0878411094     -83.3877547      0.993723477      5.03751165       
73               0.993857354      4.97250968       0.0867104046     -83.4552864      0.0867104046     -83.4552864      0.993857354      4.97250968       
73.75            0.993987221      4.90867041       0.0855998266     -83.5214281      0.0855998266     -83.5214281      0.993987221      4.90867041       
74.5             0.994113232      4.8459594        0.0845087828     -83.5862158      0.0845087828     -83.5862158      0.994113232      4.8459594        
75.25            0.994235532      4.78434353       0.0834367035     -83.6496842      0.0834367035     -83.6496842      0.994235532      4.78434353       
76               0.994354259      4.72379098       0.0823830406     -83.7118664      0.0823830406     -83.7118664      0.994354259      4.72379098       
76.75            0.994469544      4.66427114       0.0813472671     -83.7727941      0.0813472671     -83.7727941      0.994469544      4.66427114       
77.5             0.994581514      4.60575455       0.0803288757     -83.8324979      0.0803288757     -83.8324979      0.994581514      4.60575455       
78.25            0.994690289      4.54821286       0.0793273779     -83.8910069      0.0793273779     -83.8910069      0.994690289      4.54821286       
79               0.994795983      4.49161878       0.0783423035     -83.9483492      0.0783423035     -83.9483492      0.994795983      4.49161878       
79.75            0.994898706      4.43594602       0.0773731993     -84.0045516      0.0773731993     -84.0045516      0.994898706      4.43594602       
80.5             0.994998561      4.38116925       0.0764196285     -84.0596399      0.0764196285     -84.0596399      0.994998561      4.38116925       
81.25            0.995095649      4.32726407       0.0754811703     -84.1136389      0.0754811703     -84.1136389      0.995095649      4.32726407       
82               0.995190065      4.27420694       0.0745574187     -84.1665722      0.0745574187     -84.1665722      0.995190065      4.27420694       
82.75            0.995281901      4.22197517       0.073647982      -84.2184626      0.073647982      -84.2184626      0.995281901      4.22197517       
83.5             0.995371243      4.17054685       0.0727524823     -84.2693319      0.0727524823     -84.2693319      0.995371243      4.17054685       
84.25            0.995458176      4.11990085       0.0718705549     -84.3192011      0.0718705549     -84.3192011      0.995458176      4.11990085       
85               0.995542778      4.07001678       0.0710018477     -84.3680903      0.0710018477     -84.3680903      0.995542778      4.07001678       
85.75            0.995625128      4.02087494       0.0701460204     -84.4160186      0.0701460204     -84.4160186      0.995625128      4.02087494       
86.5             0.995705298      3.97245631       0.0693027444     -84.4630046      0.0693027444     -84.4630046      0.995705298      3.97245631       
87.25            0.99578336       3.92474249       0.0684717021     -84.5090659      0.0684717021     -84.5090659      0.99578336       3.92474249       
88               0.995859379      3.87771573       0.0676525867     -84.5542195      0.0676525867     -84.5542195      0.995859379      3.87771573       
88.75            0.995933422      3.83135884       0.0668451011     -84.5984816      0.0668451011     -84.5984816      0.995933422      3.83135884       
89.5             0.99600555       3.78565522       0.0660489583     -84.6418679      0.0660489583     -84.6418679      0.99600555       3.78565522       
90.25            0.996075823      3.7405888        0.0652638806     -84.6843931      0.0652638806     -84.6843931      0.996075823      3.7405888        
91               0.996144299      3.69614403       0.0644895992     -84.7260716      0.0644895992     -84.7260716      0.996144299      3.69614403       
91.75            0.996211032      3.65230587       0.0637258539     -84.7669169      0.0637258539     -84.7669169      0.996211032      3.65230587       
92.5             0.996276075      3.60905976       0.0629723927     -84.8069421      0.0629723927     -84.8069421      0.996276075      3.60905976       
93.25            0.99633948       3.56639159       0.0622289718     -84.8461597      0.0622289718     -84.8461597      0.99633948       3.56639159       
94               0.996401295      3.5242877        0.0614953547     -84.8845815      0.0614953547     -84.8845815      0.996401295      3.5242877        
94.75            0.996461567      3.48273486       0.0607713125     -84.9222188      0.0607713125     -84.9222188      0.996461567      3.48273486       
95.5             0.996520341      3.44172024       0.0600566234     -84.9590825      0.0600566234     -84.9590825      0.996520341      3.44172024       
96.25            0.996577661      3.40123142       0.059351072      -84.9951829      0.059351072      -84.9951829      0.996577661      3.40123142       
