! Coilcraft 1008CS-330 Chip Inductor				
! 02 July 2002			
# MHZ S MA R 50
!Freq             MagS11           AngS11           MagS21           AngS21           MagS12           AngS12           MagS22           AngS22
1                0.00256583211    53.6730479       0.998482161      -0.118619782     0.998482161      -0.118619782     0.00256583211    53.6730479       
8.23             0.0171995613     80.735961        0.997375608      -0.975215147     0.997375608      -0.975215147     0.0171995613     80.735961        
15.46            0.0320863708     82.7577222       0.996463537      -1.83053057      0.996463537      -1.83053057      0.0320863708     82.7577222       
22.69            0.0469632788     83.1001499       0.995450528      -2.68450065      0.995450528      -2.68450065      0.0469632788     83.1001499       
29.92            0.0618090685     82.9269526       0.994283         -3.53690214      0.994283         -3.53690214      0.0618090685     82.9269526       
37.15            0.0766123338     82.5229246       0.992940281      -4.38746966      0.992940281      -4.38746966      0.0766123338     82.5229246       
44.38            0.0913636397     81.994481        0.991412711      -5.23592086      0.991412711      -5.23592086      0.0913636397     81.994481        
51.61            0.106054222      81.3911822       0.989695667      -6.08196637      0.989695667      -6.08196637      0.106054222      81.3911822       
58.84            0.120675664      80.7395524       0.987787299      -6.92531485      0.987787299      -6.92531485      0.120675664      80.7395524       
66.07            0.135219808      80.0552358       0.98568749       -7.76567605      0.98568749       -7.76567605      0.135219808      80.0552358       
73.3             0.149678733      79.3481539       0.983397312      -8.60276291      0.983397312      -8.60276291      0.149678733      79.3481539       
80.53            0.164044762      78.6249666       0.980918718      -9.4362931       0.980918718      -9.4362931       0.164044762      78.6249666       
87.76            0.178310471      77.8903548       0.978254341      -10.2659902      0.978254341      -10.2659902      0.178310471      77.8903548       
94.99            0.192468704      77.1477366       0.975407367      -11.0915846      0.975407367      -11.0915846      0.192468704      77.1477366       
102.22           0.206512591      76.3996897       0.972381439      -11.9128145      0.972381439      -11.9128145      0.206512591      76.3996897       
109.45           0.220435559      75.6482125       0.969180587      -12.7294263      0.969180587      -12.7294263      0.220435559      75.6482125       
116.68           0.234231346      74.8948918       0.965809172      -13.5411754      0.965809172      -13.5411754      0.234231346      74.8948918       
123.91           0.24789401       74.1410136       0.96227184       -14.3478266      0.96227184       -14.3478266      0.24789401       74.1410136       
131.14           0.26141794       73.3876389       0.95857348       -15.1491545      0.95857348       -15.1491545      0.26141794       73.3876389       
138.37           0.274797862      72.6356566       0.95471919       -15.9449439      0.95471919       -15.9449439      0.274797862      72.6356566       
145.6            0.288028842      71.8858211       0.950714244      -16.73499        0.950714244      -16.73499        0.288028842      71.8858211       
152.83           0.301106295      71.1387802       0.946564063      -17.5190987      0.946564063      -17.5190987      0.301106295      71.1387802       
160.06           0.31402598       70.3950949       0.94227419       -18.2970865      0.94227419       -18.2970865      0.31402598       70.3950949       
167.29           0.326784002      69.6552552       0.937850262      -19.068781       0.937850262      -19.068781       0.326784002      69.6552552       
174.52           0.339376815      68.9196914       0.933297986      -19.8340207      0.933297986      -19.8340207      0.339376815      68.9196914       
181.75           0.35180121       68.1887836       0.92862312       -20.5926551      0.92862312       -20.5926551      0.35180121       68.1887836       
188.98           0.364054321      67.4628685       0.92383145       -21.3445444      0.92383145       -21.3445444      0.364054321      67.4628685       
196.21           0.37613361       66.7422454       0.918928771      -22.08956        0.918928771      -22.08956        0.37613361       66.7422454       
203.44           0.388036865      66.0271802       0.913920866      -22.8275838      0.913920866      -22.8275838      0.388036865      66.0271802       
210.67           0.399762191      65.31791         0.908813495      -23.5585082      0.908813495      -23.5585082      0.399762191      65.31791         
217.9            0.411308002      64.6146454       0.903612374      -24.2822364      0.903612374      -24.2822364      0.411308002      64.6146454       
225.13           0.422673011      63.9175734       0.898323163      -24.9986813      0.898323163      -24.9986813      0.422673011      63.9175734       
232.36           0.433856217      63.2268598       0.892951451      -25.7077662      0.892951451      -25.7077662      0.433856217      63.2268598       
239.59           0.4448569        62.5426506       0.887502747      -26.4094238      0.887502747      -26.4094238      0.4448569        62.5426506       
246.82           0.455674603      61.865074        0.881982464      -27.1035965      0.881982464      -27.1035965      0.455674603      61.865074        
254.05           0.466309126      61.1942416       0.876395913      -27.7902357      0.876395913      -27.7902357      0.466309126      61.1942416       
261.28           0.47676051       60.53025         0.870748294      -28.4693016      0.870748294      -28.4693016      0.47676051       60.53025         
268.51           0.487029025      59.8731814       0.865044684      -29.1407631      0.865044684      -29.1407631      0.487029025      59.8731814       
275.74           0.497115161      59.2231049       0.859290036      -29.8045971      0.859290036      -29.8045971      0.497115161      59.2231049       
282.97           0.507019613      58.5800777       0.853489169      -30.4607887      0.853489169      -30.4607887      0.507019613      58.5800777       
290.2            0.516743267      57.9441452       0.847646764      -31.1093301      0.847646764      -31.1093301      0.516743267      57.9441452       
297.43           0.526287192      57.3153426       0.841767362      -31.7502209      0.841767362      -31.7502209      0.526287192      57.3153426       
304.66           0.535652625      56.693695        0.835855357      -32.3834676      0.835855357      -32.3834676      0.535652625      56.693695        
311.89           0.544840958      56.0792186       0.829914998      -33.0090832      0.829914998      -33.0090832      0.544840958      56.0792186       
319.12           0.553853731      55.4719207       0.82395038       -33.6270867      0.82395038       -33.6270867      0.553853731      55.4719207       
326.35           0.562692615      54.8718007       0.817965453      -34.237503       0.817965453      -34.237503       0.562692615      54.8718007       
333.58           0.571359404      54.2788509       0.811964012      -34.8403627      0.811964012      -34.8403627      0.571359404      54.2788509       
340.81           0.579856004      53.6930562       0.805949704      -35.4357011      0.805949704      -35.4357011      0.579856004      53.6930562       
348.04           0.588184424      53.1143954       0.799926024      -36.0235587      0.799926024      -36.0235587      0.588184424      53.1143954       
355.27           0.596346761      52.5428413       0.793896319      -36.6039804      0.793896319      -36.6039804      0.596346761      52.5428413       
362.5            0.604345197      51.9783612       0.787863786      -37.1770154      0.787863786      -37.1770154      0.604345197      51.9783612       
369.73           0.612181986      51.4209173       0.781831479      -37.7427167      0.781831479      -37.7427167      0.612181986      51.4209173       
376.96           0.619859445      50.870467        0.775802308      -38.3011409      0.775802308      -38.3011409      0.619859445      50.870467        
384.19           0.627379948      50.3269634       0.76977904       -38.8523481      0.76977904       -38.8523481      0.627379948      50.3269634       
391.42           0.634745915      49.7903559       0.763764307      -39.3964013      0.763764307      -39.3964013      0.634745915      49.7903559       
398.65           0.641959809      49.2605899       0.757760603      -39.9333664      0.757760603      -39.9333664      0.641959809      49.2605899       
405.88           0.649024125      48.7376076       0.751770292      -40.4633119      0.751770292      -40.4633119      0.649024125      48.7376076       
413.11           0.655941385      48.2213483       0.745795609      -40.9863085      0.745795609      -40.9863085      0.655941385      48.2213483       
420.34           0.662714131      47.7117485       0.739838664      -41.5024292      0.739838664      -41.5024292      0.662714131      47.7117485       
427.57           0.669344922      47.2087422       0.733901445      -42.0117487      0.733901445      -42.0117487      0.669344922      47.2087422       
434.8            0.675836325      46.7122612       0.727985824      -42.5143434      0.727985824      -42.5143434      0.675836325      46.7122612       
442.03           0.682190911      46.2222352       0.722093559      -43.0102911      0.722093559      -43.0102911      0.682190911      46.2222352       
449.26           0.688411251      45.7385925       0.716226297      -43.4996712      0.716226297      -43.4996712      0.688411251      45.7385925       
456.49           0.694499913      45.2612596       0.71038558       -43.9825638      0.71038558       -43.9825638      0.694499913      45.2612596       
463.72           0.700459456      44.7901616       0.704572847      -44.4590503      0.704572847      -44.4590503      0.700459456      44.7901616       
470.95           0.706292425      44.3252227       0.69878944       -44.9292125      0.69878944       -44.9292125      0.706292425      44.3252227       
478.18           0.712001351      43.8663658       0.693036606      -45.3931331      0.693036606      -45.3931331      0.712001351      43.8663658       
485.41           0.717588748      43.4135134       0.6873155        -45.8508953      0.6873155        -45.8508953      0.717588748      43.4135134       
492.64           0.723057105      42.9665869       0.681627192      -46.3025825      0.681627192      -46.3025825      0.723057105      42.9665869       
499.87           0.728408891      42.5255076       0.675972668      -46.7482785      0.675972668      -46.7482785      0.728408891      42.5255076       
507.1            0.733646546      42.0901961       0.670352834      -47.188067       0.670352834      -47.188067       0.733646546      42.0901961       
514.33           0.738772484      41.6605729       0.66476852       -47.6220319      0.66476852       -47.6220319      0.738772484      41.6605729       
521.56           0.743789088      41.2365583       0.659220483      -48.050257       0.659220483      -48.050257       0.743789088      41.2365583       
528.79           0.748698708      40.8180727       0.653709412      -48.4728258      0.653709412      -48.4728258      0.748698708      40.8180727       
536.02           0.753503664      40.4050363       0.64823593       -48.8898217      0.64823593       -48.8898217      0.753503664      40.4050363       
543.25           0.75820624       39.9973698       0.642800594      -49.3013275      0.642800594      -49.3013275      0.75820624       39.9973698       
550.48           0.762808686      39.5949938       0.637403905      -49.7074258      0.637403905      -49.7074258      0.762808686      39.5949938       
557.71           0.767313214      39.1978295       0.632046306      -50.1081986      0.632046306      -50.1081986      0.767313214      39.1978295       
564.94           0.771722         38.8057983       0.626728185      -50.5037275      0.626728185      -50.5037275      0.771722         38.8057983       
572.17           0.776037183      38.4188223       0.621449882      -50.8940932      0.621449882      -50.8940932      0.776037183      38.4188223       
579.4            0.780260863      38.0368238       0.616211684      -51.2793759      0.616211684      -51.2793759      0.780260863      38.0368238       
586.63           0.784395102      37.659726        0.611013837      -51.6596553      0.611013837      -51.6596553      0.784395102      37.659726        
593.86           0.788441924      37.2874525       0.605856541      -52.0350098      0.605856541      -52.0350098      0.788441924      37.2874525       
601.09           0.792403314      36.9199277       0.600739956      -52.4055177      0.600739956      -52.4055177      0.792403314      36.9199277       
608.32           0.796281215      36.5570767       0.595664203      -52.7712558      0.595664203      -52.7712558      0.796281215      36.5570767       
615.55           0.800077537      36.1988252       0.590629368      -53.1323005      0.590629368      -53.1323005      0.800077537      36.1988252       
622.78           0.803794145      35.8451          0.585635501      -53.4887272      0.585635501      -53.4887272      0.803794145      35.8451          
630.01           0.807432869      35.4958284       0.580682622      -53.8406102      0.580682622      -53.8406102      0.807432869      35.4958284       
637.24           0.810995499      35.1509387       0.575770718      -54.1880231      0.575770718      -54.1880231      0.810995499      35.1509387       
644.47           0.814483788      34.81036         0.570899751      -54.5310385      0.570899751      -54.5310385      0.814483788      34.81036         
651.7            0.81789945       34.4740224       0.566069654      -54.869728       0.566069654      -54.869728       0.81789945       34.4740224       
658.93           0.821244161      34.1418567       0.561280336      -55.2041621      0.561280336      -55.2041621      0.821244161      34.1418567       
666.16           0.824519561      33.8137949       0.556531684      -55.5344105      0.556531684      -55.5344105      0.824519561      33.8137949       
673.39           0.827727253      33.4897697       0.55182356       -55.8605418      0.55182356       -55.8605418      0.827727253      33.4897697       
680.62           0.830868803      33.1697148       0.54715581       -56.1826236      0.54715581       -56.1826236      0.830868803      33.1697148       
687.85           0.833945742      32.8535649       0.542528258      -56.5007226      0.542528258      -56.5007226      0.833945742      32.8535649       
695.08           0.836959564      32.5412555       0.537940711      -56.8149043      0.537940711      -56.8149043      0.836959564      32.5412555       
702.31           0.839911732      32.2327232       0.533392962      -57.1252333      0.533392962      -57.1252333      0.839911732      32.2327232       
709.54           0.842803671      31.9279056       0.528884786      -57.4317731      0.528884786      -57.4317731      0.842803671      31.9279056       
716.77           0.845636774      31.6267411       0.524415947      -57.7345862      0.524415947      -57.7345862      0.845636774      31.6267411       
724              0.848412401      31.3291691       0.519986193      -58.0337343      0.519986193      -58.0337343      0.848412401      31.3291691       
731.23           0.85113188       31.0351302       0.515595263      -58.3292777      0.515595263      -58.3292777      0.85113188       31.0351302       
738.46           0.853796505      30.7445656       0.511242885      -58.6212761      0.511242885      -58.6212761      0.853796505      30.7445656       
745.69           0.856407543      30.4574176       0.506928774      -58.9097879      0.506928774      -58.9097879      0.856407543      30.4574176       
752.92           0.858966226      30.1736295       0.50265264       -59.1948707      0.50265264       -59.1948707      0.858966226      30.1736295       
760.15           0.861473759      29.8931456       0.498414183      -59.4765809      0.498414183      -59.4765809      0.861473759      29.8931456       
767.38           0.863931316      29.6159108       0.494213094      -59.7549742      0.494213094      -59.7549742      0.863931316      29.6159108       
774.61           0.866340043      29.3418713       0.490049061      -60.0301051      0.490049061      -60.0301051      0.866340043      29.3418713       
781.84           0.868701058      29.0709741       0.485921763      -60.3020272      0.485921763      -60.3020272      0.868701058      29.0709741       
789.07           0.871015452      28.8031671       0.481830874      -60.5707933      0.481830874      -60.5707933      0.871015452      28.8031671       
796.3            0.873284287      28.5383989       0.477776064      -60.8364551      0.477776064      -60.8364551      0.873284287      28.5383989       
803.53           0.875508601      28.2766194       0.473756999      -61.0990633      0.473756999      -61.0990633      0.875508601      28.2766194       
810.76           0.877689405      28.0177791       0.469773342      -61.358668       0.469773342      -61.358668       0.877689405      28.0177791       
817.99           0.879827687      27.7618293       0.46582475       -61.6153181      0.46582475       -61.6153181      0.879827687      27.7618293       
825.22           0.881924407      27.5087225       0.461910881      -61.8690618      0.461910881      -61.8690618      0.881924407      27.5087225       
832.45           0.883980504      27.2584117       0.458031388      -62.1199461      0.458031388      -62.1199461      0.883980504      27.2584117       
839.68           0.885996892      27.010851        0.454185923      -62.3680176      0.454185923      -62.3680176      0.885996892      27.010851        
846.91           0.887974463      26.765995        0.450374139      -62.6133216      0.450374139      -62.6133216      0.887974463      26.765995        
854.14           0.889914088      26.5237995       0.446595685      -62.8559029      0.446595685      -62.8559029      0.889914088      26.5237995       
861.37           0.891816613      26.2842209       0.44285021       -63.0958053      0.44285021       -63.0958053      0.891816613      26.2842209       
868.6            0.893682866      26.0472164       0.439137363      -63.3330718      0.439137363      -63.3330718      0.893682866      26.0472164       
875.83           0.895513652      25.8127439       0.435456795      -63.5677446      0.435456795      -63.5677446      0.895513652      25.8127439       
883.06           0.897309758      25.5807623       0.431808153      -63.7998651      0.431808153      -63.7998651      0.897309758      25.5807623       
890.29           0.899071951      25.3512309       0.428191089      -64.0294739      0.428191089      -64.0294739      0.899071951      25.3512309       
897.52           0.900800977      25.1241102       0.424605253      -64.2566109      0.424605253      -64.2566109      0.900800977      25.1241102       
904.75           0.902497566      24.8993611       0.421050296      -64.4813153      0.421050296      -64.4813153      0.902497566      24.8993611       
911.98           0.904162427      24.6769452       0.417525872      -64.7036253      0.417525872      -64.7036253      0.904162427      24.6769452       
919.21           0.905796253      24.456825        0.414031636      -64.9235786      0.414031636      -64.9235786      0.905796253      24.456825        
