! Coilcraft 1008CS-180 Chip Inductor				
! 02 July 2002			
# MHZ S MA R 50
!Freq             MagS11           AngS11           MagS21           AngS21           MagS12           AngS12           MagS22           AngS22
1                0.00173292929    40.6111234       0.998685093      -0.0647148113    0.998685093      -0.0647148113    0.00173292929    40.6111234       
12.47            0.0142296855     80.6613302       0.997789751      -0.806303956     0.997789751      -0.806303956     0.0142296855     80.6613302       
23.94            0.027116915      83.0806987       0.99709664       -1.54704807      0.99709664       -1.54704807      0.027116915      83.0806987       
35.41            0.0400069566     83.5991127       0.996333408      -2.28693066      0.996333408      -2.28693066      0.0400069566     83.5991127       
46.88            0.0528798341     83.5593197       0.995456047      -3.02581793      0.995456047      -3.02581793      0.0528798341     83.5593197       
58.35            0.0657268257     83.2748877       0.994447586      -3.76354592      0.994447586      -3.76354592      0.0657268257     83.2748877       
69.82            0.0785413738     82.8601196       0.993299851      -4.49993807      0.993299851      -4.49993807      0.0785413738     82.8601196       
81.29            0.0913176024     82.3673498       0.992008606      -5.23481193      0.992008606      -5.23481193      0.0913176024     82.3673498       
92.76            0.104049937      81.8242104       0.990571735      -5.96798253      0.990571735      -5.96798253      0.104049937      81.8242104       
104.23           0.116732982      81.246807        0.988988421      -6.69926435      0.988988421      -6.69926435      0.116732982      81.246807        
115.7            0.129361484      80.6452408       0.987258717      -7.42847258      0.987258717      -7.42847258      0.129361484      80.6452408       
127.17           0.141930318      80.0262189       0.985383307      -8.1554241       0.985383307      -8.1554241       0.141930318      80.0262189       
138.64           0.154434487      79.3944039       0.983363358      -8.87993814      0.983363358      -8.87993814      0.154434487      79.3944039       
150.11           0.166869128      78.7531625       0.981200423      -9.60183688      0.981200423      -9.60183688      0.166869128      78.7531625       
161.58           0.179229518      78.1050052       0.978896372      -10.3209459      0.978896372      -10.3209459      0.179229518      78.1050052       
173.05           0.191511082      77.4518564       0.976453349      -11.0370947      0.976453349      -11.0370947      0.191511082      77.4518564       
184.52           0.203709398      76.795227        0.973873729      -11.7501169      0.973873729      -11.7501169      0.203709398      76.795227        
195.99           0.215820206      76.1363285       0.971160089      -12.4598504      0.971160089      -12.4598504      0.215820206      76.1363285       
207.46           0.227839411      75.4761504       0.968315189      -13.1661382      0.968315189      -13.1661382      0.227839411      75.4761504       
218.93           0.239763093      74.8155143       0.965341945      -13.868828       0.965341945      -13.868828       0.239763093      74.8155143       
230.4            0.251587505      74.1551122       0.962243413      -14.5677727      0.962243413      -14.5677727      0.251587505      74.1551122       
241.87           0.263309085      73.4955342       0.959022772      -15.2628307      0.959022772      -15.2628307      0.263309085      73.4955342       
253.34           0.27492445       72.8372896       0.955683312      -15.9538657      0.955683312      -15.9538657      0.27492445       72.8372896       
264.81           0.286430408      72.1808216       0.952228415      -16.6407471      0.952228415      -16.6407471      0.286430408      72.1808216       
276.28           0.297823951      71.5265196       0.948661544      -17.3233501      0.948661544      -17.3233501      0.297823951      71.5265196       
287.75           0.309102261      70.8747282       0.944986232      -18.0015555      0.944986232      -18.0015555      0.309102261      70.8747282       
299.22           0.32026271       70.2257536       0.941206068      -18.6752501      0.941206068      -18.6752501      0.32026271       70.2257536       
310.69           0.331302858      69.5798702       0.93732469       -19.3443265      0.93732469       -19.3443265      0.331302858      69.5798702       
322.16           0.342220453      68.9373242       0.933345767      -20.0086833      0.933345767      -20.0086833      0.342220453      68.9373242       
333.63           0.353013431      68.2983374       0.929272998      -20.6682248      0.929272998      -20.6682248      0.353013431      68.2983374       
345.1            0.363679909      67.6631103       0.925110095      -21.3228615      0.925110095      -21.3228615      0.363679909      67.6631103       
356.57           0.374218189      67.0318244       0.920860778      -21.9725094      0.920860778      -21.9725094      0.374218189      67.0318244       
368.04           0.38462675       66.404644        0.916528766      -22.6170907      0.916528766      -22.6170907      0.38462675       66.404644        
379.51           0.394904248      65.781718        0.912117767      -23.2565329      0.912117767      -23.2565329      0.394904248      65.781718        
390.98           0.405049509      65.1631815       0.907631473      -23.8907696      0.907631473      -23.8907696      0.405049509      65.1631815       
402.45           0.415061527      64.5491566       0.90307355       -24.5197397      0.90307355       -24.5197397      0.415061527      64.5491566       
413.92           0.424939458      63.9397537       0.898447634      -25.1433878      0.898447634      -25.1433878      0.424939458      63.9397537       
425.39           0.434682619      63.3350724       0.893757324      -25.7616637      0.893757324      -25.7616637      0.434682619      63.3350724       
436.86           0.444290477      62.7352023       0.889006175      -26.3745226      0.889006175      -26.3745226      0.444290477      62.7352023       
448.33           0.453762647      62.1402235       0.884197693      -26.9819247      0.884197693      -26.9819247      0.453762647      62.1402235       
459.8            0.463098889      61.5502073       0.879335331      -27.5838355      0.879335331      -27.5838355      0.463098889      61.5502073       
471.27           0.472299097      60.965217        0.874422486      -28.1802251      0.874422486      -28.1802251      0.472299097      60.965217        
482.74           0.481363299      60.3853082       0.86946249       -28.7710685      0.86946249       -28.7710685      0.481363299      60.3853082       
494.21           0.490291647      59.8105291       0.864458613      -29.3563452      0.864458613      -29.3563452      0.490291647      59.8105291       
505.68           0.499084412      59.2409213       0.859414052      -29.9360392      0.859414052      -29.9360392      0.499084412      59.2409213       
517.15           0.507741981      58.6765201       0.854331936      -30.5101388      0.854331936      -30.5101388      0.507741981      58.6765201       
528.62           0.516264849      58.1173545       0.849215319      -31.0786364      0.849215319      -31.0786364      0.516264849      58.1173545       
540.09           0.524653613      57.5634481       0.844067178      -31.6415284      0.844067178      -31.6415284      0.524653613      57.5634481       
551.56           0.532908967      57.0148189       0.838890413      -32.1988151      0.838890413      -32.1988151      0.532908967      57.0148189       
563.03           0.541031695      56.4714802       0.833687844      -32.7505003      0.833687844      -32.7505003      0.541031695      56.4714802       
574.5            0.549022669      55.9334401       0.828462211      -33.2965915      0.828462211      -33.2965915      0.549022669      55.9334401       
585.97           0.55688284       55.4007026       0.823216171      -33.8370994      0.823216171      -33.8370994      0.55688284       55.4007026       
597.44           0.564613233      54.8732672       0.817952302      -34.3720378      0.817952302      -34.3720378      0.564613233      54.8732672       
608.91           0.572214945      54.3511297       0.812673095      -34.9014239      0.812673095      -34.9014239      0.572214945      54.3511297       
620.38           0.579689134      53.8342818       0.807380963      -35.4252773      0.807380963      -35.4252773      0.579689134      53.8342818       
631.85           0.58703702       53.322712        0.802078235      -35.9436209      0.802078235      -35.9436209      0.58703702       53.322712        
643.32           0.594259879      52.8164052       0.796767156      -36.4564796      0.796767156      -36.4564796      0.594259879      52.8164052       
654.79           0.601359033      52.3153435       0.791449892      -36.9638812      0.791449892      -36.9638812      0.601359033      52.3153435       
666.26           0.608335854      51.8195058       0.786128528      -37.4658555      0.786128528      -37.4658555      0.608335854      51.8195058       
677.73           0.615191753      51.3288685       0.780805066      -37.9624347      0.780805066      -37.9624347      0.615191753      51.3288685       
689.2            0.621928178      50.8434053       0.775481432      -38.4536528      0.775481432      -38.4536528      0.621928178      50.8434053       
700.67           0.628546611      50.3630876       0.770159473      -38.9395458      0.770159473      -38.9395458      0.628546611      50.3630876       
712.14           0.635048565      49.8878845       0.764840958      -39.4201515      0.764840958      -39.4201515      0.635048565      49.8878845       
723.61           0.641435575      49.4177633       0.759527584      -39.8955094      0.759527584      -39.8955094      0.641435575      49.4177633       
735.08           0.647709201      48.952689        0.754220969      -40.3656602      0.754220969      -40.3656602      0.647709201      48.952689        
746.55           0.653871022      48.4926252       0.748922663      -40.8306465      0.748922663      -40.8306465      0.653871022      48.4926252       
758.02           0.659922632      48.0375336       0.743634143      -41.2905118      0.743634143      -41.2905118      0.659922632      48.0375336       
769.49           0.665865638      47.5873746       0.738356816      -41.7453009      0.738356816      -41.7453009      0.665865638      47.5873746       
780.96           0.671701659      47.1421071       0.733092023      -42.1950597      0.733092023      -42.1950597      0.671701659      47.1421071       
792.43           0.677432318      46.7016889       0.727841039      -42.6398352      0.727841039      -42.6398352      0.677432318      46.7016889       
803.9            0.683059247      46.2660764       0.722605072      -43.0796751      0.722605072      -43.0796751      0.683059247      46.2660764       
815.37           0.688584077      45.8352252       0.717385271      -43.514628       0.717385271      -43.514628       0.688584077      45.8352252       
826.84           0.694008442      45.4090899       0.712182723      -43.9447433      0.712182723      -43.9447433      0.694008442      45.4090899       
838.31           0.699333974      44.9876243       0.706998456      -44.3700708      0.706998456      -44.3700708      0.699333974      44.9876243       
849.78           0.7045623        44.5707813       0.701833442      -44.790661       0.701833442      -44.790661       0.7045623        44.5707813       
861.25           0.709695043      44.1585133       0.696688596      -45.2065649      0.696688596      -45.2065649      0.709695043      44.1585133       
872.72           0.71473382       43.7507721       0.691564781      -45.6178339      0.691564781      -45.6178339      0.71473382       43.7507721       
884.19           0.719680237      43.347509        0.686462808      -46.0245196      0.686462808      -46.0245196      0.719680237      43.347509        
895.66           0.724535892      42.9486748       0.681383438      -46.4266739      0.681383438      -46.4266739      0.724535892      42.9486748       
907.13           0.729302372      42.5542201       0.676327384      -46.8243492      0.676327384      -46.8243492      0.729302372      42.5542201       
918.6            0.733981249      42.164095        0.671295313      -47.2175976      0.671295313      -47.2175976      0.733981249      42.164095        
930.07           0.738574085      41.7782497       0.666287846      -47.6064717      0.666287846      -47.6064717      0.738574085      41.7782497       
941.54           0.743082425      41.3966339       0.661305562      -47.9910238      0.661305562      -47.9910238      0.743082425      41.3966339       
953.01           0.747507799      41.0191974       0.656349         -48.3713065      0.656349         -48.3713065      0.747507799      41.0191974       
964.48           0.751851721      40.6458898       0.651418655      -48.7473721      0.651418655      -48.7473721      0.751851721      40.6458898       
975.95           0.756115688      40.2766609       0.646514989      -49.119273       0.646514989      -49.119273       0.756115688      40.2766609       
987.42           0.760301179      39.9114604       0.641638423      -49.4870612      0.641638423      -49.4870612      0.760301179      39.9114604       
998.89           0.764409654      39.5502379       0.636789346      -49.850789       0.636789346      -49.850789       0.764409654      39.5502379       
1010.36          0.768442556      39.1929436       0.631968111      -50.2105079      0.631968111      -50.2105079      0.768442556      39.1929436       
1021.83          0.772401307      38.8395273       0.627175041      -50.5662697      0.627175041      -50.5662697      0.772401307      38.8395273       
1033.3           0.77628731       38.4899395       0.622410425      -50.9181255      0.622410425      -50.9181255      0.77628731       38.4899395       
1044.77          0.780101947      38.1441305       0.617674527      -51.2661264      0.617674527      -51.2661264      0.780101947      38.1441305       
1056.24          0.783846581      37.8020512       0.612967578      -51.610323       0.612967578      -51.610323       0.783846581      37.8020512       
1067.71          0.787522554      37.4636525       0.608289786      -51.9507657      0.608289786      -51.9507657      0.787522554      37.4636525       
1079.18          0.791131186      37.1288858       0.60364133       -52.2875043      0.60364133       -52.2875043      0.791131186      37.1288858       
1090.65          0.794673778      36.7977028       0.599022367      -52.6205885      0.599022367      -52.6205885      0.794673778      36.7977028       
1102.12          0.798151608      36.4700555       0.594433029      -52.9500673      0.594433029      -52.9500673      0.798151608      36.4700555       
1113.59          0.801565934      36.1458963       0.589873428      -53.2759895      0.589873428      -53.2759895      0.801565934      36.1458963       
1125.06          0.804917992      35.8251779       0.585343652      -53.5984032      0.585343652      -53.5984032      0.804917992      35.8251779       
1136.53          0.808208999      35.5078536       0.580843771      -53.9173564      0.580843771      -53.9173564      0.808208999      35.5078536       
1148             0.811440147      35.1938771       0.576373834      -54.2328963      0.576373834      -54.2328963      0.811440147      35.1938771       
1159.47          0.814612611      34.8832023       0.571933874      -54.5450697      0.571933874      -54.5450697      0.814612611      34.8832023       
1170.94          0.817727543      34.5757838       0.567523906      -54.853923       0.567523906      -54.853923       0.817727543      34.5757838       
1182.41          0.820786073      34.2715765       0.563143927      -55.159502       0.563143927      -55.159502       0.820786073      34.2715765       
1193.88          0.823789312      33.970536        0.558793922      -55.461852       0.558793922      -55.461852       0.823789312      33.970536        
1205.35          0.82673835       33.6726181       0.554473858      -55.7610178      0.554473858      -55.7610178      0.82673835       33.6726181       
1216.82          0.829634257      33.3777792       0.55018369       -56.0570437      0.55018369       -56.0570437      0.829634257      33.3777792       
1228.29          0.832478081      33.0859764       0.54592336       -56.3499734      0.54592336       -56.3499734      0.832478081      33.0859764       
1239.76          0.835270851      32.7971669       0.541692796      -56.6398501      0.541692796      -56.6398501      0.835270851      32.7971669       
1251.23          0.838013577      32.5113088       0.537491916      -56.9267165      0.537491916      -56.9267165      0.838013577      32.5113088       
1262.7           0.840707248      32.2283603       0.533320627      -57.2106146      0.533320627      -57.2106146      0.840707248      32.2283603       
1274.17          0.843352835      31.9482806       0.529178826      -57.4915861      0.529178826      -57.4915861      0.843352835      31.9482806       
1285.64          0.845951287      31.6710291       0.525066398      -57.7696719      0.525066398      -57.7696719      0.845951287      31.6710291       
1297.11          0.848503538      31.3965656       0.520983221      -58.0449125      0.520983221      -58.0449125      0.848503538      31.3965656       
1308.58          0.8510105        31.1248508       0.516929165      -58.3173478      0.516929165      -58.3173478      0.8510105        31.1248508       
1320.05          0.853473068      30.8558457       0.51290409       -58.5870172      0.51290409       -58.5870172      0.853473068      30.8558457       
1331.52          0.85589212       30.5895117       0.50890785       -58.8539596      0.50890785       -58.8539596      0.85589212       30.5895117       
1342.99          0.858268514      30.3258109       0.504940292      -59.1182132      0.504940292      -59.1182132      0.858268514      30.3258109       
1354.46          0.860603091      30.064706        0.501001256      -59.3798157      0.501001256      -59.3798157      0.860603091      30.064706        
1365.93          0.862896677      29.8061599       0.497090576      -59.6388043      0.497090576      -59.6388043      0.862896677      29.8061599       
1377.4           0.865150077      29.5501363       0.49320808       -59.8952157      0.49320808       -59.8952157      0.865150077      29.5501363       
1388.87          0.867364083      29.2965994       0.489353593      -60.149086       0.489353593      -60.149086       0.867364083      29.2965994       
1400.34          0.869539468      29.0455136       0.485526932      -60.4004508      0.485526932      -60.4004508      0.869539468      29.0455136       
1411.81          0.871676991      28.7968443       0.481727912      -60.6493451      0.481727912      -60.6493451      0.871676991      28.7968443       
1423.28          0.873777392      28.5505569       0.477956342      -60.8958035      0.477956342      -60.8958035      0.873777392      28.5505569       
1434.75          0.8758414        28.3066177       0.47421203       -61.1398599      0.47421203       -61.1398599      0.8758414        28.3066177       
1446.22          0.877869724      28.0649932       0.470494779      -61.3815479      0.470494779      -61.3815479      0.877869724      28.0649932       
1457.69          0.879863061      27.8256506       0.466804387      -61.6209004      0.466804387      -61.6209004      0.879863061      27.8256506       
