! Coilcraft 1008CS-681 Chip Inductor				
! 02 July 2002			
# MHZ S MA R 50
!Freq             MagS11           AngS11           MagS21           AngS21           MagS12           AngS12           MagS22           AngS22
1                0.045803157      60.8635807       0.978517076      -2.3432314       0.978517076      -2.3432314       0.045803157      60.8635807       
2.49             0.103813653      70.8855351       0.970972901      -5.79804825      0.970972901      -5.79804825      0.103813653      70.8855351       
3.98             0.161945195      71.5242938       0.96103307       -9.19680656      0.96103307       -9.19680656      0.161945195      71.5242938       
5.47             0.218567104      70.1819429       0.948455604      -12.5209693      0.948455604      -12.5209693      0.218567104      70.1819429       
6.96             0.273041735      68.1439865       0.933412217      -15.753208       0.933412217      -15.753208       0.273041735      68.1439865       
8.45             0.324955037      65.8244643       0.916207293      -18.8788082      0.916207293      -18.8788082      0.324955037      65.8244643       
9.94             0.374028028      63.4018188       0.897200814      -21.8861746      0.897200814      -21.8861746      0.374028028      63.4018188       
11.43            0.420092143      60.9669087       0.876768865      -24.7669371      0.876768865      -24.7669371      0.420092143      60.9669087       
12.92            0.463073102      58.5706733       0.855278344      -27.5158071      0.855278344      -27.5158071      0.463073102      58.5706733       
14.41            0.502975081      56.2430244       0.833070308      -30.1302744      0.833070308      -30.1302744      0.502975081      56.2430244       
15.9             0.539864627      54.0015776       0.810449835      -32.6102134      0.810449835      -32.6102134      0.539864627      54.0015776       
17.39            0.573855168      51.8562163       0.787680984      -34.9574552      0.787680984      -34.9574552      0.573855168      51.8562163       
18.88            0.605092983      49.8117322       0.764985602      -37.1753647      0.764985602      -37.1753647      0.605092983      49.8117322       
20.37            0.633745185      47.8694798       0.742544842      -39.2684508      0.742544842      -39.2684508      0.633745185      47.8694798       
21.86            0.659989916      46.0284778       0.720502396      -41.2420243      0.720502396      -41.2420243      0.659989916      46.0284778       
23.35            0.684008727      44.2861716       0.698968682      -43.1019104      0.698968682      -43.1019104      0.684008727      44.2861716       
24.84            0.705980907      42.638975        0.678025388      -44.8542144      0.678025388      -44.8542144      0.705980907      42.638975        
26.33            0.726079484      41.0826601       0.65772998       -46.5051381      0.65772998       -46.5051381      0.726079484      41.0826601       
27.82            0.744468592      39.6126379       0.638119923      -48.0608406      0.638119923      -48.0608406      0.744468592      39.6126379       
29.31            0.761301878      38.2241605       0.619216479      -49.527335       0.619216479      -49.527335       0.761301878      38.2241605       
30.8             0.776721723      36.9124639       0.601028014      -50.9104172      0.601028014      -50.9104172      0.776721723      36.9124639       
32.29            0.790859034      35.6728683       0.583552821      -52.2156176      0.583552821      -52.2156176      0.790859034      35.6728683       
33.78            0.803833432      34.5008449       0.566781483      -53.4481725      0.566781483      -53.4481725      0.803833432      34.5008449       
35.27            0.815753724      33.3920601       0.550698817      -54.6130095      0.550698817      -54.6130095      0.815753724      33.3920601       
36.76            0.826718525      32.3424014       0.53528545       -55.7147435      0.53528545       -55.7147435      0.826718525      32.3424014       
38.25            0.836816976      31.3479906       0.520519087      -56.7576808      0.520519087      -56.7576808      0.836816976      31.3479906       
39.74            0.846129506      30.4051886       0.506375518      -57.7458277      0.506375518      -57.7458277      0.846129506      30.4051886       
41.23            0.854728586      29.5105925       0.492829399      -58.6829039      0.492829399      -58.6829039      0.854728586      29.5105925       
42.72            0.86267946       28.66103         0.479854869      -59.5723566      0.479854869      -59.5723566      0.86267946       28.66103         
44.21            0.870040847      27.8535493       0.467426006      -60.4173774      0.467426006      -60.4173774      0.870040847      27.8535493       
45.7             0.876865585      27.0854086       0.455517186      -61.2209185      0.455517186      -61.2209185      0.876865585      27.0854086       
47.19            0.883201228      26.3540634       0.444103333      -61.9857095      0.444103333      -61.9857095      0.883201228      26.3540634       
48.68            0.889090596      25.6571544       0.433160108      -62.7142733      0.433160108      -62.7142733      0.889090596      25.6571544       
50.17            0.894572262      24.9924946       0.422664032      -63.4089422      0.422664032      -63.4089422      0.894572262      24.9924946       
51.66            0.899681005      24.3580578       0.412592574      -64.0718719      0.412592574      -64.0718719      0.899681005      24.3580578       
53.15            0.904448205      23.7519659       0.402924192      -64.7050562      0.402924192      -64.7050562      0.904448205      23.7519659       
54.64            0.908902204      23.1724785       0.393638364      -65.3103395      0.393638364      -65.3103395      0.908902204      23.1724785       
56.13            0.913068626      22.6179819       0.384715579      -65.8894288      0.384715579      -65.8894288      0.913068626      22.6179819       
57.62            0.91697066       22.0869794       0.376137337      -66.443905       0.376137337      -66.443905       0.91697066       22.0869794       
59.11            0.92062932       21.5780823       0.367886116      -66.9752333      0.367886116      -66.9752333      0.92062932       21.5780823       
60.6             0.924063666      21.0900011       0.359945343      -67.4847724      0.359945343      -67.4847724      0.924063666      21.0900011       
62.09            0.927291008      20.6215378       0.352299362      -67.9737831      0.352299362      -67.9737831      0.927291008      20.6215378       
63.58            0.930327086      20.1715787       0.344933391      -68.4434367      0.344933391      -68.4434367      0.930327086      20.1715787       
65.07            0.933186229      19.7390877       0.33783348       -68.8948215      0.33783348       -68.8948215      0.933186229      19.7390877       
66.56            0.935881499      19.3231001       0.330986474      -69.3289504      0.330986474      -69.3289504      0.935881499      19.3231001       
68.05            0.938424814      18.9227172       0.324379965      -69.7467662      0.324379965      -69.7467662      0.938424814      18.9227172       
69.54            0.940827063      18.5371009       0.318002252      -70.1491473      0.318002252      -70.1491473      0.940827063      18.5371009       
71.03            0.943098209      18.1654691       0.311842307      -70.5369132      0.311842307      -70.5369132      0.943098209      18.1654691       
72.52            0.945247375      17.8070915       0.305889725      -70.9108286      0.305889725      -70.9108286      0.945247375      17.8070915       
74.01            0.947282927      17.4612853       0.300134698      -71.271608       0.300134698      -71.271608       0.947282927      17.4612853       
75.5             0.949212545      17.1274121       0.294567972      -71.6199195      0.294567972      -71.6199195      0.949212545      17.1274121       
76.99            0.951043288      16.804874        0.289180815      -71.9563879      0.289180815      -71.9563879      0.951043288      16.804874        
78.48            0.95278165       16.4931109       0.283964987      -72.2815989      0.283964987      -72.2815989      0.95278165       16.4931109       
79.97            0.954433613      16.1915976       0.278912707      -72.596101       0.278912707      -72.596101       0.954433613      16.1915976       
81.46            0.956004694      15.8998414       0.274016628      -72.900409       0.274016628      -72.900409       0.956004694      15.8998414       
82.95            0.957499985      15.6173795       0.269269807      -73.1950061      0.269269807      -73.1950061      0.957499985      15.6173795       
84.44            0.958924193      15.343777        0.26466568       -73.4803463      0.26466568       -73.4803463      0.958924193      15.343777        
85.93            0.96028167       15.0786246       0.260198043      -73.7568565      0.260198043      -73.7568565      0.96028167       15.0786246       
87.42            0.961576449      14.8215375       0.255861022      -74.0249385      0.255861022      -74.0249385      0.961576449      14.8215375       
88.91            0.962812267      14.5721529       0.251649061      -74.2849704      0.251649061      -74.2849704      0.962812267      14.5721529       
90.4             0.96399259       14.330129        0.247556898      -74.5373088      0.247556898      -74.5373088      0.96399259       14.330129        
91.89            0.965120639      14.0951432       0.243579546      -74.78229        0.243579546      -74.78229        0.965120639      14.0951432       
93.38            0.966199408      13.866891        0.23971228       -75.0202313      0.23971228       -75.0202313      0.966199408      13.866891        
94.87            0.967231683      13.6450851       0.235950619      -75.2514322      0.235950619      -75.2514322      0.967231683      13.6450851       
96.36            0.968220057      13.4294535       0.232290309      -75.4761762      0.232290309      -75.4761762      0.968220057      13.4294535       
97.85            0.969166951      13.219739        0.228727315      -75.694731       0.228727315      -75.694731       0.969166951      13.219739        
99.34            0.970074619      13.0156985       0.225257804      -75.9073502      0.225257804      -75.9073502      0.970074619      13.0156985       
100.83           0.97094517       12.8171013       0.221878134      -76.1142737      0.221878134      -76.1142737      0.97094517       12.8171013       
102.32           0.971780572      12.6237289       0.218584841      -76.3157292      0.218584841      -76.3157292      0.971780572      12.6237289       
103.81           0.972582666      12.4353744       0.215374634      -76.5119321      0.215374634      -76.5119321      0.972582666      12.4353744       
105.3            0.973353178      12.251841        0.212244377      -76.7030873      0.212244377      -76.7030873      0.973353178      12.251841        
106.79           0.974093722      12.0729421       0.209191089      -76.8893889      0.209191089      -76.8893889      0.974093722      12.0729421       
108.28           0.974805812      11.8985005       0.206211927      -77.0710215      0.206211927      -77.0710215      0.974805812      11.8985005       
109.77           0.975490869      11.7283475       0.203304184      -77.2481605      0.203304184      -77.2481605      0.975490869      11.7283475       
111.26           0.976150227      11.5623229       0.20046528       -77.4209727      0.20046528       -77.4209727      0.976150227      11.5623229       
112.75           0.97678514       11.4002741       0.197692751      -77.5896168      0.197692751      -77.5896168      0.97678514       11.4002741       
114.24           0.977396786      11.2420558       0.194984249      -77.7542439      0.194984249      -77.7542439      0.977396786      11.2420558       
115.73           0.977986274      11.0875296       0.192337531      -77.9149979      0.192337531      -77.9149979      0.977986274      11.0875296       
117.22           0.978554648      10.9365637       0.189750455      -78.072016       0.189750455      -78.072016       0.978554648      10.9365637       
118.71           0.979102892      10.7890323       0.187220975      -78.225429       0.187220975      -78.225429       0.979102892      10.7890323       
120.2            0.979631934      10.6448152       0.184747133      -78.3753617      0.184747133      -78.3753617      0.979631934      10.6448152       
121.69           0.980142649      10.5037979       0.18232706       -78.5219332      0.18232706       -78.5219332      0.980142649      10.5037979       
123.18           0.980635863      10.3658711       0.179958965      -78.6652572      0.179958965      -78.6652572      0.980635863      10.3658711       
124.67           0.981112357      10.23093         0.177641136      -78.8054425      0.177641136      -78.8054425      0.981112357      10.23093         
126.16           0.981572868      10.0988747       0.175371931      -78.9425929      0.175371931      -78.9425929      0.981572868      10.0988747       
127.65           0.982018094      9.9696096        0.173149779      -79.0768077      0.173149779      -79.0768077      0.982018094      9.9696096        
129.14           0.982448694      9.84304321       0.170973175      -79.2081821      0.170973175      -79.2081821      0.982448694      9.84304321       
130.63           0.982865295      9.71908791       0.168840675      -79.3368069      0.168840675      -79.3368069      0.982865295      9.71908791       
132.12           0.983268488      9.59765982       0.166750895      -79.4627692      0.166750895      -79.4627692      0.983268488      9.59765982       
133.61           0.983658834      9.47867854       0.164702506      -79.5861526      0.164702506      -79.5861526      0.983658834      9.47867854       
135.1            0.984036867      9.36206704       0.162694234      -79.707037       0.162694234      -79.707037       0.984036867      9.36206704       
136.59           0.98440309       9.24775142       0.160724855      -79.8254991      0.160724855      -79.8254991      0.98440309       9.24775142       
138.08           0.984757984      9.13566081       0.158793193      -79.9416123      0.158793193      -79.9416123      0.984757984      9.13566081       
139.57           0.985102005      9.02572718       0.156898119      -80.0554473      0.156898119      -80.0554473      0.985102005      9.02572718       
141.06           0.985435584      8.91788522       0.155038548      -80.1670719      0.155038548      -80.1670719      0.985435584      8.91788522       
142.55           0.985759135      8.8120722        0.153213435      -80.2765509      0.153213435      -80.2765509      0.985759135      8.8120722        
144.04           0.986073048      8.70822785       0.151421776      -80.383947       0.151421776      -80.383947       0.986073048      8.70822785       
145.53           0.986377696      8.60629423       0.149662606      -80.4893202      0.149662606      -80.4893202      0.986377696      8.60629423       
147.02           0.986673434      8.50621564       0.147934995      -80.5927281      0.147934995      -80.5927281      0.986673434      8.50621564       
148.51           0.9869606        8.4079385        0.146238048      -80.6942263      0.146238048      -80.6942263      0.9869606        8.4079385        
150              0.987239517      8.31141126       0.144570903      -80.7938681      0.144570903      -80.7938681      0.987239517      8.31141126       
151.49           0.987510492      8.21658428       0.142932729      -80.8917049      0.142932729      -80.8917049      0.987510492      8.21658428       
152.98           0.987773817      8.12340977       0.141322725      -80.9877861      0.141322725      -80.9877861      0.987773817      8.12340977       
154.47           0.988029772      8.03184172       0.139740121      -81.0821594      0.139740121      -81.0821594      0.988029772      8.03184172       
155.96           0.988278625      7.94183577       0.138184172      -81.1748706      0.138184172      -81.1748706      0.988278625      7.94183577       
157.45           0.988520631      7.85334917       0.13665416       -81.2659639      0.13665416       -81.2659639      0.988520631      7.85334917       
158.94           0.988756032      7.76634071       0.135149393      -81.3554818      0.135149393      -81.3554818      0.988756032      7.76634071       
160.43           0.988985062      7.68077065       0.133669203      -81.4434655      0.133669203      -81.4434655      0.988985062      7.68077065       
161.92           0.989207944      7.59660063       0.132212943      -81.5299544      0.132212943      -81.5299544      0.989207944      7.59660063       
163.41           0.989424891      7.51379364       0.130779992      -81.6149868      0.130779992      -81.6149868      0.989424891      7.51379364       
164.9            0.989636106      7.43231396       0.129369746      -81.6985995      0.129369746      -81.6985995      0.989636106      7.43231396       
166.39           0.989841785      7.35212709       0.127981625      -81.7808281      0.127981625      -81.7808281      0.989841785      7.35212709       
167.88           0.990042115      7.27319971       0.126615065      -81.8617068      0.126615065      -81.8617068      0.990042115      7.27319971       
169.37           0.990237274      7.19549963       0.125269524      -81.9412688      0.125269524      -81.9412688      0.990237274      7.19549963       
170.86           0.990427435      7.11899572       0.123944475      -82.0195462      0.123944475      -82.0195462      0.990427435      7.11899572       
172.35           0.990612762      7.04365792       0.12263941       -82.0965697      0.12263941       -82.0965697      0.990612762      7.04365792       
173.84           0.990793412      6.96945713       0.121353838      -82.1723694      0.121353838      -82.1723694      0.990793412      6.96945713       
175.33           0.990969537      6.89636522       0.120087282      -82.2469741      0.120087282      -82.2469741      0.990969537      6.89636522       
176.82           0.991141283      6.82435496       0.11883928       -82.3204118      0.11883928       -82.3204118      0.991141283      6.82435496       
178.31           0.991308789      6.75340003       0.117609388      -82.3927093      0.117609388      -82.3927093      0.991308789      6.75340003       
179.8            0.991472188      6.68347491       0.116397173      -82.4638929      0.116397173      -82.4638929      0.991472188      6.68347491       
181.29           0.991631609      6.61455493       0.115202215      -82.5339877      0.115202215      -82.5339877      0.991631609      6.61455493       
182.78           0.991787177      6.54661616       0.11402411       -82.6030183      0.11402411       -82.6030183      0.991787177      6.54661616       
184.27           0.991939009      6.47963544       0.112862463      -82.6710082      0.112862463      -82.6710082      0.991939009      6.47963544       
185.76           0.992087221      6.41359033       0.111716895      -82.7379805      0.111716895      -82.7379805      0.992087221      6.41359033       
187.25           0.992231922      6.34845907       0.110587035      -82.8039572      0.110587035      -82.8039572      0.992231922      6.34845907       
188.74           0.992373217      6.28422059       0.109472524      -82.8689598      0.109472524      -82.8689598      0.992373217      6.28422059       
190.23           0.992511209      6.22085441       0.108373015      -82.9330091      0.108373015      -82.9330091      0.992511209      6.22085441       
