! Coilcraft 1008CS-270 Chip Inductor				
! 02 July 2002			
# MHZ S MA R 50
!Freq             MagS11           AngS11           MagS21           AngS21           MagS12           AngS12           MagS22           AngS22
1                0.00222265541    49.5578422       0.998559641      -0.0970600613    0.998559641      -0.0970600613    0.00222265541    49.5578422       
7.23             0.0124306696     79.1943203       0.997744231      -0.701195408     0.997744231      -0.701195408     0.0124306696     79.1943203       
13.46            0.0229187919     82.1548812       0.997130201      -1.30471654      0.997130201      -1.30471654      0.0229187919     82.1548812       
19.69            0.033419063      83.033558        0.996498957      -1.90766522      0.996498957      -1.90766522      0.033419063      83.033558        
25.92            0.0439128308     83.2689383       0.995808398      -2.50999789      0.995808398      -2.50999789      0.0439128308     83.2689383       
32.15            0.0543934911     83.2157596       0.995041484      -3.11164667      0.995041484      -3.11164667      0.0543934911     83.2157596       
38.38            0.0648569        83.0064556       0.994189513      -3.71253278      0.994189513      -3.71253278      0.0648569        83.0064556       
44.61            0.075299688      82.702471        0.993247519      -4.31257167      0.993247519      -4.31257167      0.075299688      82.702471        
50.84            0.0857187989     82.3364995       0.992212515      -4.91167552      0.992212515      -4.91167552      0.0857187989     82.3364995       
57.07            0.096111331      81.9276755       0.991082693      -5.50975469      0.991082693      -5.50975469      0.096111331      81.9276755       
63.3             0.106474475      81.488015        0.98985701       -6.10671858      0.98985701       -6.10671858      0.106474475      81.488015        
69.53            0.116805486      81.0254875       0.988534955      -6.70247629      0.988534955      -6.70247629      0.116805486      81.0254875       
75.76            0.127101678      80.5456144       0.987116404      -7.296937        0.987116404      -7.296937        0.127101678      80.5456144       
81.99            0.137360414      80.052361        0.985601531      -7.89001036      0.985601531      -7.89001036      0.137360414      80.052361        
88.22            0.147579107      79.5486622       0.983990744      -8.48160672      0.983990744      -8.48160672      0.147579107      79.5486622       
94.45            0.157755225      79.0367473       0.982284648      -9.07163738      0.982284648      -9.07163738      0.157755225      79.0367473       
100.68           0.167886287      78.5183476       0.980484007      -9.66001474      0.980484007      -9.66001474      0.167886287      78.5183476       
106.91           0.177969869      77.9948346       0.978589727      -10.2466525      0.978589727      -10.2466525      0.177969869      77.9948346       
113.14           0.188003606      77.4673138       0.976602833      -10.8314657      0.976602833      -10.8314657      0.188003606      77.4673138       
119.37           0.197985194      76.9366902       0.974524456      -11.4143711      0.974524456      -11.4143711      0.197985194      76.9366902       
125.6            0.20791239       76.4037153       0.972355826      -11.9952868      0.972355826      -11.9952868      0.20791239       76.4037153       
131.83           0.21778302       75.8690208       0.970098254      -12.574133       0.970098254      -12.574133       0.21778302       75.8690208       
138.06           0.227594972      75.3331441       0.967753131      -13.1508314      0.967753131      -13.1508314      0.227594972      75.3331441       
144.29           0.237346207      74.7965467       0.965321914      -13.7253058      0.965321914      -13.7253058      0.237346207      74.7965467       
150.52           0.247034756      74.2596291       0.962806127      -14.297482       0.962806127      -14.297482       0.247034756      74.2596291       
156.75           0.256658719      73.7227416       0.960207346      -14.8672876      0.960207346      -14.8672876      0.256658719      73.7227416       
162.98           0.266216273      73.186193        0.957527203      -15.4346525      0.957527203      -15.4346525      0.266216273      73.186193        
169.21           0.275705667      72.6502575       0.954767374      -15.9995087      0.954767374      -15.9995087      0.275705667      72.6502575       
175.44           0.285125224      72.1151797       0.951929576      -16.5617903      0.951929576      -16.5617903      0.285125224      72.1151797       
181.67           0.294473346      71.5811797       0.949015564      -17.1214337      0.949015564      -17.1214337      0.294473346      71.5811797       
187.9            0.303748507      71.0484559       0.946027126      -17.6783774      0.946027126      -17.6783774      0.303748507      71.0484559       
194.13           0.312949261      70.5171882       0.942966078      -18.2325625      0.942966078      -18.2325625      0.312949261      70.5171882       
200.36           0.322074237      69.9875406       0.939834261      -18.7839319      0.939834261      -18.7839319      0.322074237      69.9875406       
206.59           0.33112214       69.4596624       0.936633538      -19.3324312      0.936633538      -19.3324312      0.33112214       69.4596624       
212.82           0.340091752      68.9336908       0.933365788      -19.878008       0.933365788      -19.878008       0.340091752      68.9336908       
219.05           0.348981931      68.4097516       0.930032907      -20.4206125      0.930032907      -20.4206125      0.348981931      68.4097516       
225.28           0.35779161       67.8879605       0.926636798      -20.9601971      0.926636798      -20.9601971      0.35779161       67.8879605       
231.51           0.366519797      67.3684241       0.923179375      -21.4967163      0.923179375      -21.4967163      0.366519797      67.3684241       
237.74           0.375165574      66.8512409       0.919662555      -22.0301273      0.919662555      -22.0301273      0.375165574      66.8512409       
243.97           0.383728097      66.3365019       0.916088259      -22.5603892      0.916088259      -22.5603892      0.383728097      66.3365019       
250.2            0.392206592      65.8242911       0.912458406      -23.0874636      0.912458406      -23.0874636      0.392206592      65.8242911       
256.43           0.400600358      65.3146863       0.90877491       -23.6113143      0.90877491       -23.6113143      0.400600358      65.3146863       
262.66           0.408908763      64.8077592       0.905039681      -24.1319073      0.905039681      -24.1319073      0.408908763      64.8077592       
268.89           0.417131244      64.3035764       0.901254621      -24.6492108      0.901254621      -24.6492108      0.417131244      64.3035764       
275.12           0.425267306      63.8021991       0.89742162       -25.1631952      0.89742162       -25.1631952      0.425267306      63.8021991       
281.35           0.433316517      63.3036841       0.893542556      -25.6738332      0.893542556      -25.6738332      0.433316517      63.3036841       
287.58           0.441278511      62.8080833       0.889619293      -26.1810992      0.889619293      -26.1810992      0.441278511      62.8080833       
293.81           0.449152984      62.3154449       0.885653676      -26.6849701      0.885653676      -26.6849701      0.449152984      62.3154449       
300.04           0.456939695      61.8258129       0.881647535      -27.1854247      0.881647535      -27.1854247      0.456939695      61.8258129       
306.27           0.464638458      61.3392276       0.877602676      -27.6824437      0.877602676      -27.6824437      0.464638458      61.3392276       
312.5            0.472249148      60.8557259       0.873520888      -28.1760098      0.873520888      -28.1760098      0.472249148      60.8557259       
318.73           0.479771695      60.3753411       0.869403932      -28.6661078      0.869403932      -28.6661078      0.479771695      60.3753411       
324.96           0.487206081      59.8981037       0.865253549      -29.1527242      0.865253549      -29.1527242      0.487206081      59.8981037       
331.19           0.494552343      59.424041        0.86107145       -29.6358473      0.86107145       -29.6358473      0.494552343      59.424041        
337.42           0.501810566      58.9531774       0.856859323      -30.1154672      0.856859323      -30.1154672      0.501810566      58.9531774       
343.65           0.508980884      58.4855346       0.852618827      -30.591576       0.852618827      -30.591576       0.508980884      58.4855346       
349.88           0.516063478      58.0211319       0.84835159       -31.064167       0.84835159       -31.064167       0.516063478      58.0211319       
356.11           0.523058574      57.5599858       0.844059213      -31.5332357      0.844059213      -31.5332357      0.523058574      57.5599858       
362.34           0.529966439      57.1021108       0.839743267      -31.9987787      0.839743267      -31.9987787      0.529966439      57.1021108       
368.57           0.536787383      56.6475188       0.835405289      -32.4607945      0.835405289      -32.4607945      0.536787383      56.6475188       
374.8            0.543521755      56.1962198       0.831046788      -32.9192828      0.831046788      -32.9192828      0.543521755      56.1962198       
381.03           0.55016994       55.7482218       0.826669238      -33.374245       0.826669238      -33.374245       0.55016994       55.7482218       
387.26           0.556732359      55.3035305       0.822274082      -33.8256838      0.822274082      -33.8256838      0.556732359      55.3035305       
393.49           0.563209468      54.8621502       0.817862729      -34.2736032      0.817862729      -34.2736032      0.563209468      54.8621502       
399.72           0.569601754      54.4240832       0.813436558      -34.7180086      0.813436558      -34.7180086      0.569601754      54.4240832       
405.95           0.575909735      53.9893299       0.808996911      -35.1589065      0.808996911      -35.1589065      0.575909735      53.9893299       
412.18           0.582133958      53.5578895       0.804545098      -35.5963048      0.804545098      -35.5963048      0.582133958      53.5578895       
418.41           0.588274994      53.1297593       0.800082396      -36.0302124      0.800082396      -36.0302124      0.588274994      53.1297593       
424.64           0.594333444      52.7049354       0.795610048      -36.4606393      0.795610048      -36.4606393      0.594333444      52.7049354       
430.87           0.60030993       52.2834123       0.791129263      -36.8875967      0.791129263      -36.8875967      0.60030993       52.2834123       
437.1            0.606205098      51.8651834       0.786641219      -37.3110967      0.786641219      -37.3110967      0.606205098      51.8651834       
443.33           0.612019612      51.4502407       0.782147058      -37.7311524      0.782147058      -37.7311524      0.612019612      51.4502407       
449.56           0.617754158      51.0385748       0.777647891      -38.1477778      0.777647891      -38.1477778      0.617754158      51.0385748       
455.79           0.623409439      50.6301757       0.773144793      -38.5609878      0.773144793      -38.5609878      0.623409439      50.6301757       
462.02           0.628986176      50.2250317       0.768638812      -38.9707983      0.768638812      -38.9707983      0.628986176      50.2250317       
468.25           0.634485103      49.8231305       0.764130958      -39.3772256      0.764130958      -39.3772256      0.634485103      49.8231305       
474.48           0.639906969      49.4244588       0.759622213      -39.7802872      0.759622213      -39.7802872      0.639906969      49.4244588       
480.71           0.645252535      49.0290021       0.755113527      -40.180001       0.755113527      -40.180001       0.645252535      49.0290021       
486.94           0.650522576      48.6367453       0.750605817      -40.5763857      0.750605817      -40.5763857      0.650522576      48.6367453       
493.17           0.655717875      48.2476725       0.74609997       -40.9694607      0.74609997       -40.9694607      0.655717875      48.2476725       
499.4            0.660839225      47.8617669       0.741596845      -41.3592458      0.741596845      -41.3592458      0.660839225      47.8617669       
505.63           0.665887426      47.479011        0.737097268      -41.7457616      0.737097268      -41.7457616      0.665887426      47.479011        
511.86           0.670863288      47.0993866       0.732602039      -42.1290291      0.732602039      -42.1290291      0.670863288      47.0993866       
518.09           0.675767625      46.722875        0.728111927      -42.5090698      0.728111927      -42.5090698      0.675767625      46.722875        
524.32           0.680601256      46.3494567       0.723627673      -42.8859057      0.723627673      -42.8859057      0.680601256      46.3494567       
530.55           0.685365006      45.9791119       0.71914999       -43.2595592      0.71914999       -43.2595592      0.685365006      45.9791119       
536.78           0.690059702      45.61182         0.714679567      -43.630053       0.714679567      -43.630053       0.690059702      45.61182         
543.01           0.694686174      45.2475602       0.710217061      -43.9974104      0.710217061      -43.9974104      0.694686174      45.2475602       
549.24           0.699245256      44.886311        0.705763109      -44.3616549      0.705763109      -44.3616549      0.699245256      44.886311        
555.47           0.703737779      44.5280507       0.701318317      -44.7228103      0.701318317      -44.7228103      0.703737779      44.5280507       
561.7            0.708164579      44.172757        0.69688327       -45.0809007      0.69688327       -45.0809007      0.708164579      44.172757        
567.93           0.712526487      43.8204074       0.692458527      -45.4359504      0.692458527      -45.4359504      0.712526487      43.8204074       
574.16           0.716824337      43.4709791       0.688044624      -45.7879841      0.688044624      -45.7879841      0.716824337      43.4709791       
580.39           0.721058961      43.124449        0.683642073      -46.1370265      0.683642073      -46.1370265      0.721058961      43.124449        
586.62           0.725231186      42.7807935       0.679251364      -46.4831027      0.679251364      -46.4831027      0.725231186      42.7807935       
592.85           0.729341839      42.4399891       0.674872965      -46.8262377      0.674872965      -46.8262377      0.729341839      42.4399891       
599.08           0.733391744      42.1020119       0.670507322      -47.1664569      0.670507322      -47.1664569      0.733391744      42.1020119       
605.31           0.73738172       41.7668379       0.666154861      -47.5037857      0.666154861      -47.5037857      0.73738172       41.7668379       
611.54           0.741312584      41.4344428       0.661815987      -47.8382495      0.661815987      -47.8382495      0.741312584      41.4344428       
617.77           0.745185145      41.1048022       0.657491086      -48.169874       0.657491086      -48.169874       0.745185145      41.1048022       
624              0.749000212      40.7778918       0.653180525      -48.4986848      0.653180525      -48.4986848      0.749000212      40.7778918       
630.23           0.752758584      40.4536869       0.64888465       -48.8247075      0.64888465       -48.8247075      0.752758584      40.4536869       
636.46           0.756461057      40.1321628       0.644603791      -49.1479679      0.644603791      -49.1479679      0.756461057      40.1321628       
642.69           0.760108422      39.8132948       0.640338261      -49.4684917      0.640338261      -49.4684917      0.760108422      39.8132948       
648.92           0.763701461      39.4970582       0.636088355      -49.7863047      0.636088355      -49.7863047      0.763701461      39.4970582       
655.15           0.767240951      39.183428        0.631854352      -50.1014324      0.631854352      -50.1014324      0.767240951      39.183428        
661.38           0.770727664      38.8723795       0.627636513      -50.4139007      0.627636513      -50.4139007      0.770727664      38.8723795       
667.61           0.774162361      38.5638878       0.623435086      -50.723735       0.623435086      -50.723735       0.774162361      38.5638878       
673.84           0.777545801      38.2579282       0.619250304      -51.0309611      0.619250304      -51.0309611      0.777545801      38.2579282       
680.07           0.78087873       37.9544757       0.615082383      -51.3356042      0.615082383      -51.3356042      0.78087873       37.9544757       
686.3            0.784161892      37.6535058       0.610931527      -51.63769        0.610931527      -51.63769        0.784161892      37.6535058       
692.53           0.787396018      37.3549935       0.606797926      -51.9372437      0.606797926      -51.9372437      0.787396018      37.3549935       
698.76           0.790581836      37.0589144       0.602681758      -52.2342904      0.602681758      -52.2342904      0.790581836      37.0589144       
704.99           0.793720063      36.7652438       0.598583186      -52.5288554      0.598583186      -52.5288554      0.793720063      36.7652438       
711.22           0.796811409      36.4739573       0.594502362      -52.8209635      0.594502362      -52.8209635      0.796811409      36.4739573       
717.45           0.799856576      36.1850304       0.590439426      -53.1106397      0.590439426      -53.1106397      0.799856576      36.1850304       
723.68           0.802856257      35.898439        0.586394507      -53.3979087      0.586394507      -53.3979087      0.802856257      35.898439        
729.91           0.805811136      35.6141587       0.582367724      -53.682795       0.582367724      -53.682795       0.805811136      35.6141587       
736.14           0.808721891      35.3321655       0.578359182      -53.965323       0.578359182      -53.965323       0.808721891      35.3321655       
742.37           0.81158919       35.0524356       0.574368979      -54.245517       0.574368979      -54.245517       0.81158919       35.0524356       
748.6            0.814413692      34.774945        0.570397202      -54.5234011      0.570397202      -54.5234011      0.814413692      34.774945        
754.83           0.817196049      34.4996702       0.566443928      -54.7989992      0.566443928      -54.7989992      0.817196049      34.4996702       
761.06           0.819936904      34.2265876       0.562509227      -55.0723351      0.562509227      -55.0723351      0.819936904      34.2265876       
767.29           0.82263689       33.9556739       0.558593158      -55.3434323      0.558593158      -55.3434323      0.82263689       33.9556739       
773.52           0.825296633      33.6869059       0.554695772      -55.6123142      0.554695772      -55.6123142      0.825296633      33.6869059       
779.75           0.82791675       33.4202605       0.550817113      -55.8790039      0.550817113      -55.8790039      0.82791675       33.4202605       
785.98           0.83049785       33.1557149       0.546957215      -56.1435246      0.546957215      -56.1435246      0.83049785       33.1557149       
792.21           0.833040532      32.8932463       0.543116108      -56.4058989      0.543116108      -56.4058989      0.833040532      32.8932463       
