! Coilcraft 1008CS-122 Chip Inductor				
! 02 July 2002			
# MHZ S MA R 50
!Freq             MagS11           AngS11           MagS21           AngS21           MagS12           AngS12           MagS22           AngS22
1                0.079557547      63.9852824       0.96775059       -4.23684133      0.96775059       -4.23684133      0.079557547      63.9852824       
2                0.149718855      68.7495072       0.955973702      -8.39316313      0.955973702      -8.39316313      0.149718855      68.7495072       
3                0.218410199      68.0926603       0.940596845      -12.4411103      0.940596845      -12.4411103      0.218410199      68.0926603       
4                0.284040314      66.002199        0.921758976      -16.3505933      0.921758976      -16.3505933      0.284040314      66.002199        
5                0.345827772      63.4047707       0.899974049      -20.0967089      0.899974049      -20.0967089      0.345827772      63.4047707       
6                0.403322345      60.6384254       0.875874079      -23.661218       0.875874079      -23.661218       0.403322345      60.6384254       
7                0.456311734      57.8575851       0.850106702      -27.0326594      0.850106702      -27.0326594      0.456311734      57.8575851       
8                0.504770225      55.1413966       0.823278171      -30.2057543      0.823278171      -30.2057543      0.504770225      55.1413966       
9                0.5488133        52.5321068       0.795921716      -33.1804349      0.795921716      -33.1804349      0.5488133        52.5321068       
10               0.588655827      50.051599        0.768483472      -35.9607368      0.768483472      -35.9607368      0.588655827      50.051599        
11               0.624575766      47.7096691       0.741320581      -38.5537124      0.741320581      -38.5537124      0.624575766      47.7096691       
12               0.656884818      45.5086658       0.714706996      -40.9684643      0.714706996      -40.9684643      0.656884818      45.5086658       
13               0.685906218      43.4463096       0.688843466      -43.2153423      0.688843466      -43.2153423      0.685906218      43.4463096       
14               0.711959019      41.517496        0.66386915       -45.3053109      0.66386915       -45.3053109      0.711959019      41.517496        
15               0.73534776       39.715482        0.63987322       -47.2494774      0.63987322       -47.2494774      0.73534776       39.715482        
16               0.756356306      38.0326754       0.616905484      -49.0587551      0.616905484      -49.0587551      0.756356306      38.0326754       
17               0.775244744      36.4611582       0.594985602      -50.7436371      0.594985602      -50.7436371      0.775244744      36.4611582       
18               0.792248393      34.9930287       0.574110761      -52.3140536      0.574110761      -52.3140536      0.792248393      34.9930287       
19               0.807578218      33.6206199       0.554261882      -53.7792936      0.554261882      -53.7792936      0.807578218      33.6206199       
20               0.821422092      32.3366306       0.535408523      -55.1479713      0.535408523      -55.1479713      0.821422092      32.3366306       
21               0.833946528      31.1341988       0.517512675      -56.4280237      0.517512675      -56.4280237      0.833946528      31.1341988       
22               0.845298626      30.0069349       0.50053164       -57.6267297      0.50053164       -57.6267297      0.845298626      30.0069349       
23               0.855608062      28.948929        0.484420193      -58.7507413      0.484420193      -58.7507413      0.855608062      28.948929        
24               0.864989012      27.954741        0.469132159      -59.8061239      0.469132159      -59.8061239      0.864989012      27.954741        
25               0.87354195       27.0193799       0.454621551      -60.7983983      0.454621551      -60.7983983      0.87354195       27.0193799       
26               0.881355297      26.1382777       0.440843364      -61.7325854      0.440843364      -61.7325854      0.881355297      26.1382777       
27               0.888506906      25.3072601       0.427754117      -62.6132489      0.427754117      -62.6132489      0.888506906      25.3072601       
28               0.895065376      24.5225156       0.4153122        -63.4445368      0.4153122        -63.4445368      0.895065376      24.5225156       
29               0.90109122       23.780566        0.403478074      -64.23022        0.403478074      -64.23022        0.90109122       23.780566        
30               0.906637884      23.0782372       0.392214383      -64.9737283      0.392214383      -64.9737283      0.906637884      23.0782372       
31               0.911752644      22.412632        0.381485968      -65.6781837      0.381485968      -65.6781837      0.911752644      22.412632        
32               0.91647738       21.7811047       0.371259855      -66.3464298      0.371259855      -66.3464298      0.91647738       21.7811047       
33               0.920849253      21.1812379       0.361505184      -66.9810594      0.361505184      -66.9810594      0.920849253      21.1812379       
34               0.924901295      20.610821        0.35219313       -67.5844392      0.35219313       -67.5844392      0.924901295      20.610821        
35               0.928662918      20.0678304       0.343296805      -68.1587317      0.343296805      -68.1587317      0.928662918      20.0678304       
36               0.932160355      19.5504123       0.334791145      -68.7059152      0.334791145      -68.7059152      0.932160355      19.5504123       
37               0.935417049      19.0568666       0.326652807      -69.2278017      0.326652807      -69.2278017      0.935417049      19.0568666       
38               0.938453985      18.5856322       0.318860053      -69.7260528      0.318860053      -69.7260528      0.938453985      18.5856322       
39               0.94128998       18.1352746       0.311392645      -70.2021943      0.311392645      -70.2021943      0.94128998       18.1352746       
40               0.94394194       17.7044734       0.30423174       -70.6576287      0.30423174       -70.6576287      0.94394194       17.7044734       
41               0.946425078      17.2920124       0.297359792      -71.0936471      0.297359792      -71.0936471      0.946425078      17.2920124       
42               0.948753106      16.8967698       0.290760454      -71.5114393      0.290760454      -71.5114393      0.948753106      16.8967698       
43               0.950938407      16.5177098       0.284418494      -71.9121032      0.284418494      -71.9121032      0.950938407      16.5177098       
44               0.952992182      16.1538749       0.278319714      -72.2966532      0.278319714      -72.2966532      0.952992182      16.1538749       
45               0.954924576      15.8043788       0.272450865      -72.6660275      0.272450865      -72.6660275      0.954924576      15.8043788       
46               0.956744796      15.4684004       0.266799587      -73.0210949      0.266799587      -73.0210949      0.956744796      15.4684004       
47               0.958461208      15.1451779       0.261354332      -73.362661       0.261354332      -73.362661       0.958461208      15.1451779       
48               0.96008143       14.8340042       0.256104313      -73.6914736      0.256104313      -73.6914736      0.96008143       14.8340042       
49               0.961612402      14.5342216       0.251039439      -74.0082275      0.251039439      -74.0082275      0.961612402      14.5342216       
50               0.963060462      14.2452182       0.24615027       -74.3135691      0.24615027       -74.3135691      0.963060462      14.2452182       
51               0.964431403      13.966424        0.241427965      -74.6081003      0.241427965      -74.6081003      0.964431403      13.966424        
52               0.96573053       13.6973074       0.236864239      -74.8923825      0.236864239      -74.8923825      0.96573053       13.6973074       
53               0.966962704      13.437372        0.232451323      -75.1669393      0.232451323      -75.1669393      0.966962704      13.437372        
54               0.968132388      13.1861541       0.228181927      -75.4322599      0.228181927      -75.4322599      0.968132388      13.1861541       
55               0.969243684      12.9432201       0.224049203      -75.6888019      0.224049203      -75.6888019      0.969243684      12.9432201       
56               0.970300367      12.7081637       0.220046717      -75.9369936      0.220046717      -75.9369936      0.970300367      12.7081637       
57               0.971305915      12.4806045       0.216168418      -76.1772361      0.216168418      -76.1772361      0.971305915      12.4806045       
58               0.972263537      12.2601856       0.21240861       -76.4099056      0.21240861       -76.4099056      0.972263537      12.2601856       
59               0.973176196      12.0465718       0.208761929      -76.6353552      0.208761929      -76.6353552      0.973176196      12.0465718       
60               0.974046632      11.8394484       0.205223321      -76.8539167      0.205223321      -76.8539167      0.974046632      11.8394484       
61               0.974877381      11.6385192       0.201788017      -77.065902       0.201788017      -77.065902       0.974877381      11.6385192       
62               0.975670794      11.4435056       0.198451518      -77.2716045      0.198451518      -77.2716045      0.975670794      11.4435056       
63               0.976429052      11.2541452       0.195209575      -77.4713007      0.195209575      -77.4713007      0.976429052      11.2541452       
64               0.977154179      11.0701904       0.192058173      -77.665251       0.192058173      -77.665251       0.977154179      11.0701904       
65               0.977848058      10.8914078       0.188993512      -77.8537012      0.188993512      -77.8537012      0.977848058      10.8914078       
66               0.978512438      10.7175771       0.186012001      -78.0368832      0.186012001      -78.0368832      0.978512438      10.7175771       
67               0.979148953      10.5484899       0.183110236      -78.2150162      0.183110236      -78.2150162      0.979148953      10.5484899       
68               0.979759122      10.3839495       0.180284995      -78.3883074      0.180284995      -78.3883074      0.979759122      10.3839495       
69               0.980344364      10.2237694       0.17753322       -78.5569527      0.17753322       -78.5569527      0.980344364      10.2237694       
70               0.980906003      10.0677733       0.174852012      -78.7211376      0.174852012      -78.7211376      0.980906003      10.0677733       
71               0.98144528       9.91579395       0.17223862       -78.8810379      0.17223862       -78.8810379      0.98144528       9.91579395       
72               0.981963352      9.76767297       0.16969043       -79.0368202      0.16969043       -79.0368202      0.981963352      9.76767297       
73               0.982461304      9.62325997       0.167204958      -79.1886425      0.167204958      -79.1886425      0.982461304      9.62325997       
74               0.982940154      9.4824122        0.164779843      -79.3366548      0.164779843      -79.3366548      0.982940154      9.4824122        
75               0.983400854      9.34499406       0.162412837      -79.4809995      0.162412837      -79.4809995      0.983400854      9.34499406       
76               0.9838443        9.21087668       0.160101803      -79.6218121      0.160101803      -79.6218121      0.9838443        9.21087668       
77               0.984271332      9.07993747       0.157844703      -79.7592213      0.157844703      -79.7592213      0.984271332      9.07993747       
78               0.984682741      8.95205977       0.155639597      -79.8933494      0.155639597      -79.8933494      0.984682741      8.95205977       
79               0.985079268      8.82713252       0.153484634      -80.0243131      0.153484634      -80.0243131      0.985079268      8.82713252       
80               0.985461616      8.70504987       0.151378049      -80.1522234      0.151378049      -80.1522234      0.985461616      8.70504987       
81               0.985830441      8.58571098       0.149318157      -80.2771861      0.149318157      -80.2771861      0.985830441      8.58571098       
82               0.986186366      8.46901961       0.147303351      -80.399302       0.147303351      -80.399302       0.986186366      8.46901961       
83               0.986529976      8.35488397       0.145332094      -80.5186675      0.145332094      -80.5186675      0.986529976      8.35488397       
84               0.986861825      8.24321642       0.143402916      -80.6353743      0.143402916      -80.6353743      0.986861825      8.24321642       
85               0.987182435      8.13393321       0.141514415      -80.74951        0.141514415      -80.74951        0.987182435      8.13393321       
86               0.9874923        8.02695434       0.139665247      -80.8611586      0.139665247      -80.8611586      0.9874923        8.02695434       
87               0.987791886      7.92220331       0.137854126      -80.9704         0.137854126      -80.9704         0.987791886      7.92220331       
88               0.988081636      7.81960692       0.136079822      -81.0773107      0.136079822      -81.0773107      0.988081636      7.81960692       
89               0.988361967      7.71909514       0.134341156      -81.1819641      0.134341156      -81.1819641      0.988361967      7.71909514       
90               0.988633276      7.62060091       0.132636997      -81.2844301      0.132636997      -81.2844301      0.988633276      7.62060091       
91               0.988895939      7.52405997       0.130966263      -81.3847758      0.130966263      -81.3847758      0.988895939      7.52405997       
92               0.98915031       7.42941078       0.129327915      -81.4830656      0.129327915      -81.4830656      0.98915031       7.42941078       
93               0.98939673       7.3365943        0.127720956      -81.579361       0.127720956      -81.579361       0.98939673       7.3365943        
94               0.989635518      7.24555393       0.12614443       -81.6737209      0.12614443       -81.6737209      0.989635518      7.24555393       
95               0.989866979      7.15623534       0.124597417      -81.766202       0.124597417      -81.766202       0.989866979      7.15623534       
96               0.990091402      7.0685864        0.123079036      -81.8568585      0.123079036      -81.8568585      0.990091402      7.0685864        
97               0.990309064      6.98255702       0.121588439      -81.9457425      0.121588439      -81.9457425      0.990309064      6.98255702       
98               0.990520227      6.8980991        0.120124809      -82.0329041      0.120124809      -82.0329041      0.990520227      6.8980991        
99               0.990725139      6.81516642       0.118687365      -82.1183911      0.118687365      -82.1183911      0.990725139      6.81516642       
100              0.990924038      6.73371451       0.11727535       -82.2022497      0.11727535       -82.2022497      0.990924038      6.73371451       
101              0.991117151      6.65370064       0.11588804       -82.2845242      0.11588804       -82.2845242      0.991117151      6.65370064       
102              0.991304693      6.57508367       0.114524736      -82.3652572      0.114524736      -82.3652572      0.991304693      6.57508367       
103              0.99148687       6.49782402       0.113184765      -82.4444896      0.113184765      -82.4444896      0.99148687       6.49782402       
104              0.991663877      6.42188358       0.111867479      -82.5222608      0.111867479      -82.5222608      0.991663877      6.42188358       
105              0.991835903      6.34722563       0.110572253      -82.5986087      0.110572253      -82.5986087      0.991835903      6.34722563       
106              0.992003126      6.27381481       0.109298486      -82.6735696      0.109298486      -82.6735696      0.992003126      6.27381481       
107              0.992165717      6.20161705       0.108045598      -82.7471787      0.108045598      -82.7471787      0.992165717      6.20161705       
108              0.992323838      6.13059946       0.106813027      -82.8194697      0.106813027      -82.8194697      0.992323838      6.13059946       
109              0.992477647      6.06073037       0.105600234      -82.8904751      0.105600234      -82.8904751      0.992477647      6.06073037       
110              0.992627291      5.99197921       0.104406698      -82.9602262      0.104406698      -82.9602262      0.992627291      5.99197921       
111              0.992772914      5.92431646       0.103231915      -83.0287532      0.103231915      -83.0287532      0.992772914      5.92431646       
112              0.992914653      5.85771365       0.102075399      -83.0960852      0.102075399      -83.0960852      0.992914653      5.85771365       
113              0.993052638      5.79214328       0.10093668       -83.1622502      0.10093668       -83.1622502      0.993052638      5.79214328       
114              0.993186994      5.72757878       0.0998153048     -83.2272751      0.0998153048     -83.2272751      0.993186994      5.72757878       
115              0.993317842      5.66399451       0.0987108349     -83.291186       0.0987108349     -83.291186       0.993317842      5.66399451       
116              0.993445296      5.60136565       0.097622846      -83.3540081      0.097622846      -83.3540081      0.993445296      5.60136565       
117              0.993569468      5.53966823       0.0965509283     -83.4157654      0.0965509283     -83.4157654      0.993569468      5.53966823       
118              0.993690462      5.47887906       0.095494685      -83.4764815      0.095494685      -83.4764815      0.993690462      5.47887906       
119              0.99380838       5.41897573       0.0944537323     -83.5361787      0.0944537323     -83.5361787      0.99380838       5.41897573       
120              0.99392332       5.35993654       0.0934276988     -83.5948789      0.0934276988     -83.5948789      0.99392332       5.35993654       
121              0.994035375      5.3017405        0.092416225      -83.6526029      0.092416225      -83.6526029      0.994035375      5.3017405        
122              0.994144636      5.24436727       0.0914189625     -83.7093712      0.0914189625     -83.7093712      0.994144636      5.24436727       
123              0.994251188      5.18779719       0.0904355743     -83.7652031      0.0904355743     -83.7652031      0.994251188      5.18779719       
124              0.994355115      5.13201119       0.0894657336     -83.8201176      0.0894657336     -83.8201176      0.994355115      5.13201119       
125              0.994456496      5.07699081       0.0885091238     -83.8741328      0.0885091238     -83.8741328      0.994456496      5.07699081       
126              0.994555408      5.02271817       0.0875654379     -83.9272663      0.0875654379     -83.9272663      0.994555408      5.02271817       
127              0.994651924      4.96917592       0.0866343786     -83.9795351      0.0866343786     -83.9795351      0.994651924      4.96917592       
128              0.994746117      4.91634725       0.0857156573     -84.0309555      0.0857156573     -84.0309555      0.994746117      4.91634725       
