! Coilcraft 1008CS-102 Chip Inductor				
! 02 July 2002			
# MHZ S MA R 50
!Freq             MagS11           AngS11           MagS21           AngS21           MagS12           AngS12           MagS22           AngS22
1                0.0648124921     63.4283762       0.972737017      -3.41635793      0.972737017      -3.41635793      0.0648124921     63.4283762       
2                0.121568799      69.6333211       0.964448313      -6.78650063      0.964448313      -6.78650063      0.121568799      69.6333211       
3                0.177975285      69.9651228       0.953797333      -10.0963794      0.953797333      -10.0963794      0.177975285      69.9651228       
4                0.232802811      68.6799203       0.940698313      -13.3289972      0.940698313      -13.3289972      0.232802811      68.6799203       
5                0.285482269      66.7659433       0.925343918      -16.4688809      0.925343918      -16.4688809      0.285482269      66.7659433       
6                0.335645075      64.5811473       0.90802983       -19.5030838      0.90802983       -19.5030838      0.335645075      64.5811473       
7                0.383048819      62.2896209       0.88909456       -22.4215483      0.88909456       -22.4215483      0.383048819      62.2896209       
8                0.427552623      59.977954        0.868886478      -25.2171479      0.868886478      -25.2171479      0.427552623      59.977954        
9                0.469100831      57.6958062       0.847742463      -27.8855247      0.847742463      -27.8855247      0.469100831      57.6958062       
10               0.50770784       55.4728526       0.825973995      -30.4247978      0.825973995      -30.4247978      0.50770784       55.4728526       
11               0.543443274      53.3268984       0.803858844      -32.8352027      0.803858844      -32.8352027      0.543443274      53.3268984       
12               0.576418031      51.2682218       0.781637107      -35.1187058      0.781637107      -35.1187058      0.576418031      51.2682218       
13               0.606771794      49.302119        0.7595105        -37.2786286      0.7595105        -37.2786286      0.606771794      49.302119        
14               0.634662404      47.4305083       0.737643911      -39.3193026      0.737643911      -39.3193026      0.634662404      47.4305083       
15               0.660257213      45.6529995       0.716168398      -41.2457672      0.716168398      -41.2457672      0.660257213      45.6529995       
16               0.683726356      43.9676336       0.695184954      -43.0635154      0.695184954      -43.0635154      0.683726356      43.9676336       
17               0.705237731      42.3714078       0.674768575      -44.7782868      0.674768575      -44.7782868      0.705237731      42.3714078       
18               0.724953451      40.8606536       0.654972279      -46.3959042      0.654972279      -46.3959042      0.724953451      40.8606536       
19               0.743027476      39.4313099       0.63583087       -47.9221492      0.63583087       -47.9221492      0.743027476      39.4313099       
20               0.759604178      38.07912         0.617364327      -49.3626703      0.617364327      -49.3626703      0.759604178      38.07912         
21               0.77481762       36.7997724       0.599580775      -50.7229172      0.599580775      -50.7229172      0.77481762       36.7997724       
22               0.788791337      35.5890001       0.582479027      -52.0080978      0.582479027      -52.0080978      0.788791337      35.5890001       
23               0.801638494      34.4426494       0.566050712      -53.2231507      0.566050712      -53.2231507      0.801638494      34.4426494       
24               0.813462277      33.3567245       0.550282051      -54.3727317      0.550282051      -54.3727317      0.813462277      33.3567245       
25               0.824356447      32.3274165       0.535155296      -55.4612093      0.535155296      -55.4612093      0.824356447      32.3274165       
26               0.834405972      31.3511191       0.520649891      -56.4926675      0.520649891      -56.4926675      0.834405972      31.3511191       
27               0.84368771       30.4244358       0.506743408      -57.4709133      0.506743408      -57.4709133      0.84368771       30.4244358       
28               0.852271082      29.5441801       0.493412277      -58.3994874      0.493412277      -58.3994874      0.852271082      29.5441801       
29               0.860218743      28.7073721       0.480632357      -59.2816782      0.480632357      -59.2816782      0.860218743      28.7073721       
30               0.867587211      27.9112314       0.468379378      -60.1205351      0.468379378      -60.1205351      0.867587211      27.9112314       
31               0.87442746       27.1531678       0.456629274      -60.9188843      0.456629274      -60.9188843      0.87442746       27.1531678       
32               0.880785473      26.4307723       0.445358433      -61.6793431      0.445358433      -61.6793431      0.880785473      26.4307723       
33               0.886702739      25.7418053       0.434543876      -62.4043353      0.434543876      -62.4043353      0.886702739      25.7418053       
34               0.892216715      25.0841868       0.424163384      -63.0961045      0.424163384      -63.0961045      0.892216715      25.0841868       
35               0.897361236      24.455985        0.414195587      -63.7567284      0.414195587      -63.7567284      0.897361236      24.455985        
36               0.902166893      23.8554063       0.404620009      -64.3881312      0.404620009      -64.3881312      0.902166893      23.8554063       
37               0.906661365      23.2807852       0.395417104      -64.9920956      0.395417104      -64.9920956      0.906661365      23.2807852       
38               0.910869722      22.7305747       0.386568255      -65.570274       0.386568255      -65.570274       0.910869722      22.7305747       
39               0.914814693      22.2033378       0.378055774      -66.1241987      0.378055774      -66.1241987      0.914814693      22.2033378       
40               0.918516904      21.6977386       0.36986288       -66.6552918      0.36986288       -66.6552918      0.918516904      21.6977386       
41               0.921995097      21.2125352       0.361973677      -67.1648735      0.361973677      -67.1648735      0.921995097      21.2125352       
42               0.925266319      20.7465718       0.354373121      -67.6541707      0.354373121      -67.6541707      0.925266319      20.7465718       
43               0.928346092      20.2987725       0.347046988      -68.1243242      0.347046988      -68.1243242      0.928346092      20.2987725       
44               0.931248569      19.8681351       0.339981838      -68.5763955      0.339981838      -68.5763955      0.931248569      19.8681351       
45               0.933986665      19.4537254       0.333164973      -69.0113733      0.333164973      -69.0113733      0.933986665      19.4537254       
46               0.936572184      19.0546717       0.326584406      -69.430179       0.326584406      -69.430179       0.936572184      19.0546717       
47               0.939015923      18.6701605       0.320228817      -69.8336719      0.320228817      -69.8336719      0.939015923      18.6701605       
48               0.941327771      18.2994316       0.31408752       -70.2226544      0.31408752       -70.2226544      0.941327771      18.2994316       
49               0.943516798      17.9417743       0.30815043       -70.5978761      0.30815043       -70.5978761      0.943516798      17.9417743       
50               0.945591326      17.5965239       0.30240802       -70.9600377      0.30240802       -70.9600377      0.945591326      17.5965239       
51               0.947559006      17.2630576       0.296851298      -71.3097951      0.296851298      -71.3097951      0.947559006      17.2630576       
52               0.949426877      16.9407923       0.291471769      -71.6477625      0.291471769      -71.6477625      0.949426877      16.9407923       
53               0.951201421      16.6291808       0.286261407      -71.9745155      0.286261407      -71.9745155      0.951201421      16.6291808       
54               0.952888616      16.3277098       0.281212629      -72.2905942      0.281212629      -72.2905942      0.952888616      16.3277098       
55               0.954493978      16.0358971       0.276318264      -72.5965055      0.276318264      -72.5965055      0.954493978      16.0358971       
56               0.956022606      15.7532895       0.271571533      -72.8927254      0.271571533      -72.8927254      0.956022606      15.7532895       
57               0.957479214      15.4794609       0.266966021      -73.1797018      0.266966021      -73.1797018      0.957479214      15.4794609       
58               0.958868169      15.21401         0.262495658      -73.457856       0.262495658      -73.457856       0.958868169      15.21401         
59               0.960193515      14.956559        0.258154695      -73.7275845      0.258154695      -73.7275845      0.960193515      14.956559        
60               0.961459008      14.7067517       0.253937688      -73.9892612      0.253937688      -73.9892612      0.961459008      14.7067517       
61               0.962668131      14.4642521       0.249839478      -74.2432384      0.249839478      -74.2432384      0.962668131      14.4642521       
62               0.963824126      14.2287431       0.245855173      -74.4898488      0.245855173      -74.4898488      0.963824126      14.2287431       
63               0.964930004      13.9999251       0.241980133      -74.7294064      0.241980133      -74.7294064      0.964930004      13.9999251       
64               0.965988574      13.7775151       0.238209955      -74.9622078      0.238209955      -74.9622078      0.965988574      13.7775151       
65               0.96700245       13.5612451       0.234540459      -75.1885337      0.234540459      -75.1885337      0.96700245       13.5612451       
66               0.967974072      13.3508619       0.230967675      -75.4086496      0.230967675      -75.4086496      0.967974072      13.3508619       
67               0.968905718      13.1461253       0.22748783       -75.6228068      0.22748783       -75.6228068      0.968905718      13.1461253       
68               0.969799516      12.9468079       0.224097337      -75.8312433      0.224097337      -75.8312433      0.969799516      12.9468079       
69               0.970657456      12.7526941       0.220792784      -76.0341851      0.220792784      -76.0341851      0.970657456      12.7526941       
70               0.971481401      12.5635791       0.217570924      -76.231846       0.217570924      -76.231846       0.971481401      12.5635791       
71               0.972273094      12.3792689       0.214428666      -76.4244295      0.214428666      -76.4244295      0.972273094      12.3792689       
72               0.973034172      12.1995787       0.211363066      -76.6121284      0.211363066      -76.6121284      0.973034172      12.1995787       
73               0.973766168      12.0243333       0.208371317      -76.7951262      0.208371317      -76.7951262      0.973766168      12.0243333       
74               0.974470522      11.8533659       0.205450747      -76.9735972      0.205450747      -76.9735972      0.974470522      11.8533659       
75               0.975148587      11.6865176       0.202598802      -77.1477073      0.202598802      -77.1477073      0.975148587      11.6865176       
76               0.975801634      11.5236375       0.199813049      -77.3176143      0.199813049      -77.3176143      0.975801634      11.5236375       
77               0.97643086       11.3645816       0.197091164      -77.4834687      0.197091164      -77.4834687      0.97643086       11.3645816       
78               0.97703739       11.2092127       0.194430926      -77.6454135      0.194430926      -77.6454135      0.97703739       11.2092127       
79               0.977622287      11.0574          0.191830216      -77.8035854      0.191830216      -77.8035854      0.977622287      11.0574          
80               0.978186549      10.9090188       0.189287007      -77.9581147      0.189287007      -77.9581147      0.978186549      10.9090188       
81               0.978731121      10.7639498       0.186799359      -78.1091255      0.186799359      -78.1091255      0.978731121      10.7639498       
82               0.979256891      10.6220795       0.184365418      -78.2567365      0.184365418      -78.2567365      0.979256891      10.6220795       
83               0.979764703      10.4832991       0.18198341       -78.4010611      0.18198341       -78.4010611      0.979764703      10.4832991       
84               0.980255349      10.3475046       0.179651635      -78.5422074      0.179651635      -78.5422074      0.980255349      10.3475046       
85               0.980729581      10.2145969       0.177368464      -78.6802791      0.177368464      -78.6802791      0.980729581      10.2145969       
86               0.981188111      10.0844808       0.175132339      -78.8153751      0.175132339      -78.8153751      0.981188111      10.0844808       
87               0.98163161       9.95706531       0.172941764      -78.9475902      0.172941764      -78.9475902      0.98163161       9.95706531       
88               0.982060717      9.83226338       0.170795304      -79.077015       0.170795304      -79.077015       0.982060717      9.83226338       
89               0.982476036      9.70999152       0.168691586      -79.2037364      0.168691586      -79.2037364      0.982476036      9.70999152       
90               0.982878139      9.59016975       0.166629287      -79.3278376      0.166629287      -79.3278376      0.982878139      9.59016975       
91               0.98326757       9.47272136       0.164607142      -79.4493982      0.164607142      -79.4493982      0.98326757       9.47272136       
92               0.983644845      9.35757279       0.162623932      -79.5684948      0.162623932      -79.5684948      0.983644845      9.35757279       
93               0.984010453      9.24465345       0.160678489      -79.6852007      0.160678489      -79.6852007      0.984010453      9.24465345       
94               0.98436486       9.13389556       0.158769688      -79.7995861      0.158769688      -79.7995861      0.98436486       9.13389556       
95               0.98470851       9.02523406       0.156896449      -79.9117187      0.156896449      -79.9117187      0.98470851       9.02523406       
96               0.985041822      8.91860641       0.155057733      -80.0216632      0.155057733      -80.0216632      0.985041822      8.91860641       
97               0.985365197      8.81395254       0.153252539      -80.1294819      0.153252539      -80.1294819      0.985365197      8.81395254       
98               0.985679017      8.71121466       0.151479906      -80.2352347      0.151479906      -80.2352347      0.985679017      8.71121466       
99               0.985983644      8.61033723       0.149738907      -80.3389791      0.149738907      -80.3389791      0.985983644      8.61033723       
100              0.986279426      8.51126679       0.148028651      -80.4407703      0.148028651      -80.4407703      0.986279426      8.51126679       
101              0.986566691      8.41395189       0.146348277      -80.5406616      0.146348277      -80.5406616      0.986566691      8.41395189       
102              0.986845755      8.318343         0.144696958      -80.638704       0.144696958      -80.638704       0.986845755      8.318343         
103              0.987116918      8.22439241       0.143073895      -80.7349469      0.143073895      -80.7349469      0.987116918      8.22439241       
104              0.987380467      8.13205418       0.141478319      -80.8294376      0.141478319      -80.8294376      0.987380467      8.13205418       
105              0.987636674      8.041284         0.139909487      -80.9222218      0.139909487      -80.9222218      0.987636674      8.041284         
106              0.987885802      7.95203919       0.138366683      -81.0133434      0.138366683      -81.0133434      0.987885802      7.95203919       
107              0.988128101      7.86427857       0.136849216      -81.1028448      0.136849216      -81.1028448      0.988128101      7.86427857       
108              0.988363809      7.77796241       0.135356417      -81.1907668      0.135356417      -81.1907668      0.988363809      7.77796241       
109              0.988593155      7.6930524        0.133887644      -81.2771487      0.133887644      -81.2771487      0.988593155      7.6930524        
110              0.988816358      7.60951153       0.132442274      -81.3620284      0.132442274      -81.3620284      0.988816358      7.60951153       
111              0.989033627      7.52730409       0.131019704      -81.4454426      0.131019704      -81.4454426      0.989033627      7.52730409       
112              0.989245162      7.44639559       0.129619354      -81.5274265      0.129619354      -81.5274265      0.989245162      7.44639559       
113              0.989451156      7.36675269       0.128240663      -81.6080142      0.128240663      -81.6080142      0.989451156      7.36675269       
114              0.989651792      7.2883432        0.126883086      -81.6872385      0.126883086      -81.6872385      0.989651792      7.2883432        
115              0.989847246      7.21113598       0.125546098      -81.7651312      0.125546098      -81.7651312      0.989847246      7.21113598       
116              0.990037689      7.13510093       0.124229191      -81.8417228      0.124229191      -81.8417228      0.990037689      7.13510093       
117              0.990223281      7.06020895       0.122931872      -81.917043       0.122931872      -81.917043       0.990223281      7.06020895       
118              0.990404179      6.98643188       0.121653666      -81.9911203      0.121653666      -81.9911203      0.990404179      6.98643188       
119              0.990580532      6.91374246       0.120394112      -82.0639823      0.120394112      -82.0639823      0.990580532      6.91374246       
120              0.990752484      6.84211433       0.119152763      -82.1356556      0.119152763      -82.1356556      0.990752484      6.84211433       
121              0.990920172      6.77152195       0.117929186      -82.2061661      0.117929186      -82.2061661      0.990920172      6.77152195       
122              0.991083729      6.70194058       0.116722962      -82.2755386      0.116722962      -82.2755386      0.991083729      6.70194058       
123              0.991243281      6.63334629       0.115533686      -82.3437972      0.115533686      -82.3437972      0.991243281      6.63334629       
124              0.991398952      6.56571586       0.114360964      -82.4109652      0.114360964      -82.4109652      0.991398952      6.56571586       
125              0.991550859      6.49902681       0.113204413      -82.477065       0.113204413      -82.477065       0.991550859      6.49902681       
126              0.991699115      6.43325734       0.112063665      -82.5421185      0.112063665      -82.5421185      0.991699115      6.43325734       
127              0.991843828      6.36838631       0.110938359      -82.6061466      0.110938359      -82.6061466      0.991843828      6.36838631       
128              0.991985105      6.30439323       0.109828148      -82.6691697      0.109828148      -82.6691697      0.991985105      6.30439323       
