! Coilcraft 1008CS-332 Chip Inductor				
! 02 July 2002			
# MHZ S MA R 50
!Freq             MagS11           AngS11           MagS21           AngS21           MagS12           AngS12           MagS22           AngS22
1                0.200444856      61.1673996       0.920243552      -11.0003454      0.920243552      -11.0003454      0.200444856      61.1673996       
1.5              0.285942709      60.4570086       0.894304188      -16.1508514      0.894304188      -16.1508514      0.285942709      60.4570086       
2                0.36507638       58.0444117       0.864198375      -21.0036356      0.864198375      -21.0036356      0.36507638       58.0444117       
2.5              0.436779204      55.0849888       0.831135095      -25.5264994      0.831135095      -25.5264994      0.436779204      55.0849888       
3                0.500771216      52.0037517       0.796374534      -29.705187       0.796374534      -29.705187       0.500771216      52.0037517       
3.5              0.557260993      48.9867039       0.761020648      -33.5406306      0.761020648      -33.5406306      0.557260993      48.9867039       
4                0.606754684      46.1194758       0.725946901      -37.0449787      0.725946901      -37.0449787      0.606754684      46.1194758       
4.5              0.649913843      43.4389641       0.691790213      -40.2376807      0.691790213      -40.2376807      0.649913843      43.4389641       
5                0.687454727      40.9565592       0.658978804      -43.1422217      0.658978804      -43.1422217      0.687454727      40.9565592       
5.5              0.720083219      38.6699854       0.627772738      -45.7836847      0.627772738      -45.7836847      0.720083219      38.6699854       
6                0.748457343      36.5698068       0.598305083      -48.1870854      0.598305083      -48.1870854      0.748457343      36.5698068       
6.5              0.773169147      34.6431435       0.570617904      -50.3763319      0.570617904      -50.3763319      0.773169147      34.6431435       
7                0.794739036      32.8758158       0.544691169      -52.3736432      0.544691169      -52.3736432      0.794739036      32.8758158       
7.5              0.813617423      31.2535675       0.520464685      -54.1992838      0.520464685      -54.1992838      0.813617423      31.2535675       
8                0.830190228      29.762738        0.497854072      -55.8715005      0.497854072      -55.8715005      0.830190228      29.762738        
8.5              0.844786033      28.3906028       0.476762001      -57.4065839      0.476762001      -57.4065839      0.844786033      28.3906028       
9                0.857683577      27.1255174       0.457085859      -58.8189961      0.457085859      -58.8189961      0.857683577      27.1255174       
9.5              0.869118925      25.9569444       0.438722814      -60.1215318      0.438722814      -60.1215318      0.869118925      25.9569444       
10               0.879291942      24.8754179       0.421573017      -61.3254891      0.421573017      -61.3254891      0.879291942      24.8754179       
10.5             0.888371973      23.8724723       0.405541522      -62.4408365      0.405541522      -62.4408365      0.888371973      23.8724723       
11               0.896502721      22.9405566       0.390539323      -63.4763707      0.390539323      -63.4763707      0.896502721      22.9405566       
11.5             0.903806376      22.0729451       0.376483807      -64.4398598      0.376483807      -64.4398598      0.903806376      22.0729451       
12               0.910387088      21.2636488       0.363298831      -65.3381712      0.363298831      -65.3381712      0.910387088      21.2636488       
12.5             0.916333869      20.5073337       0.350914551      -66.1773856      0.350914551      -66.1773856      0.916333869      20.5073337       
13               0.921723012      19.7992454       0.339267114      -66.9628965      0.339267114      -66.9628965      0.921723012      19.7992454       
13.5             0.926620102      19.135141        0.328298275      -67.6994965      0.328298275      -67.6994965      0.926620102      19.135141        
14               0.931081689      18.511229        0.317954974      -68.3914538      0.317954974      -68.3914538      0.931081689      18.511229        
14.5             0.935156681      17.9241159       0.308188909      -69.0425764      0.308188909      -69.0425764      0.935156681      17.9241159       
15               0.938887506      17.370759        0.298956117      -69.6562701      0.298956117      -69.6562701      0.938887506      17.370759        
15.5             0.942311082      16.8484257       0.290216581      -70.2355865      0.290216581      -70.2355865      0.942311082      16.8484257       
16               0.945459626      16.3546569       0.281933858      -70.7832666      0.281933858      -70.7832666      0.945459626      16.3546569       
16.5             0.948361336      15.8872358       0.274074738      -71.3017771      0.274074738      -71.3017771      0.948361336      15.8872358       
17               0.95104096       15.4441601       0.266608931      -71.7933424      0.266608931      -71.7933424      0.95104096       15.4441601       
17.5             0.953520281      15.0236179       0.259508787      -72.2599731      0.259508787      -72.2599731      0.953520281      15.0236179       
18               0.955818522      14.6239666       0.252749032      -72.7034898      0.252749032      -72.7034898      0.955818522      14.6239666       
18.5             0.957952692      14.2437143       0.246306547      -73.1255443      0.246306547      -73.1255443      0.957952692      14.2437143       
19               0.95993788       13.8815035       0.240160152      -73.5276384      0.240160152      -73.5276384      0.95993788       13.8815035       
19.5             0.961787503      13.5360969       0.234290423      -73.9111398      0.234290423      -73.9111398      0.961787503      13.5360969       
20               0.963513521      13.2063647       0.228679524      -74.2772965      0.228679524      -74.2772965      0.963513521      13.2063647       
20.5             0.965126618      12.8912735       0.223311057      -74.6272493      0.223311057      -74.6272493      0.965126618      12.8912735       
21               0.966636364      12.5898768       0.218169925      -74.9620427      0.218169925      -74.9620427      0.966636364      12.5898768       
21.5             0.968051345      12.3013059       0.213242216      -75.2826347      0.213242216      -75.2826347      0.968051345      12.3013059       
22               0.969379281      12.0247624       0.208515088      -75.5899053      0.208515088      -75.5899053      0.969379281      12.0247624       
22.5             0.97062713       11.7595117       0.203976678      -75.8846645      0.203976678      -75.8846645      0.97062713       11.7595117       
23               0.971801175      11.5048764       0.19961601       -76.1676582      0.19961601       -76.1676582      0.971801175      11.5048764       
23.5             0.972907096      11.2602313       0.195422918      -76.4395753      0.195422918      -76.4395753      0.972907096      11.2602313       
24               0.973950045      11.0249984       0.191387976      -76.7010521      0.191387976      -76.7010521      0.973950045      11.0249984       
24.5             0.974934696      10.7986426       0.187502432      -76.9526776      0.187502432      -76.9526776      0.974934696      10.7986426       
25               0.9758653        10.5806682       0.183758152      -77.1949976      0.183758152      -77.1949976      0.9758653        10.5806682       
25.5             0.976745731      10.3706148       0.180147568      -77.4285186      0.180147568      -77.4285186      0.976745731      10.3706148       
26               0.977579522      10.1680549       0.17666363       -77.6537112      0.17666363       -77.6537112      0.977579522      10.1680549       
26.5             0.978369903      9.97259056       0.173299764      -77.8710131      0.173299764      -77.8710131      0.978369903      9.97259056       
27               0.97911983       9.7838512        0.170049835      -78.080832       0.170049835      -78.080832       0.97911983       9.7838512        
27.5             0.979832012      9.60149127       0.166908109      -78.2835481      0.166908109      -78.2835481      0.979832012      9.60149127       
28               0.980508935      9.42518816       0.163869223      -78.4795161      0.163869223      -78.4795161      0.980508935      9.42518816       
28.5             0.981152885      9.2546404        0.160928156      -78.6690676      0.160928156      -78.6690676      0.981152885      9.2546404        
29               0.981765967      9.08956592       0.158080204      -78.8525128      0.158080204      -78.8525128      0.981765967      9.08956592       
29.5             0.982350119      8.92970059       0.155320952      -79.0301423      0.155320952      -79.0301423      0.982350119      8.92970059       
30               0.982907131      8.77479683       0.152646258      -79.2022281      0.152646258      -79.2022281      0.982907131      8.77479683       
30.5             0.983438656      8.6246223        0.150052227      -79.3690259      0.150052227      -79.3690259      0.983438656      8.6246223        
31               0.983946224      8.47895881       0.147535199      -79.5307754      0.147535199      -79.5307754      0.983946224      8.47895881       
31.5             0.98443125       8.33760124       0.145091725      -79.6877022      0.145091725      -79.6877022      0.98443125       8.33760124       
32               0.984895048      8.2003566        0.14271856       -79.8400184      0.14271856       -79.8400184      0.984895048      8.2003566        
32.5             0.985338836      8.06704316       0.140412641      -79.9879238      0.140412641      -79.9879238      0.985338836      8.06704316       
33               0.985763748      7.93748963       0.138171079      -80.1316067      0.138171079      -80.1316067      0.985763748      7.93748963       
33.5             0.986170837      7.81153444       0.135991148      -80.2712446      0.135991148      -80.2712446      0.986170837      7.81153444       
34               0.986561084      7.68902506       0.133870269      -80.4070051      0.133870269      -80.4070051      0.986561084      7.68902506       
34.5             0.986935402      7.56981741       0.131806004      -80.5390467      0.131806004      -80.5390467      0.986935402      7.56981741       
35               0.987294646      7.45377524       0.129796047      -80.6675189      0.129796047      -80.6675189      0.987294646      7.45377524       
35.5             0.98763961       7.34076964       0.127838212      -80.7925633      0.127838212      -80.7925633      0.98763961       7.34076964       
36               0.987971041      7.23067856       0.12593043       -80.9143141      0.12593043       -80.9143141      0.987971041      7.23067856       
36.5             0.988289634      7.12338635       0.124070736      -81.0328982      0.124070736      -81.0328982      0.988289634      7.12338635       
37               0.98859604       7.01878335       0.122257268      -81.148436       0.122257268      -81.148436       0.98859604       7.01878335       
37.5             0.988890872      6.91676551       0.120488256      -81.2610418      0.120488256      -81.2610418      0.988890872      6.91676551       
38               0.989174702      6.81723406       0.11876202       -81.3708239      0.11876202       -81.3708239      0.989174702      6.81723406       
38.5             0.989448068      6.72009515       0.117076961      -81.4778853      0.117076961      -81.4778853      0.989448068      6.72009515       
39               0.989711475      6.62525955       0.11543156       -81.5823239      0.11543156       -81.5823239      0.989711475      6.62525955       
39.5             0.989965399      6.53264242       0.113824368      -81.6842328      0.113824368      -81.6842328      0.989965399      6.53264242       
40               0.990210285      6.44216297       0.112254009      -81.7837004      0.112254009      -81.7837004      0.990210285      6.44216297       
40.5             0.990446556      6.35374429       0.110719169      -81.8808111      0.110719169      -81.8808111      0.990446556      6.35374429       
41               0.990674606      6.26731309       0.109218596      -81.9756451      0.109218596      -81.9756451      0.990674606      6.26731309       
41.5             0.99089481       6.18279947       0.107751095      -82.068279       0.107751095      -82.068279       0.99089481       6.18279947       
42               0.991107521      6.10013678       0.106315527      -82.1587857      0.106315527      -82.1587857      0.991107521      6.10013678       
42.5             0.991313071      6.01926139       0.104910804      -82.2472349      0.104910804      -82.2472349      0.991313071      6.01926139       
43               0.991511774      5.94011255       0.103535884      -82.3336929      0.103535884      -82.3336929      0.991511774      5.94011255       
43.5             0.991703929      5.8626322        0.102189775      -82.4182232      0.102189775      -82.4182232      0.991703929      5.8626322        
44               0.991889816      5.78676486       0.100871525      -82.5008863      0.100871525      -82.5008863      0.991889816      5.78676486       
44.5             0.992069701      5.71245745       0.0995802248     -82.5817403      0.0995802248     -82.5817403      0.992069701      5.71245745       
45               0.992243836      5.63965921       0.0983150035     -82.6608404      0.0983150035     -82.6608404      0.992243836      5.63965921       
45.5             0.992412461      5.56832152       0.0970750272     -82.7382396      0.0970750272     -82.7382396      0.992412461      5.56832152       
46               0.992575801      5.49839782       0.095859497      -82.8139886      0.095859497      -82.8139886      0.992575801      5.49839782       
46.5             0.992734072      5.42984353       0.0946676471     -82.8881359      0.0946676471     -82.8881359      0.992734072      5.42984353       
47               0.992887477      5.36261587       0.093498743      -82.9607281      0.093498743      -82.9607281      0.992887477      5.36261587       
47.5             0.99303621       5.29667385       0.0923520804     -83.0318095      0.0923520804     -83.0318095      0.99303621       5.29667385       
48               0.993180456      5.23197813       0.0912269831     -83.1014229      0.0912269831     -83.1014229      0.993180456      5.23197813       
48.5             0.993320388      5.16849095       0.0901228018     -83.1696091      0.0901228018     -83.1696091      0.993320388      5.16849095       
49               0.993456175      5.10617606       0.0890389132     -83.2364074      0.0890389132     -83.2364074      0.993456175      5.10617606       
49.5             0.993587973      5.04499865       0.0879747181     -83.3018555      0.0879747181     -83.3018555      0.993587973      5.04499865       
50               0.993715934      4.98492524       0.0869296405     -83.3659893      0.0869296405     -83.3659893      0.993715934      4.98492524       
50.5             0.993840201      4.92592367       0.0859031268     -83.4288436      0.0859031268     -83.4288436      0.993840201      4.92592367       
51               0.993960912      4.867963         0.0848946442     -83.4904516      0.0848946442     -83.4904516      0.993960912      4.867963         
51.5             0.994078197      4.81101348       0.0839036801     -83.5508454      0.0839036801     -83.5508454      0.994078197      4.81101348       
52               0.99419218       4.75504647       0.082929741      -83.6100556      0.082929741      -83.6100556      0.99419218       4.75504647       
52.5             0.99430298       4.70003438       0.0819723516     -83.6681116      0.0819723516     -83.6681116      0.99430298       4.70003438       
53               0.994410712      4.64595068       0.0810310544     -83.725042       0.0810310544     -83.725042       0.994410712      4.64595068       
53.5             0.994515482      4.59276976       0.080105408      -83.7808739      0.080105408      -83.7808739      0.994515482      4.59276976       
54               0.994617396      4.54046699       0.0791949873     -83.8356335      0.0791949873     -83.8356335      0.994617396      4.54046699       
54.5             0.994716551      4.4890186        0.0782993823     -83.8893461      0.0782993823     -83.8893461      0.994716551      4.4890186        
55               0.994813043      4.43840165       0.0774181975     -83.9420358      0.0774181975     -83.9420358      0.994813043      4.43840165       
55.5             0.994906962      4.38859405       0.0765510513     -83.9937262      0.0765510513     -83.9937262      0.994906962      4.38859405       
56               0.994998395      4.33957446       0.0756975753     -84.0444395      0.0756975753     -84.0444395      0.994998395      4.33957446       
56.5             0.995087425      4.29132228       0.0748574139     -84.0941974      0.0748574139     -84.0941974      0.995087425      4.29132228       
57               0.995174132      4.24381763       0.0740302238     -84.1430208      0.0740302238     -84.1430208      0.995174132      4.24381763       
57.5             0.995258591      4.1970413        0.0732156732     -84.1909295      0.0732156732     -84.1909295      0.995258591      4.1970413        
58               0.995340876      4.15097474       0.0724134415     -84.237943       0.0724134415     -84.237943       0.995340876      4.15097474       
58.5             0.995421057      4.10560002       0.0716232188     -84.2840797      0.0716232188     -84.2840797      0.995421057      4.10560002       
59               0.9954992        4.06089979       0.0708447055     -84.3293575      0.0708447055     -84.3293575      0.9954992        4.06089979       
59.5             0.995575372      4.0168573        0.0700776119     -84.3737937      0.0700776119     -84.3737937      0.995575372      4.0168573        
60               0.995649633      3.97345634       0.0693216576     -84.4174048      0.0693216576     -84.4174048      0.995649633      3.97345634       
60.5             0.995722042      3.93068122       0.0685765715     -84.4602068      0.0685765715     -84.4602068      0.995722042      3.93068122       
61               0.995792658      3.88851676       0.0678420909     -84.502215       0.0678420909     -84.502215       0.995792658      3.88851676       
61.5             0.995861535      3.84694826       0.0671179618     -84.5434442      0.0671179618     -84.5434442      0.995861535      3.84694826       
62               0.995928725      3.8059615        0.0664039379     -84.5839087      0.0664039379     -84.5839087      0.995928725      3.8059615        
62.5             0.995994279      3.7655427        0.0656997808     -84.6236222      0.0656997808     -84.6236222      0.995994279      3.7655427        
63               0.996058247      3.72567852       0.0650052596     -84.6625979      0.0650052596     -84.6625979      0.996058247      3.72567852       
63.5             0.996120675      3.68635601       0.0643201504     -84.7008486      0.0643201504     -84.7008486      0.996120675      3.68635601       
64               0.996181608      3.64756264       0.0636442361     -84.7383864      0.0636442361     -84.7383864      0.996181608      3.64756264       
64.5             0.996241089      3.60928626       0.0629773064     -84.7752232      0.0629773064     -84.7752232      0.996241089      3.60928626       
