! Coilcraft 1008CS-271 Chip Inductor				
! 02 July 2002			
# MHZ S MA R 50
!Freq             MagS11           AngS11           MagS21           AngS21           MagS12           AngS12           MagS22           AngS22
1                0.0199060004     54.8464952       0.988672712      -0.943237766     0.988672712      -0.943237766     0.0199060004     54.8464952       
3.24             0.0547342728     73.2270487       0.985599019      -3.04793237      0.985599019      -3.04793237      0.0547342728     73.2270487       
5.48             0.0907022398     75.8728409       0.981809884      -5.13994628      0.981809884      -5.13994628      0.0907022398     75.8728409       
7.72             0.126498376      75.9329314       0.976989803      -7.21511121      0.976989803      -7.21511121      0.126498376      75.9329314       
9.96             0.161846415      75.1102354       0.971091192      -9.26890534      0.971091192      -9.26890534      0.161846415      75.1102354       
12.2             0.19658625       73.8903616       0.964131793      -11.2969026      0.964131793      -11.2969026      0.19658625       73.8903616       
14.44            0.230594178      72.4672094       0.956158962      -13.2949348      0.956158962      -13.2949348      0.230594178      72.4672094       
16.68            0.263767474      70.9349408       0.947237263      -15.2591792      0.947237263      -15.2591792      0.263767474      70.9349408       
18.92            0.296020302      69.3456514       0.937442207      -17.1862127      0.937442207      -17.1862127      0.296020302      69.3456514       
21.16            0.327282312      67.7309613       0.926856206      -19.0730432      0.926856206      -19.0730432      0.327282312      67.7309613       
23.4             0.357497862      66.1113987       0.915565548      -20.9171243      0.915565548      -20.9171243      0.357497862      66.1113987       
25.64            0.386625279      64.5009505       0.903657976      -22.7163565      0.903657976      -22.7163565      0.386625279      64.5009505       
27.88            0.414635982      62.9094662       0.891220708      -24.4690771      0.891220708      -24.4690771      0.414635982      62.9094662       
30.12            0.441513457      61.3440219       0.878338823      -26.1740408      0.878338823      -26.1740408      0.441513457      61.3440219       
32.36            0.467252093      59.8097419       0.865093986      -27.8303942      0.865093986      -27.8303942      0.467252093      59.8097419       
34.6             0.491855945      58.3103216       0.851563469      -29.4376447      0.851563469      -29.4376447      0.491855945      58.3103216       
36.84            0.515337461      56.8483786       0.837819447      -30.9956273      0.837819447      -30.9956273      0.515337461      56.8483786       
39.08            0.537716215      55.4256968       0.823928534      -32.5044684      0.823928534      -32.5044684      0.537716215      55.4256968       
41.32            0.559017695      54.0434058       0.809951536      -33.9645504      0.809951536      -33.9645504      0.559017695      54.0434058       
43.56            0.579272157      52.702115        0.795943362      -35.3764767      0.795943362      -35.3764767      0.579272157      52.702115        
45.8             0.598513574      51.4020188       0.781953097      -36.741038       0.781953097      -36.741038       0.598513574      51.4020188       
48.04            0.616778698      50.1429792       0.76802417       -38.059181       0.76802417       -38.059181       0.616778698      50.1429792       
50.28            0.634106218      48.9245934       0.754194618      -39.3319789      0.754194618      -39.3319789      0.634106218      48.9245934       
52.52            0.650536039      47.7462484       0.740497401      -40.5606055      0.740497401      -40.5606055      0.650536039      47.7462484       
54.76            0.666108664      46.6071666       0.726960758      -41.7463116      0.726960758      -41.7463116      0.666108664      46.6071666       
57               0.680864673      45.5064432       0.713608588      -42.8904036      0.713608588      -42.8904036      0.680864673      45.5064432       
59.24            0.694844299      44.4430778       0.700460832      -43.9942259      0.700460832      -43.9942259      0.694844299      44.4430778       
61.48            0.708087078      43.4159999       0.687533854      -45.0591445      0.687533854      -45.0591445      0.708087078      43.4159999       
63.72            0.720631583      42.4240912       0.674840813      -46.0865341      0.674840813      -46.0865341      0.720631583      42.4240912       
65.96            0.732515209      41.4662025       0.662392014      -47.0777667      0.662392014      -47.0777667      0.732515209      41.4662025       
68.2             0.743774025      40.5411692       0.65019524       -48.0342019      0.65019524       -48.0342019      0.743774025      40.5411692       
70.44            0.754442658      39.6478229       0.638256057      -48.9571793      0.638256057      -48.9571793      0.754442658      39.6478229       
72.68            0.76455423       38.7850013       0.626578101      -49.8480126      0.626578101      -49.8480126      0.76455423       38.7850013       
74.92            0.774140315      37.9515559       0.615163331      -50.7079841      0.615163331      -50.7079841      0.774140315      37.9515559       
77.16            0.78323093       37.1463581       0.604012265      -51.5383416      0.604012265      -51.5383416      0.78323093       37.1463581       
79.4             0.791854539      36.3683046       0.593124188      -52.3402948      0.593124188      -52.3402948      0.791854539      36.3683046       
81.64            0.800038084      35.6163202       0.58249734       -53.1150141      0.58249734       -53.1150141      0.800038084      35.6163202       
83.88            0.807807016      34.8893615       0.57212908       -53.8636286      0.57212908       -53.8636286      0.807807016      34.8893615       
86.12            0.815185346      34.1864179       0.562016034      -54.5872257      0.562016034      -54.5872257      0.815185346      34.1864179       
88.36            0.822195693      33.5065139       0.552154225      -55.2868509      0.552154225      -55.2868509      0.822195693      33.5065139       
90.6             0.828859351      32.8487088       0.542539183      -55.9635079      0.542539183      -55.9635079      0.828859351      32.8487088       
92.84            0.835196338      32.2120979       0.533166047      -56.6181588      0.533166047      -56.6181588      0.835196338      32.2120979       
95.08            0.841225468      31.5958118       0.524029649      -57.2517251      0.524029649      -57.2517251      0.841225468      31.5958118       
97.32            0.846964411      30.9990165       0.515124589      -57.8650886      0.515124589      -57.8650886      0.846964411      30.9990165       
99.56            0.852429751      30.4209124       0.506445296      -58.4590922      0.506445296      -58.4590922      0.852429751      30.4209124       
101.8            0.857637055      29.8607342       0.497986086      -59.0345415      0.497986086      -59.0345415      0.857637055      29.8607342       
104.04           0.862600924      29.3177493       0.489741208      -59.5922055      0.489741208      -59.5922055      0.862600924      29.3177493       
106.28           0.867335056      28.7912572       0.481704881      -60.1328185      0.481704881      -60.1328185      0.867335056      28.7912572       
108.52           0.871852299      28.2805885       0.47387133       -60.657081       0.47387133       -60.657081       0.871852299      28.2805885       
110.76           0.876164704      27.7851036       0.466234815      -61.1656613      0.466234815      -61.1656613      0.876164704      27.7851036       
113              0.880283575      27.3041918       0.458789651      -61.6591967      0.458789651      -61.6591967      0.880283575      27.3041918       
115.24           0.884219516      26.8372699       0.451530229      -62.1382948      0.451530229      -62.1382948      0.884219516      26.8372699       
117.48           0.887982475      26.3837812       0.444451031      -62.6035353      0.444451031      -62.6035353      0.887982475      26.3837812       
119.72           0.891581789      25.9431945       0.437546646      -63.0554705      0.437546646      -63.0554705      0.891581789      25.9431945       
121.96           0.895026221      25.5150026       0.430811776      -63.4946273      0.430811776      -63.4946273      0.895026221      25.5150026       
124.2            0.898323998      25.0987215       0.424241243      -63.9215079      0.424241243      -63.9215079      0.898323998      25.0987215       
126.44           0.901482847      24.6938896       0.41783          -64.3365913      0.41783          -64.3365913      0.901482847      24.6938896       
128.68           0.904510026      24.300066        0.41157313       -64.7403342      0.41157313       -64.7403342      0.904510026      24.300066        
130.92           0.907412356      23.91683         0.405465854      -65.1331723      0.405465854      -65.1331723      0.907412356      23.91683         
133.16           0.910196249      23.54378         0.399503526      -65.5155211      0.399503526      -65.5155211      0.910196249      23.54378         
135.4            0.912867737      23.1805326       0.39368164       -65.8877772      0.39368164       -65.8877772      0.912867737      23.1805326       
137.64           0.915432491      22.8267218       0.387995825      -66.2503189      0.387995825      -66.2503189      0.915432491      22.8267218       
139.88           0.91789585       22.4819978       0.382441846      -66.6035073      0.382441846      -66.6035073      0.91789585       22.4819978       
142.12           0.920262843      22.1460269       0.377015605      -66.9476873      0.377015605      -66.9476873      0.920262843      22.1460269       
144.36           0.922538203      21.8184898       0.371713133      -67.283188       0.371713133      -67.283188       0.922538203      21.8184898       
146.6            0.924726393      21.4990818       0.366530594      -67.6103241      0.366530594      -67.6103241      0.924726393      21.4990818       
148.84           0.926831618      21.1875113       0.361464277      -67.9293959      0.361464277      -67.9293959      0.926831618      21.1875113       
151.08           0.928857847      20.8834998       0.356510599      -68.2406907      0.356510599      -68.2406907      0.928857847      20.8834998       
153.32           0.930808822      20.5867807       0.351666094      -68.544483       0.351666094      -68.544483       0.930808822      20.5867807       
155.56           0.932688077      20.2970992       0.346927417      -68.8410352      0.346927417      -68.8410352      0.932688077      20.2970992       
157.8            0.934498948      20.0142114       0.342291338      -69.1305985      0.342291338      -69.1305985      0.934498948      20.0142114       
160.04           0.936244588      19.7378839       0.337754737      -69.413413       0.337754737      -69.413413       0.936244588      19.7378839       
162.28           0.937927977      19.4678931       0.333314603      -69.6897088      0.333314603      -69.6897088      0.937927977      19.4678931       
164.52           0.939551933      19.2040251       0.328968029      -69.9597058      0.328968029      -69.9597058      0.939551933      19.2040251       
166.76           0.941119122      18.9460748       0.32471221       -70.223615       0.32471221       -70.223615       0.941119122      18.9460748       
169              0.942632068      18.6938458       0.320544438      -70.4816381      0.320544438      -70.4816381      0.942632068      18.6938458       
171.24           0.944093159      18.4471498       0.316462099      -70.7339688      0.316462099      -70.7339688      0.944093159      18.4471498       
173.48           0.945504659      18.2058063       0.312462673      -70.9807925      0.312462673      -70.9807925      0.945504659      18.2058063       
175.72           0.946868713      17.9696422       0.308543725      -71.222287       0.308543725      -71.222287       0.946868713      17.9696422       
177.96           0.948187355      17.7384912       0.304702905      -71.4586229      0.304702905      -71.4586229      0.948187355      17.7384912       
180.2            0.949462514      17.5121941       0.300937947      -71.6899638      0.300937947      -71.6899638      0.949462514      17.5121941       
182.44           0.950696021      17.2905979       0.297246661      -71.9164667      0.297246661      -71.9164667      0.950696021      17.2905979       
184.68           0.951889614      17.0735556       0.293626936      -72.1382825      0.293626936      -72.1382825      0.951889614      17.0735556       
186.92           0.953044944      16.860926        0.290076731      -72.3555559      0.290076731      -72.3555559      0.953044944      16.860926        
189.16           0.95416358       16.6525737       0.286594077      -72.5684259      0.286594077      -72.5684259      0.95416358       16.6525737       
191.4            0.955247012      16.4483683       0.283177073      -72.7770262      0.283177073      -72.7770262      0.955247012      16.4483683       
193.64           0.956296658      16.2481845       0.279823883      -72.9814852      0.279823883      -72.9814852      0.956296658      16.2481845       
195.88           0.957313867      16.0519018       0.276532733      -73.1819263      0.276532733      -73.1819263      0.957313867      16.0519018       
198.12           0.958299923      15.8594045       0.27330191       -73.3784685      0.27330191       -73.3784685      0.958299923      15.8594045       
200.36           0.959256048      15.670581        0.270129759      -73.5712258      0.270129759      -73.5712258      0.959256048      15.670581        
202.6            0.960183406      15.4853239       0.26701468       -73.7603083      0.26701468       -73.7603083      0.960183406      15.4853239       
204.84           0.961083107      15.30353         0.263955129      -73.9458217      0.263955129      -73.9458217      0.961083107      15.30353         
207.08           0.961956208      15.1250998       0.260949612      -74.1278679      0.260949612      -74.1278679      0.961956208      15.1250998       
209.32           0.962803718      14.9499374       0.257996685      -74.3065451      0.257996685      -74.3065451      0.962803718      14.9499374       
211.56           0.963626598      14.7779505       0.255094952      -74.4819477      0.255094952      -74.4819477      0.963626598      14.7779505       
213.8            0.964425766      14.60905         0.252243063      -74.6541669      0.252243063      -74.6541669      0.964425766      14.60905         
216.04           0.965202099      14.4431502       0.249439713      -74.8232905      0.249439713      -74.8232905      0.965202099      14.4431502       
218.28           0.965956434      14.2801683       0.246683639      -74.9894031      0.246683639      -74.9894031      0.965956434      14.2801683       
220.52           0.966689571      14.1200244       0.24397362       -75.1525864      0.24397362       -75.1525864      0.966689571      14.1200244       
222.76           0.967402273      13.9626416       0.241308473      -75.3129192      0.241308473      -75.3129192      0.967402273      13.9626416       
225              0.968095271      13.8079454       0.238687055      -75.4704774      0.238687055      -75.4704774      0.968095271      13.8079454       
227.24           0.968769264      13.6558642       0.236108257      -75.6253343      0.236108257      -75.6253343      0.968769264      13.6558642       
229.48           0.969424921      13.5063286       0.233571008      -75.7775609      0.233571008      -75.7775609      0.969424921      13.5063286       
231.72           0.970062881      13.3592717       0.23107427       -75.9272254      0.23107427       -75.9272254      0.970062881      13.3592717       
233.96           0.970683757      13.2146287       0.228617037      -76.074394       0.228617037      -76.074394       0.970683757      13.2146287       
236.2            0.971288135      13.0723373       0.226198336      -76.2191305      0.226198336      -76.2191305      0.971288135      13.0723373       
238.44           0.971876577      12.932337        0.223817222      -76.3614964      0.223817222      -76.3614964      0.971876577      12.932337        
240.68           0.972449622      12.7945694       0.221472782      -76.5015515      0.221472782      -76.5015515      0.972449622      12.7945694       
242.92           0.973007786      12.658978        0.21916413       -76.6393534      0.21916413       -76.6393534      0.973007786      12.658978        
245.16           0.973551564      12.5255081       0.216890405      -76.7749577      0.216890405      -76.7749577      0.973551564      12.5255081       
247.4            0.974081431      12.394107        0.214650777      -76.9084185      0.214650777      -76.9084185      0.974081431      12.394107        
249.64           0.974597842      12.2647234       0.212444437      -77.0397878      0.212444437      -77.0397878      0.974597842      12.2647234       
251.88           0.975101235      12.1373078       0.210270602      -77.1691161      0.210270602      -77.1691161      0.975101235      12.1373078       
254.12           0.975592029      12.0118123       0.208128513      -77.2964523      0.208128513      -77.2964523      0.975592029      12.0118123       
256.36           0.976070628      11.8881904       0.206017432      -77.4218437      0.206017432      -77.4218437      0.976070628      11.8881904       
258.6            0.976537419      11.7663971       0.203936644      -77.5453361      0.203936644      -77.5453361      0.976537419      11.7663971       
260.84           0.976992774      11.6463889       0.201885455      -77.6669738      0.201885455      -77.6669738      0.976992774      11.6463889       
263.08           0.977437051      11.5281235       0.199863191      -77.7867999      0.199863191      -77.7867999      0.977437051      11.5281235       
265.32           0.977870595      11.41156         0.197869199      -77.9048559      0.197869199      -77.9048559      0.977870595      11.41156         
267.56           0.978293735      11.2966587       0.195902842      -78.0211821      0.195902842      -78.0211821      0.978293735      11.2966587       
269.8            0.97870679       11.183381        0.193963504      -78.1358178      0.193963504      -78.1358178      0.97870679       11.183381        
272.04           0.979110066      11.0716897       0.192050585      -78.2488009      0.192050585      -78.2488009      0.979110066      11.0716897       
274.28           0.979503859      10.9615486       0.190163504      -78.360168       0.190163504      -78.360168       0.979503859      10.9615486       
276.52           0.979888452      10.8529224       0.188301694      -78.4699549      0.188301694      -78.4699549      0.979888452      10.8529224       
278.76           0.980264118      10.7457772       0.186464606      -78.5781962      0.186464606      -78.5781962      0.980264118      10.7457772       
281              0.980631121      10.6400797       0.184651705      -78.6849254      0.184651705      -78.6849254      0.980631121      10.6400797       
283.24           0.980989714      10.5357979       0.182862471      -78.7901752      0.182862471      -78.7901752      0.980989714      10.5357979       
285.48           0.981340142      10.4329004       0.1810964        -78.893977       0.1810964        -78.893977       0.981340142      10.4329004       
