! Coilcraft 1008CS-221 Chip Inductor				
! 02 July 2002			
# MHZ S MA R 50
!Freq             MagS11           AngS11           MagS21           AngS21           MagS12           AngS12           MagS22           AngS22
1                0.0170371455     54.0787163       0.990100899      -0.798444226     0.990100899      -0.798444226     0.0170371455     54.0787163       
3.49             0.0498249181     73.9883586       0.987418778      -2.78006271      0.987418778      -2.78006271      0.0498249181     73.9883586       
5.98             0.0837614419     76.7036168       0.984117714      -4.75134707      0.984117714      -4.75134707      0.0837614419     76.7036168       
8.47             0.117573637      76.8162431       0.979894065      -6.70882267      0.979894065      -6.70882267      0.117573637      76.8162431       
10.96            0.151019148      76.0586595       0.97469851       -8.64867523      0.97469851       -8.64867523      0.151019148      76.0586595       
13.45            0.183959935      74.9119081       0.968540294      -10.567138       0.968540294      -10.567138       0.183959935      74.9119081       
15.94            0.216288701      73.5653229       0.961454697      -12.4606258      0.961454697      -12.4606258      0.216288701      73.5653229       
18.43            0.247915001      72.1099653       0.953492151      -14.3258082      0.953492151      -14.3258082      0.247915001      72.1099653       
20.92            0.27876166       70.5958694       0.944712959      -16.1596549      0.944712959      -16.1596549      0.27876166       70.5958694       
23.41            0.308763649      69.0532692       0.935183988      -17.9594656      0.935183988      -17.9594656      0.308763649      69.0532692       
25.9             0.337867581      67.5017585       0.924976222      -19.7228856      0.924976222      -19.7228856      0.337867581      67.5017585       
28.39            0.36603128       65.9547072       0.914162815      -21.4479126      0.914162815      -21.4479126      0.36603128       65.9547072       
30.88            0.393223257      64.4215807       0.902817458      -23.1328937      0.902817458      -23.1328937      0.393223257      64.4215807       
33.37            0.41942206       62.9092466       0.891013028      -24.7765162      0.891013028      -24.7765162      0.41942206       62.9092466       
35.86            0.444615512      61.4227555       0.878820465      -26.3777914      0.878820465      -26.3777914      0.444615512      61.4227555       
38.35            0.468799844      59.9658344       0.866307881      -27.9360355      0.866307881      -27.9360355      0.468799844      59.9658344       
40.84            0.49197879       58.5412122       0.853539862      -29.4508462      0.853539862      -29.4508462      0.49197879       58.5412122       
43.33            0.514162643      57.1508461       0.840576964      -30.9220777      0.840576964      -30.9220777      0.514162643      57.1508461       
45.82            0.535367329      55.7960833       0.827475369      -32.3498145      0.827475369      -32.3498145      0.535367329      55.7960833       
48.31            0.555613506      54.4777834       0.814286694      -33.7343448      0.814286694      -33.7343448      0.555613506      54.4777834       
50.8             0.574925709      53.1964117       0.80105791       -35.0761349      0.80105791       -35.0761349      0.574925709      53.1964117       
53.29            0.593331568      51.9521133       0.787831382      -36.3758039      0.787831382      -36.3758039      0.593331568      51.9521133       
55.78            0.610861087      50.7447732       0.774644973      -37.6340998      0.774644973      -37.6340998      0.610861087      50.7447732       
58.27            0.627546004      49.5740654       0.761532222      -38.8518782      0.761532222      -38.8518782      0.627546004      49.5740654       
60.76            0.643419226      48.4394939       0.748522566      -40.0300813      0.748522566      -40.0300813      0.643419226      48.4394939       
63.25            0.658514343      47.3404266       0.735641593      -41.1697201      0.735641593      -41.1697201      0.658514343      47.3404266       
65.74            0.672865203      46.2761242       0.722911315      -42.2718577      0.722911315      -42.2718577      0.672865203      46.2761242       
68.23            0.686505566      45.2457648       0.710350451      -43.3375949      0.710350451      -43.3375949      0.686505566      45.2457648       
70.72            0.699468815      44.2484636       0.697974716      -44.3680577      0.697974716      -44.3680577      0.699468815      44.2484636       
73.21            0.711787712      43.2832906       0.685797093      -45.3643858      0.685797093      -45.3643858      0.711787712      43.2832906       
75.7             0.72349422       42.3492852       0.673828112      -46.3277234      0.673828112      -46.3277234      0.72349422       42.3492852       
78.19            0.734619353      41.4454678       0.662076104      -47.2592111      0.662076104      -47.2592111      0.734619353      41.4454678       
80.68            0.745193068      40.5708502       0.650547444      -48.1599794      0.650547444      -48.1599794      0.745193068      40.5708502       
83.17            0.755244189      39.7244441       0.639246775      -49.0311426      0.639246775      -49.0311426      0.755244189      39.7244441       
85.66            0.764800357      38.9052674       0.62817722       -49.8737947      0.62817722       -49.8737947      0.764800357      38.9052674       
88.15            0.773887999      38.1123501       0.617340572      -50.6890055      0.617340572      -50.6890055      0.773887999      38.1123501       
90.64            0.782532322      37.344739        0.606737468      -51.4778179      0.606737468      -51.4778179      0.782532322      37.344739        
93.13            0.790757313      36.6015007       0.596367543      -52.2412456      0.596367543      -52.2412456      0.790757313      36.6015007       
95.62            0.798585755      35.8817245       0.586229579      -52.9802715      0.586229579      -52.9802715      0.798585755      35.8817245       
98.11            0.806039257      35.1845249       0.576321625      -53.6958466      0.576321625      -53.6958466      0.806039257      35.1845249       
100.6            0.813138281      34.5090425       0.566641113      -54.3888897      0.566641113      -54.3888897      0.813138281      34.5090425       
103.09           0.819902183      33.8544454       0.557184958      -55.0602863      0.557184958      -55.0602863      0.819902183      33.8544454       
105.58           0.826349253      33.2199295       0.547949649      -55.7108894      0.547949649      -55.7108894      0.826349253      33.2199295       
108.07           0.832496761      32.6047195       0.538931322      -56.3415191      0.538931322      -56.3415191      0.832496761      32.6047195       
110.56           0.838361         32.0080681       0.530125833      -56.9529635      0.530125833      -56.9529635      0.838361         32.0080681       
113.05           0.843957333      31.4292564       0.521528818      -57.545979       0.521528818      -57.545979       0.843957333      31.4292564       
115.54           0.84930024       30.8675932       0.513135744      -58.121291       0.513135744      -58.121291       0.84930024       30.8675932       
118.03           0.854403364      30.3224148       0.504941952      -58.6795949      0.504941952      -58.6795949      0.854403364      30.3224148       
120.52           0.859279554      29.7930842       0.496942701      -59.2215567      0.496942701      -59.2215567      0.859279554      29.7930842       
123.01           0.863940911      29.2789904       0.4891332        -59.7478144      0.4891332        -59.7478144      0.863940911      29.2789904       
125.5            0.868398828      28.7795479       0.481508635      -60.2589783      0.481508635      -60.2589783      0.868398828      28.7795479       
127.99           0.872664033      28.2941956       0.474064195      -60.7556325      0.474064195      -60.7556325      0.872664033      28.2941956       
130.48           0.876746624      27.8223959       0.466795094      -61.2383358      0.466795094      -61.2383358      0.876746624      27.8223959       
132.97           0.880656112      27.3636345       0.459696589      -61.7076225      0.459696589      -61.7076225      0.880656112      27.3636345       
135.46           0.88440145       26.9174185       0.45276399       -62.1640038      0.45276399       -62.1640038      0.88440145       26.9174185       
137.95           0.887991069      26.4832765       0.445992677      -62.6079683      0.445992677      -62.6079683      0.887991069      26.4832765       
140.44           0.891432912      26.0607573       0.439378111      -63.0399831      0.439378111      -63.0399831      0.891432912      26.0607573       
142.93           0.89473446       25.6494291       0.432915836      -63.4604951      0.432915836      -63.4604951      0.89473446       25.6494291       
145.42           0.897902763      25.2488787       0.426601492      -63.8699313      0.426601492      -63.8699313      0.897902763      25.2488787       
147.91           0.900944466      24.8587108       0.420430814      -64.2687002      0.420430814      -64.2687002      0.900944466      24.8587108       
150.4            0.903865831      24.4785469       0.414399643      -64.6571924      0.414399643      -64.6571924      0.903865831      24.4785469       
152.89           0.906672767      24.108025        0.40850392       -65.0357813      0.40850392       -65.0357813      0.906672767      24.108025        
155.38           0.909370843      23.7467985       0.402739694      -65.4048243      0.402739694      -65.4048243      0.909370843      23.7467985       
157.87           0.911965319      23.3945359       0.397103123      -65.7646632      0.397103123      -65.7646632      0.911965319      23.3945359       
160.36           0.914461156      23.0509195       0.391590469      -66.115625       0.391590469      -66.115625       0.914461156      23.0509195       
162.85           0.916863039      22.7156454       0.386198104      -66.4580226      0.386198104      -66.4580226      0.916863039      22.7156454       
165.34           0.919175396      22.3884224       0.380922504      -66.7921556      0.380922504      -66.7921556      0.919175396      22.3884224       
167.83           0.921402408      22.0689718       0.375760254      -67.1183106      0.375760254      -67.1183106      0.921402408      22.0689718       
170.32           0.923548028      21.7570265       0.370708038      -67.4367624      0.370708038      -67.4367624      0.923548028      21.7570265       
172.81           0.925615993      21.4523306       0.365762647      -67.7477738      0.365762647      -67.7477738      0.925615993      21.4523306       
175.3            0.92760984       21.1546387       0.360920968      -68.0515968      0.360920968      -68.0515968      0.92760984       21.1546387       
177.79           0.929532916      20.863716        0.356179988      -68.3484728      0.356179988      -68.3484728      0.929532916      20.863716        
180.28           0.931388386      20.5793369       0.35153679       -68.638633       0.35153679       -68.638633       0.931388386      20.5793369       
182.77           0.933179253      20.3012854       0.346988551      -68.9222994      0.346988551      -68.9222994      0.933179253      20.3012854       
185.26           0.934908357      20.0293542       0.342532538      -69.1996846      0.342532538      -69.1996846      0.934908357      20.0293542       
187.75           0.936578393      19.7633443       0.338166105      -69.4709925      0.338166105      -69.4709925      0.936578393      19.7633443       
190.24           0.938191914      19.5030649       0.333886695      -69.7364189      0.333886695      -69.7364189      0.938191914      19.5030649       
192.73           0.939751345      19.2483327       0.329691834      -69.9961515      0.329691834      -69.9961515      0.939751345      19.2483327       
195.22           0.941258983      18.9989717       0.325579127      -70.2503708      0.325579127      -70.2503708      0.941258983      18.9989717       
197.71           0.942717012      18.754813        0.32154626       -70.4992497      0.32154626       -70.4992497      0.942717012      18.754813        
200.2            0.944127503      18.5156943       0.317590992      -70.7429546      0.317590992      -70.7429546      0.944127503      18.5156943       
202.69           0.945492427      18.2814595       0.313711158      -70.9816451      0.313711158      -70.9816451      0.945492427      18.2814595       
205.18           0.946813654      18.0519588       0.309904664      -71.2154748      0.309904664      -71.2154748      0.946813654      18.0519588       
207.67           0.948092963      17.8270478       0.306169484      -71.4445911      0.306169484      -71.4445911      0.948092963      17.8270478       
210.16           0.949332047      17.6065881       0.302503659      -71.669136       0.302503659      -71.669136       0.949332047      17.6065881       
212.65           0.950532516      17.3904462       0.298905293      -71.8892458      0.298905293      -71.8892458      0.950532516      17.3904462       
215.14           0.951695904      17.1784937       0.295372553      -72.1050518      0.295372553      -72.1050518      0.951695904      17.1784937       
217.63           0.952823668      16.9706073       0.291903666      -72.3166802      0.291903666      -72.3166802      0.952823668      16.9706073       
220.12           0.953917201      16.766668        0.288496917      -72.5242527      0.288496917      -72.5242527      0.953917201      16.766668        
222.61           0.954977826      16.5665612       0.285150646      -72.7278861      0.285150646      -72.7278861      0.954977826      16.5665612       
225.1            0.956006806      16.3701768       0.281863246      -72.9276933      0.281863246      -72.9276933      0.956006806      16.3701768       
227.59           0.957005347      16.1774083       0.278633165      -73.1237827      0.278633165      -73.1237827      0.957005347      16.1774083       
230.08           0.957974597      15.9881535       0.275458898      -73.3162589      0.275458898      -73.3162589      0.957974597      15.9881535       
232.57           0.958915652      15.8023135       0.272338989      -73.5052228      0.272338989      -73.5052228      0.958915652      15.8023135       
235.06           0.95982956       15.6197932       0.26927203       -73.6907715      0.26927203       -73.6907715      0.95982956       15.6197932       
237.55           0.96071732       15.4405008       0.266256655      -73.8729987      0.266256655      -73.8729987      0.96071732       15.4405008       
240.04           0.961579887      15.2643477       0.263291545      -74.0519948      0.263291545      -74.0519948      0.961579887      15.2643477       
242.53           0.962418175      15.0912484       0.260375421      -74.227847       0.260375421      -74.227847       0.962418175      15.0912484       
245.02           0.963233055      14.9211204       0.257507043      -74.4006394      0.257507043      -74.4006394      0.963233055      14.9211204       
247.51           0.964025362      14.7538841       0.254685212      -74.5704533      0.254685212      -74.5704533      0.964025362      14.7538841       
250              0.964795894      14.5894625       0.251908765      -74.7373669      0.251908765      -74.7373669      0.964795894      14.5894625       
252.49           0.965545416      14.4277814       0.249176576      -74.9014561      0.249176576      -74.9014561      0.965545416      14.4277814       
254.98           0.966274659      14.2687689       0.246487554      -75.062794       0.246487554      -75.062794       0.966274659      14.2687689       
257.47           0.966984323      14.1123557       0.24384064       -75.2214513      0.24384064       -75.2214513      0.966984323      14.1123557       
259.96           0.967675078      13.9584748       0.241234809      -75.3774961      0.241234809      -75.3774961      0.967675078      13.9584748       
262.45           0.968347568      13.8070612       0.238669068      -75.5309946      0.238669068      -75.5309946      0.968347568      13.8070612       
264.94           0.969002408      13.6580523       0.236142451      -75.6820105      0.236142451      -75.6820105      0.969002408      13.6580523       
267.43           0.969640189      13.5113875       0.233654026      -75.8306055      0.233654026      -75.8306055      0.969640189      13.5113875       
269.92           0.970261479      13.367008        0.231202883      -75.9768393      0.231202883      -75.9768393      0.970261479      13.367008        
272.41           0.970866819      13.2248571       0.228788145      -76.1207697      0.228788145      -76.1207697      0.970866819      13.2248571       
274.9            0.971456732      13.0848797       0.226408958      -76.2624526      0.226408958      -76.2624526      0.971456732      13.0848797       
277.39           0.972031719      12.9470227       0.224064493      -76.401942       0.224064493      -76.401942       0.972031719      12.9470227       
279.88           0.972592261      12.8112345       0.221753947      -76.5392902      0.221753947      -76.5392902      0.972592261      12.8112345       
282.37           0.973138818      12.6774652       0.219476539      -76.6745481      0.219476539      -76.6745481      0.973138818      12.6774652       
284.86           0.973671835      12.5456663       0.217231512      -76.8077645      0.217231512      -76.8077645      0.973671835      12.5456663       
287.35           0.974191739      12.4157911       0.215018131      -76.9389872      0.215018131      -76.9389872      0.974191739      12.4157911       
289.84           0.974698938      12.2877941       0.212835681      -77.0682622      0.212835681      -77.0682622      0.974698938      12.2877941       
292.33           0.975193828      12.1616313       0.210683468      -77.1956342      0.210683468      -77.1956342      0.975193828      12.1616313       
294.82           0.975676788      12.0372598       0.208560819      -77.3211463      0.208560819      -77.3211463      0.975676788      12.0372598       
297.31           0.976148182      11.9146384       0.206467078      -77.4448407      0.206467078      -77.4448407      0.976148182      11.9146384       
299.8            0.976608361      11.7937268       0.204401609      -77.5667578      0.204401609      -77.5667578      0.976608361      11.7937268       
302.29           0.977057664      11.6744861       0.202363794      -77.6869373      0.202363794      -77.6869373      0.977057664      11.6744861       
304.78           0.977496415      11.5568784       0.200353031      -77.8054173      0.200353031      -77.8054173      0.977496415      11.5568784       
307.27           0.977924928      11.4408669       0.198368736      -77.922235       0.198368736      -77.922235       0.977924928      11.4408669       
309.76           0.978343506      11.3264161       0.196410341      -78.0374264      0.196410341      -78.0374264      0.978343506      11.3264161       
312.25           0.978752438      11.2134914       0.194477292      -78.1510264      0.194477292      -78.1510264      0.978752438      11.2134914       
314.74           0.979152006      11.102059        0.192569052      -78.2630689      0.192569052      -78.2630689      0.979152006      11.102059        
317.23           0.97954248       10.9920863       0.190685097      -78.373587       0.190685097      -78.373587       0.97954248       10.9920863       
