! Coilcraft 1008CS-151 Chip Inductor				
! 02 July 2002			
# MHZ S MA R 50
!Freq             MagS11           AngS11           MagS21           AngS21           MagS12           AngS12           MagS22           AngS22
1                0.012326862      48.7873977       0.991921733      -0.535645964     0.991921733      -0.535645964     0.012326862      48.7873977       
4.24             0.0406132301     74.6791761       0.990044184      -2.26742967      0.990044184      -2.26742967      0.0406132301     74.6791761       
7.48             0.070330658      77.9270242       0.987687224      -3.99287682      0.987687224      -3.99287682      0.070330658      77.9270242       
10.72            0.100033059      78.3003703       0.984599925      -5.70962411      0.984599925      -5.70962411      0.100033059      78.3003703       
13.96            0.12951536       77.7584597       0.980740062      -7.4150518       0.980740062      -7.4150518       0.12951536       77.7584597       
17.2             0.15867281       76.8140194       0.976107838      -9.10654108      0.976107838      -9.10654108      0.15867281       76.8140194       
20.44            0.187426025      75.6621514       0.970721639      -10.7815564      0.970721639      -10.7815564      0.187426025      75.6621514       
23.68            0.215707375      74.3944318       0.964610446      -12.4376902      0.964610446      -12.4376902      0.215707375      74.3944318       
26.92            0.243457476      73.0602081       0.957810406      -14.0726919      0.957810406      -14.0726919      0.243457476      73.0602081       
30.16            0.270624149      71.6888393       0.950362801      -15.6844889      0.950362801      -15.6844889      0.270624149      71.6888393       
33.4             0.297162077      70.2991404       0.942312608      -17.2712008      0.942312608      -17.2712008      0.297162077      70.2991404       
36.64            0.323032653      68.9038754       0.93370735       -18.8311481      0.93370735       -18.8311481      0.323032653      68.9038754       
39.88            0.348203832      67.5120886       0.924596121      -20.362857       0.924596121      -20.362857       0.348203832      67.5120886       
43.12            0.372649938      66.130401        0.915028737      -21.8650598      0.915028737      -21.8650598      0.372649938      66.130401        
46.36            0.396351393      64.7637733       0.905055003      -23.3366921      0.905055003      -23.3366921      0.396351393      64.7637733       
49.6             0.419294391      63.4159789       0.894724074      -24.7768869      0.894724074      -24.7768869      0.419294391      63.4159789       
52.84            0.441470509      62.0899089       0.88408391       -26.1849667      0.88408391       -26.1849667      0.441470509      62.0899089       
56.08            0.462876276      60.7877788       0.87318083       -27.5604331      0.87318083       -27.5604331      0.462876276      60.7877788       
59.32            0.483512715      59.5112723       0.86205915       -28.9029553      0.86205915       -28.9029553      0.483512715      59.5112723       
62.56            0.503384871      58.2616466       0.850760898      -30.2123576      0.850760898      -30.2123576      0.503384871      58.2616466       
65.8             0.522501334      57.0398104       0.839325615      -31.4886066      0.839325615      -31.4886066      0.522501334      57.0398104       
69.04            0.540873773      55.8463849       0.827790214      -32.7317971      0.827790214      -32.7317971      0.540873773      55.8463849       
72.28            0.558516486      54.6817521       0.816188906      -33.9421391      0.816188906      -33.9421391      0.558516486      54.6817521       
75.52            0.57544597       53.5460938       0.804553174      -35.1199448      0.804553174      -35.1199448      0.57544597       53.5460938       
78.76            0.591680527      52.439424        0.792911792      -36.2656152      0.792911792      -36.2656152      0.591680527      52.439424        
82               0.607239892      51.3616161       0.781290884      -37.379629       0.781290884      -37.379629       0.607239892      51.3616161       
85.24            0.622144903      50.3124263       0.769714004      -38.4625303      0.769714004      -38.4625303      0.622144903      50.3124263       
88.48            0.636417199      49.2915131       0.758202244      -39.5149187      0.758202244      -39.5149187      0.636417199      49.2915131       
91.72            0.650078957      48.2984541       0.746774363      -40.5374391      0.746774363      -40.5374391      0.650078957      48.2984541       
94.96            0.663152657      47.3327615       0.735446912      -41.530773       0.735446912      -41.530773       0.663152657      47.3327615       
98.2             0.675660878      46.393894        0.724234387      -42.4956304      0.724234387      -42.4956304      0.675660878      46.393894        
101.44           0.687626128      45.4812686       0.713149365      -43.4327428      0.713149365      -43.4327428      0.687626128      45.4812686       
104.68           0.699070697      44.5942695       0.702202655      -44.3428562      0.702202655      -44.3428562      0.699070697      44.5942695       
107.92           0.710016533      43.7322569       0.691403444      -45.2267261      0.691403444      -45.2267261      0.710016533      43.7322569       
111.16           0.720485145      42.8945737       0.680759427      -46.0851118      0.680759427      -46.0851118      0.720485145      42.8945737       
114.4            0.730497519      42.0805519       0.670276953      -46.9187728      0.670276953      -46.9187728      0.730497519      42.0805519       
117.64           0.740074057      41.2895177       0.659961146      -47.7284646      0.659961146      -47.7284646      0.740074057      41.2895177       
120.88           0.749234528      40.520796        0.649816025      -48.5149356      0.649816025      -48.5149356      0.749234528      40.520796        
124.12           0.757998032      39.7737139       0.639844622      -49.2789245      0.639844622      -49.2789245      0.757998032      39.7737139       
127.36           0.766382979      39.0476044       0.630049085      -50.0211578      0.630049085      -50.0211578      0.766382979      39.0476044       
130.6            0.774407072      38.3418084       0.620430773      -50.7423484      0.620430773      -50.7423484      0.774407072      38.3418084       
133.84           0.782087303      37.6556774       0.610990351      -51.4431938      0.610990351      -51.4431938      0.782087303      37.6556774       
137.08           0.789439952      36.9885747       0.601727868      -52.1243748      0.601727868      -52.1243748      0.789439952      36.9885747       
140.32           0.796480593      36.3398774       0.592642836      -52.7865549      0.592642836      -52.7865549      0.796480593      36.3398774       
143.56           0.803224108      35.7089771       0.583734295      -53.4303794      0.583734295      -53.4303794      0.803224108      35.7089771       
146.8            0.809684698      35.0952809       0.575000877      -54.0564751      0.575000877      -54.0564751      0.809684698      35.0952809       
150.04           0.815875901      34.4982121       0.566440864      -54.6654497      0.566440864      -54.6654497      0.815875901      34.4982121       
153.28           0.821810612      33.9172104       0.558052236      -55.2578919      0.558052236      -55.2578919      0.821810612      33.9172104       
156.52           0.827501106      33.3517322       0.549832716      -55.8343716      0.549832716      -55.8343716      0.827501106      33.3517322       
159.76           0.832959056      32.8012511       0.541779813      -56.3954394      0.541779813      -56.3954394      0.832959056      32.8012511       
163              0.83819556       32.2652574       0.533890857      -56.9416273      0.533890857      -56.9416273      0.83819556       32.2652574       
166.24           0.843221164      31.7432583       0.526163032      -57.4734487      0.526163032      -57.4734487      0.843221164      31.7432583       
169.48           0.848045881      31.2347777       0.518593404      -57.9913991      0.518593404      -57.9913991      0.848045881      31.2347777       
172.72           0.852679222      30.7393559       0.511178947      -58.4959557      0.511178947      -58.4959557      0.852679222      30.7393559       
175.96           0.857130212      30.2565492       0.503916565      -58.9875788      0.503916565      -58.9875788      0.857130212      30.2565492       
179.2            0.861407418      29.7859299       0.496803113      -59.4667115      0.496803113      -59.4667115      0.861407418      29.7859299       
182.44           0.865518969      29.3270856       0.489835412      -59.9337804      0.489835412      -59.9337804      0.865518969      29.3270856       
185.68           0.869472576      28.879619        0.483010267      -60.3891963      0.483010267      -60.3891963      0.869472576      28.879619        
188.92           0.873275556      28.4431473       0.476324479      -60.8333544      0.476324479      -60.8333544      0.873275556      28.4431473       
192.16           0.876934851      28.0173018       0.469774855      -61.266635       0.469774855      -61.266635       0.876934851      28.0173018       
195.4            0.880457044      27.6017278       0.463358221      -61.6894037      0.463358221      -61.6894037      0.880457044      27.6017278       
198.64           0.883848386      27.1960837       0.457071429      -62.1020124      0.457071429      -62.1020124      0.883848386      27.1960837       
201.88           0.887114802      26.8000406       0.450911361      -62.5047994      0.450911361      -62.5047994      0.887114802      26.8000406       
205.12           0.890261917      26.4132824       0.444874943      -62.89809        0.444874943      -62.89809        0.890261917      26.4132824       
208.36           0.893295071      26.0355044       0.438959141      -63.2821971      0.438959141      -63.2821971      0.893295071      26.0355044       
211.6            0.89621933       25.666414        0.433160973      -63.6574216      0.433160973      -63.6574216      0.89621933       25.666414        
214.84           0.899039503      25.3057291       0.427477508      -64.0240528      0.427477508      -64.0240528      0.899039503      25.3057291       
218.08           0.901760158      24.9531788       0.42190587       -64.3823688      0.42190587       -64.3823688      0.901760158      24.9531788       
221.32           0.904385631      24.6085021       0.416443242      -64.7326371      0.416443242      -64.7326371      0.904385631      24.6085021       
224.56           0.906920041      24.2714479       0.411086864      -65.075115       0.411086864      -65.075115       0.906920041      24.2714479       
227.8            0.909367303      23.9417748       0.405834037      -65.4100501      0.405834037      -65.4100501      0.909367303      23.9417748       
231.04           0.911731135      23.6192502       0.400682126      -65.7376803      0.400682126      -65.7376803      0.911731135      23.6192502       
234.28           0.914015073      23.3036506       0.395628556      -66.0582347      0.395628556      -66.0582347      0.914015073      23.3036506       
237.52           0.916222476      22.9947604       0.390670813      -66.3719335      0.390670813      -66.3719335      0.916222476      22.9947604       
240.76           0.918356542      22.6923725       0.385806448      -66.6789887      0.385806448      -66.6789887      0.918356542      22.6923725       
244              0.920420311      22.3962874       0.381033072      -66.9796045      0.381033072      -66.9796045      0.920420311      22.3962874       
247.24           0.922416675      22.1063128       0.376348358      -67.2739771      0.376348358      -67.2739771      0.922416675      22.1063128       
250.48           0.924348389      21.8222637       0.37175004       -67.5622956      0.37175004       -67.5622956      0.924348389      21.8222637       
253.72           0.926218072      21.543962        0.367235913      -67.844742       0.367235913      -67.844742       0.926218072      21.543962        
256.96           0.928028222      21.271236        0.362803829      -68.1214917      0.362803829      -68.1214917      0.928028222      21.271236        
260.2            0.929781216      21.0039203       0.358451701      -68.3927134      0.358451701      -68.3927134      0.929781216      21.0039203       
263.44           0.931479321      20.7418554       0.354177498      -68.6585698      0.354177498      -68.6585698      0.931479321      20.7418554       
266.68           0.933124695      20.4848879       0.349979245      -68.9192176      0.349979245      -68.9192176      0.933124695      20.4848879       
269.92           0.934719398      20.2328697       0.345855022      -69.1748077      0.345855022      -69.1748077      0.934719398      20.2328697       
273.16           0.936265393      19.9856579       0.341802964      -69.4254858      0.341802964      -69.4254858      0.936265393      19.9856579       
276.4            0.937764554      19.743115        0.337821257      -69.6713921      0.337821257      -69.6713921      0.937764554      19.743115        
279.64           0.939218668      19.5051082       0.333908139      -69.912662       0.333908139      -69.912662       0.939218668      19.5051082       
282.88           0.940629443      19.2715094       0.330061899      -70.1494259      0.330061899      -70.1494259      0.940629443      19.2715094       
286.12           0.941998506      19.042195        0.326280873      -70.3818097      0.326280873      -70.3818097      0.941998506      19.042195        
289.36           0.943327416      18.8170458       0.322563445      -70.6099349      0.322563445      -70.6099349      0.943327416      18.8170458       
292.6            0.944617657      18.5959466       0.318908047      -70.8339186      0.318908047      -70.8339186      0.944617657      18.5959466       
295.84           0.945870653      18.3787863       0.315313154      -71.053874       0.315313154      -71.053874       0.945870653      18.3787863       
299.08           0.94708776       18.1654577       0.311777284      -71.2699103      0.311777284      -71.2699103      0.94708776       18.1654577       
302.32           0.948270279      17.955857        0.308299001      -71.4821328      0.308299001      -71.4821328      0.948270279      17.955857        
305.56           0.949419452      17.7498841       0.304876907      -71.6906435      0.304876907      -71.6906435      0.949419452      17.7498841       
308.8            0.950536467      17.5474423       0.301509645      -71.8955406      0.301509645      -71.8955406      0.950536467      17.5474423       
312.04           0.951622464      17.348438        0.298195897      -72.0969193      0.298195897      -72.0969193      0.951622464      17.348438        
315.28           0.952678532      17.152781        0.294934383      -72.2948714      0.294934383      -72.2948714      0.952678532      17.152781        
318.52           0.953705714      16.9603837       0.29172386       -72.4894857      0.29172386       -72.4894857      0.953705714      16.9603837       
321.76           0.954705009      16.7711619       0.28856312       -72.680848       0.28856312       -72.680848       0.954705009      16.7711619       
325              0.955677377      16.5850336       0.285450988      -72.8690413      0.285450988      -72.8690413      0.955677377      16.5850336       
328.24           0.956623734      16.4019198       0.282386326      -73.0541458      0.282386326      -73.0541458      0.956623734      16.4019198       
331.48           0.957544962      16.2217441       0.279368024      -73.2362392      0.279368024      -73.2362392      0.957544962      16.2217441       
334.72           0.958441905      16.0444324       0.276395007      -73.4153967      0.276395007      -73.4153967      0.958441905      16.0444324       
337.96           0.959315372      15.8699131       0.273466229      -73.5916908      0.273466229      -73.5916908      0.959315372      15.8699131       
341.2            0.96016614       15.6981167       0.270580673      -73.7651921      0.270580673      -73.7651921      0.96016614       15.6981167       
344.44           0.960994957      15.5289761       0.267737351      -73.9359685      0.267737351      -73.9359685      0.960994957      15.5289761       
347.68           0.961802537      15.3624262       0.264935304      -74.1040861      0.264935304      -74.1040861      0.961802537      15.3624262       
350.92           0.962589569      15.1984039       0.262173597      -74.2696087      0.262173597      -74.2696087      0.962589569      15.1984039       
354.16           0.963356714      15.0368482       0.259451323      -74.4325983      0.259451323      -74.4325983      0.963356714      15.0368482       
357.4            0.964104606      14.8776998       0.2567676        -74.5931147      0.2567676        -74.5931147      0.964104606      14.8776998       
360.64           0.964833856      14.7209014       0.254121571      -74.7512161      0.254121571      -74.7512161      0.964833856      14.7209014       
363.88           0.96554505       14.5663974       0.251512401      -74.9069587      0.251512401      -74.9069587      0.96554505       14.5663974       
367.12           0.966238753      14.4141337       0.248939278      -75.0603972      0.248939278      -75.0603972      0.966238753      14.4141337       
370.36           0.966915508      14.2640581       0.246401414      -75.2115844      0.246401414      -75.2115844      0.966915508      14.2640581       
373.6            0.967575836      14.1161197       0.243898041      -75.3605716      0.243898041      -75.3605716      0.967575836      14.1161197       
376.84           0.96822024       13.9702694       0.241428412      -75.5074086      0.241428412      -75.5074086      0.96822024       13.9702694       
380.08           0.968849203      13.8264594       0.238991801      -75.6521437      0.238991801      -75.6521437      0.968849203      13.8264594       
383.32           0.969463192      13.6846433       0.236587501      -75.7948237      0.236587501      -75.7948237      0.969463192      13.6846433       
386.56           0.970062655      13.5447759       0.234214823      -75.9354941      0.234214823      -75.9354941      0.970062655      13.5447759       
389.8            0.970648025      13.4068137       0.231873098      -76.0741989      0.231873098      -76.0741989      0.970648025      13.4068137       
393.04           0.971219716      13.2707141       0.229561674      -76.2109809      0.229561674      -76.2109809      0.971219716      13.2707141       
396.28           0.971778132      13.136436        0.227279917      -76.3458818      0.227279917      -76.3458818      0.971778132      13.136436        
399.52           0.972323657      13.0039391       0.225027208      -76.4789419      0.225027208      -76.4789419      0.972323657      13.0039391       
402.76           0.972856667      12.8731847       0.222802945      -76.6102003      0.222802945      -76.6102003      0.972856667      12.8731847       
406              0.97337752       12.7441348       0.220606543      -76.7396952      0.220606543      -76.7396952      0.97337752       12.7441348       
409.24           0.973886563      12.6167527       0.218437432      -76.8674635      0.218437432      -76.8674635      0.973886563      12.6167527       
412.48           0.974384131      12.4910027       0.216295054      -76.9935411      0.216295054      -76.9935411      0.974384131      12.4910027       
