! Coilcraft 1008CS-220 Chip Inductor				
! 02 July 2002			
# MHZ S MA R 50
!Freq             MagS11           AngS11           MagS21           AngS21           MagS12           AngS12           MagS22           AngS22
1                0.00194282474    45.1978956       0.99863192       -0.0790916811    0.99863192       -0.0790916811    0.00194282474    45.1978956       
9.48             0.0132478703     79.9923794       0.997783092      -0.749180054     0.997783092      -0.749180054     0.0132478703     79.9923794       
17.96            0.0248875593     82.6853653       0.997136964      -1.41855352      0.997136964      -1.41855352      0.0248875593     82.6853653       
26.44            0.0365352644     83.3799458       0.996449147      -2.08723065      0.996449147      -2.08723065      0.0365352644     83.3799458       
34.92            0.0481718        83.4748783       0.995676728      -2.75512987      0.995676728      -2.75512987      0.0481718        83.4748783       
43.4             0.0597897036     83.304407        0.994802757      -3.42214257      0.994802757      -3.42214257      0.0597897036     83.304407        
51.88            0.0713838229     82.9915697       0.993818797      -4.0881484       0.993818797      -4.0881484       0.0713838229     82.9915697       
60.36            0.0829497269     82.5929946       0.992720214      -4.75302106      0.992720214      -4.75302106      0.0829497269     82.5929946       
68.84            0.0944832843     82.1386636       0.991504402      -5.41663122      0.991504402      -5.41663122      0.0944832843     82.1386636       
77.32            0.105980523      81.6460711       0.990169974      -6.07884813      0.990169974      -6.07884813      0.105980523      81.6460711       
85.8             0.117437579      81.1261869       0.988716349      -6.73954072      0.988716349      -6.73954072      0.117437579      81.1261869       
94.28            0.128850675      80.5862839       0.987143512      -7.39857831      0.987143512      -7.39857831      0.128850675      80.5862839       
102.76           0.140216117      80.0314049       0.985451874      -8.05583118      0.985451874      -8.05583118      0.140216117      80.0314049       
111.24           0.151530293      79.4651778       0.983642176      -8.71117097      0.983642176      -8.71117097      0.151530293      79.4651778       
119.72           0.162789674      78.8902954       0.981715431      -9.36447104      0.981715431      -9.36447104      0.162789674      78.8902954       
128.2            0.17399082       78.3088101       0.979672877      -10.0156068      0.979672877      -10.0156068      0.17399082       78.3088101       
136.68           0.185130382      77.7223233       0.977515943      -10.6644559      0.977515943      -10.6644559      0.185130382      77.7223233       
145.16           0.196205109      77.1321101       0.975246225      -11.3108986      0.975246225      -11.3108986      0.196205109      77.1321101       
153.64           0.207211849      76.5392041       0.972865465      -11.9548175      0.972865465      -11.9548175      0.207211849      76.5392041       
162.12           0.218147553      75.9444571       0.970375536      -12.5960985      0.970375536      -12.5960985      0.218147553      75.9444571       
170.6            0.229009282      75.348581        0.967778428      -13.2346302      0.967778428      -13.2346302      0.229009282      75.348581        
179.08           0.239794203      74.7521785       0.965076231      -13.8703045      0.965076231      -13.8703045      0.239794203      74.7521785       
187.56           0.2504996        74.1557659       0.962271132      -14.5030163      0.962271132      -14.5030163      0.2504996        74.1557659       
196.04           0.261122872      73.5597896       0.959365397      -15.1326641      0.959365397      -15.1326641      0.261122872      73.5597896       
204.52           0.271661533      72.9646398       0.956361368      -15.7591498      0.956361368      -15.7591498      0.271661533      72.9646398       
213              0.282113217      72.3706598       0.953261453      -16.3823787      0.953261453      -16.3823787      0.282113217      72.3706598       
221.48           0.292475678      71.778154        0.950068117      -17.0022598      0.950068117      -17.0022598      0.292475678      71.778154        
229.96           0.302746791      71.187394        0.946783873      -17.6187056      0.946783873      -17.6187056      0.302746791      71.187394        
238.44           0.312924554      70.5986234       0.943411281      -18.2316324      0.943411281      -18.2316324      0.312924554      70.5986234       
246.92           0.323007082      70.0120618       0.939952934      -18.8409602      0.939952934      -18.8409602      0.323007082      70.0120618       
255.4            0.332992615      69.427908        0.936411458      -19.4466125      0.936411458      -19.4466125      0.332992615      69.427908        
263.88           0.342879512      68.8463424       0.932789501      -20.0485168      0.932789501      -20.0485168      0.342879512      68.8463424       
272.36           0.352666254      68.2675294       0.929089728      -20.6466043      0.929089728      -20.6466043      0.352666254      68.2675294       
280.84           0.362351437      67.6916187       0.92531482       -21.2408097      0.92531482       -21.2408097      0.362351437      67.6916187       
289.32           0.371933778      67.1187475       0.921467462      -21.8310718      0.921467462      -21.8310718      0.371933778      67.1187475       
297.8            0.381412108      66.549041        0.917550342      -22.4173326      0.917550342      -22.4173326      0.381412108      66.549041        
306.28           0.390785373      65.9826141       0.913566147      -22.9995383      0.913566147      -22.9995383      0.390785373      65.9826141       
314.76           0.400052629      65.419572        0.909517553      -23.5776383      0.909517553      -23.5776383      0.400052629      65.419572        
323.24           0.409213045      64.8600107       0.905407229      -24.1515858      0.905407229      -24.1515858      0.409213045      64.8600107       
331.72           0.418265895      64.3040185       0.901237825      -24.7213374      0.901237825      -24.7213374      0.418265895      64.3040185       
340.2            0.427210557      63.7516757       0.897011971      -25.2868533      0.897011971      -25.2868533      0.427210557      63.7516757       
348.68           0.436046514      63.2030558       0.892732277      -25.8480972      0.892732277      -25.8480972      0.436046514      63.2030558       
357.16           0.444773345      62.6582255       0.888401324      -26.4050358      0.888401324      -26.4050358      0.444773345      62.6582255       
365.64           0.453390727      62.1172454       0.884021663      -26.9576395      0.884021663      -26.9576395      0.453390727      62.1172454       
374.12           0.46189843       61.5801704       0.879595814      -27.5058817      0.879595814      -27.5058817      0.46189843       61.5801704       
382.6            0.470296313      61.0470499       0.87512626       -28.0497389      0.87512626       -28.0497389      0.470296313      61.0470499       
391.08           0.478584325      60.5179279       0.870615447      -28.5891908      0.870615447      -28.5891908      0.478584325      60.5179279       
399.56           0.486762494      59.9928441       0.866065781      -29.1242201      0.866065781      -29.1242201      0.486762494      59.9928441       
408.04           0.494830932      59.471833        0.861479626      -29.6548123      0.861479626      -29.6548123      0.494830932      59.471833        
416.52           0.502789826      58.9549251       0.856859301      -30.1809556      0.856859301      -30.1809556      0.502789826      58.9549251       
425              0.510639437      58.4421468       0.852207079      -30.7026412      0.852207079      -30.7026412      0.510639437      58.4421468       
433.48           0.518380099      57.9335205       0.847525189      -31.2198628      0.847525189      -31.2198628      0.518380099      57.9335205       
441.96           0.526012209      57.4290648       0.842815807      -31.7326167      0.842815807      -31.7326167      0.526012209      57.4290648       
450.44           0.533536231      56.9287951       0.838081063      -32.2409016      0.838081063      -32.2409016      0.533536231      56.9287951       
458.92           0.540952688      56.4327231       0.833323035      -32.7447185      0.833323035      -32.7447185      0.540952688      56.4327231       
467.4            0.548262161      55.9408575       0.82854375       -33.2440709      0.82854375       -33.2440709      0.548262161      55.9408575       
475.88           0.555465286      55.4532042       0.823745182      -33.7389645      0.823745182      -33.7389645      0.555465286      55.4532042       
484.36           0.562562748      54.9697659       0.818929254      -34.2294067      0.818929254      -34.2294067      0.562562748      54.9697659       
492.84           0.569555282      54.4905429       0.814097837      -34.7154075      0.814097837      -34.7154075      0.569555282      54.4905429       
501.32           0.576443667      54.0155328       0.809252747      -35.1969784      0.809252747      -35.1969784      0.576443667      54.0155328       
509.8            0.583228725      53.5447307       0.804395747      -35.6741329      0.804395747      -35.6741329      0.583228725      53.5447307       
518.28           0.589911316      53.0781295       0.79952855       -36.1468863      0.79952855       -36.1468863      0.589911316      53.0781295       
526.76           0.596492338      52.6157201       0.794652812      -36.6152554      0.794652812      -36.6152554      0.596492338      52.6157201       
535.24           0.602972722      52.157491        0.789770139      -37.0792589      0.789770139      -37.0792589      0.602972722      52.157491        
543.72           0.609353429      51.7034291       0.784882084      -37.5389167      0.784882084      -37.5389167      0.609353429      51.7034291       
552.2            0.615635451      51.2535192       0.779990149      -37.9942503      0.779990149      -37.9942503      0.615635451      51.2535192       
560.68           0.621819805      50.8077446       0.775095782      -38.4452824      0.775095782      -38.4452824      0.621819805      50.8077446       
569.16           0.627907531      50.3660869       0.770200383      -38.8920373      0.770200383      -38.8920373      0.627907531      50.3660869       
577.64           0.633899692      49.9285261       0.765305299      -39.3345402      0.765305299      -39.3345402      0.633899692      49.9285261       
586.12           0.639797369      49.4950408       0.760411831      -39.7728175      0.760411831      -39.7728175      0.639797369      49.4950408       
594.6            0.645601662      49.0656085       0.755521229      -40.2068967      0.755521229      -40.2068967      0.645601662      49.0656085       
603.08           0.651313684      48.640205        0.750634694      -40.6368063      0.750634694      -40.6368063      0.651313684      48.640205        
611.56           0.656934564      48.2188053       0.745753382      -41.0625756      0.745753382      -41.0625756      0.656934564      48.2188053       
620.04           0.662465439      47.8013833       0.740878401      -41.484235       0.740878401      -41.484235       0.662465439      47.8013833       
628.52           0.66790746       47.3879116       0.736010815      -41.9018155      0.736010815      -41.9018155      0.66790746       47.3879116       
637              0.673261781      46.9783621       0.731151642      -42.3153489      0.731151642      -42.3153489      0.673261781      46.9783621       
645.48           0.678529567      46.5727058       0.726301859      -42.7248677      0.726301859      -42.7248677      0.678529567      46.5727058       
653.96           0.683711985      46.1709129       0.721462398      -43.130405       0.721462398      -43.130405       0.683711985      46.1709129       
662.44           0.688810206      45.7729528       0.716634151      -43.5319945      0.716634151      -43.5319945      0.688810206      45.7729528       
670.92           0.693825405      45.3787941       0.711817968      -43.9296704      0.711817968      -43.9296704      0.693825405      45.3787941       
679.4            0.698758756      44.9884052       0.707014662      -44.3234673      0.707014662      -44.3234673      0.698758756      44.9884052       
687.88           0.703611432      44.6017535       0.702225004      -44.7134203      0.702225004      -44.7134203      0.703611432      44.6017535       
696.36           0.708384607      44.2188062       0.697449731      -45.099565       0.697449731      -45.099565       0.708384607      44.2188062       
704.84           0.71307945       43.8395298       0.692689543      -45.4819371      0.692689543      -45.4819371      0.71307945       43.8395298       
713.32           0.717697127      43.4638905       0.687945102      -45.8605726      0.687945102      -45.8605726      0.717697127      43.4638905       
721.8            0.722238801      43.0918542       0.683217039      -46.2355079      0.683217039      -46.2355079      0.722238801      43.0918542       
730.28           0.726705628      42.7233863       0.678505949      -46.6067796      0.678505949      -46.6067796      0.726705628      42.7233863       
738.76           0.731098757      42.3584523       0.673812398      -46.9744244      0.673812398      -46.9744244      0.731098757      42.3584523       
747.24           0.735419332      41.997017        0.669136917      -47.3384791      0.669136917      -47.3384791      0.735419332      41.997017        
755.72           0.739668489      41.6390453       0.664480008      -47.6989807      0.664480008      -47.6989807      0.739668489      41.6390453       
764.2            0.743847355      41.2845018       0.659842146      -48.0559662      0.659842146      -48.0559662      0.743847355      41.2845018       
772.68           0.747957047      40.9333512       0.655223775      -48.4094727      0.655223775      -48.4094727      0.747957047      40.9333512       
781.16           0.751998674      40.5855577       0.650625312      -48.7595373      0.650625312      -48.7595373      0.751998674      40.5855577       
789.64           0.755973335      40.2410859       0.646047148      -49.106197       0.646047148      -49.106197       0.755973335      40.2410859       
798.12           0.759882117      39.8998999       0.641489649      -49.4494889      0.641489649      -49.4494889      0.759882117      39.8998999       
806.6            0.763726098      39.5619643       0.636953155      -49.78945        0.636953155      -49.78945        0.763726098      39.5619643       
815.08           0.767506344      39.2272433       0.632437984      -50.1261172      0.632437984      -50.1261172      0.767506344      39.2272433       
823.56           0.771223908      38.8957014       0.627944429      -50.4595272      0.627944429      -50.4595272      0.771223908      38.8957014       
832.04           0.774879833      38.567303        0.623472763      -50.7897167      0.623472763      -50.7897167      0.774879833      38.567303        
840.52           0.778475148      38.2420126       0.619023236      -51.1167222      0.619023236      -51.1167222      0.778475148      38.2420126       
849              0.782010871      37.919795        0.614596079      -51.44058        0.614596079      -51.44058        0.782010871      37.919795        
857.48           0.785488006      37.600615        0.610191504      -51.7613264      0.610191504      -51.7613264      0.785488006      37.600615        
865.96           0.788907544      37.2844374       0.605809701      -52.0789972      0.605809701      -52.0789972      0.788907544      37.2844374       
874.44           0.792270465      36.9712274       0.601450845      -52.3936283      0.601450845      -52.3936283      0.792270465      36.9712274       
882.92           0.795577732      36.6609503       0.597115093      -52.7052551      0.597115093      -52.7052551      0.795577732      36.6609503       
891.4            0.7988303        36.3535715       0.592802584      -53.013913       0.592802584      -53.013913       0.7988303        36.3535715       
899.88           0.802029105      36.0490568       0.588513443      -53.3196369      0.588513443      -53.3196369      0.802029105      36.0490568       
908.36           0.805175073      35.747372        0.584247777      -53.6224617      0.584247777      -53.6224617      0.805175073      35.747372        
916.84           0.808269115      35.4484833       0.580005682      -53.9224218      0.580005682      -53.9224218      0.808269115      35.4484833       
925.32           0.811312129      35.1523571       0.575787236      -54.2195515      0.575787236      -54.2195515      0.811312129      35.1523571       
933.8            0.814305         34.85896         0.571592507      -54.5138847      0.571592507      -54.5138847      0.814305         34.85896         
942.28           0.817248598      34.5682588       0.567421548      -54.805455       0.567421548      -54.805455       0.817248598      34.5682588       
950.76           0.820143781      34.2802209       0.563274401      -55.0942958      0.563274401      -55.0942958      0.820143781      34.2802209       
959.24           0.822991391      33.9948135       0.559151095      -55.3804401      0.559151095      -55.3804401      0.822991391      33.9948135       
967.72           0.82579226       33.7120044       0.555051649      -55.6639205      0.555051649      -55.6639205      0.82579226       33.7120044       
976.2            0.828547204      33.4317617       0.55097607       -55.9447694      0.55097607       -55.9447694      0.828547204      33.4317617       
984.68           0.831257026      33.1540537       0.546924358      -56.223019       0.546924358      -56.223019       0.831257026      33.1540537       
993.16           0.833922517      32.8788489       0.542896498      -56.4987008      0.542896498      -56.4987008      0.833922517      32.8788489       
1001.64          0.836544454      32.6061163       0.538892471      -56.7718463      0.538892471      -56.7718463      0.836544454      32.6061163       
1010.12          0.8391236        32.3358251       0.534912247      -57.0424865      0.534912247      -57.0424865      0.8391236        32.3358251       
1018.6           0.841660706      32.0679449       0.530955786      -57.3106521      0.530955786      -57.3106521      0.841660706      32.0679449       
1027.08          0.844156511      31.8024455       0.527023044      -57.5763735      0.527023044      -57.5763735      0.844156511      31.8024455       
1035.56          0.84661174       31.5392972       0.523113966      -57.8396805      0.523113966      -57.8396805      0.84661174       31.5392972       
1044.04          0.849027105      31.2784704       0.519228492      -58.100603       0.519228492      -58.100603       0.849027105      31.2784704       
1052.52          0.851403308      31.0199359       0.515366553      -58.3591701      0.515366553      -58.3591701      0.851403308      31.0199359       
1061             0.853741035      30.763665        0.511528077      -58.6154108      0.511528077      -58.6154108      0.853741035      30.763665        
1069.48          0.856040963      30.5096291       0.507712984      -58.8693538      0.507712984      -58.8693538      0.856040963      30.5096291       
1077.96          0.858303756      30.2578          0.503921186      -59.1210272      0.503921186      -59.1210272      0.858303756      30.2578          
