! Coilcraft 1008CS-392 Chip Inductor				
! 02 July 2002			
# MHZ S MA R 50
!Freq             MagS11           AngS11           MagS21           AngS21           MagS12           AngS12           MagS22           AngS22
1                0.232650861      59.4756919       0.904321778      -12.8037373      0.904321778      -12.8037373      0.232650861      59.4756919       
1.5              0.32916014       57.8921535       0.870884359      -18.6720788      0.870884359      -18.6720788      0.32916014       57.8921535       
2                0.416069988      54.8360453       0.832988438      -24.1004319      0.832988438      -24.1004319      0.416069988      54.8360453       
2.5              0.492508811      51.4068348       0.792542975      -29.0586959      0.792542975      -29.0586959      0.492508811      51.4068348       
3                0.558676602      47.998329        0.751292288      -33.5458057      0.751292288      -33.5458057      0.558676602      47.998329        
3.5              0.615367525      44.7700117       0.710584152      -37.5817779      0.710584152      -37.5817779      0.615367525      44.7700117       
4                0.663653002      41.7833279       0.671344285      -41.1994205      0.671344285      -41.1994205      0.663653002      41.7833279       
4.5              0.704674091      39.0538767       0.634137852      -44.4376372      0.634137852      -44.4376372      0.704674091      39.0538767       
5                0.739520532      36.5751545       0.599256471      -47.3367707      0.599256471      -47.3367707      0.739520532      36.5751545       
5.5              0.769171348      34.3304375       0.566800661      -49.935736       0.566800661      -49.935736       0.769171348      34.3304375       
6                0.794474206      32.2989793       0.536746394      -52.2704779      0.536746394      -52.2704779      0.794474206      32.2989793       
6.5              0.816146497      30.4592525       0.508994147      -54.3733063      0.508994147      -54.3733063      0.816146497      30.4592525       
7                0.834786983      28.7905887       0.483402927      -56.2727673      0.483402927      -56.2727673      0.834786983      28.7905887       
7.5              0.850891434      27.273938        0.459812758      -57.9938093      0.459812758      -57.9938093      0.850891434      27.273938        
8                0.864868695      25.8921485       0.438058914      -59.5580957      0.438058914      -59.5580957      0.864868695      25.8921485       
8.5              0.877055491      24.6299892       0.417980506      -60.9843709      0.417980506      -60.9843709      0.877055491      24.6299892       
9                0.887729317      23.4740452       0.399425307      -62.2888301      0.399425307      -62.2888301      0.887729317      23.4740452       
9.5              0.897119286      22.4125554       0.382252176      -63.485466       0.382252176      -63.485466       0.897119286      22.4125554       
10               0.905415091      21.4352311       0.366331974      -64.58638        0.366331974      -64.58638        0.905415091      21.4352311       
10.5             0.912774318      20.5330781       0.351547574      -65.6020562      0.351547574      -65.6020562      0.912774318      20.5330781       
11               0.91932837       19.6982299       0.337793342      -66.5415971      0.337793342      -66.5415971      0.91932837       19.6982299       
11.5             0.925187255      18.9237986       0.324974355      -67.4129258      0.324974355      -67.4129258      0.925187255      18.9237986       
12               0.930443447      18.2037427       0.313005493      -68.2229576      0.313005493      -68.2229576      0.930443447      18.2037427       
12.5             0.935175005      17.5327528       0.301810503      -68.9777454      0.301810503      -68.9777454      0.935175005      17.5327528       
13               0.939448092      16.9061518       0.291321095      -69.6826027      0.291321095      -69.6826027      0.939448092      16.9061518       
13.5             0.943319015      16.3198101       0.281476088      -70.3422077      0.281476088      -70.3422077      0.943319015      16.3198101       
14               0.946835891      15.7700724       0.272220626      -70.9606913      0.272220626      -70.9606913      0.946835891      15.7700724       
14.5             0.950039993      15.2536949       0.263505478      -71.5417114      0.263505478      -71.5417114      0.950039993      15.2536949       
15               0.952966864      14.7677919       0.255286399      -72.0885167      0.255286399      -72.0885167      0.952966864      14.7677919       
15.5             0.95564722       14.3097896       0.247523571      -72.6040001      0.247523571      -72.6040001      0.95564722       14.3097896       
16               0.958107704      13.8773871       0.2401811        -73.0907446      0.2401811        -73.0907446      0.958107704      13.8773871       
16.5             0.960371504      13.4685219       0.233226583      -73.5510629      0.233226583      -73.5510629      0.960371504      13.4685219       
17               0.962458869      13.0813413       0.226630711      -73.9870303      0.226630711      -73.9870303      0.962458869      13.0813413       
17.5             0.964387538      12.7141769       0.220366937      -74.4005143      0.220366937      -74.4005143      0.964387538      12.7141769       
18               0.966173097      12.365523        0.214411167      -74.7931989      0.214411167      -74.7931989      0.966173097      12.365523        
18.5             0.967829284      12.0340178       0.2087415        -75.1666065      0.2087415        -75.1666065      0.967829284      12.0340178       
19               0.969368241      11.718427        0.203337994      -75.5221158      0.203337994      -75.5221158      0.969368241      11.718427        
19.5             0.970800729      11.4176295       0.19818246       -75.8609789      0.19818246       -75.8609789      0.970800729      11.4176295       
20               0.972136311      11.1306051       0.193258279      -76.1843346      0.193258279      -76.1843346      0.972136311      11.1306051       
20.5             0.973383506      10.8564234       0.188550245      -76.4932209      0.188550245      -76.4932209      0.973383506      10.8564234       
21               0.974549922      10.5942348       0.184044418      -76.7885856      0.184044418      -76.7885856      0.974549922      10.5942348       
21.5             0.975642371      10.3432615       0.179728004      -77.0712962      0.179728004      -77.0712962      0.975642371      10.3432615       
22               0.976666963      10.1027906       0.175589241      -77.3421475      0.175589241      -77.3421475      0.976666963      10.1027906       
22.5             0.977629194      9.87216748       0.171617296      -77.6018693      0.171617296      -77.6018693      0.977629194      9.87216748       
23               0.978534014      9.65078988       0.167802183      -77.8511327      0.167802183      -77.8511327      0.978534014      9.65078988       
23.5             0.979385895      9.43810314       0.164134681      -78.0905558      0.164134681      -78.0905558      0.979385895      9.43810314       
24               0.980188881      9.23359546       0.160606263      -78.3207089      0.160606263      -78.3207089      0.980188881      9.23359546       
24.5             0.980946639      9.03679394       0.157209035      -78.5421188      0.157209035      -78.5421188      0.980946639      9.03679394       
25               0.981662498      8.84726103       0.153935678      -78.7552728      0.153935678      -78.7552728      0.981662498      8.84726103       
25.5             0.982339486      8.66459126       0.150779398      -78.9606225      0.150779398      -78.9606225      0.982339486      8.66459126       
26               0.982980364      8.48840848       0.147733883      -79.1585868      0.147733883      -79.1585868      0.982980364      8.48840848       
26.5             0.98358765       8.3183632        0.144793257      -79.3495546      0.144793257      -79.3495546      0.98358765       8.3183632        
27               0.984163648      8.15413036       0.141952048      -79.533888       0.141952048      -79.533888       0.984163648      8.15413036       
27.5             0.984710466      7.99540721       0.139205152      -79.7119238      0.139205152      -79.7119238      0.984710466      7.99540721       
28               0.985230039      7.84191147       0.136547803      -79.8839762      0.136547803      -79.8839762      0.985230039      7.84191147       
28.5             0.985724141      7.69337964       0.133975547      -80.0503382      0.133975547      -80.0503382      0.985724141      7.69337964       
29               0.986194406      7.54956549       0.131484218      -80.2112837      0.131484218      -80.2112837      0.986194406      7.54956549       
29.5             0.986642339      7.41023865       0.129069912      -80.3670689      0.129069912      -80.3670689      0.986642339      7.41023865       
30               0.987069325      7.2751834        0.126728971      -80.5179336      0.126728971      -80.5179336      0.987069325      7.2751834        
30.5             0.987476645      7.1441975        0.124457962      -80.6641024      0.124457962      -80.6641024      0.987476645      7.1441975        
31               0.987865483      7.0170912        0.122253659      -80.8057862      0.122253659      -80.8057862      0.987865483      7.0170912        
31.5             0.988236934      6.89368627       0.120113032      -80.9431829      0.120113032      -80.9431829      0.988236934      6.89368627       
32               0.988592013      6.77381514       0.118033227      -81.0764783      0.118033227      -81.0764783      0.988592013      6.77381514       
32.5             0.988931662      6.65732015       0.116011559      -81.2058475      0.116011559      -81.2058475      0.988931662      6.65732015       
33               0.989256756      6.54405281       0.114045495      -81.3314549      0.114045495      -81.3314549      0.989256756      6.54405281       
33.5             0.989568107      6.43387315       0.112132647      -81.4534557      0.112132647      -81.4534557      0.989568107      6.43387315       
34               0.989866473      6.32664913       0.11027076       -81.571996       0.11027076       -81.571996       0.989866473      6.32664913       
34.5             0.990152559      6.22225609       0.108457703      -81.6872138      0.108457703      -81.6872138      0.990152559      6.22225609       
35               0.990427021      6.12057623       0.106691463      -81.7992392      0.106691463      -81.7992392      0.990427021      6.12057623       
35.5             0.990690475      6.02149816       0.104970133      -81.9081953      0.104970133      -81.9081953      0.990690475      6.02149816       
36               0.990943492      5.92491649       0.10329191       -82.0141984      0.10329191       -82.0141984      0.990943492      5.92491649       
36.5             0.991186609      5.83073138       0.101655082      -82.1173583      0.101655082      -82.1173583      0.991186609      5.83073138       
37               0.991420329      5.73884824       0.100058029      -82.2177793      0.100058029      -82.2177793      0.991420329      5.73884824       
37.5             0.991645121      5.64917736       0.0984992116     -82.31556        0.0984992116     -82.31556        0.991645121      5.64917736       
38               0.991861426      5.56163361       0.0969771697     -82.4107938      0.0969771697     -82.4107938      0.991861426      5.56163361       
38.5             0.992069659      5.47613614       0.0954905154     -82.5035694      0.0954905154     -82.5035694      0.992069659      5.47613614       
39               0.992270207      5.39260814       0.0940379295     -82.5939706      0.0940379295     -82.5939706      0.992270207      5.39260814       
39.5             0.992463436      5.31097657       0.0926181571     -82.6820775      0.0926181571     -82.6820775      0.992463436      5.31097657       
40               0.992649689      5.23117195       0.0912300036     -82.7679656      0.0912300036     -82.7679656      0.992649689      5.23117195       
40.5             0.992829289      5.15312813       0.0898723317     -82.8517069      0.0898723317     -82.8517069      0.992829289      5.15312813       
41               0.993002542      5.0767821        0.0885440575     -82.9333698      0.0885440575     -82.9333698      0.993002542      5.0767821        
41.5             0.993169734      5.00207381       0.0872441474     -83.0130193      0.0872441474     -83.0130193      0.993169734      5.00207381       
42               0.993331137      4.928946         0.0859716158     -83.0907173      0.0859716158     -83.0907173      0.993331137      4.928946         
42.5             0.993487005      4.85734404       0.0847255216     -83.1665225      0.0847255216     -83.1665225      0.993487005      4.85734404       
43               0.993637581      4.78721577       0.0835049663     -83.240491       0.0835049663     -83.240491       0.993637581      4.78721577       
43.5             0.993783092      4.71851138       0.0823090915     -83.312676       0.0823090915     -83.312676       0.993783092      4.71851138       
44               0.993923754      4.65118327       0.0811370766     -83.3831283      0.0811370766     -83.3831283      0.993923754      4.65118327       
44.5             0.994059773      4.58518593       0.0799881368     -83.4518961      0.0799881368     -83.4518961      0.994059773      4.58518593       
45               0.994191341      4.52047582       0.0788615211     -83.5190256      0.0788615211     -83.5190256      0.994191341      4.52047582       
45.5             0.994318641      4.45701128       0.0777565106     -83.5845606      0.0777565106     -83.5845606      0.994318641      4.45701128       
46               0.994441848      4.39475243       0.076672417      -83.6485429      0.076672417      -83.6485429      0.994441848      4.39475243       
46.5             0.994561127      4.33366105       0.0756085806     -83.7110122      0.0756085806     -83.7110122      0.994561127      4.33366105       
47               0.994676633      4.27370053       0.0745643691     -83.7720067      0.0745643691     -83.7720067      0.994676633      4.27370053       
47.5             0.994788516      4.21483576       0.0735391761     -83.8315624      0.0735391761     -83.8315624      0.994788516      4.21483576       
48               0.994896917      4.15703308       0.0725324198     -83.8897138      0.0725324198     -83.8897138      0.994896917      4.15703308       
48.5             0.99500197       4.10026015       0.071543542      -83.9464938      0.071543542      -83.9464938      0.99500197       4.10026015       
49               0.995103803      4.04448599       0.0705720065     -84.0019338      0.0705720065     -84.0019338      0.995103803      4.04448599       
49.5             0.995202537      3.98968078       0.0696172984     -84.0560634      0.0696172984     -84.0560634      0.995202537      3.98968078       
50               0.995298289      3.93581592       0.0686789227     -84.1089112      0.0686789227     -84.1089112      0.995298289      3.93581592       
50.5             0.995391167      3.88286391       0.0677564039     -84.1605042      0.0677564039     -84.1605042      0.995391167      3.88286391       
51               0.995481278      3.83079829       0.0668492844     -84.2108682      0.0668492844     -84.2108682      0.995481278      3.83079829       
51.5             0.995568722      3.77959363       0.0659571241     -84.2600278      0.0659571241     -84.2600278      0.995568722      3.77959363       
52               0.995653594      3.72922546       0.0650794996     -84.3080061      0.0650794996     -84.3080061      0.995653594      3.72922546       
52.5             0.995735986      3.67967021       0.0642160031     -84.3548254      0.0642160031     -84.3548254      0.995735986      3.67967021       
53               0.995815983      3.63090522       0.0633662419     -84.4005068      0.0633662419     -84.4005068      0.995815983      3.63090522       
53.5             0.995893671      3.58290862       0.0625298378     -84.4450703      0.0625298378     -84.4450703      0.995893671      3.58290862       
54               0.995969128      3.53565936       0.0617064261     -84.4885348      0.0617064261     -84.4885348      0.995969128      3.53565936       
54.5             0.99604243       3.48913716       0.0608956555     -84.5309183      0.0608956555     -84.5309183      0.99604243       3.48913716       
55               0.99611365       3.44332244       0.060097187      -84.5722379      0.060097187      -84.5722379      0.99611365       3.44332244       
55.5             0.996182857      3.39819633       0.0593106937     -84.6125097      0.0593106937     -84.6125097      0.996182857      3.39819633       
56               0.996250118      3.35374063       0.0585358602     -84.6517488      0.0585358602     -84.6517488      0.996250118      3.35374063       
56.5             0.996315497      3.30993777       0.057772382      -84.6899696      0.057772382      -84.6899696      0.996315497      3.30993777       
57               0.996379055      3.26677078       0.0570199649     -84.7271856      0.0570199649     -84.7271856      0.996379055      3.26677078       
57.5             0.99644085       3.22422328       0.0562783252     -84.7634094      0.0562783252     -84.7634094      0.99644085       3.22422328       
58               0.996500938      3.18227943       0.0555471884     -84.798653       0.0555471884     -84.798653       0.996500938      3.18227943       
58.5             0.996559373      3.14092396       0.0548262895     -84.8329273      0.0548262895     -84.8329273      0.996559373      3.14092396       
59               0.996616207      3.10014208       0.0541153721     -84.8662428      0.0541153721     -84.8662428      0.996616207      3.10014208       
59.5             0.99667149       3.05991949       0.0534141884     -84.898609       0.0534141884     -84.898609       0.99667149       3.05991949       
60               0.996725268      3.02024239       0.0527224989     -84.9300347      0.0527224989     -84.9300347      0.996725268      3.02024239       
60.5             0.996777588      2.98109739       0.0520400715     -84.9605281      0.0520400715     -84.9605281      0.996777588      2.98109739       
61               0.996828493      2.94247157       0.051366682      -84.9900967      0.051366682      -84.9900967      0.996828493      2.94247157       
61.5             0.996878025      2.90435239       0.0507021132     -85.0187471      0.0507021132     -85.0187471      0.996878025      2.90435239       
62               0.996926225      2.86672775       0.0500461546     -85.0464854      0.0500461546     -85.0464854      0.996926225      2.86672775       
62.5             0.996973133      2.82958589       0.0493986028     -85.073317       0.0493986028     -85.073317       0.996973133      2.82958589       
63               0.997018784      2.79291546       0.0487592603     -85.0992467      0.0487592603     -85.0992467      0.997018784      2.79291546       
63.5             0.997063216      2.75670542       0.0481279361     -85.1242785      0.0481279361     -85.1242785      0.997063216      2.75670542       
64               0.997106463      2.72094511       0.0475044449     -85.1484158      0.0475044449     -85.1484158      0.997106463      2.72094511       
64.5             0.997148558      2.68562418       0.046888607      -85.1716613      0.046888607      -85.1716613      0.997148558      2.68562418       
