! Coilcraft 1008CS-182 Chip Inductor				
! 02 July 2002			
# MHZ S MA R 50
!Freq             MagS11           AngS11           MagS21           AngS21           MagS12           AngS12           MagS22           AngS22
1                0.117513693      61.7156828       0.949969684      -6.25383221      0.949969684      -6.25383221      0.117513693      61.7156828       
1.75             0.19362927       64.4184561       0.932885794      -10.790168       0.932885794      -10.790168       0.19362927       64.4184561       
2.5              0.266839145      63.3542297       0.912065075      -15.1587479      0.912065075      -15.1587479      0.266839145      63.3542297       
3.25             0.3356243        61.1107803       0.887891672      -19.327126       0.887891672      -19.327126       0.3356243        61.1107803       
4                0.399256751      58.4417488       0.861099189      -23.2714712      0.861099189      -23.2714712      0.399256751      58.4417488       
4.75             0.45742159       55.6505593       0.832493004      -26.977502       0.832493004      -26.977502       0.45742159       55.6505593       
5.5              0.510093671      52.8809997       0.80283286       -30.4397183      0.80283286       -30.4397183      0.510093671      52.8809997       
6.25             0.557453221      50.2061484       0.772776544      -33.6598751      0.772776544      -33.6598751      0.557453221      50.2061484       
7                0.599815562      47.6629629       0.742858372      -36.6452211      0.742858372      -36.6452211      0.599815562      47.6629629       
7.75             0.637573895      45.26827         0.713488938      -39.4068137      0.713488938      -39.4068137      0.637573895      45.26827         
8.5              0.671155696      43.0271566       0.68496684       -41.958075       0.68496684       -41.958075       0.671155696      43.0271566       
9.25             0.700991859      40.9377769       0.657495843      -44.3136482      0.657495843      -44.3136482      0.700991859      40.9377769       
10               0.727496551      38.9942661       0.631203287      -46.4885477      0.631203287      -46.4885477      0.727496551      38.9942661       
10.75            0.751055337      37.1885589       0.606157324      -48.4975647      0.606157324      -48.4975647      0.751055337      37.1885589       
11.5             0.772019266      35.5115391       0.58238185       -50.354878       0.58238185       -50.354878       0.772019266      35.5115391       
12.25            0.790702975      33.9537625       0.559868766      -52.0738204      0.559868766      -52.0738204      0.790702975      33.9537625       
13               0.807385352      32.5059032       0.538587695      -53.6667575      0.538587695      -53.6667575      0.807385352      32.5059032       
13.75            0.822311676      31.159019        0.518493442      -55.1450441      0.518493442      -55.1450441      0.822311676      31.159019        
14.5             0.83569652       29.9046987       0.499531592      -56.5190334      0.499531592      -56.5190334      0.83569652       29.9046987       
15.25            0.847726946      28.7351316       0.481642619      -57.7981171      0.481642619      -57.7981171      0.847726946      28.7351316       
16               0.85856569       27.6431296       0.464764829      -58.9907852      0.464764829      -58.9907852      0.85856569       27.6431296       
16.75            0.868354187      26.6221177       0.448836434      -60.104695       0.448836434      -60.104695       0.868354187      26.6221177       
17.5             0.877215335      25.6661068       0.433796951      -61.1467433      0.433796951      -61.1467433      0.877215335      25.6661068       
18.25            0.88525597       24.7696568       0.419588128      -62.1231376      0.419588128      -62.1231376      0.88525597       24.7696568       
19               0.892569054      23.9278347       0.406154509      -63.0394642      0.406154509      -63.0394642      0.892569054      23.9278347       
19.75            0.899235581      23.1361719       0.393443751      -63.9007524      0.393443751      -63.9007524      0.899235581      23.1361719       
20.5             0.905326225      22.3906214       0.381406756      -64.711532       0.381406756      -64.711532       0.905326225      22.3906214       
21.25            0.910902766      21.6875187       0.369997691      -65.4758872      0.369997691      -65.4758872      0.910902766      21.6875187       
22               0.916019314      21.0235431       0.359173915      -66.1975042      0.359173915      -66.1975042      0.916019314      21.0235431       
22.75            0.920723354      20.3956845       0.348895857      -66.8797138      0.348895857      -66.8797138      0.920723354      20.3956845       
23.5             0.925056648      19.801211        0.339126862      -67.5255297      0.339126862      -67.5255297      0.925056648      19.801211        
24.25            0.929055999      19.2376416       0.329833016      -68.1376829      0.329833016      -68.1376829      0.929055999      19.2376416       
25               0.932753914      18.7027195       0.32098297       -68.7186513      0.32098297       -68.7186513      0.932753914      18.7027195       
25.75            0.936179165      18.1943904       0.312547752      -69.2706866      0.312547752      -69.2706866      0.936179165      18.1943904       
26.5             0.939357273      17.710781        0.304500597      -69.7958385      0.304500597      -69.7958385      0.939357273      17.710781        
27.25            0.942310926      17.2501816       0.296816772      -70.2959749      0.296816772      -70.2959749      0.942310926      17.2501816       
28               0.945060334      16.811029        0.289473418      -70.7728014      0.289473418      -70.7728014      0.945060334      16.811029        
28.75            0.947623537      16.3918925       0.282449401      -71.2278771      0.282449401      -71.2278771      0.947623537      16.3918925       
29.5             0.950016671      15.9914607       0.275725168      -71.6626297      0.275725168      -71.6626297      0.950016671      15.9914607       
30.25            0.9522542        15.6085298       0.26928262       -72.0783685      0.26928262       -72.0783685      0.9522542        15.6085298       
31               0.954349113      15.2419935       0.263104994      -72.4762956      0.263104994      -72.4762956      0.954349113      15.2419935       
31.75            0.956313093      14.8908335       0.257176749      -72.8575167      0.257176749      -72.8575167      0.956313093      14.8908335       
32.5             0.958156676      14.5541115       0.251483467      -73.2230501      0.251483467      -73.2230501      0.958156676      14.5541115       
33.25            0.959889375      14.2309616       0.246011762      -73.5738346      0.246011762      -73.5738346      0.959889375      14.2309616       
34               0.961519794      13.9205837       0.240749196      -73.9107375      0.240749196      -73.9107375      0.961519794      13.9205837       
34.75            0.963055733      13.6222378       0.235684201      -74.2345605      0.235684201      -74.2345605      0.963055733      13.6222378       
35.5             0.964504272      13.3352381       0.230806006      -74.5460459      0.230806006      -74.5460459      0.964504272      13.3352381       
36.25            0.965871848      13.0589491       0.226104578      -74.8458818      0.226104578      -74.8458818      0.965871848      13.0589491       
37               0.967164322      12.7927804       0.22157056       -75.1347067      0.22157056       -75.1347067      0.967164322      12.7927804       
37.75            0.968387042      12.5361833       0.217195221      -75.4131142      0.217195221      -75.4131142      0.968387042      12.5361833       
38.5             0.969544891      12.2886471       0.212970402      -75.6816563      0.212970402      -75.6816563      0.969544891      12.2886471       
39.25            0.970642339      12.0496961       0.208888475      -75.9408471      0.208888475      -75.9408471      0.970642339      12.0496961       
40               0.97168348       11.8188867       0.204942304      -76.1911661      0.204942304      -76.1911661      0.97168348       11.8188867       
40.75            0.972672067      11.5958047       0.201125203      -76.4330608      0.201125203      -76.4330608      0.972672067      11.5958047       
41.5             0.973611553      11.3800628       0.197430906      -76.6669491      0.197430906      -76.6669491      0.973611553      11.3800628       
42.25            0.97450511       11.1712989       0.193853533      -76.8932221      0.193853533      -76.8932221      0.97450511       11.1712989       
43               0.975355661      10.9691739       0.190387565      -77.1122459      0.190387565      -77.1122459      0.975355661      10.9691739       
43.75            0.976165902      10.77337         0.187027815      -77.3243637      0.187027815      -77.3243637      0.976165902      10.77337         
44.5             0.976938321      10.5835887       0.183769405      -77.529897       0.183769405      -77.529897       0.976938321      10.5835887       
45.25            0.97767522       10.3995502       0.180607742      -77.7291482      0.180607742      -77.7291482      0.97767522       10.3995502       
46               0.978378728      10.2209911       0.177538502      -77.9224011      0.177538502      -77.9224011      0.978378728      10.2209911       
46.75            0.979050817      10.0476638       0.174557609      -78.1099227      0.174557609      -78.1099227      0.979050817      10.0476638       
47.5             0.979693317      9.87933514       0.171661217      -78.2919643      0.171661217      -78.2919643      0.979693317      9.87933514       
48.25            0.980307928      9.71578552       0.168845695      -78.4687627      0.168845695      -78.4687627      0.980307928      9.71578552       
49               0.980896227      9.55680772       0.166107614      -78.6405412      0.166107614      -78.6405412      0.980896227      9.55680772       
49.75            0.981459685      9.40220624       0.163443733      -78.8075104      0.163443733      -78.8075104      0.981459685      9.40220624       
50.5             0.981999669      9.2517964        0.160850982      -78.9698692      0.160850982      -78.9698692      0.981999669      9.2517964        
51.25            0.982517455      9.10540366       0.15832646       -79.1278056      0.15832646       -79.1278056      0.982517455      9.10540366       
52               0.983014234      8.96286292       0.155867415      -79.2814972      0.155867415      -79.2814972      0.983014234      8.96286292       
52.75            0.983491116      8.82401789       0.153471241      -79.4311123      0.153471241      -79.4311123      0.983491116      8.82401789       
53.5             0.983949141      8.68872054       0.151135464      -79.5768101      0.151135464      -79.5768101      0.983949141      8.68872054       
54.25            0.984389281      8.55683055       0.148857738      -79.7187416      0.148857738      -79.7187416      0.984389281      8.55683055       
55               0.984812446      8.42821483       0.146635834      -79.8570499      0.146635834      -79.8570499      0.984812446      8.42821483       
55.75            0.98521949       8.30274706       0.144467633      -79.9918707      0.144467633      -79.9918707      0.98521949       8.30274706       
56.5             0.985611211      8.18030728       0.142351123      -80.123333       0.142351123      -80.123333       0.985611211      8.18030728       
57.25            0.985988363      8.06078146       0.140284387      -80.2515591      0.140284387      -80.2515591      0.985988363      8.06078146       
58               0.986351648      7.94406121       0.138265601      -80.3766655      0.138265601      -80.3766655      0.986351648      7.94406121       
58.75            0.986701732      7.83004336       0.13629303       -80.4987629      0.13629303       -80.4987629      0.986701732      7.83004336       
59.5             0.987039238      7.71862973       0.134365018      -80.6179565      0.134365018      -80.6179565      0.987039238      7.71862973       
60.25            0.987364753      7.60972678       0.132479987      -80.7343466      0.132479987      -80.7343466      0.987364753      7.60972678       
61               0.987678831      7.50324535       0.130636432      -80.8480288      0.130636432      -80.8480288      0.987678831      7.50324535       
61.75            0.987981994      7.39910044       0.128832916      -80.9590941      0.128832916      -80.9590941      0.987981994      7.39910044       
62.5             0.988274733      7.29721092       0.127068067      -81.0676292      0.127068067      -81.0676292      0.988274733      7.29721092       
63.25            0.988557514      7.19749937       0.125340576      -81.1737169      0.125340576      -81.1737169      0.988557514      7.19749937       
64               0.988830775      7.09989184       0.123649188      -81.2774363      0.123649188      -81.2774363      0.988830775      7.09989184       
64.75            0.989094931      7.00431766       0.121992707      -81.3788629      0.121992707      -81.3788629      0.989094931      7.00431766       
65.5             0.989350375      6.91070927       0.120369986      -81.4780686      0.120369986      -81.4780686      0.989350375      6.91070927       
66.25            0.989597479      6.81900204       0.118779928      -81.5751223      0.118779928      -81.5751223      0.989597479      6.81900204       
67               0.989836593      6.72913413       0.117221483      -81.6700899      0.117221483      -81.6700899      0.989836593      6.72913413       
67.75            0.990068051      6.64104634       0.115693644      -81.7630344      0.115693644      -81.7630344      0.990068051      6.64104634       
68.5             0.990292169      6.55468197       0.114195448      -81.8540161      0.114195448      -81.8540161      0.990292169      6.55468197       
69.25            0.990509248      6.46998666       0.112725968      -81.9430925      0.112725968      -81.9430925      0.990509248      6.46998666       
70               0.99071957       6.38690833       0.111284319      -82.0303189      0.111284319      -82.0303189      0.99071957       6.38690833       
70.75            0.990923406      6.30539701       0.109869649      -82.1157483      0.109869649      -82.1157483      0.990923406      6.30539701       
71.5             0.991121014      6.22540477       0.108481141      -82.1994312      0.108481141      -82.1994312      0.991121014      6.22540477       
72.25            0.991312636      6.14688559       0.10711801       -82.2814162      0.10711801       -82.2814162      0.991312636      6.14688559       
73               0.991498505      6.06979528       0.105779501      -82.3617499      0.105779501      -82.3617499      0.991498505      6.06979528       
73.75            0.991678842      5.99409141       0.104464892      -82.440477       0.104464892      -82.440477       0.991678842      5.99409141       
74.5             0.991853856      5.91973319       0.103173484      -82.5176403      0.103173484      -82.5176403      0.991853856      5.91973319       
75.25            0.992023749      5.84668139       0.101904608      -82.5932808      0.101904608      -82.5932808      0.992023749      5.84668139       
76               0.99218871       5.77489831       0.100657619      -82.6674381      0.100657619      -82.6674381      0.99218871       5.77489831       
76.75            0.992348922      5.70434766       0.0994318961     -82.7401501      0.0994318961     -82.7401501      0.992348922      5.70434766       
77.5             0.992504558      5.63499453       0.0982268424     -82.8114529      0.0982268424     -82.8114529      0.992504558      5.63499453       
78.25            0.992655783      5.56680529       0.0970418822     -82.8813817      0.0970418822     -82.8813817      0.992655783      5.56680529       
79               0.992802757      5.49974757       0.095876461      -82.94997        0.095876461      -82.94997        0.992802757      5.49974757       
79.75            0.992945628      5.43379017       0.0947300445     -83.0172499      0.0947300445     -83.0172499      0.992945628      5.43379017       
80.5             0.993084543      5.36890303       0.0936021175     -83.0832525      0.0936021175     -83.0832525      0.993084543      5.36890303       
81.25            0.993219638      5.30505716       0.0924921831     -83.1480075      0.0924921831     -83.1480075      0.993219638      5.30505716       
82               0.993351045      5.24222462       0.0913997619     -83.2115436      0.0913997619     -83.2115436      0.993351045      5.24222462       
82.75            0.99347889       5.18037844       0.0903243915     -83.2738883      0.0903243915     -83.2738883      0.99347889       5.18037844       
83.5             0.993603295      5.1194926        0.0892656252     -83.335068       0.0892656252     -83.335068       0.993603295      5.1194926        
84.25            0.993724373      5.05954198       0.088223032      -83.3951081      0.088223032      -83.3951081      0.993724373      5.05954198       
85               0.993842237      5.00050234       0.0871961955     -83.4540331      0.0871961955     -83.4540331      0.993842237      5.00050234       
85.75            0.993956992      4.94235025       0.0861847132     -83.5118665      0.0861847132     -83.5118665      0.993956992      4.94235025       
86.5             0.994068739      4.88506307       0.0851881963     -83.568631       0.0851881963     -83.568631       0.994068739      4.88506307       
87.25            0.994177576      4.82861894       0.084206269      -83.6243482      0.084206269      -83.6243482      0.994177576      4.82861894       
88               0.994283597      4.77299672       0.0832385678     -83.6790391      0.0832385678     -83.6790391      0.994283597      4.77299672       
88.75            0.99438689       4.71817596       0.0822847411     -83.7327239      0.0822847411     -83.7327239      0.99438689       4.71817596       
89.5             0.994487542      4.66413689       0.0813444488     -83.7854217      0.0813444488     -83.7854217      0.994487542      4.66413689       
90.25            0.994585636      4.61086037       0.0804173618     -83.8371513      0.0804173618     -83.8371513      0.994585636      4.61086037       
91               0.99468125       4.5583279        0.0795031614     -83.8879305      0.0795031614     -83.8879305      0.99468125       4.5583279        
91.75            0.99477446       4.50652155       0.0786015391     -83.9377764      0.0786015391     -83.9377764      0.99477446       4.50652155       
92.5             0.994865341      4.45542397       0.0777121962     -83.9867056      0.0777121962     -83.9867056      0.994865341      4.45542397       
93.25            0.994953963      4.40501835       0.0768348432     -84.034734       0.0768348432     -84.034734       0.994953963      4.40501835       
94               0.995040392      4.35528841       0.0759691997     -84.0818766      0.0759691997     -84.0818766      0.995040392      4.35528841       
94.75            0.995124694      4.30621839       0.0751149939     -84.1281483      0.0751149939     -84.1281483      0.995124694      4.30621839       
95.5             0.995206932      4.25779298       0.0742719624     -84.173563       0.0742719624     -84.173563       0.995206932      4.25779298       
96.25            0.995287166      4.20999737       0.0734398495     -84.2181341      0.0734398495     -84.2181341      0.995287166      4.20999737       
