! Coilcraft 1008CS-272 Chip Inductor				
! 02 July 2002			
# MHZ S MA R 50
!Freq             MagS11           AngS11           MagS21           AngS21           MagS12           AngS12           MagS22           AngS22
1                0.167253966      62.1622451       0.933685659      -9.11419003      0.933685659      -9.11419003      0.167253966      62.1622451       
1.5              0.239860116      62.5847537       0.914687052      -13.4608791      0.914687052      -13.4608791      0.239860116      62.5847537       
2                0.308836765      61.0306965       0.892309112      -17.6261048      0.892309112      -17.6261048      0.308836765      61.0306965       
2.5              0.37317741       58.7386683       0.867148356      -21.5841467      0.867148356      -21.5841467      0.37317741       58.7386683       
3                0.432404576      56.1698067       0.839943772      -25.3179663      0.839943772      -25.3179663      0.432404576      56.1698067       
3.5              0.486369331      53.5345082       0.811430255      -28.8190172      0.811430255      -28.8190172      0.486369331      53.5345082       
4                0.535153047      50.9393474       0.782267981      -32.0860971      0.782267981      -32.0860971      0.535153047      50.9393474       
4.5              0.578994086      48.4403105       0.753010541      -35.1238119      0.753010541      -35.1238119      0.578994086      48.4403105       
5                0.618228517      46.0659861       0.724096801      -37.9409978      0.724096801      -37.9409978      0.618228517      46.0659861       
5.5              0.653243799      43.829152        0.695856947      -40.5493009      0.695856947      -40.5493009      0.653243799      43.829152        
6                0.684444739      41.7331775       0.668525934      -42.9620043      0.668525934      -42.9620043      0.684444739      41.7331775       
6.5              0.712230175      39.7758125       0.642259745      -45.1931236      0.642259745      -45.1931236      0.712230175      39.7758125       
7                0.736978251      37.9515288       0.617151595      -47.2567494      0.617151595      -47.2567494      0.736978251      37.9515288       
7.5              0.759038147      36.2530011       0.59324657       -49.1665953      0.59324657       -49.1665953      0.759038147      36.2530011       
8                0.778726344      34.67205         0.570554039      -50.9357099      0.570554039      -50.9357099      0.778726344      34.67205         
8.5              0.796325903      33.2002397       0.549057736      -52.5763093      0.549057736      -52.5763093      0.796325903      33.2002397       
9                0.812087618      31.8292493       0.528723683      -54.099697       0.528723683      -54.099697       0.812087618      31.8292493       
9.5              0.826232226      30.5510952       0.509506255      -55.5162436      0.509506255      -55.5162436      0.826232226      30.5510952       
10               0.838953137      29.3582551       0.491352729      -56.8354053      0.491352729      -56.8354053      0.838953137      29.3582551       
10.5             0.850419326      28.2437288       0.47420661       -58.0657677      0.47420661       -58.0657677      0.850419326      28.2437288       
11               0.860778172      27.2010573       0.458010026      -59.2151022      0.458010026      -59.2151022      0.860778172      27.2010573       
11.5             0.870158121      26.2243162       0.442705401      -60.2904296      0.442705401      -60.2904296      0.870158121      26.2243162       
12               0.878671116      25.3080933       0.428236598      -61.2980857      0.428236598      -61.2980857      0.878671116      25.3080933       
12.5             0.886414771      24.4474584       0.414549663      -62.2437847      0.414549663      -62.2437847      0.886414771      24.4474584       
13               0.893474285      23.6379278       0.401593277      -63.1326805      0.401593277      -63.1326805      0.893474285      23.6379278       
13.5             0.899924118      22.8754282       0.389319003      -63.9694229      0.389319003      -63.9694229      0.899924118      22.8754282       
14               0.905829443      22.1562604       0.377681393      -64.7582098      0.377681393      -64.7582098      0.905829443      22.1562604       
14.5             0.911247404      21.4770651       0.36663798       -65.5028344      0.36663798       -65.5028344      0.911247404      21.4770651       
15               0.916228197      20.8347907       0.356149211      -66.2067276      0.356149211      -66.2067276      0.916228197      20.8347907       
15.5             0.920816001      20.2266632       0.346178334      -66.8729967      0.346178334      -66.8729967      0.920816001      20.2266632       
16               0.925049775      19.6501593       0.336691256      -67.5044589      0.336691256      -67.5044589      0.925049775      19.6501593       
16.5             0.928963951      19.1029813       0.327656388      -68.1036724      0.327656388      -68.1036724      0.928963951      19.1029813       
17               0.932589015      18.583035        0.319044481      -68.6729632      0.319044481      -68.6729632      0.932589015      18.583035        
17.5             0.935952024      18.0884091       0.310828463      -69.214449       0.310828463      -69.214449       0.935952024      18.0884091       
18               0.939077034      17.6173576       0.302983284      -69.7300611      0.302983284      -69.7300611      0.939077034      17.6173576       
18.5             0.941985481      17.1682831       0.295485759      -70.221563       0.295485759      -70.221563       0.941985481      17.1682831       
19               0.944696502      16.7397227       0.288314427      -70.6905675      0.288314427      -70.6905675      0.944696502      16.7397227       
19.5             0.94722722       16.3303346       0.281449413      -71.1385516      0.281449413      -71.1385516      0.94722722       16.3303346       
20               0.949592982      15.9388867       0.274872305      -71.5668702      0.274872305      -71.5668702      0.949592982      15.9388867       
20.5             0.95180757       15.5642461       0.268566031      -71.9767673      0.268566031      -71.9767673      0.95180757       15.5642461       
21               0.953883387      15.2053698       0.262514758      -72.3693874      0.262514758      -72.3693874      0.953883387      15.2053698       
21.5             0.955831612      14.8612962       0.256703785      -72.7457846      0.256703785      -72.7457846      0.955831612      14.8612962       
22               0.95766234       14.5311379       0.251119458      -73.1069307      0.251119458      -73.1069307      0.95766234       14.5311379       
22.5             0.959384705      14.2140746       0.245749079      -73.4537236      0.245749079      -73.4537236      0.959384705      14.2140746       
23               0.961006984      13.9093474       0.240580835      -73.7869931      0.240580835      -73.7869931      0.961006984      13.9093474       
23.5             0.962536687      13.6162533       0.235603726      -74.1075078      0.235603726      -74.1075078      0.962536687      13.6162533       
24               0.963980647      13.3341402       0.230807499      -74.4159801      0.230807499      -74.4159801      0.963980647      13.3341402       
24.5             0.965345083      13.0624025       0.226182589      -74.713071       0.226182589      -74.713071       0.965345083      13.0624025       
25               0.966635667      12.8004773       0.221720067      -74.9993949      0.221720067      -74.9993949      0.966635667      12.8004773       
25.5             0.967857581      12.5478408       0.21741159       -75.2755232      0.21741159       -75.2755232      0.967857581      12.5478408       
26               0.969015564      12.3040047       0.213249356      -75.5419881      0.213249356      -75.5419881      0.969015564      12.3040047       
26.5             0.970113959      12.0685138       0.209226062      -75.799286       0.209226062      -75.799286       0.970113959      12.0685138       
27               0.971156747      11.8409432       0.205334867      -76.0478797      0.205334867      -76.0478797      0.971156747      11.8409432       
27.5             0.972147588      11.6208954       0.201569357      -76.2882021      0.201569357      -76.2882021      0.972147588      11.6208954       
28               0.973089845      11.4079989       0.197923516      -76.5206577      0.197923516      -76.5206577      0.973089845      11.4079989       
28.5             0.973986618      11.2019057       0.19439169       -76.7456254      0.19439169       -76.7456254      0.973986618      11.2019057       
29               0.974840764      11.0022895       0.190968572      -76.9634601      0.190968572      -76.9634601      0.974840764      11.0022895       
29.5             0.97565492       10.8088443       0.187649164      -77.1744947      0.187649164      -77.1744947      0.97565492       10.8088443       
30               0.976431525      10.6212828       0.184428766      -77.3790418      0.184428766      -77.3790418      0.976431525      10.6212828       
30.5             0.977172834      10.4393347       0.18130295       -77.577395       0.18130295       -77.577395       0.977172834      10.4393347       
31               0.977880937      10.2627461       0.178267539      -77.7698304      0.178267539      -77.7698304      0.977880937      10.2627461       
31.5             0.978557772      10.0912777       0.175318597      -77.956608       0.175318597      -77.956608       0.978557772      10.0912777       
32               0.979205139      9.92470407       0.172452404      -78.1379726      0.172452404      -78.1379726      0.979205139      9.92470407       
32.5             0.97982471       9.76281275       0.169665449      -78.3141551      0.169665449      -78.3141551      0.97982471       9.76281275       
33               0.980418041      9.60540313       0.16695441       -78.4853731      0.16695441       -78.4853731      0.980418041      9.60540313       
33.5             0.980986579      9.45228576       0.164316146      -78.6518324      0.164316146      -78.6518324      0.980986579      9.45228576       
34               0.981531676      9.3032816        0.161747684      -78.8137271      0.161747684      -78.8137271      0.981531676      9.3032816        
34.5             0.98205459       9.15822129       0.159246206      -78.971241       0.159246206      -78.971241       0.98205459       9.15822129       
35               0.982556499      9.01694454       0.156809042      -79.1245478      0.156809042      -79.1245478      0.982556499      9.01694454       
35.5             0.983038501      8.87929952       0.15443366       -79.2738122      0.15443366       -79.2738122      0.983038501      8.87929952       
36               0.983501625      8.74514233       0.152117655      -79.41919        0.152117655      -79.41919        0.983501625      8.74514233       
36.5             0.983946834      8.61433648       0.149858745      -79.5608292      0.149858745      -79.5608292      0.983946834      8.61433648       
37               0.98437503       8.48675244       0.147654761      -79.6988698      0.147654761      -79.6988698      0.98437503       8.48675244       
37.5             0.98478706       8.36226719       0.14550364       -79.8334451      0.14550364       -79.8334451      0.98478706       8.36226719       
38               0.985183717      8.24076384       0.14340342       -79.9646816      0.14340342       -79.9646816      0.985183717      8.24076384       
38.5             0.985565748      8.12213125       0.141352235      -80.0926993      0.141352235      -80.0926993      0.985565748      8.12213125       
39               0.985933853      8.00626366       0.139348306      -80.2176126      0.139348306      -80.2176126      0.985933853      8.00626366       
39.5             0.986288692      7.89306043       0.137389937      -80.3395302      0.137389937      -80.3395302      0.986288692      7.89306043       
40               0.986630886      7.78242566       0.135475514      -80.4585556      0.135475514      -80.4585556      0.986630886      7.78242566       
40.5             0.98696102       7.67426798       0.133603494      -80.5747874      0.133603494      -80.5747874      0.98696102       7.67426798       
41               0.987279645      7.56850026       0.131772407      -80.6883194      0.131772407      -80.6883194      0.987279645      7.56850026       
41.5             0.987587281      7.46503938       0.129980849      -80.7992414      0.129980849      -80.7992414      0.987587281      7.46503938       
42               0.98788442       7.36380599       0.128227477      -80.9076386      0.128227477      -80.9076386      0.98788442       7.36380599       
42.5             0.988171523      7.26472431       0.12651101       -81.0135927      0.12651101       -81.0135927      0.988171523      7.26472431       
43               0.988449031      7.16772193       0.12483022       -81.1171814      0.12483022       -81.1171814      0.988449031      7.16772193       
43.5             0.988717357      7.07272963       0.123183935      -81.2184791      0.123183935      -81.2184791      0.988717357      7.07272963       
44               0.988976894      6.9796812        0.121571031      -81.3175569      0.121571031      -81.3175569      0.988976894      6.9796812        
44.5             0.989228013      6.88851331       0.119990434      -81.4144826      0.119990434      -81.4144826      0.989228013      6.88851331       
45               0.989471065      6.79916529       0.118441114      -81.5093211      0.118441114      -81.5093211      0.989471065      6.79916529       
45.5             0.989706385      6.71157907       0.116922083      -81.6021346      0.116922083      -81.6021346      0.989706385      6.71157907       
46               0.989934288      6.62569899       0.115432394      -81.6929826      0.115432394      -81.6929826      0.989934288      6.62569899       
46.5             0.990155075      6.54147169       0.113971141      -81.781922       0.113971141      -81.781922       0.990155075      6.54147169       
47               0.990369031      6.45884602       0.112537452      -81.8690072      0.112537452      -81.8690072      0.990369031      6.45884602       
47.5             0.990576426      6.37777288       0.11113049       -81.9542906      0.11113049       -81.9542906      0.990576426      6.37777288       
48               0.990777518      6.29820516       0.109749454      -82.0378221      0.109749454      -82.0378221      0.990777518      6.29820516       
48.5             0.990972553      6.22009762       0.108393571      -82.1196497      0.108393571      -82.1196497      0.990972553      6.22009762       
49               0.991161761      6.1434068        0.107062099      -82.1998196      0.107062099      -82.1998196      0.991161761      6.1434068        
49.5             0.991345366      6.06809094       0.105754327      -82.2783757      0.105754327      -82.2783757      0.991345366      6.06809094       
50               0.991523579      5.9941099        0.104469568      -82.3553604      0.104469568      -82.3553604      0.991523579      5.9941099        
50.5             0.9916966        5.92142508       0.103207164      -82.4308144      0.103207164      -82.4308144      0.9916966        5.92142508       
51               0.991864621      5.84999935       0.101966479      -82.5047767      0.101966479      -82.5047767      0.991864621      5.84999935       
51.5             0.992027826      5.77979695       0.100746901      -82.5772847      0.100746901      -82.5772847      0.992027826      5.77979695       
52               0.992186389      5.71078348       0.0995478434     -82.6483745      0.0995478434     -82.6483745      0.992186389      5.71078348       
52.5             0.992340476      5.64292581       0.0983687379     -82.7180805      0.0983687379     -82.7180805      0.992340476      5.64292581       
53               0.992490246      5.57619201       0.0972090382     -82.7864359      0.0972090382     -82.7864359      0.992490246      5.57619201       
53.5             0.992635852      5.51055133       0.0960682173     -82.8534727      0.0960682173     -82.8534727      0.992635852      5.51055133       
54               0.992777438      5.44597411       0.0949457672     -82.9192215      0.0949457672     -82.9192215      0.992777438      5.44597411       
54.5             0.992915144      5.38243174       0.0938411977     -82.9837118      0.0938411977     -82.9837118      0.992915144      5.38243174       
55               0.993049103      5.31989665       0.0927540358     -83.0469718      0.0927540358     -83.0469718      0.993049103      5.31989665       
55.5             0.99317944       5.25834222       0.0916838249     -83.1090289      0.0916838249     -83.1090289      0.99317944       5.25834222       
56               0.993306279      5.19774274       0.0906301241     -83.1699092      0.0906301241     -83.1699092      0.993306279      5.19774274       
56.5             0.993429736      5.13807342       0.0895925078     -83.2296378      0.0895925078     -83.2296378      0.993429736      5.13807342       
57               0.993549921      5.0793103        0.0885705645     -83.2882391      0.0885705645     -83.2882391      0.993549921      5.0793103        
57.5             0.993666943      5.02143023       0.0875638967     -83.3457362      0.0875638967     -83.3457362      0.993666943      5.02143023       
58               0.993780904      4.96441084       0.0865721201     -83.4021516      0.0865721201     -83.4021516      0.993780904      4.96441084       
58.5             0.993891902      4.9082305        0.0855948633     -83.4575068      0.0855948633     -83.4575068      0.993891902      4.9082305        
59               0.994000031      4.85286833       0.0846317668     -83.5118225      0.0846317668     -83.5118225      0.994000031      4.85286833       
59.5             0.994105382      4.79830408       0.083682483      -83.5651186      0.083682483      -83.5651186      0.994105382      4.79830408       
60               0.994208043      4.74451821       0.0827466755     -83.6174142      0.0827466755     -83.6174142      0.994208043      4.74451821       
60.5             0.994308095      4.69149178       0.0818240185     -83.6687278      0.0818240185     -83.6687278      0.994308095      4.69149178       
61               0.99440562       4.63920647       0.0809141969     -83.719077       0.0809141969     -83.719077       0.99440562       4.63920647       
61.5             0.994500695      4.58764453       0.0800169053     -83.7684789      0.0800169053     -83.7684789      0.994500695      4.58764453       
62               0.994593393      4.5367888        0.0791318479     -83.8169498      0.0791318479     -83.8169498      0.994593393      4.5367888        
62.5             0.994683787      4.48662261       0.0782587381     -83.8645053      0.0782587381     -83.8645053      0.994683787      4.48662261       
63               0.994771943      4.43712986       0.0773972983     -83.9111605      0.0773972983     -83.9111605      0.994771943      4.43712986       
63.5             0.99485793       4.38829491       0.0765472591     -83.95693        0.0765472591     -83.95693        0.99485793       4.38829491       
64               0.994941808      4.34010261       0.0757083597     -84.0018276      0.0757083597     -84.0018276      0.994941808      4.34010261       
64.5             0.995023641      4.29253827       0.0748803467     -84.0458666      0.0748803467     -84.0458666      0.995023641      4.29253827       
