! Coilcraft 1008CS-682 Chip Inductor				
! 02 July 2002			
# MHZ S MA R 50
!Freq             MagS11           AngS11           MagS21           AngS21           MagS12           AngS12           MagS22           AngS22
1                0.373767852      57.3150989       0.857915652      -21.5111793      0.857915652      -21.5111793      0.373767852      57.3150989       
1.25             0.446664016      54.43835         0.824601888      -26.1450502      0.824601888      -26.1450502      0.446664016      54.43835         
1.5              0.511548079      51.3811239       0.789385353      -30.4188933      0.789385353      -30.4188933      0.511548079      51.3811239       
1.75             0.568619474      48.3631419       0.7534842        -34.3332948      0.7534842        -34.3332948      0.568619474      48.3631419       
2                0.618418603      45.4855433       0.717849811      -37.9013603      0.717849811      -37.9013603      0.618418603      45.4855433       
2.25             0.661657889      42.7924998       0.683167012      -41.1442059      0.683167012      -41.1442059      0.661657889      42.7924998       
2.5              0.699106403      40.2986785       0.649889436      -44.0872586      0.649889436      -44.0872586      0.699106403      40.2986785       
2.75             0.731517512      38.0030847       0.618287178      -46.757541       0.618287178      -46.757541       0.731517512      38.0030847       
3                0.759588609      35.8965783       0.588493715      -49.1818526      0.588493715      -49.1818526      0.759588609      35.8965783       
3.25             0.783942678      33.9661126       0.560546099      -51.3856603      0.560546099      -51.3856603      0.783942678      33.9661126       
3.5              0.805123494      32.1971514       0.534416677      -53.3925003      0.534416677      -53.3925003      0.805123494      32.1971514       
3.75             0.823598564      30.5750305       0.510036783      -55.2237252      0.510036783      -55.2237252      0.823598564      30.5750305       
4                0.839765951      29.0856966       0.487313722      -56.8984665      0.487313722      -56.8984665      0.839765951      29.0856966       
4.25             0.853962591      27.7160771       0.466142541      -58.4337255      0.466142541      -58.4337255      0.853962591      27.7160771       
4.5              0.866472763      26.4542319       0.446413913      -59.8445311      0.446413913      -59.8445311      0.866472763      26.4542319       
4.75             0.877536013      25.2893814       0.428019257      -61.1441267      0.428019257      -61.1441267      0.877536013      25.2893814       
5                0.887354211      24.2118643       0.410853893      -62.3441639      0.410853893      -62.3441639      0.887354211      24.2118643       
5.25             0.896097665      23.2130603       0.39481887       -63.4548889      0.39481887       -63.4548889      0.896097665      23.2130603       
5.5              0.903910321      22.2852984       0.379821903      -64.4853149      0.379821903      -64.4853149      0.903910321      22.2852984       
5.75             0.910914122      21.42176         0.365777715      -65.4433785      0.365777715      -65.4433785      0.910914122      21.42176         
6                0.917212656      20.6163865       0.352608014      -66.3360775      0.352608014      -66.3360775      0.917212656      20.6163865       
6.25             0.922894172      19.8637919       0.340241237      -67.1695928      0.340241237      -67.1695928      0.922894172      19.8637919       
6.5              0.928034085      19.1591841       0.328612165      -67.9493938      0.328612165      -67.9493938      0.928034085      19.1591841       
6.75             0.932697047      18.498294        0.317661475      -68.6803309      0.317661475      -68.6803309      0.932697047      18.498294        
7                0.93693866       17.8773127       0.307335262      -69.3667143      0.307335262      -69.3667143      0.93693866       17.8773127       
7.25             0.940806898      17.292836        0.297584574      -70.0123829      0.297584574      -70.0123829      0.940806898      17.292836        
7.5              0.944343284      16.7418163       0.288364949      -70.6207638      0.288364949      -70.6207638      0.944343284      16.7418163       
7.75             0.947583873      16.2215196       0.279635998      -71.1949227      0.279635998      -71.1949227      0.947583873      16.2215196       
8                0.950560066      15.7294889       0.271361004      -71.7376088      0.271361004      -71.7376088      0.950560066      15.7294889       
8.25             0.953299294      15.2635117       0.263506566      -72.2512925      0.263506566      -72.2512925      0.953299294      15.2635117       
8.5              0.955825591      14.8215917       0.256042264      -72.7381987      0.256042264      -72.7381987      0.955825591      14.8215917       
8.75             0.958160076      14.4019244       0.24894037       -73.2003352      0.24894037       -73.2003352      0.958160076      14.4019244       
9                0.960321356      14.0028751       0.242175577      -73.639518       0.242175577      -73.639518       0.960321356      14.0028751       
9.25             0.96232587       13.6229609       0.235724759      -74.0573925      0.235724759      -74.0573925      0.96232587       13.6229609       
9.5              0.964188181      13.2608331       0.229566757      -74.455453       0.229566757      -74.455453       0.964188181      13.2608331       
9.75             0.965921221      12.9152637       0.223682188      -74.8350585      0.223682188      -74.8350585      0.965921221      12.9152637       
10               0.967536502      12.5851322       0.21805327       -75.1974478      0.21805327       -75.1974478      0.967536502      12.5851322       
10.25            0.969044296      12.2694144       0.212663671      -75.543752       0.212663671      -75.543752       0.969044296      12.2694144       
10.5             0.970453792      11.9671728       0.20749837       -75.8750052      0.20749837       -75.8750052      0.970453792      11.9671728       
10.75            0.971773226      11.6775474       0.202543533      -76.1921553      0.202543533      -76.1921553      0.971773226      11.6775474       
11               0.973009996      11.3997487       0.197786405      -76.4960717      0.197786405      -76.4960717      0.973009996      11.3997487       
11.25            0.974170761      11.1330502       0.193215208      -76.7875537      0.193215208      -76.7875537      0.974170761      11.1330502       
11.5             0.975261527      10.8767824       0.188819056      -77.0673367      0.188819056      -77.0673367      0.975261527      10.8767824       
11.75            0.976287723      10.6303281       0.184587869      -77.3360988      0.184587869      -77.3360988      0.976287723      10.6303281       
12               0.977254264      10.3931165       0.18051231       -77.5944659      0.18051231       -77.5944659      0.977254264      10.3931165       
12.25            0.978165608      10.1646197       0.176583714      -77.8430165      0.176583714      -77.8430165      0.978165608      10.1646197       
12.5             0.979025805      9.94434879       0.172794032      -78.082286       0.172794032      -78.082286       0.979025805      9.94434879       
12.75            0.979838543      9.73184993       0.16913578       -78.3127707      0.16913578       -78.3127707      0.979838543      9.73184993       
13               0.980607182      9.5267017        0.165601988      -78.5349309      0.165601988      -78.5349309      0.980607182      9.5267017        
13.25            0.981334793      9.32851217       0.162186163      -78.7491943      0.162186163      -78.7491943      0.981334793      9.32851217       
13.5             0.982024182      9.13691643       0.158882245      -78.9559586      0.158882245      -78.9559586      0.982024182      9.13691643       
13.75            0.982677922      8.95157429       0.155684575      -79.155594       0.155684575      -79.155594       0.982677922      8.95157429       
14               0.983298369      8.77216828       0.152587861      -79.3484456      0.152587861      -79.3484456      0.983298369      8.77216828       
14.25            0.983887691      8.59840183       0.149587152      -79.5348353      0.149587152      -79.5348353      0.983887691      8.59840183       
14.5             0.984447881      8.42999755       0.14667781       -79.7150636      0.14667781       -79.7150636      0.984447881      8.42999755       
14.75            0.984980773      8.26669577       0.143855484      -79.8894114      0.143855484      -79.8894114      0.984980773      8.26669577       
15               0.985488061      8.10825311       0.141116094      -80.0581415      0.141116094      -80.0581415      0.985488061      8.10825311       
15.25            0.985971308      7.95444129       0.138455804      -80.2214999      0.138455804      -80.2214999      0.985971308      7.95444129       
15.5             0.986431958      7.80504598       0.13587101       -80.379717       0.13587101       -80.379717       0.986431958      7.80504598       
15.75            0.986871349      7.65986572       0.133358319      -80.5330091      0.133358319      -80.5330091      0.986871349      7.65986572       
16               0.987290719      7.51871102       0.130914538      -80.6815787      0.130914538      -80.6815787      0.987290719      7.51871102       
16.25            0.98769122       7.38140348       0.128536654      -80.8256164      0.128536654      -80.8256164      0.98769122       7.38140348       
16.5             0.988073919      7.247775         0.126221827      -80.9653011      0.126221827      -80.9653011      0.988073919      7.247775         
16.75            0.988439807      7.11766706       0.123967376      -81.1008008      0.123967376      -81.1008008      0.988439807      7.11766706       
17               0.98878981       6.99093001       0.121770768      -81.2322737      0.121770768      -81.2322737      0.98878981       6.99093001       
17.25            0.989124787      6.86742254       0.119629607      -81.3598687      0.119629607      -81.3598687      0.989124787      6.86742254       
17.5             0.989445541      6.74701104       0.117541628      -81.4837259      0.117541628      -81.4837259      0.989445541      6.74701104       
17.75            0.989752822      6.62956914       0.115504684      -81.6039773      0.115504684      -81.6039773      0.989752822      6.62956914       
18               0.990047328      6.51497719       0.113516743      -81.7207472      0.113516743      -81.7207472      0.990047328      6.51497719       
18.25            0.990329714      6.40312184       0.111575878      -81.8341529      0.111575878      -81.8341529      0.990329714      6.40312184       
18.5             0.990600592      6.29389565       0.109680261      -81.9443048      0.109680261      -81.9443048      0.990600592      6.29389565       
18.75            0.990860536      6.18719668       0.107828155      -82.0513071      0.107828155      -82.0513071      0.990860536      6.18719668       
19               0.991110083      6.08292815       0.106017911      -82.155258       0.106017911      -82.155258       0.991110083      6.08292815       
19.25            0.991349739      5.98099817       0.104247963      -82.2562503      0.104247963      -82.2562503      0.991349739      5.98099817       
19.5             0.991579976      5.88131936       0.10251682       -82.3543712      0.10251682       -82.3543712      0.991579976      5.88131936       
19.75            0.99180124       5.78380863       0.100823062      -82.4497033      0.100823062      -82.4497033      0.99180124       5.78380863       
20               0.992013949      5.68838691       0.0991653399     -82.5423242      0.0991653399     -82.5423242      0.992013949      5.68838691       
20.25            0.992218498      5.5949789        0.0975423661     -82.6323071      0.0975423661     -82.6323071      0.992218498      5.5949789        
20.5             0.992415257      5.50351288       0.095952914      -82.7197211      0.095952914      -82.7197211      0.992415257      5.50351288       
20.75            0.992604576      5.41392045       0.0943958135     -82.8046313      0.0943958135     -82.8046313      0.992604576      5.41392045       
21               0.992786785      5.32613639       0.092869948      -82.8870988      0.092869948      -82.8870988      0.992786785      5.32613639       
21.25            0.992962195      5.24009846       0.0913742515     -82.9671813      0.0913742515     -82.9671813      0.992962195      5.24009846       
21.5             0.9931311        5.15574722       0.0899077057     -83.0449329      0.0899077057     -83.0449329      0.9931311        5.15574722       
21.75            0.993293777      5.07302589       0.0884693373     -83.1204044      0.0884693373     -83.1204044      0.993293777      5.07302589       
22               0.99345049       4.99188021       0.0870582157     -83.1936437      0.0870582157     -83.1936437      0.99345049       4.99188021       
22.25            0.993601487      4.91225829       0.0856734507     -83.2646953      0.0856734507     -83.2646953      0.993601487      4.91225829       
22.5             0.993747003      4.83411047       0.0843141903     -83.3336012      0.0843141903     -83.3336012      0.993747003      4.83411047       
22.75            0.993887261      4.75738924       0.0829796186     -83.4004003      0.0829796186     -83.4004003      0.993887261      4.75738924       
23               0.994022472      4.68204909       0.081668954      -83.465129       0.081668954      -83.465129       0.994022472      4.68204909       
23.25            0.994152837      4.60804642       0.0803814475     -83.5278212      0.0803814475     -83.5278212      0.994152837      4.60804642       
23.5             0.994278545      4.53533945       0.0791163811     -83.588508       0.0791163811     -83.588508       0.994278545      4.53533945       
23.75            0.994399778      4.4638881        0.077873066      -83.6472186      0.077873066      -83.6472186      0.994399778      4.4638881        
24               0.994516707      4.39365395       0.0766508411     -83.7039793      0.0766508411     -83.7039793      0.994516707      4.39365395       
24.25            0.994629494      4.3246001        0.075449072      -83.7588146      0.075449072      -83.7588146      0.994629494      4.3246001        
24.5             0.994738295      4.25669113       0.0742671494     -83.8117466      0.0742671494     -83.8117466      0.994738295      4.25669113       
24.75            0.994843257      4.18989304       0.073104488      -83.8627952      0.073104488      -83.8627952      0.994843257      4.18989304       
25               0.99494452       4.12417313       0.071960525      -83.9119783      0.071960525      -83.9119783      0.99494452       4.12417313       
25.25            0.995042219      4.05949999       0.0708347197     -83.9593118      0.0708347197     -83.9593118      0.995042219      4.05949999       
25.5             0.99513648       3.99584341       0.0697265518     -84.0048092      0.0697265518     -84.0048092      0.99513648       3.99584341       
25.75            0.995227426      3.93317432       0.0686355209     -84.0484826      0.0686355209     -84.0484826      0.995227426      3.93317432       
26               0.99531517       3.87146477       0.0675611451     -84.0903416      0.0675611451     -84.0903416      0.99531517       3.87146477       
26.25            0.995399826      3.81068784       0.0665029607     -84.1303942      0.0665029607     -84.1303942      0.995399826      3.81068784       
26.5             0.995481496      3.7508176        0.0654605211     -84.1686463      0.0654605211     -84.1686463      0.995481496      3.7508176        
26.75            0.995560283      3.69182908       0.0644333957     -84.2051019      0.0644333957     -84.2051019      0.995560283      3.69182908       
27               0.995636283      3.63369821       0.06342117       -84.2397631      0.06342117       -84.2397631      0.995636283      3.63369821       
27.25            0.995709587      3.5764018        0.0624234441     -84.2726301      0.0624234441     -84.2726301      0.995709587      3.5764018        
27.5             0.995780284      3.51991748       0.0614398324     -84.3037011      0.0614398324     -84.3037011      0.995780284      3.51991748       
27.75            0.995848457      3.46422368       0.0604699629     -84.3329724      0.0604699629     -84.3329724      0.995848457      3.46422368       
28               0.995914187      3.40929958       0.0595134767     -84.3604385      0.0595134767     -84.3604385      0.995914187      3.40929958       
28.25            0.995977551      3.35512508       0.0585700275     -84.3860917      0.0585700275     -84.3860917      0.995977551      3.35512508       
28.5             0.996038623      3.30168079       0.0576392808     -84.4099224      0.0576392808     -84.4099224      0.996038623      3.30168079       
28.75            0.996097474      3.24894796       0.0567209135     -84.431919       0.0567209135     -84.431919       0.996097474      3.24894796       
29               0.99615417       3.19690851       0.0558146137     -84.4520677      0.0558146137     -84.4520677      0.99615417       3.19690851       
29.25            0.996208778      3.14554493       0.0549200799     -84.4703529      0.0549200799     -84.4703529      0.996208778      3.14554493       
29.5             0.99626136       3.09484033       0.0540370206     -84.4867564      0.0540370206     -84.4867564      0.99626136       3.09484033       
29.75            0.996311974      3.04477835       0.0531651541     -84.5012583      0.0531651541     -84.5012583      0.996311974      3.04477835       
30               0.996360679      2.99534319       0.052304208      -84.5138359      0.052304208      -84.5138359      0.996360679      2.99534319       
30.25            0.99640753       2.94651955       0.0514539188     -84.5244644      0.0514539188     -84.5244644      0.99640753       2.94651955       
30.5             0.996452579      2.89829263       0.0506140316     -84.5331167      0.0506140316     -84.5331167      0.996452579      2.89829263       
30.75            0.996495877      2.85064811       0.0497842997     -84.5397631      0.0497842997     -84.5397631      0.996495877      2.85064811       
31               0.996537474      2.80357212       0.0489644843     -84.5443711      0.0489644843     -84.5443711      0.996537474      2.80357212       
31.25            0.996577416      2.75705122       0.0481543542     -84.5469056      0.0481543542     -84.5469056      0.996577416      2.75705122       
31.5             0.996615747      2.71107241       0.0473536857     -84.547329       0.0473536857     -84.547329       0.996615747      2.71107241       
31.75            0.996652513      2.66562307       0.046562262      -84.5456003      0.046562262      -84.5456003      0.996652513      2.66562307       
32               0.996687754      2.620691         0.045779873      -84.5416756      0.045779873      -84.5416756      0.996687754      2.620691         
32.25            0.99672151       2.57626434       0.0450063154     -84.5355078      0.0450063154     -84.5355078      0.99672151       2.57626434       
32.5             0.996753821      2.53233162       0.0442413919     -84.5270466      0.0442413919     -84.5270466      0.996753821      2.53233162       
32.75            0.996784723      2.4888817        0.0434849116     -84.5162378      0.0434849116     -84.5162378      0.996784723      2.4888817        
