! Coilcraft 1008CS-472 Chip Inductor				
! 02 July 2002			
# MHZ S MA R 50
!Freq             MagS11           AngS11           MagS21           AngS21           MagS12           AngS12           MagS22           AngS22
1                0.268458658      57.8520087       0.886776229      -14.8517593      0.886776229      -14.8517593      0.268458658      57.8520087       
1.5              0.37621859       55.3643276       0.84491902       -21.4914203      0.84491902       -21.4914203      0.37621859       55.3643276       
2                0.470136586      51.6573173       0.798572019      -27.4996274      0.798572019      -27.4996274      0.470136586      51.6573173       
2.5              0.549899943      47.782524        0.750588602      -32.8595673      0.750588602      -32.8595673      0.549899943      47.782524        
3                0.616586558      44.0931913       0.703209047      -37.5977638      0.703209047      -37.5977638      0.616586558      44.0931913       
3.5              0.671875659      40.7109516       0.657906068      -41.7662055      0.657906068      -41.7662055      0.671875659      40.7109516       
4                0.717575438      37.664159        0.615500274      -45.4277563      0.615500274      -45.4277563      0.717575438      37.664159        
4.5              0.755373722      34.9414244       0.576343964      -48.6465875      0.576343964      -48.6465875      0.755373722      34.9414244       
5                0.786734448      32.5153604       0.54048828       -51.4828794      0.54048828       -51.4828794      0.786734448      32.5153604       
5.5              0.812876171      30.3536796       0.507808444      -53.9904379      0.507808444      -53.9904379      0.812876171      30.3536796       
6                0.834789836      28.4243506       0.478088187      -56.2160414      0.478088187      -56.2160414      0.834789836      28.4243506       
6.5              0.853271242      26.697832        0.451072689      -58.1996994      0.451072689      -58.1996994      0.853271242      26.697832        
7                0.868955788      25.1478645       0.426499802      -59.9753234      0.426499802      -59.9753234      0.868955788      25.1478645       
7.5              0.882350064      23.751564        0.40411725       -61.5715304      0.40411725       -61.5715304      0.882350064      23.751564        
8                0.893858517      22.4891997       0.383691205      -63.0124375      0.383691205      -63.0124375      0.893858517      22.4891997       
8.5              0.903805072      21.3438503       0.365009749      -64.3183839      0.365009749      -64.3183839      0.903805072      21.3438503       
9                0.912450288      20.3010335       0.347883446      -65.5065576      0.347883446      -65.5065576      0.912450288      20.3010335       
9.5              0.920004806      19.3483547       0.332144374      -66.5915257      0.332144374      -66.5915257      0.920004806      19.3483547       
10               0.926639841      18.4751911       0.317644411      -67.5856765      0.317644411      -67.5856765      0.926639841      18.4751911       
10.5             0.932495342      17.672419        0.304253233      -68.499585       0.304253233      -68.499585       0.932495342      17.672419        
11               0.937686351      16.9321799       0.291856291      -69.3423142      0.291856291      -69.3423142      0.937686351      16.9321799       
11.5             0.942307969      16.2476848       0.280352891      -70.1216623      0.280352891      -70.1216623      0.942307969      16.2476848       
12               0.946439245      15.6130489       0.269654439      -70.8443662      0.269654439      -70.8443662      0.946439245      15.6130489       
12.5             0.950146243      15.0231539       0.25968288       -71.516269       0.25968288       -71.516269       0.950146243      15.0231539       
13               0.953484455      14.4735333       0.250369319      -72.142458       0.250369319      -72.142458       0.953484455      14.4735333       
13.5             0.956500734      13.9602761       0.241652826      -72.7273796      0.241652826      -72.7273796      0.956500734      13.9602761       
14               0.959234824      13.479946        0.233479398      -73.2749339      0.233479398      -73.2749339      0.959234824      13.479946        
14.5             0.961720599      13.0295144       0.22580106       -73.7885539      0.22580106       -73.7885539      0.961720599      13.0295144       
15               0.963987054      12.6063032       0.218575093      -74.2712717      0.218575093      -74.2712717      0.963987054      12.6063032       
15.5             0.966059114      12.2079371       0.211763373      -74.7257742      0.211763373      -74.7257742      0.966059114      12.2079371       
16               0.967958295      11.8323031       0.20533179       -75.1544497      0.20533179       -75.1544497      0.967958295      11.8323031       
16.5             0.969703237      11.477516        0.199249759      -75.5594273      0.199249759      -75.5594273      0.969703237      11.477516        
17               0.971310154      11.1418894       0.193489793      -75.9426109      0.193489793      -75.9426109      0.971310154      11.1418894       
17.5             0.972793196      10.8239108       0.188027131      -76.3057074      0.188027131      -76.3057074      0.972793196      10.8239108       
18               0.974164754      10.5222196       0.182839421      -76.6502511      0.182839421      -76.6502511      0.974164754      10.5222196       
18.5             0.975435715      10.2355897       0.177906443      -76.9776249      0.177906443      -76.9776249      0.975435715      10.2355897       
19               0.976615675      9.96291276       0.173209863      -77.289078       0.173209863      -77.289078       0.976615675      9.96291276       
19.5             0.977713113      9.70318517       0.16873303       -77.5857416      0.16873303       -77.5857416      0.977713113      9.70318517       
20               0.978735549      9.45549592       0.164460789      -77.8686423      0.164460789      -77.8686423      0.978735549      9.45549592       
20.5             0.979689666      9.21901634       0.160379317      -78.1387138      0.160379317      -78.1387138      0.979689666      9.21901634       
21               0.980581418      8.99299116       0.15647599       -78.3968068      0.15647599       -78.3968068      0.980581418      8.99299116       
21.5             0.981416127      8.77673065       0.152739251      -78.6436984      0.152739251      -78.6436984      0.981416127      8.77673065       
22               0.982198559      8.56960373       0.149158507      -78.8800993      0.149158507      -78.8800993      0.982198559      8.56960373       
22.5             0.982932991      8.37103199       0.145724029      -79.106661       0.145724029      -79.106661       0.982932991      8.37103199       
23               0.983623273      8.1804843        0.14242687       -79.3239816      0.14242687       -79.3239816      0.983623273      8.1804843        
23.5             0.984272874      7.99747218       0.139258785      -79.532611       0.139258785      -79.532611       0.984272874      7.99747218       
24               0.984884931      7.82154563       0.136212169      -79.733056       0.136212169      -79.733056       0.984884931      7.82154563       
24.5             0.98546228       7.65228945       0.133279996      -79.925784       0.133279996      -79.925784       0.98546228       7.65228945       
25               0.986007498      7.48931995       0.130455762      -80.1112268      0.130455762      -80.1112268      0.986007498      7.48931995       
25.5             0.986522923      7.33228208       0.127733443      -80.289784       0.127733443      -80.289784       0.986522923      7.33228208       
26               0.987010684      7.18084682       0.12510745       -80.4618259      0.12510745       -80.4618259      0.987010684      7.18084682       
26.5             0.987472724      7.03470884       0.122572588      -80.6276958      0.122572588      -80.6276958      0.987472724      7.03470884       
27               0.987910816      6.89358442       0.120124029      -80.7877129      0.120124029      -80.7877129      0.987910816      6.89358442       
27.5             0.988326583      6.75720962       0.117757273      -80.942174       0.117757273      -80.942174       0.988326583      6.75720962       
28               0.988721512      6.62533858       0.115468126      -81.0913553      0.115468126      -81.0913553      0.988721512      6.62533858       
28.5             0.989096967      6.49774197       0.113252675      -81.2355146      0.113252675      -81.2355146      0.989096967      6.49774197       
29               0.989454203      6.3742057        0.111107259      -81.3748922      0.111107259      -81.3748922      0.989454203      6.3742057        
29.5             0.989794372      6.25452964       0.109028458      -81.5097127      0.109028458      -81.5097127      0.989794372      6.25452964       
30               0.990118539      6.13852653       0.107013066      -81.6401862      0.107013066      -81.6401862      0.990118539      6.13852653       
30.5             0.990427685      6.02602095       0.105058079      -81.7665094      0.105058079      -81.7665094      0.990427685      6.02602095       
31               0.990722717      5.91684839       0.103160678      -81.8888665      0.103160678      -81.8888665      0.990722717      5.91684839       
31.5             0.991004472      5.81085449       0.101318216      -82.0074304      0.101318216      -82.0074304      0.991004472      5.81085449       
32               0.991273728      5.70789417       0.0995282037     -82.1223632      0.0995282037     -82.1223632      0.991273728      5.70789417       
32.5             0.991531206      5.60783105       0.0977882995     -82.2338172      0.0977882995     -82.2338172      0.991531206      5.60783105       
33               0.991777573      5.51053673       0.0960962978     -82.3419359      0.0960962978     -82.3419359      0.991777573      5.51053673       
33.5             0.992013451      5.41589026       0.09445012       -82.446854       0.09445012       -82.446854       0.992013451      5.41589026       
34               0.992239419      5.32377761       0.0928478051     -82.5486983      0.0928478051     -82.5486983      0.992239419      5.32377761       
34.5             0.992456014      5.23409115       0.0912875017     -82.6475886      0.0912875017     -82.6475886      0.992456014      5.23409115       
35               0.992663739      5.14672927       0.0897674607     -82.7436375      0.0897674607     -82.7436375      0.992663739      5.14672927       
35.5             0.992863061      5.06159589       0.0882860278     -82.8369515      0.0882860278     -82.8369515      0.992863061      5.06159589       
36               0.993054419      4.97860016       0.0868416381     -82.9276309      0.0868416381     -82.9276309      0.993054419      4.97860016       
36.5             0.993238222      4.89765608       0.0854328093     -83.0157708      0.0854328093     -83.0157708      0.993238222      4.89765608       
37               0.993414852      4.81868216       0.0840581369     -83.1014606      0.0840581369     -83.1014606      0.993414852      4.81868216       
37.5             0.993584667      4.74160119       0.0827162889     -83.1847853      0.0827162889     -83.1847853      0.993584667      4.74160119       
38               0.993748004      4.6663399        0.0814060013     -83.2658249      0.0814060013     -83.2658249      0.993748004      4.6663399        
38.5             0.993905178      4.59282874       0.0801260741     -83.3446555      0.0801260741     -83.3446555      0.993905178      4.59282874       
39               0.994056485      4.52100165       0.0788753669     -83.4213489      0.0788753669     -83.4213489      0.994056485      4.52100165       
39.5             0.994202202      4.45079587       0.0776527953     -83.495973       0.0776527953     -83.495973       0.994202202      4.45079587       
40               0.994342593      4.38215166       0.0764573281     -83.5685926      0.0764573281     -83.5685926      0.994342593      4.38215166       
40.5             0.994477903      4.31501221       0.0752879832     -83.6392686      0.0752879832     -83.6392686      0.994477903      4.31501221       
41               0.994608363      4.2493234        0.0741438254     -83.708059       0.0741438254     -83.708059       0.994608363      4.2493234        
41.5             0.994734192      4.18503369       0.0730239636     -83.7750187      0.0730239636     -83.7750187      0.994734192      4.18503369       
42               0.994855597      4.12209392       0.0719275477     -83.8401999      0.0719275477     -83.8401999      0.994855597      4.12209392       
42.5             0.994972772      4.06045722       0.070853767      -83.903652       0.070853767      -83.903652       0.994972772      4.06045722       
43               0.995085901      4.00007885       0.0698018475     -83.9654218      0.0698018475     -83.9654218      0.995085901      4.00007885       
43.5             0.995195158      3.94091609       0.0687710498     -84.0255538      0.0687710498     -84.0255538      0.995195158      3.94091609       
44               0.995300706      3.88292812       0.0677606676     -84.0840903      0.0677606676     -84.0840903      0.995300706      3.88292812       
44.5             0.995402701      3.82607594       0.0667700255     -84.1410711      0.0667700255     -84.1410711      0.995402701      3.82607594       
45               0.995501291      3.77032223       0.0657984775     -84.1965344      0.0657984775     -84.1965344      0.995501291      3.77032223       
45.5             0.995596614      3.71563131       0.0648454056     -84.250516       0.0648454056     -84.250516       0.995596614      3.71563131       
46               0.995688803      3.66196901       0.0639102177     -84.3030501      0.0639102177     -84.3030501      0.995688803      3.66196901       
46.5             0.995777984      3.60930261       0.0629923471     -84.354169       0.0629923471     -84.354169       0.995777984      3.60930261       
47               0.995864275      3.55760075       0.0620912504     -84.4039033      0.0620912504     -84.4039033      0.995864275      3.55760075       
47.5             0.99594779       3.50683338       0.0612064067     -84.4522821      0.0612064067     -84.4522821      0.99594779       3.50683338       
48               0.996028635      3.45697169       0.0603373167     -84.4993327      0.0603373167     -84.4993327      0.996028635      3.45697169       
48.5             0.996106913      3.40798801       0.0594835008     -84.5450811      0.0594835008     -84.5450811      0.996106913      3.40798801       
49               0.996182721      3.35985583       0.0586444991     -84.5895519      0.0586444991     -84.5895519      0.996182721      3.35985583       
49.5             0.996256152      3.31254966       0.0578198697     -84.6327681      0.0578198697     -84.6327681      0.996256152      3.31254966       
50               0.996327293      3.26604501       0.057009188      -84.6747516      0.057009188      -84.6747516      0.996327293      3.26604501       
50.5             0.996396228      3.22031839       0.0562120461     -84.7155229      0.0562120461     -84.7155229      0.996396228      3.22031839       
51               0.996463037      3.17534716       0.0554280518     -84.7551014      0.0554280518     -84.7551014      0.996463037      3.17534716       
51.5             0.996527797      3.1311096        0.0546568279     -84.7935051      0.0546568279     -84.7935051      0.996527797      3.1311096        
52               0.996590579      3.08758478       0.0538980114     -84.8307511      0.0538980114     -84.8307511      0.996590579      3.08758478       
52.5             0.996651454      3.04475258       0.0531512528     -84.8668552      0.0531512528     -84.8668552      0.996651454      3.04475258       
53               0.996710486      3.0025936        0.0524162159     -84.9018323      0.0524162159     -84.9018323      0.996710486      3.0025936        
53.5             0.996767741      2.96108919       0.0516925767     -84.935696       0.0516925767     -84.935696       0.996767741      2.96108919       
54               0.996823277      2.92022136       0.0509800229     -84.9684592      0.0509800229     -84.9684592      0.996823277      2.92022136       
54.5             0.996877154      2.87997279       0.0502782537     -85.0001336      0.0502782537     -85.0001336      0.996877154      2.87997279       
55               0.996929425      2.84032675       0.0495869791     -85.03073        0.0495869791     -85.03073        0.996929425      2.84032675       
55.5             0.996980144      2.80126715       0.0489059193     -85.0602582      0.0489059193     -85.0602582      0.996980144      2.80126715       
56               0.997029362      2.76277843       0.0482348042     -85.0887271      0.0482348042     -85.0887271      0.997029362      2.76277843       
56.5             0.997077127      2.7248456        0.0475733735     -85.1161449      0.0475733735     -85.1161449      0.997077127      2.7248456        
57               0.997123485      2.68745417       0.0469213757     -85.1425185      0.0469213757     -85.1425185      0.997123485      2.68745417       
57.5             0.997168481      2.65059016       0.046278568      -85.1678543      0.046278568      -85.1678543      0.997168481      2.65059016       
58               0.997212157      2.61424008       0.0456447157     -85.1921576      0.0456447157     -85.1921576      0.997212157      2.61424008       
58.5             0.997254555      2.57839086       0.0450195923     -85.2154331      0.0450195923     -85.2154331      0.997254555      2.57839086       
59               0.997295713      2.54302991       0.0444029788     -85.2376842      0.0444029788     -85.2376842      0.997295713      2.54302991       
59.5             0.99733567       2.50814503       0.0437946633     -85.258914       0.0437946633     -85.258914       0.99733567       2.50814503       
60               0.99737446       2.47372443       0.0431944411     -85.2791245      0.0431944411     -85.2791245      0.99737446       2.47372443       
60.5             0.99741212       2.43975671       0.0426021141     -85.2983167      0.0426021141     -85.2983167      0.99741212       2.43975671       
61               0.997448683      2.40623083       0.0420174907     -85.3164911      0.0420174907     -85.3164911      0.997448683      2.40623083       
61.5             0.99748418       2.37313613       0.0414403854     -85.3336473      0.0414403854     -85.3336473      0.99748418       2.37313613       
62               0.997518642      2.34046226       0.0408706186     -85.3497838      0.0408706186     -85.3497838      0.997518642      2.34046226       
62.5             0.997552098      2.30819922       0.0403080165     -85.3648986      0.0403080165     -85.3648986      0.997552098      2.30819922       
63               0.997584579      2.27633731       0.0397524107     -85.3789887      0.0397524107     -85.3789887      0.997584579      2.27633731       
63.5             0.99761611       2.24486714       0.039203638      -85.3920502      0.039203638      -85.3920502      0.99761611       2.24486714       
64               0.997646718      2.21377962       0.0386615405     -85.4040785      0.0386615405     -85.4040785      0.997646718      2.21377962       
64.5             0.997676428      2.18306592       0.0381259648     -85.4150681      0.0381259648     -85.4150681      0.997676428      2.18306592       
