! Coilcraft 1008CS-911 Chip Inductor				
! 02 July 2002			
# MHZ S MA R 50
!Freq             MagS11           AngS11           MagS21           AngS21           MagS12           AngS12           MagS22           AngS22
1                0.0598831102     63.0611705       0.974334245      -3.14089469      0.974334245      -3.14089469      0.0598831102     63.0611705       
2.24             0.124658713      70.194591        0.964916775      -6.98152792      0.964916775      -6.98152792      0.124658713      70.194591        
3.48             0.188804674      70.0988205       0.952422908      -10.7426342      0.952422908      -10.7426342      0.188804674      70.0988205       
4.72             0.250702953      68.3126301       0.936782506      -14.3992657      0.936782506      -14.3992657      0.250702953      68.3126301       
5.96             0.309620295      65.9326044       0.918330898      -17.9294284      0.918330898      -17.9294284      0.309620295      65.9326044       
7.2              0.365097344      63.3323835       0.897538008      -21.3156502      0.897538008      -21.3156502      0.365097344      63.3323835       
8.44             0.416862273      60.677639        0.874917293      -24.5454082      0.874917293      -24.5454082      0.416862273      60.677639        
9.68             0.464796079      58.0532315       0.85097546       -27.6109817      0.85097546       -27.6109817      0.464796079      58.0532315       
10.92            0.508903662      55.5058251       0.826181459      -30.5089629      0.826181459      -30.5089629      0.508903662      55.5058251       
12.16            0.549285479      53.0614101       0.800948669      -33.2395829      0.800948669      -33.2395829      0.549285479      53.0614101       
13.4             0.586110807      50.7337194       0.775626912      -35.8059742      0.775626912      -35.8059742      0.586110807      50.7337194       
14.64            0.619594174      48.5288016       0.750501525      -38.2134538      0.750501525      -38.2134538      0.619594174      48.5288016       
15.88            0.649975879      46.4477533       0.725797092      -40.4688789      0.725797092      -40.4688789      0.649975879      46.4477533       
17.12            0.677506817      44.4884663       0.70168386       -42.5800998      0.70168386       -42.5800998      0.677506817      44.4884663       
18.36            0.7024373        42.6467928       0.678285349      -44.5555193      0.678285349      -44.5555193      0.7024373        42.6467928       
19.6             0.72500932       40.9173446       0.655686162      -46.4037499      0.655686162      -46.4037499      0.72500932       40.9173446       
20.84            0.745451562      39.2940433       0.633939333      -48.13336        0.633939333      -48.13336        0.745451562      39.2940433       
22.08            0.763976547      37.7705017       0.613072901      -49.752693       0.613072901      -49.752693       0.763976547      37.7705017       
23.32            0.780779306      36.3402826       0.59309556       -51.269745       0.59309556       -51.269745       0.780779306      36.3402826       
24.56            0.796037144      34.9970726       0.574001369      -52.6920882      0.574001369      -52.6920882      0.796037144      34.9970726       
25.8             0.809910116      33.7347936       0.555773606      -54.0268289      0.555773606      -54.0268289      0.809910116      33.7347936       
27.04            0.822541949      32.5476714       0.538387852      -55.2805902      0.538387852      -55.2805902      0.822541949      32.5476714       
28.28            0.834061215      31.4302728       0.521814413      -56.4595124      0.521814413      -56.4595124      0.834061215      31.4302728       
29.52            0.844582622      30.3775214       0.506020212      -57.5692665      0.506020212      -57.5692665      0.844582622      30.3775214       
30.76            0.854208319      29.3846989       0.490970228      -58.615074       0.490970228      -58.615074       0.854208319      29.3846989       
32               0.863029176      28.4474368       0.476628582      -59.6017327      0.476628582      -59.6017327      0.863029176      28.4474368       
33.24            0.871125981      27.5617019       0.462959344      -60.5336445      0.462959344      -60.5336445      0.871125981      27.5617019       
34.48            0.878570556      26.7237775       0.449927114      -61.4148445      0.449927114      -61.4148445      0.878570556      26.7237775       
35.72            0.885426771      25.9302437       0.437497439      -62.2490291      0.437497439      -62.2490291      0.885426771      25.9302437       
36.96            0.891751451      25.1779563       0.425637094      -63.0395838      0.425637094      -63.0395838      0.891751451      25.1779563       
38.2             0.897595202      24.4640257       0.414314261      -63.7896101      0.414314261      -63.7896101      0.897595202      24.4640257       
39.44            0.903003129      23.785797        0.40349864       -64.5019494      0.40349864       -64.5019494      0.903003129      23.785797        
40.68            0.908015483      23.1408304       0.393161496      -65.1792065      0.393161496      -65.1792065      0.908015483      23.1408304       
41.92            0.912668227      22.5268834       0.38327567       -65.8237707      0.38327567       -65.8237707      0.912668227      22.5268834       
43.16            0.916993537      21.9418936       0.373815561      -66.437835       0.373815561      -66.437835       0.916993537      21.9418936       
44.4             0.921020238      21.3839634       0.364757081      -67.0234141      0.364757081      -67.0234141      0.921020238      21.3839634       
45.64            0.924774194      20.8513454       0.356077602      -67.5823602      0.356077602      -67.5823602      0.924774194      20.8513454       
46.88            0.928278643      20.3424293       0.347755893      -68.116378       0.347755893      -68.116378       0.928278643      20.3424293       
48.12            0.931554496      19.8557299       0.339772049      -68.6270381      0.339772049      -68.6270381      0.931554496      19.8557299       
49.36            0.934620599      19.3898765       0.332107417      -69.1157885      0.332107417      -69.1157885      0.934620599      19.3898765       
50.6             0.937493963      18.9436023       0.324744528      -69.583966       0.324744528      -69.583966       0.937493963      18.9436023       
51.84            0.940189963      18.5157358       0.31766702       -70.0328057      0.31766702       -70.0328057      0.940189963      18.5157358       
53.08            0.942722519      18.1051927       0.310859571      -70.4634503      0.310859571      -70.4634503      0.942722519      18.1051927       
54.32            0.945104251      17.710968        0.304307833      -70.8769578      0.304307833      -70.8769578      0.945104251      17.710968        
55.56            0.947346619      17.3321296       0.297998365      -71.274309       0.297998365      -71.274309       0.947346619      17.3321296       
56.8             0.949460042      16.9678121       0.291918572      -71.6564138      0.291918572      -71.6564138      0.949460042      16.9678121       
58.04            0.951454006      16.6172112       0.28605665       -72.0241177      0.28605665       -72.0241177      0.951454006      16.6172112       
59.28            0.953337163      16.2795786       0.280401533      -72.3782068      0.280401533      -72.3782068      0.953337163      16.2795786       
60.52            0.955117412      15.9542177       0.274942837      -72.7194127      0.274942837      -72.7194127      0.955117412      15.9542177       
61.76            0.956801977      15.6404788       0.269670818      -73.0484172      0.269670818      -73.0484172      0.956801977      15.6404788       
63               0.958397469      15.3377561       0.264576327      -73.3658559      0.264576327      -73.3658559      0.958397469      15.3377561       
64.24            0.959909951      15.0454837       0.259650767      -73.6723226      0.259650767      -73.6723226      0.959909951      15.0454837       
65.48            0.961344987      14.7631326       0.254886059      -73.9683718      0.254886059      -73.9683718      0.961344987      14.7631326       
66.72            0.962707692      14.4902079       0.250274602      -74.2545224      0.250274602      -74.2545224      0.962707692      14.4902079       
67.96            0.964002772      14.2262462       0.245809242      -74.5312599      0.245809242      -74.5312599      0.964002772      14.2262462       
69.2             0.965234561      13.9708132       0.241483245      -74.7990395      0.241483245      -74.7990395      0.965234561      13.9708132       
70.44            0.966407058      13.7235013       0.237290264      -75.0582881      0.237290264      -75.0582881      0.966407058      13.7235013       
71.68            0.967523957      13.483928        0.233224316      -75.3094061      0.233224316      -75.3094061      0.967523957      13.483928        
72.92            0.968588669      13.2517339       0.229279755      -75.5527701      0.229279755      -75.5527701      0.968588669      13.2517339       
74.16            0.969604354      13.0265807       0.225451253      -75.788734       0.225451253      -75.788734       0.969604354      13.0265807       
75.4             0.970573938      12.8081505       0.221733776      -76.0176307      0.221733776      -76.0176307      0.970573938      12.8081505       
76.64            0.971500135      12.5961434       0.218122568      -76.2397739      0.218122568      -76.2397739      0.971500135      12.5961434       
77.88            0.972385464      12.3902769       0.214613131      -76.4554592      0.214613131      -76.4554592      0.972385464      12.3902769       
79.12            0.973232267      12.1902844       0.211201207      -76.6649655      0.211201207      -76.6649655      0.973232267      12.1902844       
80.36            0.974042721      11.9959144       0.207882767      -76.8685558      0.207882767      -76.8685558      0.974042721      11.9959144       
81.6             0.974818852      11.8069292       0.204653992      -77.066479       0.204653992      -77.066479       0.974818852      11.8069292       
82.84            0.975562551      11.6231039       0.201511263      -77.2589699      0.201511263      -77.2589699      0.975562551      11.6231039       
84.08            0.97627558       11.4442259       0.198451148      -77.4462509      0.198451148      -77.4462509      0.97627558       11.4442259       
85.32            0.976959584      11.2700939       0.195470389      -77.6285324      0.195470389      -77.6285324      0.976959584      11.2700939       
86.56            0.9776161        11.1005172       0.192565892      -77.8060138      0.192565892      -77.8060138      0.9776161        11.1005172       
87.8             0.978246565      10.935315        0.189734719      -77.9788841      0.189734719      -77.9788841      0.978246565      10.935315        
89.04            0.978852326      10.7743157       0.186974076      -78.1473224      0.186974076      -78.1473224      0.978852326      10.7743157       
90.28            0.979434641      10.6173567       0.184281307      -78.3114988      0.184281307      -78.3114988      0.979434641      10.6173567       
91.52            0.979994694      10.4642832       0.181653882      -78.4715749      0.181653882      -78.4715749      0.979994694      10.4642832       
92.76            0.980533592      10.3149483       0.179089396      -78.6277042      0.179089396      -78.6277042      0.980533592      10.3149483       
94               0.981052377      10.1692124       0.176585556      -78.7800326      0.176585556      -78.7800326      0.981052377      10.1692124       
95.24            0.981552025      10.0269423       0.174140175      -78.9286988      0.174140175      -78.9286988      0.981552025      10.0269423       
96.48            0.982033456      9.88801171       0.17175117       -79.0738351      0.17175117       -79.0738351      0.982033456      9.88801171       
97.72            0.982497536      9.75229991       0.169416553      -79.2155673      0.169416553      -79.2155673      0.982497536      9.75229991       
98.96            0.982945079      9.61969206       0.167134427      -79.3540153      0.167134427      -79.3540153      0.982945079      9.61969206       
100.2            0.983376853      9.49007859       0.164902979      -79.4892935      0.164902979      -79.4892935      0.983376853      9.49007859       
101.44           0.983793581      9.36335498       0.16272048       -79.6215108      0.16272048       -79.6215108      0.983793581      9.36335498       
102.68           0.984195946      9.23942147       0.160585274      -79.7507715      0.160585274      -79.7507715      0.984195946      9.23942147       
103.92           0.984584593      9.11818277       0.158495779      -79.8771748      0.158495779      -79.8771748      0.984584593      9.11818277       
105.16           0.98496013       8.99954784       0.156450481      -80.0008156      0.156450481      -80.0008156      0.98496013       8.99954784       
106.4            0.985323134      8.88342966       0.154447933      -80.1217848      0.154447933      -80.1217848      0.985323134      8.88342966       
107.64           0.985674148      8.76974499       0.152486748      -80.2401691      0.152486748      -80.2401691      0.985674148      8.76974499       
108.88           0.986013689      8.65841419       0.150565596      -80.3560515      0.150565596      -80.3560515      0.986013689      8.65841419       
110.12           0.986342244      8.54936102       0.148683204      -80.4695114      0.148683204      -80.4695114      0.986342244      8.54936102       
111.36           0.986660275      8.44251247       0.146838352      -80.5806248      0.146838352      -80.5806248      0.986660275      8.44251247       
112.6            0.98696822       8.33779858       0.14502987       -80.6894647      0.14502987       -80.6894647      0.98696822       8.33779858       
113.84           0.987266496      8.2351523        0.143256634      -80.7961007      0.143256634      -80.7961007      0.987266496      8.2351523        
115.08           0.987555496      8.13450932       0.141517566      -80.9005999      0.141517566      -80.9005999      0.987555496      8.13450932       
116.32           0.987835596      8.03580796       0.139811631      -81.0030264      0.139811631      -81.0030264      0.987835596      8.03580796       
117.56           0.988107151      7.93898902       0.138137834      -81.1034418      0.138137834      -81.1034418      0.988107151      7.93898902       
118.8            0.9883705        7.84399566       0.136495221      -81.2019051      0.136495221      -81.2019051      0.9883705        7.84399566       
120.04           0.988625963      7.75077329       0.134882873      -81.2984731      0.134882873      -81.2984731      0.988625963      7.75077329       
121.28           0.988873848      7.65926945       0.133299907      -81.3932003      0.133299907      -81.3932003      0.988873848      7.65926945       
122.52           0.989114445      7.56943371       0.131745473      -81.4861391      0.131745473      -81.4861391      0.989114445      7.56943371       
123.76           0.989348033      7.48121761       0.130218753      -81.5773397      0.130218753      -81.5773397      0.989348033      7.48121761       
125              0.989574874      7.39457449       0.128718962      -81.6668507      0.128718962      -81.6668507      0.989574874      7.39457449       
126.24           0.989795222      7.30945948       0.12724534       -81.7547184      0.12724534       -81.7547184      0.989795222      7.30945948       
127.48           0.990009317      7.22582938       0.125797159      -81.8409876      0.125797159      -81.8409876      0.990009317      7.22582938       
128.72           0.990217387      7.14364261       0.124373714      -81.9257015      0.124373714      -81.9257015      0.990217387      7.14364261       
129.96           0.990419652      7.06285907       0.122974328      -82.0089016      0.122974328      -82.0089016      0.990419652      7.06285907       
131.2            0.990616321      6.98344018       0.121598347      -82.0906277      0.121598347      -82.0906277      0.990616321      6.98344018       
132.44           0.990807593      6.90534871       0.120245142      -82.1709184      0.120245142      -82.1709184      0.990807593      6.90534871       
133.68           0.990993658      6.82854877       0.118914103      -82.2498107      0.118914103      -82.2498107      0.990993658      6.82854877       
134.92           0.9911747        6.75300576       0.117604643      -82.3273404      0.117604643      -82.3273404      0.9911747        6.75300576       
136.16           0.991350892      6.67868628       0.116316197      -82.4035419      0.116316197      -82.4035419      0.991350892      6.67868628       
137.4            0.991522402      6.60555811       0.115048217      -82.4784485      0.115048217      -82.4784485      0.991522402      6.60555811       
138.64           0.991689389      6.53359013       0.113800174      -82.5520922      0.113800174      -82.5520922      0.991689389      6.53359013       
139.88           0.991852006      6.4627523        0.112571558      -82.6245038      0.112571558      -82.6245038      0.991852006      6.4627523        
141.12           0.9920104        6.39301559       0.111361875      -82.6957134      0.111361875      -82.6957134      0.9920104        6.39301559       
142.36           0.99216471       6.32435196       0.110170648      -82.7657496      0.110170648      -82.7657496      0.99216471       6.32435196       
143.6            0.992315072      6.25673431       0.108997417      -82.8346402      0.108997417      -82.8346402      0.992315072      6.25673431       
144.84           0.992461614      6.19013642       0.107841735      -82.9024122      0.107841735      -82.9024122      0.992461614      6.19013642       
146.08           0.99260446       6.12453297       0.106703169      -82.9690915      0.106703169      -82.9690915      0.99260446       6.12453297       
147.32           0.99274373       6.05989943       0.105581303      -83.0347031      0.105581303      -83.0347031      0.99274373       6.05989943       
148.56           0.992879536      5.99621209       0.104475732      -83.0992713      0.104475732      -83.0992713      0.992879536      5.99621209       
149.8            0.993011988      5.93344799       0.103386065      -83.1628195      0.103386065      -83.1628195      0.993011988      5.93344799       
151.04           0.993141191      5.8715849        0.102311922      -83.2253703      0.102311922      -83.2253703      0.993141191      5.8715849        
152.28           0.993267247      5.81060132       0.101252936      -83.2869456      0.101252936      -83.2869456      0.993267247      5.81060132       
153.52           0.993390252      5.7504764        0.100208751      -83.3475666      0.100208751      -83.3475666      0.993390252      5.7504764        
154.76           0.9935103        5.69118994       0.099179022      -83.4072538      0.099179022      -83.4072538      0.9935103        5.69118994       
156              0.99362748       5.63272237       0.0981634151     -83.4660269      0.0981634151     -83.4660269      0.99362748       5.63272237       
157.24           0.993741879      5.57505474       0.0971616058     -83.5239051      0.0971616058     -83.5239051      0.993741879      5.57505474       
158.48           0.99385358       5.51816865       0.0961732797     -83.5809069      0.0961732797     -83.5809069      0.99385358       5.51816865       
