! Coilcraft 1008CS-821 Chip Inductor				
! 02 July 2002			
# MHZ S MA R 50
!Freq             MagS11           AngS11           MagS21           AngS21           MagS12           AngS12           MagS22           AngS22
1                0.0549188028     61.8157828       0.975263501      -2.84504935      0.975263501      -2.84504935      0.0549188028     61.8157828       
2.49             0.125372872      70.181716        0.964731042      -7.02251264      0.964731042      -7.02251264      0.125372872      70.181716        
3.98             0.194997302      69.8749134       0.950704043      -11.1036895      0.950704043      -11.1036895      0.194997302      69.8749134       
5.47             0.261824828      67.7880089       0.933056579      -15.0573748      0.933056579      -15.0573748      0.261824828      67.7880089       
6.96             0.324993057      65.1210306       0.912233235      -18.8565204      0.912233235      -18.8565204      0.324993057      65.1210306       
8.45             0.383981839      62.2653181       0.888846853      -22.4804655      0.888846853      -22.4804655      0.383981839      62.2653181       
9.94             0.438514359      59.3901944       0.863551803      -25.9153837      0.863551803      -25.9153837      0.438514359      59.3901944       
11.43            0.48851026       56.5802156       0.836976509      -29.1538822      0.836976509      -29.1538822      0.48851026       56.5802156       
12.92            0.534042728      53.8800576       0.809684652      -32.1941325      0.809684652      -32.1941325      0.534042728      53.8800576       
14.41            0.575296829      51.3128597       0.782155845      -35.0387931      0.782155845      -35.0387931      0.575296829      51.3128597       
15.9             0.612531859      48.8890916       0.754780081      -37.6939067      0.754780081      -37.6939067      0.612531859      48.8890916       
17.39            0.64604992       46.611426        0.7278613        -40.1678883      0.7278613        -40.1678883      0.64604992       46.611426        
18.88            0.6761715        44.4776738       0.70162623       -42.4706658      0.70162623       -42.4706658      0.6761715        44.4776738       
20.37            0.703217734      42.4826597       0.676235659      -44.6129896      0.676235659      -44.6129896      0.703217734      42.4826597       
21.86            0.727498389      40.6194601       0.651796182      -46.6059084      0.651796182      -46.6059084      0.727498389      40.6194601       
23.35            0.749304416      38.8802313       0.628371247      -48.4603877      0.628371247      -48.4603877      0.749304416      38.8802313       
24.84            0.76890389       37.2567623       0.605990914      -50.1870479      0.605990914      -50.1870479      0.76890389       37.2567623       
26.33            0.786540373      35.7408386       0.584660084      -51.7959941      0.584660084      -51.7959941      0.786540373      35.7408386       
27.82            0.802432897      34.3244758       0.564365235      -53.2967172      0.564365235      -53.2967172      0.802432897      34.3244758       
29.31            0.816776962      33.0000614       0.545079776      -54.6980456      0.545079776      -54.6980456      0.816776962      33.0000614       
30.8             0.829746127      31.7604351       0.526768231      -56.0081326      0.526768231      -56.0081326      0.829746127      31.7604351       
32.29            0.841493899      30.5989264       0.509389439      -57.234468       0.509389439      -57.234468       0.841493899      30.5989264       
33.78            0.852155703      29.5093641       0.492898958      -58.3839059      0.492898958      -58.3839059      0.852155703      29.5093641       
35.27            0.861850835      28.4860668       0.477250848      -59.4627015      0.477250848      -59.4627015      0.861850835      28.4860668       
36.76            0.870684302      27.5238231       0.462398959      -60.4765523      0.462398959      -60.4765523      0.870684302      27.5238231       
38.25            0.878748517      26.6178636       0.448297851      -61.4306419      0.448297851      -61.4306419      0.878748517      26.6178636       
39.74            0.886124837      25.7638314       0.434903414      -62.3296834      0.434903414      -62.3296834      0.886124837      25.7638314       
41.23            0.892884937      24.9577496       0.42217329       -63.177961       0.42217329       -63.177961       0.892884937      24.9577496       
42.72            0.89909202       24.1959905       0.410067125      -63.9793696      0.410067125      -63.9793696      0.89909202       24.1959905       
44.21            0.904801889      23.475245        0.398546705      -64.7374515      0.398546705      -64.7374515      0.904801889      23.475245        
45.7             0.91006388       22.792494        0.387576014      -65.4554303      0.387576014      -65.4554303      0.91006388       22.792494        
47.19            0.914921677      22.1449821       0.377121224      -66.1362418      0.377121224      -66.1362418      0.914921677      22.1449821       
48.68            0.919414024      21.5301925       0.36715065       -66.7825623      0.36715065       -66.7825623      0.919414024      21.5301925       
50.17            0.923575338      20.9458251       0.35763467       -67.3968338      0.35763467       -67.3968338      0.923575338      20.9458251       
51.66            0.927436247      20.3897757       0.348545638      -67.9812869      0.348545638      -67.9812869      0.927436247      20.3897757       
53.15            0.931024056      19.8601173       0.339857771      -68.5379617      0.339857771      -68.5379617      0.931024056      19.8601173       
54.64            0.934363148      19.3550837       0.331547049      -69.0687259      0.331547049      -69.0687259      0.934363148      19.3550837       
56.13            0.937475338      18.8730541       0.323591098      -69.5752917      0.323591098      -69.5752917      0.937475338      18.8730541       
57.62            0.940380177      18.4125396       0.315969086      -70.0592307      0.315969086      -70.0592307      0.940380177      18.4125396       
59.11            0.943095217      17.9721707       0.308661614      -70.5219872      0.308661614      -70.5219872      0.943095217      17.9721707       
60.6             0.945636245      17.5506865       0.301650616      -70.9648899      0.301650616      -70.9648899      0.945636245      17.5506865       
62.09            0.948017484      17.1469245       0.294919266      -71.389163       0.294919266      -71.389163       0.948017484      17.1469245       
63.58            0.950251768      16.7598119       0.288451883      -71.7959357      0.288451883      -71.7959357      0.950251768      16.7598119       
65.07            0.9523507        16.3883573       0.282233849      -72.1862509      0.282233849      -72.1862509      0.9523507        16.3883573       
66.56            0.954324785      16.0316438       0.276251531      -72.5610729      0.276251531      -72.5610729      0.954324785      16.0316438       
68.05            0.956183551      15.6888219       0.270492207      -72.9212941      0.270492207      -72.9212941      0.956183551      15.6888219       
69.54            0.957935649      15.3591043       0.264943997      -73.2677421      0.264943997      -73.2677421      0.957935649      15.3591043       
71.03            0.959588954      15.0417599       0.2595958        -73.6011843      0.2595958        -73.6011843      0.959588954      15.0417599       
72.52            0.961150638      14.7361095       0.254437239      -73.9223339      0.254437239      -73.9223339      0.961150638      14.7361095       
74.01            0.962627245      14.4415214       0.249458604      -74.231854       0.249458604      -74.231854       0.962627245      14.4415214       
75.5             0.964024754      14.157407        0.244650805      -74.5303621      0.244650805      -74.5303621      0.964024754      14.157407        
76.99            0.965348638      13.8832179       0.240005326      -74.8184334      0.240005326      -74.8184334      0.965348638      13.8832179       
78.48            0.96660391       13.6184424       0.23551418       -75.0966049      0.23551418       -75.0966049      0.96660391       13.6184424       
79.97            0.96779517       13.3626022       0.231169876      -75.3653777      0.231169876      -75.3653777      0.96779517       13.3626022       
81.46            0.968926643      13.1152504       0.22696538       -75.6252206      0.22696538       -75.6252206      0.968926643      13.1152504       
82.95            0.970002218      12.8759686       0.222894082      -75.876572       0.222894082      -75.876572       0.970002218      12.8759686       
84.44            0.971025474      12.6443649       0.218949768      -76.1198426      0.218949768      -76.1198426      0.971025474      12.6443649       
85.93            0.971999712      12.4200719       0.21512659       -76.3554175      0.21512659       -76.3554175      0.971999712      12.4200719       
87.42            0.972927981      12.2027446       0.211419041      -76.583658       0.211419041      -76.583658       0.972927981      12.2027446       
88.91            0.973813098      11.9920592       0.207821935      -76.8049034      0.207821935      -76.8049034      0.973813098      11.9920592       
90.4             0.974657668      11.7877112       0.204330378      -77.0194727      0.204330378      -77.0194727      0.974657668      11.7877112       
91.89            0.975464107      11.589414        0.200939754      -77.2276659      0.200939754      -77.2276659      0.975464107      11.589414        
93.38            0.976234653      11.3968978       0.197645706      -77.4297657      0.197645706      -77.4297657      0.976234653      11.3968978       
94.87            0.976971386      11.2099083       0.194444115      -77.6260381      0.194444115      -77.6260381      0.976971386      11.2099083       
96.36            0.977676236      11.0282057       0.191331088      -77.8167343      0.191331088      -77.8167343      0.977676236      11.0282057       
97.85            0.978350999      10.8515637       0.188302942      -78.0020913      0.188302942      -78.0020913      0.978350999      10.8515637       
99.34            0.978997349      10.6797684       0.185356188      -78.1823328      0.185356188      -78.1823328      0.978997349      10.6797684       
100.83           0.979616844      10.5126177       0.182487525      -78.3576705      0.182487525      -78.3576705      0.979616844      10.5126177       
102.32           0.980210937      10.3499204       0.179693822      -78.5283044      0.179693822      -78.5283044      0.980210937      10.3499204       
103.81           0.980780987      10.1914955       0.176972107      -78.6944239      0.176972107      -78.6944239      0.980780987      10.1914955       
105.3            0.981328261      10.0371716       0.174319565      -78.8562083      0.174319565      -78.8562083      0.981328261      10.0371716       
106.79           0.981853947      9.88678612       0.171733517      -79.0138278      0.171733517      -79.0138278      0.981853947      9.88678612       
108.28           0.982359154      9.74018491       0.169211423      -79.1674436      0.169211423      -79.1674436      0.982359154      9.74018491       
109.77           0.982844922      9.59722167       0.166750864      -79.3172087      0.166750864      -79.3172087      0.982844922      9.59722167       
111.26           0.983312228      9.45775744       0.164349541      -79.4632683      0.164349541      -79.4632683      0.983312228      9.45775744       
112.75           0.983761986      9.32166017       0.162005268      -79.6057608      0.162005268      -79.6057608      0.983761986      9.32166017       
114.24           0.984195055      9.18880429       0.159715958      -79.7448172      0.159715958      -79.7448172      0.984195055      9.18880429       
115.73           0.984612243      9.05907033       0.157479629      -79.8805625      0.157479629      -79.8805625      0.984612243      9.05907033       
117.22           0.98501431       8.93234456       0.155294386      -80.0131155      0.155294386      -80.0131155      0.98501431       8.93234456       
118.71           0.985401969      8.80851864       0.153158426      -80.1425896      0.153158426      -80.1425896      0.985401969      8.80851864       
120.2            0.985775895      8.68748933       0.151070027      -80.2690926      0.151070027      -80.2690926      0.985775895      8.68748933       
121.69           0.986136721      8.56915816       0.149027543      -80.3927273      0.149027543      -80.3927273      0.986136721      8.56915816       
123.18           0.986485046      8.45343122       0.147029406      -80.5135918      0.147029406      -80.5135918      0.986485046      8.45343122       
124.67           0.986821433      8.34021883       0.145074114      -80.6317799      0.145074114      -80.6317799      0.986821433      8.34021883       
126.16           0.987146416      8.22943537       0.143160233      -80.7473808      0.143160233      -80.7473808      0.987146416      8.22943537       
127.65           0.987460499      8.12099902       0.141286391      -80.8604801      0.141286391      -80.8604801      0.987460499      8.12099902       
129.14           0.987764158      8.01483154       0.139451275      -80.9711593      0.139451275      -80.9711593      0.987764158      8.01483154       
130.63           0.988057842      7.91085814       0.137653627      -81.0794965      0.137653627      -81.0794965      0.988057842      7.91085814       
132.12           0.988341978      7.80900721       0.135892244      -81.1855664      0.135892244      -81.1855664      0.988341978      7.80900721       
133.61           0.98861697       7.70921023       0.134165972      -81.2894404      0.134165972      -81.2894404      0.98861697       7.70921023       
135.1            0.988883201      7.61140156       0.132473706      -81.391187       0.132473706      -81.391187       0.988883201      7.61140156       
136.59           0.989141034      7.5155183        0.130814386      -81.4908717      0.130814386      -81.4908717      0.989141034      7.5155183        
138.08           0.989390812      7.42150018       0.129186993      -81.5885573      0.129186993      -81.5885573      0.989390812      7.42150018       
139.57           0.989632862      7.32928936       0.127590552      -81.6843041      0.127590552      -81.6843041      0.989632862      7.32928936       
141.06           0.989867495      7.23883038       0.126024126      -81.7781697      0.126024126      -81.7781697      0.989867495      7.23883038       
142.55           0.990095006      7.15007          0.124486814      -81.8702096      0.124486814      -81.8702096      0.990095006      7.15007          
144.04           0.990315674      7.0629571        0.122977751      -81.9604769      0.122977751      -81.9604769      0.990315674      7.0629571        
145.53           0.990529767      6.97744259       0.121496105      -82.0490227      0.121496105      -82.0490227      0.990529767      6.97744259       
147.02           0.990737538      6.89347927       0.120041079      -82.135896       0.120041079      -82.135896       0.990737538      6.89347927       
148.51           0.990939228      6.81102179       0.118611901      -82.2211439      0.118611901      -82.2211439      0.990939228      6.81102179       
150              0.991135069      6.73002653       0.117207833      -82.3048117      0.117207833      -82.3048117      0.991135069      6.73002653       
151.49           0.991325278      6.65045154       0.115828162      -82.3869429      0.115828162      -82.3869429      0.991325278      6.65045154       
152.98           0.991510065      6.57225643       0.114472203      -82.4675793      0.114472203      -82.4675793      0.991510065      6.57225643       
154.47           0.99168963       6.49540233       0.113139294      -82.5467613      0.113139294      -82.5467613      0.99168963       6.49540233       
155.96           0.991864162      6.41985181       0.1118288        -82.6245275      0.1118288        -82.6245275      0.991864162      6.41985181       
157.45           0.992033844      6.34556881       0.110540106      -82.7009154      0.110540106      -82.7009154      0.992033844      6.34556881       
158.94           0.992198849      6.27251856       0.109272622      -82.7759607      0.109272622      -82.7759607      0.992198849      6.27251856       
160.43           0.992359342      6.20066758       0.108025776      -82.8496981      0.108025776      -82.8496981      0.992359342      6.20066758       
161.92           0.992515482      6.12998355       0.106799019      -82.922161       0.106799019      -82.922161       0.992515482      6.12998355       
163.41           0.99266742       6.06043532       0.10559182       -82.9933814      0.10559182       -82.9933814      0.99266742       6.06043532       
164.9            0.992815302      5.99199281       0.104403665      -83.0633903      0.104403665      -83.0633903      0.992815302      5.99199281       
166.39           0.992959266      5.92462702       0.103234059      -83.1322175      0.103234059      -83.1322175      0.992959266      5.92462702       
167.88           0.993099445      5.85830991       0.102082525      -83.199892       0.102082525      -83.199892       0.993099445      5.85830991       
169.37           0.993235966      5.79301443       0.1009486        -83.2664413      0.1009486        -83.2664413      0.993235966      5.79301443       
170.86           0.99336895       5.72871444       0.0998318385     -83.3318924      0.0998318385     -83.3318924      0.99336895       5.72871444       
172.35           0.993498515      5.66538467       0.0987318077     -83.396271       0.0987318077     -83.396271       0.993498515      5.66538467       
173.84           0.993624772      5.60300071       0.0976480905     -83.4596022      0.0976480905     -83.4596022      0.993624772      5.60300071       
175.33           0.993747828      5.54153895       0.0965802832     -83.5219101      0.0965802832     -83.5219101      0.993747828      5.54153895       
176.82           0.993867788      5.48097655       0.0955279953     -83.5832178      0.0955279953     -83.5832178      0.993867788      5.48097655       
178.31           0.993984748      5.42129142       0.0944908486     -83.643548       0.0944908486     -83.643548       0.993984748      5.42129142       
179.8            0.994098805      5.36246219       0.0934684773     -83.7029222      0.0934684773     -83.7029222      0.994098805      5.36246219       
181.29           0.99421005       5.30446816       0.0924605271     -83.7613616      0.0924605271     -83.7613616      0.99421005       5.30446816       
182.78           0.994318569      5.24728932       0.0914666548     -83.8188863      0.0914666548     -83.8188863      0.994318569      5.24728932       
184.27           0.994424448      5.19090625       0.0904865279     -83.8755159      0.0904865279     -83.8755159      0.994424448      5.19090625       
185.76           0.994527766      5.13530017       0.0895198245     -83.9312694      0.0895198245     -83.9312694      0.994527766      5.13530017       
187.25           0.994628602      5.08045287       0.0885662323     -83.9861651      0.0885662323     -83.9861651      0.994628602      5.08045287       
188.74           0.994727031      5.02634671       0.0876254488     -84.0402207      0.0876254488     -84.0402207      0.994727031      5.02634671       
190.23           0.994823124      4.97296459       0.0866971804     -84.0934533      0.0866971804     -84.0934533      0.994823124      4.97296459       
