! Coilcraft 1008CS-101 Chip Inductor				
! 02 July 2002			
# MHZ S MA R 50
!Freq             MagS11           AngS11           MagS21           AngS21           MagS12           AngS12           MagS22           AngS22
1                0.00952455918    40.5563201       0.992782867      -0.357404333     0.992782867      -0.357404333     0.00952455918    40.5563201       
4.99             0.0322635967     72.5548885       0.990805835      -1.78019344      0.990805835      -1.78019344      0.0322635967     72.5548885       
8.98             0.0566199199     77.0017986       0.988805268      -3.19840733      0.988805268      -3.19840733      0.0566199199     77.0017986       
12.97            0.0810568436     78.0459293       0.986403571      -4.61110321      0.986403571      -4.61110321      0.0810568436     78.0459293       
16.96            0.105395257      78.0109441       0.983525156      -6.01698326      0.983525156      -6.01698326      0.105395257      78.0109441       
20.95            0.129560151      77.4967996       0.980146828      -7.41467199      0.980146828      -7.41467199      0.129560151      77.4967996       
24.94            0.153500275      76.7299776       0.976264956      -8.80278939      0.976264956      -8.80278939      0.153500275      76.7299776       
28.93            0.177173371      75.8159663       0.97188593       -10.1799843      0.97188593       -10.1799843      0.177173371      75.8159663       
32.92            0.200542168      74.8110947       0.967022305      -11.5449545      0.967022305      -11.5449545      0.200542168      74.8110947       
36.91            0.223573073      73.7485192       0.961690885      -12.8964598      0.961690885      -12.8964598      0.223573073      73.7485192       
40.9             0.246235705      72.6492451       0.955911576      -14.2333319      0.955911576      -14.2333319      0.246235705      72.6492451       
44.89            0.26850273       71.5273686       0.949706617      -15.5544817      0.949706617      -15.5544817      0.26850273       71.5273686       
48.88            0.290349797      70.392794        0.943100002      -16.8589043      0.943100002      -16.8589043      0.290349797      70.392794        
52.87            0.311755501      69.2527433       0.936117006      -18.1456822      0.936117006      -18.1456822      0.311755501      69.2527433       
56.86            0.332701348      68.1126415       0.928783793      -19.4139881      0.928783793      -19.4139881      0.332701348      68.1126415       
60.85            0.353171689      66.9766613       0.921127066      -20.6630848      0.921127066      -20.6630848      0.353171689      66.9766613       
64.84            0.373153651      65.848071        0.913173765      -21.8923257      0.913173765      -21.8923257      0.373153651      65.848071        
68.83            0.39263703       64.7294658       0.904950799      -23.1011527      0.904950799      -23.1011527      0.39263703       64.7294658       
72.82            0.411614172      63.622925        0.896484808      -24.2890949      0.896484808      -24.2890949      0.411614172      63.622925        
76.81            0.430079835      62.5301236       0.88780196       -25.4557651      0.88780196       -25.4557651      0.430079835      62.5301236       
80.8             0.448031039      61.4524119       0.878927777      -26.6008565      0.878927777      -26.6008565      0.448031039      61.4524119       
84.79            0.465466902      60.3908757       0.869886981      -27.7241389      0.869886981      -27.7241389      0.465466902      60.3908757       
88.78            0.482388475      59.3463815       0.860703378      -28.8254545      0.860703378      -28.8254545      0.482388475      59.3463815       
92.77            0.498798566      58.3196113       0.851399756      -29.904713       0.851399756      -29.904713       0.498798566      58.3196113       
96.76            0.514701574      57.3110908       0.841997813      -30.961887       0.841997813      -30.961887       0.514701574      57.3110908       
100.75           0.530103313      56.3212126       0.832518098      -31.9970073      0.832518098      -31.9970073      0.530103313      56.3212126       
104.74           0.545010852      55.350254        0.82297998       -33.0101581      0.82297998       -33.0101581      0.545010852      55.350254        
108.73           0.559432351      54.3983935       0.813401626      -34.0014719      0.813401626      -34.0014719      0.559432351      54.3983935       
112.72           0.573376914      53.4657238       0.803799996      -34.971125       0.803799996      -34.971125       0.573376914      53.4657238       
116.71           0.586854442      52.552263        0.794190852      -35.9193332      0.794190852      -35.9193332      0.586854442      52.552263        
120.7            0.599875501      51.6579654       0.784588779      -36.8463469      0.784588779      -36.8463469      0.599875501      51.6579654       
124.69           0.612451197      50.7827292       0.775007205      -37.7524473      0.775007205      -37.7524473      0.612451197      50.7827292       
128.68           0.624593063      49.9264048       0.765458447      -38.6379425      0.765458447      -38.6379425      0.624593063      49.9264048       
132.67           0.636312955      49.0888015       0.755953742      -39.5031634      0.755953742      -39.5031634      0.636312955      49.0888015       
136.66           0.647622957      48.2696932       0.7465033        -40.348461       0.7465033        -40.348461       0.647622957      48.2696932       
140.65           0.658535296      47.4688242       0.737116346      -41.1742022      0.737116346      -41.1742022      0.658535296      47.4688242       
144.64           0.66906227       46.6859135       0.727801177      -41.9807677      0.727801177      -41.9807677      0.66906227       46.6859135       
148.63           0.679216177      45.920659        0.71856521       -42.7685488      0.71856521       -42.7685488      0.679216177      45.920659        
152.62           0.68900926       45.1727418       0.709415036      -43.5379454      0.709415036      -43.5379454      0.68900926       45.1727418       
156.61           0.698453657      44.4418289       0.700356475      -44.289363       0.700356475      -44.289363       0.698453657      44.4418289       
160.6            0.707561351      43.7275765       0.691394621      -45.0232114      0.691394621      -45.0232114      0.707561351      43.7275765       
164.59           0.716344142      43.0296325       0.682533902      -45.7399026      0.682533902      -45.7399026      0.716344142      43.0296325       
168.58           0.72481361       42.347639        0.67377812       -46.439849       0.67377812       -46.439849       0.72481361       42.347639        
172.57           0.73298109       41.6812338       0.665130506      -47.1234625      0.665130506      -47.1234625      0.73298109       41.6812338       
176.56           0.740857652      41.0300531       0.65659376       -47.7911524      0.65659376       -47.7911524      0.740857652      41.0300531       
180.55           0.748454083      40.393732        0.648170098      -48.4433252      0.648170098      -48.4433252      0.748454083      40.393732        
184.54           0.755780878      39.7719068       0.639861288      -49.0803829      0.639861288      -49.0803829      0.755780878      39.7719068       
188.53           0.762848224      39.1642156       0.631668695      -49.7027225      0.631668695      -49.7027225      0.762848224      39.1642156       
192.52           0.769665998      38.5702995       0.623593313      -50.3107353      0.623593313      -50.3107353      0.769665998      38.5702995       
196.51           0.776243765      37.9898037       0.6156358        -50.9048061      0.6156358        -50.9048061      0.776243765      37.9898037       
200.5            0.78259077       37.4223777       0.607796512      -51.485313       0.607796512      -51.485313       0.78259077       37.4223777       
204.49           0.788715944      36.8676765       0.600075529      -52.0526265      0.600075529      -52.0526265      0.788715944      36.8676765       
208.48           0.794627904      36.3253609       0.592472685      -52.6071096      0.592472685      -52.6071096      0.794627904      36.3253609       
212.47           0.800334955      35.7950979       0.584987594      -53.1491174      0.584987594      -53.1491174      0.800334955      35.7950979       
216.46           0.805845097      35.276561        0.577619671      -53.6789969      0.577619671      -53.6789969      0.805845097      35.276561        
220.45           0.81116603       34.7694306       0.570368158      -54.1970866      0.570368158      -54.1970866      0.81116603       34.7694306       
224.44           0.816305159      34.2733944       0.56323214       -54.7037169      0.56323214       -54.7037169      0.816305159      34.2733944       
228.43           0.821269603      33.7881471       0.556210565      -55.1992096      0.556210565      -55.1992096      0.821269603      33.7881471       
232.42           0.826066199      33.3133907       0.54930226       -55.6838781      0.54930226       -55.6838781      0.826066199      33.3133907       
236.41           0.830701516      32.8488349       0.542505949      -56.1580274      0.542505949      -56.1580274      0.830701516      32.8488349       
240.4            0.835181857      32.3941967       0.535820266      -56.6219541      0.535820266      -56.6219541      0.835181857      32.3941967       
244.39           0.83951327       31.9492004       0.529243763      -57.0759464      0.529243763      -57.0759464      0.83951327       31.9492004       
248.38           0.843701558      31.5135781       0.522774931      -57.5202845      0.522774931      -57.5202845      0.843701558      31.5135781       
252.37           0.847752285      31.0870689       0.516412203      -57.9552403      0.516412203      -57.9552403      0.847752285      31.0870689       
256.36           0.851670785      30.6694194       0.510153965      -58.381078       0.510153965      -58.381078       0.851670785      30.6694194       
260.35           0.855462172      30.2603833       0.503998568      -58.7980538      0.503998568      -58.7980538      0.855462172      30.2603833       
264.34           0.859131346      29.8597214       0.497944333      -59.2064162      0.497944333      -59.2064162      0.859131346      29.8597214       
268.33           0.862683004      29.4672014       0.491989558      -59.6064063      0.491989558      -59.6064063      0.862683004      29.4672014       
272.32           0.866121646      29.082598        0.486132526      -59.9982579      0.486132526      -59.9982579      0.866121646      29.082598        
276.31           0.869451582      28.7056924       0.480371508      -60.3821976      0.480371508      -60.3821976      0.869451582      28.7056924       
280.3            0.872676944      28.3362724       0.474704773      -60.7584449      0.474704773      -60.7584449      0.872676944      28.3362724       
284.29           0.875801688      27.9741323       0.469130587      -61.1272128      0.469130587      -61.1272128      0.875801688      27.9741323       
288.28           0.878829604      27.6190724       0.46364722       -61.4887074      0.46364722       -61.4887074      0.878829604      27.6190724       
292.27           0.881764325      27.2708993       0.458252949      -61.8431286      0.458252949      -61.8431286      0.881764325      27.2708993       
296.26           0.884609329      26.9294254       0.452946061      -62.1906698      0.452946061      -62.1906698      0.884609329      26.9294254       
300.25           0.88736795       26.5944689       0.447724859      -62.5315186      0.447724859      -62.5315186      0.88736795       26.5944689       
304.24           0.890043381      26.2658535       0.442587656      -62.8658564      0.442587656      -62.8658564      0.890043381      26.2658535       
308.23           0.892638682      25.9434086       0.437532788      -63.1938593      0.437532788      -63.1938593      0.892638682      25.9434086       
312.22           0.895156786      25.6269684       0.432558606      -63.5156976      0.432558606      -63.5156976      0.895156786      25.6269684       
316.21           0.897600503      25.3163727       0.427663487      -63.8315362      0.427663487      -63.8315362      0.897600503      25.3163727       
320.2            0.899972525      25.011466        0.422845826      -64.1415349      0.422845826      -64.1415349      0.899972525      25.011466        
324.19           0.902275436      24.7120977       0.418104044      -64.4458486      0.418104044      -64.4458486      0.902275436      24.7120977       
328.18           0.90451171       24.4181218       0.413436586      -64.744627       0.413436586      -64.744627       0.90451171       24.4181218       
332.17           0.906683719      24.129397        0.408841923      -65.0380154      0.408841923      -65.0380154      0.906683719      24.129397        
336.16           0.90879374       23.845786        0.404318551      -65.3261544      0.404318551      -65.3261544      0.90879374       23.845786        
340.15           0.910843955      23.5671561       0.399864993      -65.6091803      0.399864993      -65.6091803      0.910843955      23.5671561       
344.14           0.912836457      23.2933785       0.3954798        -65.8872249      0.3954798        -65.8872249      0.912836457      23.2933785       
348.13           0.914773255      23.0243286       0.391161549      -66.1604162      0.391161549      -66.1604162      0.914773255      23.0243286       
352.12           0.916656275      22.7598852       0.386908844      -66.428878       0.386908844      -66.428878       0.916656275      22.7598852       
356.11           0.918487368      22.4999313       0.382720318      -66.6927303      0.382720318      -66.6927303      0.918487368      22.4999313       
360.1            0.920268307      22.2443531       0.37859463       -66.9520895      0.37859463       -66.9520895      0.920268307      22.2443531       
364.09           0.922000798      21.9930406       0.374530468      -67.2070681      0.374530468      -67.2070681      0.922000798      21.9930406       
368.08           0.923686475      21.7458868       0.370526546      -67.4577754      0.370526546      -67.4577754      0.923686475      21.7458868       
372.07           0.925326911      21.5027883       0.366581606      -67.7043174      0.366581606      -67.7043174      0.925326911      21.5027883       
376.06           0.926923614      21.2636445       0.362694415      -67.9467966      0.362694415      -67.9467966      0.926923614      21.2636445       
380.05           0.928478036      21.0283582       0.358863771      -68.1853125      0.358863771      -68.1853125      0.928478036      21.0283582       
384.04           0.929991568      20.7968347       0.355088492      -68.4199616      0.355088492      -68.4199616      0.929991568      20.7968347       
388.03           0.931465549      20.5689825       0.351367429      -68.6508373      0.351367429      -68.6508373      0.931465549      20.5689825       
392.02           0.932901268      20.3447127       0.347699452      -68.8780306      0.347699452      -68.8780306      0.932901268      20.3447127       
396.01           0.934299961      20.123939        0.344083462      -69.1016292      0.344083462      -69.1016292      0.934299961      20.123939        
400              0.935662819      19.9065777       0.340518381      -69.3217185      0.340518381      -69.3217185      0.935662819      19.9065777       
403.99           0.936990985      19.6925475       0.337003157      -69.5383814      0.337003157      -69.5383814      0.936990985      19.6925475       
407.98           0.938285562      19.4817697       0.333536762      -69.7516982      0.333536762      -69.7516982      0.938285562      19.4817697       
411.97           0.939547608      19.2741677       0.330118192      -69.9617467      0.330118192      -69.9617467      0.939547608      19.2741677       
415.96           0.940778144      19.0696671       0.326746465      -70.1686027      0.326746465      -70.1686027      0.940778144      19.0696671       
419.95           0.94197815       18.8681959       0.323420622      -70.3723396      0.323420622      -70.3723396      0.94197815       18.8681959       
423.94           0.943148572      18.669684        0.320139727      -70.5730286      0.320139727      -70.5730286      0.943148572      18.669684        
427.93           0.944290319      18.4740634       0.316902865      -70.7707389      0.316902865      -70.7707389      0.944290319      18.4740634       
431.92           0.945404268      18.2812679       0.313709143      -70.9655377      0.313709143      -70.9655377      0.945404268      18.2812679       
435.91           0.946491264      18.0912334       0.310557689      -71.1574902      0.310557689      -71.1574902      0.946491264      18.0912334       
439.9            0.947552119      17.9038975       0.30744765       -71.3466598      0.30744765       -71.3466598      0.947552119      17.9038975       
443.89           0.948587618      17.7191996       0.304378194      -71.533108       0.304378194      -71.533108       0.948587618      17.7191996       
447.88           0.949598517      17.5370808       0.301348509      -71.7168946      0.301348509      -71.7168946      0.949598517      17.5370808       
451.87           0.950585543      17.3574838       0.298357802      -71.8980777      0.298357802      -71.8980777      0.950585543      17.3574838       
455.86           0.951549401      17.180353        0.295405296      -72.0767136      0.295405296      -72.0767136      0.951549401      17.180353        
459.85           0.952490767      17.0056342       0.292490236      -72.2528573      0.292490236      -72.2528573      0.952490767      17.0056342       
463.84           0.953410295      16.8332749       0.289611883      -72.426562       0.289611883      -72.426562       0.953410295      16.8332749       
467.83           0.954308616      16.6632239       0.286769515      -72.5978796      0.286769515      -72.5978796      0.954308616      16.6632239       
471.82           0.955186339      16.4954314       0.283962427      -72.7668603      0.283962427      -72.7668603      0.955186339      16.4954314       
475.81           0.956044051      16.329849        0.281189931      -72.9335533      0.281189931      -72.9335533      0.956044051      16.329849        
479.8            0.95688232       16.1664296       0.278451354      -73.098006       0.278451354      -73.098006       0.95688232       16.1664296       
483.79           0.957701693      16.0051273       0.275746041      -73.2602648      0.275746041      -73.2602648      0.957701693      16.0051273       
487.78           0.958502699      15.8458977       0.27307335       -73.4203748      0.27307335       -73.4203748      0.958502699      15.8458977       
491.77           0.95928585       15.6886972       0.270432655      -73.5783796      0.270432655      -73.5783796      0.95928585       15.6886972       
495.76           0.960051639      15.5334836       0.267823344      -73.7343221      0.267823344      -73.7343221      0.960051639      15.5334836       
499.75           0.960800544      15.3802159       0.26524482       -73.8882435      0.26524482       -73.8882435      0.960800544      15.3802159       
503.74           0.961533025      15.2288538       0.2626965        -74.0401843      0.2626965        -74.0401843      0.961533025      15.2288538       
507.73           0.962249529      15.0793585       0.260177812      -74.1901838      0.260177812      -74.1901838      0.962249529      15.0793585       
