! Coilcraft 1008CS-562 Chip Inductor				
! 02 July 2002			
# MHZ S MA R 50
!Freq             MagS11           AngS11           MagS21           AngS21           MagS12           AngS12           MagS22           AngS22
1                0.301417679      60.8098297       0.892661106      -17.1443947      0.892661106      -17.1443947      0.301417679      60.8098297       
1.25             0.364649967      58.794437        0.868971788      -21.0338033      0.868971788      -21.0338033      0.364649967      58.794437        
1.5              0.423251815      56.4083325       0.843087591      -24.720269       0.843087591      -24.720269       0.423251815      56.4083325       
1.75             0.476996919      53.8941857       0.815694886      -28.1938568      0.815694886      -28.1938568      0.476996919      53.8941857       
2                0.525889178      51.3763321       0.787424205      -31.4513334      0.787424205      -31.4513334      0.525889178      51.3763321       
2.25             0.570092379      48.9218998       0.758817862      -34.4949418      0.758817862      -34.4949418      0.570092379      48.9218998       
2.5              0.609874907      46.5671703       0.730318337      -37.3310774      0.730318337      -37.3310774      0.609874907      46.5671703       
2.75             0.645566032      44.3305798       0.702269945      -39.9690457      0.702269945      -39.9690457      0.645566032      44.3305798       
3                0.677522817      42.2198179       0.674928163      -42.4199981      0.674928163      -42.4199981      0.677522817      42.2198179       
3.25             0.70610647       40.2360006       0.64847256       -44.6960804      0.64847256       -44.6960804      0.70610647       40.2360006       
3.5              0.731666556      38.3762476       0.623020586      -46.8097876      0.623020586      -46.8097876      0.731666556      38.3762476       
3.75             0.754531319      36.6353244       0.598640625      -48.7735015      0.598640625      -48.7735015      0.754531319      36.6353244       
4                0.775002487      35.0067032       0.575363479      -50.5991774      0.575363479      -50.5991774      0.775002487      35.0067032       
4.25             0.793353217      33.4832517       0.553192         -52.2981458      0.553192         -52.2981458      0.793353217      33.4832517       
4.5              0.809828088      32.0576752       0.532108882      -53.8810008      0.532108882      -53.8810008      0.809828088      32.0576752       
4.75             0.824644363      30.7227962       0.512082804      -55.3575496      0.512082804      -55.3575496      0.824644363      30.7227962       
5                0.837993967      29.4717238       0.493073147      -56.7368055      0.493073147      -56.7368055      0.837993967      29.4717238       
5.25             0.850045792      28.2979509       0.475033563      -58.0270072      0.475033563      -58.0270072      0.850045792      28.2979509       
5.5              0.860948098      27.1954016       0.457914615      -59.235657       0.457914615      -59.235657       0.860948098      27.1954016       
5.75             0.870830843      26.1584482       0.441665695      -60.3695685      0.441665695      -60.3695685      0.870830843      26.1584482       
6                0.879807875      25.1819071       0.426236387      -61.4349184      0.426236387      -61.4349184      0.879807875      25.1819071       
6.25             0.88797893       24.2610224       0.411577411      -62.4373         0.411577411      -62.4373         0.88797893       24.2610224       
6.5              0.895431422      23.3914425       0.397641248      -63.3817758      0.397641248      -63.3817758      0.895431422      23.3914425       
6.75             0.902242039      22.5691926       0.384382539      -64.272927       0.384382539      -64.272927       0.902242039      22.5691926       
7                0.908478131      21.7906461       0.37175831       -65.1149005      0.37175831       -65.1149005      0.908478131      21.7906461       
7.25             0.914198935      21.0524955       0.359728076      -65.9114513      0.359728076      -65.9114513      0.914198935      21.0524955       
7.5              0.919456632      20.351725        0.348253863      -66.6659823      0.348253863      -66.6659823      0.919456632      20.351725        
7.75             0.924297265      19.6855839       0.337300163      -67.3815794      0.337300163      -67.3815794      0.924297265      19.6855839       
8                0.928761535      19.0515625       0.326833855      -68.0610437      0.326833855      -68.0610437      0.928761535      19.0515625       
8.25             0.932885486      18.4473689       0.316824099      -68.7069204      0.316824099      -68.7069204      0.932885486      18.4473689       
8.5              0.936701098      17.8709092       0.307242215      -69.3215243      0.307242215      -69.3215243      0.936701098      17.8709092       
8.75             0.9402368        17.3202681       0.298061555      -69.9069632      0.298061555      -69.9069632      0.9402368        17.3202681       
9                0.943517914      16.7936918       0.289257368      -70.4651581      0.289257368      -70.4651581      0.943517914      16.7936918       
9.25             0.946567034      16.2895733       0.280806677      -70.9978618      0.280806677      -70.9978618      0.946567034      16.2895733       
9.5              0.949404363      15.8064379       0.272688148      -71.5066753      0.272688148      -71.5066753      0.949404363      15.8064379       
9.75             0.952047998      15.342931        0.264881972      -71.9930621      0.264881972      -71.9930621      0.952047998      15.342931        
10               0.954514177      14.8978066       0.25736975       -72.4583616      0.25736975       -72.4583616      0.954514177      14.8978066       
10.25            0.956817502      14.4699179       0.250134388      -72.9038002      0.250134388      -72.9038002      0.956817502      14.4699179       
10.5             0.958971125      14.0582072       0.243159996      -73.3305023      0.243159996      -73.3305023      0.958971125      14.0582072       
10.75            0.96098691       13.6616987       0.236431794      -73.7394989      0.236431794      -73.7394989      0.96098691       13.6616987       
11               0.962875582      13.2794906       0.22993603       -74.1317363      0.22993603       -74.1317363      0.962875582      13.2794906       
11.25            0.964646851      12.9107485       0.223659894      -74.5080833      0.223659894      -74.5080833      0.964646851      12.9107485       
11.5             0.966309524      12.5546999       0.217591452      -74.8693376      0.217591452      -74.8693376      0.966309524      12.5546999       
11.75            0.967871598      12.2106283       0.211719573      -75.2162321      0.211719573      -75.2162321      0.967871598      12.2106283       
12               0.969340351      11.8778685       0.20603387       -75.54944        0.20603387       -75.54944        0.969340351      11.8778685       
12.25            0.970722412      11.5558026       0.200524643      -75.8695792      0.200524643      -75.8695792      0.970722412      11.5558026       
12.5             0.972023832      11.2438556       0.195182825      -76.177217       0.195182825      -76.177217       0.972023832      11.2438556       
12.75            0.973250142      10.941492        0.189999937      -76.4728735      0.189999937      -76.4728735      0.973250142      10.941492        
13               0.974406401      10.6482126       0.18496804       -76.7570253      0.18496804       -76.7570253      0.974406401      10.6482126       
13.25            0.975497247      10.3635515       0.180079698      -77.0301079      0.180079698      -77.0301079      0.975497247      10.3635515       
13.5             0.976526937      10.0870735       0.17532794       -77.2925191      0.17532794       -77.2925191      0.976526937      10.0870735       
13.75            0.977499382      9.81837165       0.170706225      -77.5446208      0.170706225      -77.5446208      0.977499382      9.81837165       
14               0.97841818       9.55706504       0.166208412      -77.7867414      0.166208412      -77.7867414      0.97841818       9.55706504       
14.25            0.979286646      9.30279682       0.161828731      -78.0191774      0.161828731      -78.0191774      0.979286646      9.30279682       
14.5             0.980107839      9.05523234       0.157561757      -78.2421951      0.157561757      -78.2421951      0.980107839      9.05523234       
14.75            0.980884583      8.81405755       0.153402383      -78.456032       0.153402383      -78.456032       0.980884583      8.81405755       
15               0.981619488      8.5789774        0.149345802      -78.6608978      0.149345802      -78.6608978      0.981619488      8.5789774        
15.25            0.982314972      8.3497145        0.145387484      -78.8569758      0.145387484      -78.8569758      0.982314972      8.3497145        
15.5             0.982973275      8.12600784       0.141523157      -79.044423       0.141523157      -79.044423       0.982973275      8.12600784       
15.75            0.983596473      7.90761161       0.13774879       -79.2233712      0.13774879       -79.2233712      0.983596473      7.90761161       
16               0.984186496      7.69429413       0.134060577      -79.3939275      0.134060577      -79.3939275      0.984186496      7.69429413       
16.25            0.984745137      7.48583686       0.130454922      -79.556174       0.130454922      -79.556174       0.984745137      7.48583686       
16.5             0.985274066      7.28203353       0.126928426      -79.7101683      0.126928426      -79.7101683      0.985274066      7.28203353       
16.75            0.985774836      7.08268928       0.123477873      -79.8559434      0.123477873      -79.8559434      0.985774836      7.08268928       
17               0.986248897      6.88761988       0.120100219      -79.993507       0.120100219      -79.993507       0.986248897      6.88761988       
17.25            0.986697602      6.69665107       0.116792582      -80.1228415      0.116792582      -80.1228415      0.986697602      6.69665107       
17.5             0.987122213      6.50961787       0.113552231      -80.2439027      0.113552231      -80.2439027      0.987122213      6.50961787       
17.75            0.987523911      6.32636397       0.110376575      -80.3566196      0.110376575      -80.3566196      0.987523911      6.32636397       
18               0.987903801      6.14674124       0.10726316       -80.4608924      0.10726316       -80.4608924      0.987903801      6.14674124       
18.25            0.988262918      5.97060912       0.104209656      -80.5565918      0.104209656      -80.5565918      0.988262918      5.97060912       
18.5             0.988602233      5.79783424       0.101213849      -80.6435566      0.101213849      -80.6435566      0.988602233      5.79783424       
18.75            0.988922654      5.62828988       0.0982736387     -80.7215921      0.0982736387     -80.7215921      0.988922654      5.62828988       
19               0.989225036      5.46185566       0.0953870301     -80.7904675      0.0953870301     -80.7904675      0.989225036      5.46185566       
19.25            0.989510181      5.29841708       0.0925521263     -80.8499128      0.0925521263     -80.8499128      0.989510181      5.29841708       
19.5             0.989778843      5.13786521       0.0897671248     -80.899616       0.0897671248     -80.899616       0.989778843      5.13786521       
19.75            0.990031733      4.98009635       0.0870303119     -80.9392185      0.0870303119     -80.9392185      0.990031733      4.98009635       
20               0.99026952       4.8250117        0.0843400585     -80.9683112      0.0843400585     -80.9683112      0.99026952       4.8250117        
20.25            0.990492832      4.67251713       0.0816948155     -80.9864288      0.0816948155     -80.9864288      0.990492832      4.67251713       
20.5             0.990702264      4.52252287       0.0790931106     -80.9930439      0.0790931106     -80.9930439      0.990702264      4.52252287       
20.75            0.990898376      4.37494326       0.0765335441     -80.9875599      0.0765335441     -80.9875599      0.990898376      4.37494326       
21               0.991081697      4.22969655       0.0740147864     -80.9693023      0.0740147864     -80.9693023      0.991081697      4.22969655       
21.25            0.991252728      4.08670466       0.0715355747     -80.9375095      0.0715355747     -80.9375095      0.991252728      4.08670466       
21.5             0.991411942      3.94589299       0.0690947112     -80.8913208      0.0690947112     -80.8913208      0.991411942      3.94589299       
21.75            0.991559784      3.80719023       0.0666910603     -80.8297637      0.0666910603     -80.8297637      0.991559784      3.80719023       
22               0.99169668       3.67052816       0.0643235474     -80.7517375      0.0643235474     -80.7517375      0.99169668       3.67052816       
22.25            0.99182303       3.53584152       0.0619911573     -80.6559946      0.0619911573     -80.6559946      0.99182303       3.53584152       
22.5             0.991939213      3.40306784       0.0596929336     -80.5411188      0.0596929336     -80.5411188      0.991939213      3.40306784       
22.75            0.992045592      3.27214728       0.0574279778     -80.4054981      0.0574279778     -80.4054981      0.992045592      3.27214728       
23               0.992142507      3.14302253       0.0551954498     -80.2472933      0.0551954498     -80.2472933      0.992142507      3.14302253       
23.25            0.992230284      3.01563862       0.0529945684     -80.0643996      0.0529945684     -80.0643996      0.992230284      3.01563862       
23.5             0.992309231      2.88994287       0.0508246129     -79.8544         0.0508246129     -79.8544         0.992309231      2.88994287       
23.75            0.992379641      2.76588473       0.0486849252     -79.6145089      0.0486849252     -79.6145089      0.992379641      2.76588473       
24               0.992441794      2.6434157        0.0465749135     -79.3415025      0.0465749135     -79.3415025      0.992441794      2.6434157        
24.25            0.992495955      2.52248919       0.0444940568     -79.031634       0.0444940568     -79.031634       0.992495955      2.52248919       
24.5             0.992542376      2.40306048       0.0424419113     -78.6805268      0.0424419113     -78.6805268      0.992542376      2.40306048       
24.75            0.992581299      2.2850866        0.040418119      -78.2830425      0.040418119      -78.2830425      0.992581299      2.2850866        
25               0.992612953      2.16852622       0.0384224191     -77.8331136      0.0384224191     -77.8331136      0.992612953      2.16852622       
25.25            0.992637556      2.05333963       0.0364546625     -77.323532       0.0364546625     -77.323532       0.992637556      2.05333963       
25.5             0.992655317      1.93948863       0.0345148321     -76.745678       0.0345148321     -76.745678       0.992655317      1.93948863       
25.75            0.992666436      1.82693646       0.0326030683     -76.0891701      0.0326030683     -76.0891701      0.992666436      1.82693646       
26               0.992671103      1.71564774       0.0307197044     -75.3414105      0.0307197044     -75.3414105      0.992671103      1.71564774       
26.25            0.992669498      1.60558838       0.028865313      -74.4869871      0.028865313      -74.4869871      0.992669498      1.60558838       
26.5             0.992661797      1.49672559       0.0270407701     -73.5068811      0.0270407701     -73.5068811      0.992661797      1.49672559       
26.75            0.992648165      1.38902775       0.0252473422     -72.3774088      0.0252473422     -72.3774088      0.992648165      1.38902775       
27               0.992628761      1.28246437       0.023486808      -71.0687961      0.023486808      -71.0687961      0.992628761      1.28246437       
27.25            0.992603737      1.1770061        0.0217616286     -69.5432473      0.0217616286     -69.5432473      0.992603737      1.1770061        
27.5             0.992573238      1.07262458       0.0200751906     -67.7523223      0.0200751906     -67.7523223      0.992573238      1.07262458       
27.75            0.992537405      0.969292502      0.0184321557     -65.633388       0.0184321557     -65.633388       0.992537405      0.969292502      
28               0.99249637       0.866983475      0.0168389686     -63.1048867      0.0168389686     -63.1048867      0.99249637       0.866983475      
28.25            0.992450262      0.765672047      0.0153045983     -60.0602661      0.0153045983     -60.0602661      0.992450262      0.765672047      
28.5             0.992399205      0.665333633      0.0138416148     -56.3608707      0.0138416148     -56.3608707      0.992399205      0.665333633      
28.75            0.992343315      0.565944494      0.0124677136     -51.8294903      0.0124677136     -51.8294903      0.992343315      0.565944494      
29               0.992282706      0.467481691      0.0112077357     -46.2498103      0.0112077357     -46.2498103      0.992282706      0.467481691      
29.25            0.992217487      0.369923061      0.0100959267     -39.3845151      0.0100959267     -39.3845151      0.992217487      0.369923061      
29.5             0.992147762      0.273247177      0.00917730697    -31.0359484      0.00917730697    -31.0359484      0.992147762      0.273247177      
29.75            0.992073633      0.177433325      0.00850537611    -21.1746518      0.00850537611    -21.1746518      0.992073633      0.177433325      
30               0.991995194      0.0824614703     0.00813214021    -10.1114231      0.00813214021    -10.1114231      0.991995194      0.0824614703     
30.25            0.99191254       -0.0116877685    0.00809001176    1.43318124       0.00809001176    1.43318124       0.99191254       -0.0116877685    
30.5             0.991825759      -0.105033144     0.00837563574    12.5376226       0.00837563574    12.5376226       0.991825759      -0.105033144     
30.75            0.991734938      -0.197592808     0.00895020091    22.465646        0.00895020091    22.465646        0.991734938      -0.197592808     
31               0.991640159      -0.289384331     0.00975619253    30.8880757       0.00975619253    30.8880757       0.991640159      -0.289384331     
31.25            0.991541503      -0.380424729     0.0107358398     37.8228473       0.0107358398     37.8228473       0.991541503      -0.380424729     
31.5             0.991439046      -0.470730482     0.0118410733     43.4634098       0.0118410733     43.4634098       0.991439046      -0.470730482     
31.75            0.991332862      -0.560317555     0.0130355676     48.0470391       0.0130355676     48.0470391       0.991332862      -0.560317555     
32               0.991223024      -0.64920142      0.0142930731     51.7915911       0.0142930731     51.7915911       0.991223024      -0.64920142      
32.25            0.991109599      -0.737397072     0.0155949178     54.8760944       0.0155949178     54.8760944       0.991109599      -0.737397072     
32.5             0.990992655      -0.824919047     0.0169278214     57.4408137       0.0169278214     57.4408137       0.990992655      -0.824919047     
32.75            0.990872255      -0.911781442     0.0182822643     59.5935887       0.0182822643     59.5935887       0.990872255      -0.911781442     
