! Coilcraft 1008CS-391 Chip Inductor				
! 02 July 2002			
# MHZ S MA R 50
!Freq             MagS11           AngS11           MagS21           AngS21           MagS12           AngS12           MagS22           AngS22
1                0.027522505      57.3989627       0.985444065      -1.34821463      0.985444065      -1.34821463      0.027522505      57.3989627       
2.99             0.0719886567     72.5639762       0.980836839      -4.01529613      0.980836839      -4.01529613      0.0719886567     72.5639762       
4.98             0.117367456      74.3636025       0.9749393        -6.6572189       0.9749393        -6.6572189       0.117367456      74.3636025       
6.97             0.162190227      73.8091786       0.967396667      -9.2653427       0.967396667      -9.2653427       0.162190227      73.8091786       
8.96             0.206050078      72.4443727       0.958203634      -11.83081        0.958203634      -11.83081        0.206050078      72.4443727       
10.95            0.248685865      70.7252199       0.947450677      -14.3453579      0.947450677      -14.3453579      0.248685865      70.7252199       
12.94            0.289897958      68.8385662       0.93527337       -16.8016335      0.93527337       -16.8016335      0.289897958      68.8385662       
14.93            0.329531793      66.877105        0.921831804      -19.1933533      0.921831804      -19.1933533      0.329531793      66.877105        
16.92            0.367472641      64.8929126       0.907298437      -21.5153728      0.907298437      -21.5153728      0.367472641      64.8929126       
18.91            0.403642313      62.9177638       0.891849507      -23.7636951      0.891849507      -23.7636951      0.403642313      62.9177638       
20.9             0.437995804      60.9720842       0.875658567      -25.9354307      0.875658567      -25.9354307      0.437995804      60.9720842       
22.89            0.470517501      59.0693718       0.858891642      -28.0287236      0.858891642      -28.0287236      0.470517501      59.0693718       
24.88            0.501217077      57.2185931       0.841703756      -30.0426542      0.841703756      -30.0426542      0.501217077      57.2185931       
26.87            0.530125272      55.4255918       0.824236641      -31.9771279      0.824236641      -31.9771279      0.530125272      55.4255918       
28.86            0.557289763      53.693977        0.806617436      -33.8327581      0.806617436      -33.8327581      0.557289763      53.693977        
30.85            0.5827713        52.0257179       0.788958202      -35.6107507      0.788958202      -35.6107507      0.5827713        52.0257179       
32.84            0.606640218      50.4215631       0.771356066      -37.3127928      0.771356066      -37.3127928      0.606640218      50.4215631       
34.83            0.628973388      48.8813479       0.753893826      -38.9409511      0.753893826      -38.9409511      0.628973388      48.8813479       
36.82            0.649851624      47.4042255       0.736640887      -40.49758        0.736640887      -40.49758        0.649851624      47.4042255       
38.81            0.669357549      45.9888458       0.719654378      -41.9852414      0.719654378      -41.9852414      0.669357549      45.9888458       
40.8             0.687573872      44.6334935       0.702980389      -43.4066361      0.702980389      -43.4066361      0.687573872      44.6334935       
42.79            0.704582057      43.3361976       0.686655216      -44.7645453      0.686655216      -44.7645453      0.704582057      43.3361976       
44.78            0.720461301      42.0948166       0.670706595      -46.0617834      0.670706595      -46.0617834      0.720461301      42.0948166       
46.77            0.735287812      40.9071051       0.655154858      -47.3011593      0.655154858      -47.3011593      0.735287812      40.9071051       
48.76            0.749134299      39.7707666       0.640014017      -48.4854452      0.640014017      -48.4854452      0.749134299      39.7707666       
50.75            0.762069657      38.6834933       0.625292734      -49.6173536      0.625292734      -49.6173536      0.762069657      38.6834933       
52.74            0.774158804      37.6429972       0.610995201      -50.6995192      0.610995201      -50.6995192      0.774158804      37.6429972       
54.73            0.785462622      36.647033        0.597121909      -51.7344857      0.597121909      -51.7344857      0.785462622      36.647033        
56.72            0.796037994      35.6934154       0.583670322      -52.7246973      0.583670322      -52.7246973      0.796037994      35.6934154       
58.71            0.805937901      34.7800309       0.570635456      -53.6724927      0.570635456      -53.6724927      0.805937901      34.7800309       
60.7             0.815211563      33.9048462       0.558010384      -54.5801026      0.558010384      -54.5801026      0.815211563      33.9048462       
62.69            0.823904614      33.0659137       0.545786657      -55.4496482      0.545786657      -55.4496482      0.823904614      33.0659137       
64.68            0.832059295      32.2613735       0.533954662      -56.2831426      0.533954662      -56.2831426      0.832059295      32.2613735       
66.67            0.839714655      31.4894554       0.522503924      -57.0824919      0.522503924      -57.0824919      0.839714655      31.4894554       
68.66            0.846906755      30.7484776       0.511423357      -57.849499       0.511423357      -57.849499       0.846906755      30.7484776       
70.65            0.853668877      30.0368456       0.500701472      -58.5858663      0.500701472      -58.5858663      0.853668877      30.0368456       
72.64            0.860031721      29.35305         0.490326545      -59.2932001      0.490326545      -59.2932001      0.860031721      29.35305         
74.63            0.866023594      28.6956635       0.480286758      -59.9730148      0.480286758      -59.9730148      0.866023594      28.6956635       
76.62            0.871670596      28.0633378       0.470570309      -60.6267372      0.470570309      -60.6267372      0.871670596      28.0633378       
78.61            0.876996791      27.4548          0.461165504      -61.2557111      0.461165504      -61.2557111      0.876996791      27.4548          
80.6             0.882024365      26.8688493       0.452060827      -61.8612017      0.452060827      -61.8612017      0.882024365      26.8688493       
82.59            0.886773782      26.3043532       0.443244993      -62.4443999      0.443244993      -62.4443999      0.886773782      26.3043532       
84.58            0.89126392       25.7602439       0.434706994      -63.0064268      0.434706994      -63.0064268      0.89126392       25.7602439       
86.57            0.8955122        25.2355148       0.426436126      -63.5483376      0.426436126      -63.5483376      0.8955122        25.2355148       
88.56            0.899534708      24.7292171       0.418422014      -64.0711257      0.418422014      -64.0711257      0.899534708      24.7292171       
90.55            0.903346303      24.2404563       0.410654627      -64.5757264      0.410654627      -64.5757264      0.903346303      24.2404563       
92.54            0.906960718      23.7683891       0.403124283      -65.0630204      0.403124283      -65.0630204      0.906960718      23.7683891       
94.53            0.910390651      23.3122203       0.395821658      -65.5338374      0.395821658      -65.5338374      0.910390651      23.3122203       
96.52            0.913647855      22.8711999       0.388737784      -65.9889592      0.388737784      -65.9889592      0.913647855      22.8711999       
98.51            0.916743209      22.4446205       0.381864046      -66.4291226      0.381864046      -66.4291226      0.916743209      22.4446205       
100.5            0.919686795      22.0318144       0.375192177      -66.8550225      0.375192177      -66.8550225      0.919686795      22.0318144       
102.49           0.922487959      21.6321513       0.368714251      -67.2673143      0.368714251      -67.2673143      0.922487959      21.6321513       
104.48           0.925155372      21.2450362       0.362422675      -67.6666164      0.362422675      -67.6666164      0.925155372      21.2450362       
106.47           0.927697085      20.8699067       0.356310177      -68.0535129      0.356310177      -68.0535129      0.927697085      20.8699067       
108.46           0.930120578      20.5062314       0.3503698        -68.4285553      0.3503698        -68.4285553      0.930120578      20.5062314       
110.45           0.932432805      20.153508        0.344594886      -68.7922648      0.344594886      -68.7922648      0.932432805      20.153508        
112.44           0.934640236      19.8112613       0.33897907       -69.1451342      0.33897907       -69.1451342      0.934640236      19.8112613       
114.43           0.936748895      19.4790416       0.333516263      -69.4876295      0.333516263      -69.4876295      0.936748895      19.4790416       
116.42           0.938764396      19.156423        0.328200646      -69.8201919      0.328200646      -69.8201919      0.938764396      19.156423        
118.41           0.940691972      18.8430023       0.323026657      -70.143239       0.323026657      -70.143239       0.940691972      18.8430023       
120.4            0.942536507      18.5383974       0.317988977      -70.4571664      0.317988977      -70.4571664      0.942536507      18.5383974       
122.39           0.94430256       18.2422459       0.313082524      -70.7623489      0.313082524      -70.7623489      0.94430256       18.2422459       
124.38           0.945994391      17.9542042       0.308302439      -71.0591422      0.308302439      -71.0591422      0.945994391      17.9542042       
126.37           0.947615985      17.673946        0.303644078      -71.3478835      0.303644078      -71.3478835      0.947615985      17.673946        
128.36           0.94917107       17.4011618       0.299103         -71.6288929      0.299103         -71.6288929      0.94917107       17.4011618       
130.35           0.950663135      17.1355574       0.29467496       -71.9024744      0.29467496       -71.9024744      0.950663135      17.1355574       
132.34           0.95209545       16.8768533       0.290355897      -72.1689168      0.290355897      -72.1689168      0.95209545       16.8768533       
134.33           0.953471084      16.6247835       0.286141928      -72.4284948      0.286141928      -72.4284948      0.953471084      16.6247835       
136.32           0.954792911      16.3790954       0.282029338      -72.6814693      0.282029338      -72.6814693      0.954792911      16.3790954       
138.31           0.956063634      16.1395483       0.278014571      -72.9280889      0.278014571      -72.9280889      0.956063634      16.1395483       
140.3            0.957285789      15.9059129       0.274094227      -73.1685901      0.274094227      -73.1685901      0.957285789      15.9059129       
142.29           0.958461761      15.6779712       0.270265047      -73.403198       0.270265047      -73.403198       0.958461761      15.6779712       
144.28           0.959593796      15.4555151       0.266523914      -73.6321272      0.266523914      -73.6321272      0.959593796      15.4555151       
146.27           0.960684004      15.2383462       0.262867842      -73.8555825      0.262867842      -73.8555825      0.960684004      15.2383462       
148.26           0.961734374      15.0262753       0.259293969      -74.0737588      0.259293969      -74.0737588      0.961734374      15.0262753       
150.25           0.962746782      14.819122        0.255799554      -74.2868423      0.255799554      -74.2868423      0.962746782      14.819122        
152.24           0.963722993      14.6167138       0.252381969      -74.4950107      0.252381969      -74.4950107      0.963722993      14.6167138       
154.23           0.964664677      14.4188862       0.249038696      -74.6984338      0.249038696      -74.6984338      0.964664677      14.4188862       
156.22           0.965573407      14.2254816       0.245767317      -74.8972736      0.245767317      -74.8972736      0.965573407      14.2254816       
158.21           0.96645067       14.0363499       0.242565516      -75.0916851      0.242565516      -75.0916851      0.96645067       14.0363499       
160.2            0.967297872      13.851347        0.239431068      -75.2818165      0.239431068      -75.2818165      0.967297872      13.851347        
162.19           0.968116342      13.6703354       0.23636184       -75.4678096      0.23636184       -75.4678096      0.968116342      13.6703354       
164.18           0.968907337      13.4931834       0.233355781      -75.6497999      0.233355781      -75.6497999      0.968907337      13.4931834       
166.17           0.969672047      13.3197647       0.230410924      -75.8279174      0.230410924      -75.8279174      0.969672047      13.3197647       
168.16           0.970411601      13.1499587       0.227525378      -76.0022864      0.227525378      -76.0022864      0.970411601      13.1499587       
170.15           0.971127067      12.9836494       0.224697326      -76.1730262      0.224697326      -76.1730262      0.971127067      12.9836494       
172.14           0.971819457      12.8207258       0.221925021      -76.3402509      0.221925021      -76.3402509      0.971819457      12.8207258       
174.13           0.972489734      12.6610815       0.219206785      -76.5040701      0.219206785      -76.5040701      0.972489734      12.6610815       
176.12           0.973138808      12.5046143       0.216541003      -76.6645888      0.216541003      -76.6645888      0.973138808      12.5046143       
178.11           0.973767546      12.3512262       0.213926121      -76.821908       0.213926121      -76.821908       0.973767546      12.3512262       
180.1            0.974376772      12.2008231       0.211360644      -76.9761242      0.211360644      -76.9761242      0.974376772      12.2008231       
182.09           0.974967266      12.0533144       0.208843133      -77.1273306      0.208843133      -77.1273306      0.974967266      12.0533144       
184.08           0.975539772      11.9086135       0.206372203      -77.2756163      0.206372203      -77.2756163      0.975539772      11.9086135       
186.07           0.976094999      11.7666367       0.203946518      -77.4210672      0.203946518      -77.4210672      0.976094999      11.7666367       
188.06           0.976633619      11.6273037       0.201564794      -77.5637658      0.201564794      -77.5637658      0.976633619      11.6273037       
190.05           0.977156273      11.4905375       0.199225791      -77.7037912      0.199225791      -77.7037912      0.977156273      11.4905375       
192.04           0.977663572      11.3562636       0.196928316      -77.8412199      0.196928316      -77.8412199      0.977663572      11.3562636       
194.03           0.978156099      11.2244106       0.194671216      -77.9761251      0.194671216      -77.9761251      0.978156099      11.2244106       
196.02           0.978634408      11.0949097       0.192453381      -78.1085776      0.192453381      -78.1085776      0.978634408      11.0949097       
198.01           0.979099028      10.9676944       0.19027374       -78.2386454      0.19027374       -78.2386454      0.979099028      10.9676944       
200              0.979550465      10.8427011       0.18813126       -78.3663939      0.18813126       -78.3663939      0.979550465      10.8427011       
201.99           0.979989201      10.719868        0.186024941      -78.4918863      0.186024941      -78.4918863      0.979989201      10.719868        
203.98           0.980415696      10.5991359       0.183953822      -78.6151834      0.183953822      -78.6151834      0.980415696      10.5991359       
205.97           0.98083039       10.4804476       0.181916971      -78.7363439      0.181916971      -78.7363439      0.98083039       10.4804476       
207.96           0.981233704      10.3637478       0.179913491      -78.8554243      0.179913491      -78.8554243      0.981233704      10.3637478       
209.95           0.981626038      10.2489834       0.177942512      -78.972479       0.177942512      -78.972479       0.981626038      10.2489834       
211.94           0.982007779      10.1361029       0.176003197      -79.0875608      0.176003197      -79.0875608      0.982007779      10.1361029       
213.93           0.982379293      10.0250567       0.174094732      -79.2007203      0.174094732      -79.2007203      0.982379293      10.0250567       
215.92           0.982740933      9.91579684       0.172216335      -79.3120067      0.172216335      -79.3120067      0.982740933      9.91579684       
217.91           0.983093036      9.80827712       0.170367247      -79.4214671      0.170367247      -79.4214671      0.983093036      9.80827712       
219.9            0.983435925      9.70245281       0.168546734      -79.5291474      0.168546734      -79.5291474      0.983435925      9.70245281       
221.89           0.983769908      9.59828066       0.166754085      -79.6350916      0.166754085      -79.6350916      0.983769908      9.59828066       
223.88           0.984095283      9.49571891       0.164988615      -79.7393425      0.164988615      -79.7393425      0.984095283      9.49571891       
225.87           0.984412334      9.39472714       0.163249656      -79.8419412      0.163249656      -79.8419412      0.984412334      9.39472714       
227.86           0.984721334      9.29526628       0.161536566      -79.9429277      0.161536566      -79.9429277      0.984721334      9.29526628       
229.85           0.985022544      9.19729852       0.15984872       -80.0423404      0.15984872       -80.0423404      0.985022544      9.19729852       
231.84           0.985316215      9.10078726       0.158185514      -80.1402168      0.158185514      -80.1402168      0.985316215      9.10078726       
233.83           0.985602588      9.0056971        0.156546362      -80.2365927      0.156546362      -80.2365927      0.985602588      9.0056971        
235.82           0.985881895      8.91199373       0.154930697      -80.3315031      0.154930697      -80.3315031      0.985881895      8.91199373       
237.81           0.986154359      8.81964396       0.153337969      -80.4249819      0.153337969      -80.4249819      0.986154359      8.81964396       
239.8            0.986420192      8.72861559       0.151767644      -80.5170617      0.151767644      -80.5170617      0.986420192      8.72861559       
241.79           0.986679601      8.63887748       0.150219205      -80.6077741      0.150219205      -80.6077741      0.986679601      8.63887748       
243.78           0.986932783      8.5503994        0.14869215       -80.6971498      0.14869215       -80.6971498      0.986932783      8.5503994        
245.77           0.987179927      8.46315208       0.147185992      -80.7852186      0.147185992      -80.7852186      0.987179927      8.46315208       
247.76           0.987421218      8.37710713       0.145700259      -80.8720091      0.145700259      -80.8720091      0.987421218      8.37710713       
249.75           0.98765683       8.29223701       0.144234493      -80.9575493      0.144234493      -80.9575493      0.98765683       8.29223701       
251.74           0.987886933      8.208515         0.142788248      -81.0418662      0.142788248      -81.0418662      0.987886933      8.208515         
253.73           0.98811169       8.12591521       0.141361093      -81.1249859      0.141361093      -81.1249859      0.98811169       8.12591521       
