! Coilcraft 1008CS-152 Chip Inductor				
! 02 July 2002			
# MHZ S MA R 50
!Freq             MagS11           AngS11           MagS21           AngS21           MagS12           AngS12           MagS22           AngS22
1                0.0988975138     61.9269799       0.957444036      -5.22923168      0.957444036      -5.22923168      0.0988975138     61.9269799       
1.75             0.163130904      65.6318627       0.944455794      -9.05237584      0.944455794      -9.05237584      0.163130904      65.6318627       
2.5              0.225881888      65.3550736       0.928784162      -12.7706131      0.928784162      -12.7706131      0.225881888      65.3550736       
3.25             0.285950111      63.7668534       0.910479737      -16.3627356      0.910479737      -16.3627356      0.285950111      63.7668534       
4                0.34272224       61.6451641       0.889898831      -19.811021       0.889898831      -19.811021       0.34272224       61.6451641       
4.75             0.395845442      59.3047091       0.867500658      -23.102334       0.867500658      -23.102334       0.395845442      59.3047091       
5.5              0.445147823      56.8981618       0.843765642      -26.228262       0.843765642      -26.228262       0.445147823      56.8981618       
6.25             0.490597386      54.5076175       0.819151572      -29.1847618      0.819151572      -29.1847618      0.490597386      54.5076175       
7                0.532269124      52.1794527       0.794069147      -31.9715491      0.794069147      -31.9715491      0.532269124      52.1794527       
7.75             0.570315727      49.9399714       0.768870089      -34.5913824      0.768870089      -34.5913824      0.570315727      49.9399714       
8.5              0.604942071      47.8033765       0.743843828      -37.0493415      0.743843828      -37.0493415      0.604942071      47.8033765       
9.25             0.636384075      45.7762555       0.719219777      -39.3521659      0.719219777      -39.3521659      0.636384075      45.7762555       
10               0.664892108      43.8603018       0.695172912      -41.5076861      0.695172912      -41.5076861      0.664892108      43.8603018       
10.75            0.690718635      42.0540569       0.671830961      -43.5243591      0.671830961      -43.5243591      0.690718635      42.0540569       
11.5             0.714109543      40.354066        0.649282022      -45.4109055      0.649282022      -45.4109055      0.714109543      40.354066        
12.25            0.735298453      38.7556599       0.6275819        -47.1760371      0.6275819        -47.1760371      0.735298453      38.7556599       
13               0.754503331      37.2534896       0.60676073       -48.8282623      0.60676073       -48.8282623      0.754503331      37.2534896       
13.75            0.771924806      35.8418902       0.586828719      -50.3757529      0.586828719      -50.3757529      0.771924806      35.8418902       
14.5             0.787745684      34.5151278       0.567780965      -51.8262596      0.567780965      -51.8262596      0.787745684      34.5151278       
15.25            0.80213127       33.2675627       0.549601409      -53.1870637      0.549601409      -53.1870637      0.80213127       33.2675627       
16               0.815230199      32.0937545       0.532266002      -54.4649572      0.532266002      -54.4649572      0.815230199      32.0937545       
16.75            0.827175567      30.9885262       0.515745211      -55.6662401      0.515745211      -55.6662401      0.827175567      30.9885262       
17.5             0.838086204      29.9469997       0.500005965      -56.7967322      0.500005965      -56.7967322      0.838086204      29.9469997       
18.25            0.848067991      28.9646109       0.485013138      -57.8617934      0.485013138      -57.8617934      0.848067991      28.9646109       
19               0.857215152      28.0371128       0.470730682      -58.8663486      0.470730682      -58.8663486      0.857215152      28.0371128       
19.75            0.865611481      27.1605677       0.457122451      -59.8149162      0.457122451      -59.8149162      0.865611481      27.1605677       
20.5             0.873331486      26.3313357       0.444152809      -60.7116372      0.444152809      -60.7116372      0.873331486      26.3313357       
21.25            0.880441432      25.5460582       0.431787058      -61.5603046      0.431787058      -61.5603046      0.880441432      25.5460582       
22               0.887000278      24.801641        0.419991731      -62.3643918      0.419991731      -62.3643918      0.887000278      24.801641        
22.75            0.893060531      24.0952353       0.408734776      -63.1270794      0.408734776      -63.1270794      0.893060531      24.0952353       
23.5             0.898668986      23.42422         0.397985674      -63.851281       0.397985674      -63.851281       0.898668986      23.42422         
24.25            0.903867404      22.7861835       0.387715486      -64.5396666      0.387715486      -64.5396666      0.903867404      22.7861835       
25               0.908693091      22.178907        0.377896869      -65.1946842      0.377896869      -65.1946842      0.908693091      22.178907        
25.75            0.913179421      21.6003484       0.368504053      -65.8185805      0.368504053      -65.8185805      0.913179421      21.6003484       
26.5             0.917356291      21.0486273       0.359512799      -66.4134183      0.359512799      -66.4134183      0.917356291      21.0486273       
27.25            0.921250523      20.5220113       0.350900347      -66.981094       0.350900347      -66.981094       0.921250523      20.5220113       
28               0.924886211      20.0189034       0.342645347      -67.523352       0.342645347      -67.523352       0.924886211      20.0189034       
28.75            0.928285037      19.53783         0.334727791      -68.0417989      0.334727791      -68.0417989      0.928285037      19.53783         
29.5             0.931466538      19.0774305       0.327128938      -68.5379156      0.327128938      -68.5379156      0.931466538      19.0774305       
30.25            0.934448345      18.6364476       0.319831241      -69.0130688      0.319831241      -69.0130688      0.934448345      18.6364476       
31               0.937246394      18.2137182       0.312818273      -69.468521       0.312818273      -69.468521       0.937246394      18.2137182       
31.75            0.939875112      17.8081653       0.306074659      -69.9054394      0.306074659      -69.9054394      0.939875112      17.8081653       
32.5             0.942347574      17.4187911       0.299586001      -70.3249049      0.299586001      -70.3249049      0.942347574      17.4187911       
33.25            0.944675653      17.0446699       0.293338822      -70.7279188      0.293338822      -70.7279188      0.944675653      17.0446699       
34               0.946870144      16.684942        0.287320495      -71.1154101      0.287320495      -71.1154101      0.946870144      16.684942        
34.75            0.948940873      16.3388089       0.281519194      -71.4882416      0.281519194      -71.4882416      0.948940873      16.3388089       
35.5             0.950896804      16.0055272       0.27592383       -71.8472153      0.27592383       -71.8472153      0.950896804      16.0055272       
36.25            0.952746116      15.684405        0.270524008      -72.1930775      0.270524008      -72.1930775      0.952746116      15.684405        
37               0.95449629       15.3747973       0.265309974      -72.5265232      0.265309974      -72.5265232      0.95449629       15.3747973       
37.75            0.956154175      15.0761023       0.260272573      -72.8482006      0.260272573      -72.8482006      0.956154175      15.0761023       
38.5             0.957726047      14.7877583       0.255403205      -73.1587148      0.255403205      -73.1587148      0.957726047      14.7877583       
39.25            0.95921767       14.5092398       0.250693791      -73.4586308      0.250693791      -73.4586308      0.95921767       14.5092398       
40               0.960634338      14.2400558       0.246136734      -73.7484772      0.246136734      -73.7484772      0.960634338      14.2400558       
40.75            0.961980924      13.9797459       0.241724885      -74.0287485      0.241724885      -74.0287485      0.961980924      13.9797459       
41.5             0.963261916      13.7278792       0.237451516      -74.2999082      0.237451516      -74.2999082      0.963261916      13.7278792       
42.25            0.964481454      13.4840512       0.233310289      -74.5623908      0.233310289      -74.5623908      0.964481454      13.4840512       
43               0.965643361      13.2478821       0.22929523       -74.8166041      0.22929523       -74.8166041      0.965643361      13.2478821       
43.75            0.96675117       13.0190154       0.225400705      -75.062931       0.225400705      -75.062931       0.96675117       13.0190154       
44.5             0.967808153      12.7971155       0.221621396      -75.3017316      0.221621396      -75.3017316      0.967808153      12.7971155       
45.25            0.968817338      12.5818668       0.217952284      -75.5333447      0.217952284      -75.5333447      0.968817338      12.5818668       
46               0.969781535      12.3729719       0.214388624      -75.7580893      0.214388624      -75.7580893      0.969781535      12.3729719       
46.75            0.970703352      12.1701507       0.210925931      -75.9762658      0.210925931      -75.9762658      0.970703352      12.1701507       
47.5             0.971585213      11.9731387       0.207559964      -76.1881577      0.207559964      -76.1881577      0.971585213      11.9731387       
48.25            0.972429372      11.7816865       0.204286706      -76.3940327      0.204286706      -76.3940327      0.972429372      11.7816865       
49               0.973237928      11.5955584       0.201102354      -76.5941432      0.201102354      -76.5941432      0.973237928      11.5955584       
49.75            0.974012838      11.4145315       0.198003302      -76.7887281      0.198003302      -76.7887281      0.974012838      11.4145315       
50.5             0.974755925      11.2383951       0.194986134      -76.9780133      0.194986134      -76.9780133      0.974755925      11.2383951       
51.25            0.975468893      11.0669496       0.192047605      -77.1622124      0.192047605      -77.1622124      0.975468893      11.0669496       
52               0.976153335      10.9000059       0.189184638      -77.341528       0.189184638      -77.341528       0.976153335      10.9000059       
52.75            0.976810737      10.737385        0.186394308      -77.5161518      0.186394308      -77.5161518      0.976810737      10.737385        
53.5             0.977442494      10.5789169       0.183673836      -77.6862658      0.183673836      -77.6862658      0.977442494      10.5789169       
54.25            0.978049911      10.4244404       0.18102058       -77.8520427      0.18102058       -77.8520427      0.978049911      10.4244404       
55               0.978634211      10.2738022       0.178432026      -78.0136462      0.178432026      -78.0136462      0.978634211      10.2738022       
55.75            0.979196543      10.1268568       0.17590578       -78.1712323      0.17590578       -78.1712323      0.979196543      10.1268568       
56.5             0.979737983      9.98346587       0.173439563      -78.3249488      0.173439563      -78.3249488      0.979737983      9.98346587       
57.25            0.980259546      9.84349773       0.171031205      -78.4749367      0.171031205      -78.4749367      0.980259546      9.84349773       
58               0.980762182      9.70682706       0.168678633      -78.6213299      0.168678633      -78.6213299      0.980762182      9.70682706       
58.75            0.98124679       9.57333452       0.166379874      -78.764256       0.166379874      -78.764256       0.98124679       9.57333452       
59.5             0.981714211      9.44290637       0.164133042      -78.9038365      0.164133042      -78.9038365      0.981714211      9.44290637       
60.25            0.982165243      9.31543417       0.161936339      -79.0401874      0.161936339      -79.0401874      0.982165243      9.31543417       
61               0.982600634      9.19081448       0.159788045      -79.1734192      0.159788045      -79.1734192      0.982600634      9.19081448       
61.75            0.983021092      9.06894856       0.157686519      -79.3036373      0.157686519      -79.3036373      0.983021092      9.06894856       
62.5             0.983427284      8.94974212       0.155630191      -79.4309424      0.155630191      -79.4309424      0.983427284      8.94974212       
63.25            0.983819843      8.83310511       0.153617557      -79.5554306      0.153617557      -79.5554306      0.983819843      8.83310511       
64               0.984199365      8.71895141       0.151647181      -79.6771939      0.151647181      -79.6771939      0.984199365      8.71895141       
64.75            0.984566413      8.60719869       0.149717687      -79.79632        0.149717687      -79.79632        0.984566413      8.60719869       
65.5             0.984921523      8.49776819       0.147827757      -79.912893       0.147827757      -79.912893       0.984921523      8.49776819       
66.25            0.9852652        8.39058449       0.145976128      -80.0269932      0.145976128      -80.0269932      0.9852652        8.39058449       
67               0.985597922      8.2855754        0.144161591      -80.1386976      0.144161591      -80.1386976      0.985597922      8.2855754        
67.75            0.985920146      8.18267174       0.142382984      -80.2480799      0.142382984      -80.2480799      0.985920146      8.18267174       
68.5             0.986232301      8.08180722       0.140639194      -80.3552107      0.140639194      -80.3552107      0.986232301      8.08180722       
69.25            0.986534797      7.98291826       0.138929153      -80.4601576      0.138929153      -80.4601576      0.986534797      7.98291826       
70               0.986828022      7.88594389       0.137251834      -80.5629856      0.137251834      -80.5629856      0.986828022      7.88594389       
70.75            0.987112346      7.79082558       0.135606254      -80.6637567      0.135606254      -80.6637567      0.987112346      7.79082558       
71.5             0.987388119      7.69750716       0.133991464      -80.7625308      0.133991464      -80.7625308      0.987388119      7.69750716       
72.25            0.987655675      7.60593468       0.132406555      -80.8593652      0.132406555      -80.8593652      0.987655675      7.60593468       
73               0.987915331      7.5160563        0.130850653      -80.9543148      0.130850653      -80.9543148      0.987915331      7.5160563        
73.75            0.988167391      7.4278222        0.129322916      -81.0474325      0.129322916      -81.0474325      0.988167391      7.4278222        
74.5             0.988412141      7.34118448       0.127822534      -81.1387692      0.127822534      -81.1387692      0.988412141      7.34118448       
75.25            0.988649857      7.25609706       0.126348729      -81.2283736      0.126348729      -81.2283736      0.988649857      7.25609706       
76               0.988880799      7.1725156        0.12490075       -81.3162926      0.12490075       -81.3162926      0.988880799      7.1725156        
76.75            0.989105218      7.09039745       0.123477874      -81.4025715      0.123477874      -81.4025715      0.989105218      7.09039745       
77.5             0.98932335       7.00970152       0.122079406      -81.4872536      0.122079406      -81.4872536      0.98932335       7.00970152       
78.25            0.989535424      6.93038822       0.120704675      -81.5703807      0.120704675      -81.5703807      0.989535424      6.93038822       
79               0.989741656      6.85241944       0.119353034      -81.6519931      0.119353034      -81.6519931      0.989741656      6.85241944       
79.75            0.989942254      6.77575842       0.118023858      -81.7321295      0.118023858      -81.7321295      0.989942254      6.77575842       
80.5             0.990137415      6.70036973       0.116716547      -81.8108272      0.116716547      -81.8108272      0.990137415      6.70036973       
81.25            0.990327329      6.62621921       0.11543052       -81.8881221      0.11543052       -81.8881221      0.990327329      6.62621921       
82               0.990512178      6.55327388       0.114165216      -81.964049       0.114165216      -81.964049       0.990512178      6.55327388       
82.75            0.990692133      6.48150192       0.112920094      -82.0386411      0.112920094      -82.0386411      0.990692133      6.48150192       
83.5             0.990867363      6.41087264       0.111694631      -82.1119308      0.111694631      -82.1119308      0.990867363      6.41087264       
84.25            0.991038025      6.34135637       0.110488323      -82.1839489      0.110488323      -82.1839489      0.991038025      6.34135637       
85               0.991204271      6.27292447       0.109300682      -82.2547256      0.109300682      -82.2547256      0.991204271      6.27292447       
85.75            0.991366248      6.20554926       0.108131236      -82.3242896      0.108131236      -82.3242896      0.991366248      6.20554926       
86.5             0.991524095      6.139204         0.106979529      -82.3926688      0.106979529      -82.3926688      0.991524095      6.139204         
87.25            0.991677947      6.07386282       0.10584512       -82.4598902      0.10584512       -82.4598902      0.991677947      6.07386282       
88               0.991827931      6.00950073       0.104727582      -82.5259797      0.104727582      -82.5259797      0.991827931      6.00950073       
88.75            0.991974172      5.94609354       0.103626503      -82.5909624      0.103626503      -82.5909624      0.991974172      5.94609354       
89.5             0.992116789      5.88361784       0.102541483      -82.6548625      0.102541483      -82.6548625      0.992116789      5.88361784       
90.25            0.992255894      5.822051         0.101472135      -82.7177034      0.101472135      -82.7177034      0.992255894      5.822051         
91               0.992391597      5.7613711        0.100418085      -82.7795077      0.100418085      -82.7795077      0.992391597      5.7613711        
91.75            0.992524004      5.7015569        0.0993789692     -82.8402973      0.0993789692     -82.8402973      0.992524004      5.7015569        
92.5             0.992653215      5.64258785       0.0983544364     -82.9000931      0.0983544364     -82.9000931      0.992653215      5.64258785       
93.25            0.992779327      5.58444403       0.097344146      -82.9589157      0.097344146      -82.9589157      0.992779327      5.58444403       
94               0.992902434      5.52710616       0.0963477677     -83.0167846      0.0963477677     -83.0167846      0.992902434      5.52710616       
94.75            0.993022626      5.47055552       0.0953649813     -83.073719       0.0953649813     -83.073719       0.993022626      5.47055552       
95.5             0.993139988      5.41477399       0.0943954764     -83.1297373      0.0943954764     -83.1297373      0.993139988      5.41477399       
96.25            0.993254605      5.35974398       0.0934389517     -83.1848572      0.0934389517     -83.1848572      0.993254605      5.35974398       
