! Coilcraft 1008CS-680 Chip Inductor				
! 02 July 2002			
# MHZ S MA R 50
!Freq             MagS11           AngS11           MagS21           AngS21           MagS12           AngS12           MagS22           AngS22
1                0.00515994513    55.4060425       0.997079453      -0.244085874     0.997079453      -0.244085874     0.00515994513    55.4060425       
5.74             0.0247710126     78.8735014       0.995516545      -1.39900789      0.995516545      -1.39900789      0.0247710126     78.8735014       
10.48            0.0447865767     81.1045851       0.994059868      -2.55121008      0.994059868      -2.55121008      0.0447865767     81.1045851       
15.22            0.0647756027     81.3870885       0.992368142      -3.7003066       0.992368142      -3.7003066       0.0647756027     81.3870885       
19.96            0.0846883579     81.0559627       0.99037325       -4.84565157      0.99037325       -4.84565157      0.0846883579     81.0559627       
24.7             0.104496786      80.4495039       0.988050625      -5.98653227      0.988050625      -5.98653227      0.104496786      80.4495039       
29.44            0.124177685      79.6958016       0.985391142      -7.12221602      0.985391142      -7.12221602      0.124177685      79.6958016       
34.18            0.143709812      78.854978        0.982393155      -8.25197017      0.982393155      -8.25197017      0.143709812      78.854978        
38.92            0.163073171      77.9594254       0.979059407      -9.37507325      0.979059407      -9.37507325      0.163073171      77.9594254       
43.66            0.182248828      77.028387        0.975395548      -10.4908222      0.975395548      -10.4908222      0.182248828      77.028387        
48.4             0.201218889      76.07417         0.971409336      -11.5985375      0.971409336      -11.5985375      0.201218889      76.07417         
53.14            0.219966523      75.1051157       0.967110137      -12.6975673      0.967110137      -12.6975673      0.219966523      75.1051157       
57.88            0.238475998      74.1271494       0.962508585      -13.7872904      0.962508585      -13.7872904      0.238475998      74.1271494       
62.62            0.25673272       73.1446458       0.957616326      -14.8671187      0.957616326      -14.8671187      0.25673272       73.1446458       
67.36            0.274723267      72.1609395       0.952445821      -15.9364991      0.952445821      -15.9364991      0.274723267      72.1609395       
72.1             0.292435402      71.1786397       0.947010174      -16.9949151      0.947010174      -16.9949151      0.292435402      71.1786397       
76.84            0.309858094      70.1998331       0.941322988      -18.0418873      0.941322988      -18.0418873      0.309858094      70.1998331       
81.58            0.326981509      69.2262176       0.935398231      -19.0769749      0.935398231      -19.0769749      0.326981509      69.2262176       
86.32            0.343797012      68.2591938       0.929250121      -20.0997751      0.929250121      -20.0997751      0.343797012      68.2591938       
91.06            0.360297138      67.2999298       0.922893021      -21.1099235      0.922893021      -21.1099235      0.360297138      67.2999298       
95.8             0.376475578      66.3494066       0.916341338      -22.1070941      0.916341338      -22.1070941      0.376475578      66.3494066       
100.54           0.392327136      65.4084524       0.909609439      -23.0909981      0.909609439      -23.0909981      0.392327136      65.4084524       
105.28           0.407847693      64.4777681       0.90271157       -24.0613837      0.90271157       -24.0613837      0.407847693      64.4777681       
110.02           0.423034163      63.5579465       0.895661786      -25.0180346      0.895661786      -25.0180346      0.423034163      63.5579465       
114.76           0.437884444      62.6494881       0.888473889      -25.9607695      0.888473889      -25.9607695      0.437884444      62.6494881       
119.5            0.452397361      61.7528125       0.88116137       -26.8894404      0.88116137       -26.8894404      0.452397361      61.7528125       
124.24           0.466572616      60.8682691       0.873737365      -27.8039313      0.873737365      -27.8039313      0.466572616      60.8682691       
128.98           0.480410725      59.9961449       0.866214612      -28.7041565      0.866214612      -28.7041565      0.480410725      59.9961449       
133.72           0.493912964      59.1366711       0.858605415      -29.5900597      0.858605415      -29.5900597      0.493912964      59.1366711       
138.46           0.507081308      58.2900298       0.850921622      -30.4616116      0.850921622      -30.4616116      0.507081308      58.2900298       
143.2            0.519918375      57.4563582       0.843174599      -31.3188087      0.843174599      -31.3188087      0.519918375      57.4563582       
147.94           0.532427363      56.635754        0.835375213      -32.1616716      0.835375213      -32.1616716      0.532427363      56.635754        
152.68           0.544612         55.8282784       0.827533823      -32.9902435      0.827533823      -32.9902435      0.544612         55.8282784       
157.42           0.556476486      55.0339606       0.819660275      -33.804588       0.819660275      -33.804588       0.556476486      55.0339606       
162.16           0.568025441      54.2528004       0.811763893      -34.6047882      0.811763893      -34.6047882      0.568025441      54.2528004       
166.9            0.579263854      53.4847713       0.803853487      -35.3909446      0.803853487      -35.3909446      0.579263854      53.4847713       
171.64           0.590197038      52.7298233       0.795937354      -36.1631739      0.795937354      -36.1631739      0.590197038      52.7298233       
176.38           0.600830579      51.9878851       0.788023285      -36.9216071      0.788023285      -36.9216071      0.600830579      51.9878851       
181.12           0.611170302      51.2588664       0.780118575      -37.6663888      0.780118575      -37.6663888      0.611170302      51.2588664       
185.86           0.621222221      50.5426602       0.772230036      -38.397675       0.772230036      -38.397675       0.621222221      50.5426602       
190.6            0.630992511      49.8391443       0.764364009      -39.1156325      0.764364009      -39.1156325      0.630992511      49.8391443       
195.34           0.64048747       49.1481833       0.756526378      -39.8204372      0.756526378      -39.8204372      0.64048747       49.1481833       
200.08           0.649713486      48.4696302       0.74872259       -40.5122731      0.74872259       -40.5122731      0.649713486      48.4696302       
204.82           0.65867701       47.8033276       0.740957668      -41.1913315      0.740957668      -41.1913315      0.65867701       47.8033276       
209.56           0.667384533      47.1491096       0.733236227      -41.8578093      0.733236227      -41.8578093      0.667384533      47.1491096       
214.3            0.675842553      46.5068023       0.725562499      -42.5119089      0.725562499      -42.5119089      0.675842553      46.5068023       
219.04           0.684057565      45.8762257       0.717940345      -43.1538364      0.717940345      -43.1538364      0.684057565      45.8762257       
223.78           0.692036032      45.2571943       0.710373273      -43.7838018      0.710373273      -43.7838018      0.692036032      45.2571943       
228.52           0.699784372      44.649518        0.702864461      -44.4020172      0.702864461      -44.4020172      0.699784372      44.649518        
233.26           0.707308946      44.0530034       0.695416772      -45.0086968      0.695416772      -45.0086968      0.707308946      44.0530034       
238              0.714616037      43.4674542       0.688032768      -45.604056       0.688032768      -45.604056       0.714616037      43.4674542       
242.74           0.721711845      42.892672        0.680714737      -46.1883109      0.680714737      -46.1883109      0.721711845      42.892672        
247.48           0.728602473      42.3284571       0.673464698      -46.7616778      0.673464698      -46.7616778      0.728602473      42.3284571       
252.22           0.735293921      41.7746091       0.666284427      -47.3243724      0.666284427      -47.3243724      0.735293921      41.7746091       
256.96           0.741792075      41.2309272       0.659175468      -47.8766099      0.659175468      -47.8766099      0.741792075      41.2309272       
261.7            0.748102705      40.6972109       0.652139148      -48.418604       0.652139148      -48.418604       0.748102705      40.6972109       
266.44           0.754231459      40.1732604       0.645176593      -48.950567       0.645176593      -48.950567       0.754231459      40.1732604       
271.18           0.760183856      39.6588769       0.638288744      -49.4727095      0.638288744      -49.4727095      0.760183856      39.6588769       
275.92           0.765965286      39.1538632       0.631476363      -49.9852395      0.631476363      -49.9852395      0.765965286      39.1538632       
280.66           0.771581008      38.6580235       0.624740056      -50.4883631      0.624740056      -50.4883631      0.771581008      38.6580235       
285.4            0.777036146      38.1711642       0.618080274      -50.9822836      0.618080274      -50.9822836      0.777036146      38.1711642       
290.14           0.782335689      37.6930938       0.611497335      -51.4672012      0.611497335      -51.4672012      0.782335689      37.6930938       
294.88           0.787484492      37.2236234       0.604991425      -51.9433137      0.604991425      -51.9433137      0.787484492      37.2236234       
299.62           0.792487276      36.7625665       0.598562616      -52.4108152      0.598562616      -52.4108152      0.792487276      36.7625665       
304.36           0.797348627      36.3097396       0.59221087       -52.8698972      0.59221087       -52.8698972      0.797348627      36.3097396       
309.1            0.802072998      35.8649617       0.585936053      -53.3207473      0.585936053      -53.3207473      0.802072998      35.8649617       
313.84           0.806664711      35.4280553       0.579737939      -53.76355        0.579737939      -53.76355        0.806664711      35.4280553       
318.58           0.81112796       34.9988455       0.573616218      -54.1984864      0.573616218      -54.1984864      0.81112796       34.9988455       
323.32           0.815466808      34.5771609       0.567570509      -54.625734       0.567570509      -54.625734       0.815466808      34.5771609       
328.06           0.819685194      34.1628332       0.56160036       -55.0454666      0.56160036       -55.0454666      0.819685194      34.1628332       
332.8            0.823786934      33.7556974       0.555705258      -55.4578548      0.555705258      -55.4578548      0.823786934      33.7556974       
337.54           0.827775724      33.3555916       0.549884636      -55.8630652      0.549884636      -55.8630652      0.827775724      33.3555916       
342.28           0.831655142      32.9623574       0.544137876      -56.2612612      0.544137876      -56.2612612      0.831655142      32.9623574       
347.02           0.835428647      32.5758397       0.538464316      -56.6526025      0.538464316      -56.6526025      0.835428647      32.5758397       
351.76           0.839099592      32.1958866       0.532863253      -57.0372452      0.532863253      -57.0372452      0.839099592      32.1958866       
356.5            0.842671215      31.8223497       0.527333951      -57.415342       0.527333951      -57.415342       0.842671215      31.8223497       
361.24           0.846146651      31.4550836       0.521875641      -57.787042       0.521875641      -57.787042       0.846146651      31.4550836       
365.98           0.849528928      31.0939464       0.516487528      -58.1524909      0.516487528      -58.1524909      0.849528928      31.0939464       
370.72           0.852820976      30.7387994       0.511168792      -58.5118309      0.511168792      -58.5118309      0.852820976      30.7387994       
375.46           0.856025627      30.3895069       0.505918596      -58.865201       0.505918596      -58.865201       0.856025627      30.3895069       
380.2            0.859145616      30.0459365       0.500736082      -59.2127369      0.500736082      -59.2127369      0.859145616      30.0459365       
384.94           0.862183587      29.707959        0.49562038       -59.5545707      0.49562038       -59.5545707      0.862183587      29.707959        
389.68           0.865142095      29.3754481       0.490570608      -59.8908317      0.490570608      -59.8908317      0.865142095      29.3754481       
394.42           0.86802361       29.0482807       0.485585873      -60.2216458      0.485585873      -60.2216458      0.86802361       29.0482807       
399.16           0.870830515      28.7263365       0.480665277      -60.5471358      0.480665277      -60.5471358      0.870830515      28.7263365       
403.9            0.873565115      28.4094982       0.475807916      -60.8674216      0.475807916      -60.8674216      0.873565115      28.4094982       
408.64           0.876229636      28.0976513       0.471012882      -61.18262        0.471012882      -61.18262        0.876229636      28.0976513       
413.38           0.878826228      27.7906843       0.466279265      -61.4928449      0.466279265      -61.4928449      0.878826228      27.7906843       
418.12           0.881356967      27.4884881       0.461606158      -61.7982074      0.461606158      -61.7982074      0.881356967      27.4884881       
422.86           0.88382386       27.1909567       0.45699265       -62.0988157      0.45699265       -62.0988157      0.88382386       27.1909567       
427.6            0.886228844      26.8979865       0.452437837      -62.3947755      0.452437837      -62.3947755      0.886228844      26.8979865       
432.34           0.888573793      26.6094765       0.447940817      -62.6861895      0.447940817      -62.6861895      0.888573793      26.6094765       
437.08           0.890860514      26.3253282       0.443500691      -62.9731581      0.443500691      -62.9731581      0.890860514      26.3253282       
441.82           0.893090755      26.0454458       0.439116569      -63.2557789      0.439116569      -63.2557789      0.893090755      26.0454458       
446.56           0.895266203      25.7697355       0.434787565      -63.5341472      0.434787565      -63.5341472      0.895266203      25.7697355       
451.3            0.897388489      25.4981061       0.430512801      -63.8083557      0.430512801      -63.8083557      0.897388489      25.4981061       
456.04           0.899459188      25.2304688       0.426291406      -64.078495       0.426291406      -64.078495       0.899459188      25.2304688       
460.78           0.901479823      24.9667369       0.422122519      -64.3446531      0.422122519      -64.3446531      0.901479823      24.9667369       
465.52           0.903451865      24.7068258       0.418005286      -64.606916       0.418005286      -64.606916       0.903451865      24.7068258       
470.26           0.905376735      24.4506531       0.413938865      -64.8653672      0.413938865      -64.8653672      0.905376735      24.4506531       
475              0.907255807      24.1981386       0.409922421      -65.1200885      0.409922421      -65.1200885      0.907255807      24.1981386       
479.74           0.909090408      23.949204        0.405955132      -65.3711593      0.405955132      -65.3711593      0.909090408      23.949204        
484.48           0.910881823      23.7037729       0.402036184      -65.618657       0.402036184      -65.618657       0.910881823      23.7037729       
489.22           0.91263129       23.461771        0.398164775      -65.8626571      0.398164775      -65.8626571      0.91263129       23.461771        
493.96           0.914340011      23.2231258       0.394340115      -66.1032331      0.394340115      -66.1032331      0.914340011      23.2231258       
498.7            0.916009143      22.9877665       0.390561423      -66.3404569      0.390561423      -66.3404569      0.916009143      22.9877665       
503.44           0.917639809      22.7556242       0.38682793       -66.5743982      0.38682793       -66.5743982      0.917639809      22.7556242       
508.18           0.919233093      22.5266318       0.38313888       -66.8051251      0.38313888       -66.8051251      0.919233093      22.5266318       
512.92           0.920790043      22.3007237       0.379493527      -67.0327041      0.379493527      -67.0327041      0.920790043      22.3007237       
517.66           0.922311673      22.077836        0.375891137      -67.2571998      0.375891137      -67.2571998      0.922311673      22.077836        
522.4            0.923798965      21.8579065       0.372330988      -67.4786754      0.372330988      -67.4786754      0.923798965      21.8579065       
527.14           0.925252868      21.6408744       0.368812367      -67.6971922      0.368812367      -67.6971922      0.925252868      21.6408744       
531.88           0.9266743        21.4266805       0.365334578      -67.9128103      0.365334578      -67.9128103      0.9266743        21.4266805       
536.62           0.928064149      21.2152669       0.36189693       -68.1255881      0.36189693       -68.1255881      0.928064149      21.2152669       
541.36           0.929423276      21.0065774       0.35849875       -68.3355825      0.35849875       -68.3355825      0.929423276      21.0065774       
546.1            0.930752514      20.8005571       0.355139371      -68.5428492      0.355139371      -68.5428492      0.930752514      20.8005571       
550.84           0.932052667      20.5971522       0.351818141      -68.7474422      0.351818141      -68.7474422      0.932052667      20.5971522       
555.58           0.933324517      20.3963106       0.348534417      -68.9494145      0.348534417      -68.9494145      0.933324517      20.3963106       
560.32           0.934568818      20.1979812       0.34528757       -69.1488175      0.34528757       -69.1488175      0.934568818      20.1979812       
565.06           0.935786302      20.0021143       0.34207698       -69.3457015      0.34207698       -69.3457015      0.935786302      20.0021143       
569.8            0.936977678      19.8086613       0.338902038      -69.5401154      0.338902038      -69.5401154      0.936977678      19.8086613       
574.54           0.93814363       19.6175748       0.335762146      -69.7321072      0.335762146      -69.7321072      0.93814363       19.6175748       
579.28           0.939284825      19.4288086       0.332656718      -69.9217234      0.332656718      -69.9217234      0.939284825      19.4288086       
584.02           0.940401906      19.2423176       0.329585178      -70.1090095      0.329585178      -70.1090095      0.940401906      19.2423176       
588.76           0.941495498      19.0580577       0.32654696       -70.2940099      0.32654696       -70.2940099      0.941495498      19.0580577       
593.5            0.942566204      18.875986        0.323541508      -70.4767679      0.323541508      -70.4767679      0.942566204      18.875986        
598.24           0.943614611      18.6960606       0.320568278      -70.6573257      0.320568278      -70.6573257      0.943614611      18.6960606       
602.98           0.944641287      18.5182404       0.317626734      -70.8357246      0.317626734      -70.8357246      0.944641287      18.5182404       
