! Coilcraft 1008CS-181 Chip Inductor				
! 02 July 2002			
# MHZ S MA R 50
!Freq             MagS11           AngS11           MagS21           AngS21           MagS12           AngS12           MagS22           AngS22
1                0.0145682685     49.6266687       0.990625355      -0.641939244     0.990625355      -0.641939244     0.0145682685     49.6266687       
3.99             0.0458587853     73.988583        0.988334292      -2.55624346      0.988334292      -2.55624346      0.0458587853     73.988583        
6.98             0.0786456772     77.1086765       0.985440535      -4.46189561      0.985440535      -4.46189561      0.0786456772     77.1086765       
9.97             0.111369774      77.3585676       0.981660288      -6.35568307      0.981660288      -6.35568307      0.111369774      77.3585676       
12.96            0.143783456      76.682137        0.976950226      -8.23409191      0.976950226      -8.23409191      0.143783456      76.682137        
15.95            0.175754252      75.5978007       0.971318629      -10.0936468      0.971318629      -10.0936468      0.175754252      75.5978007       
18.94            0.207180903      74.3050241       0.964796567      -11.931025       0.964796567      -11.931025       0.207180903      74.3050241       
21.93            0.237978002      72.8982537       0.957428538      -13.7431198      0.957428538      -13.7431198      0.237978002      72.8982537       
24.92            0.268072068      71.4287768       0.949267984      -15.5270802      0.949267984      -15.5270802      0.268072068      71.4287768       
27.91            0.297400349      69.9273084       0.940374496      -17.280339       0.940374496      -17.280339       0.297400349      69.9273084       
30.9             0.325910354      68.4136269       0.930811741      -19.0006282      0.930811741      -19.0006282      0.325910354      68.4136269       
33.89            0.353559516      66.9011769       0.920645779      -20.6859876      0.920645779      -20.6859876      0.353559516      66.9011769       
36.88            0.380314806      65.3994673       0.909943638      -22.334765       0.909943638      -22.334765       0.380314806      65.3994673       
39.87            0.406152251      63.9154113       0.898772111      -23.9456108      0.898772111      -23.9456108      0.406152251      63.9154113       
42.86            0.431056331      62.4541218       0.887196734      -25.5174666      0.887196734      -25.5174666      0.431056331      62.4541218       
45.85            0.455019297      61.0194078       0.875280943      -27.0495508      0.875280943      -27.0495508      0.455019297      61.0194078       
48.84            0.478040428      59.614101        0.863085407      -28.5413402      0.863085407      -28.5413402      0.478040428      59.614101        
51.83            0.50012525       58.2402782       0.850667509      -29.9925498      0.850667509      -29.9925498      0.50012525       58.2402782       
54.82            0.521284738      56.8994212       0.838080975      -31.4031115      0.838080975      -31.4031115      0.521284738      56.8994212       
57.81            0.541534549      55.5925345       0.825375629      -32.7731511      0.825375629      -32.7731511      0.541534549      55.5925345       
60.8             0.560894261      54.3202353       0.812597265      -34.102967       0.812597265      -34.102967       0.560894261      54.3202353       
63.79            0.579386679      53.0828248       0.799787608      -35.3930075      0.799787608      -35.3930075      0.579386679      53.0828248       
66.78            0.597037173      51.8803451       0.786984356      -36.6438508      0.786984356      -36.6438508      0.597037173      51.8803451       
69.77            0.613873091      50.712626        0.774221291      -37.8561845      0.774221291      -37.8561845      0.613873091      50.712626        
72.76            0.629923227      49.5793239       0.761528426      -39.0307875      0.761528426      -39.0307875      0.629923227      49.5793239       
75.75            0.645217349      48.4799548       0.748932207      -40.1685134      0.748932207      -40.1685134      0.645217349      48.4799548       
78.74            0.659785795      47.4139211       0.736455719      -41.2702746      0.736455719      -41.2702746      0.659785795      47.4139211       
81.73            0.673659122      46.3805358       0.724118926      -42.3370292      0.724118926      -42.3370292      0.673659122      46.3805358       
84.72            0.686867808      45.3790419       0.711938905      -43.3697681      0.711938905      -43.3697681      0.686867808      45.3790419       
87.71            0.699442011      44.4086294       0.699930091      -44.3695049      0.699930091      -44.3695049      0.699442011      44.4086294       
90.7             0.711411362      43.4684494       0.688104514      -45.3372659      0.688104514      -45.3372659      0.711411362      43.4684494       
93.69            0.722804808      42.5576265       0.676472024      -46.2740823      0.676472024      -46.2740823      0.722804808      42.5576265       
96.68            0.733650484      41.675269        0.665040517      -47.1809832      0.665040517      -47.1809832      0.733650484      41.675269        
99.67            0.743975617      40.8204772       0.653816139      -48.0589898      0.653816139      -48.0589898      0.743975617      40.8204772       
102.66           0.753806458      39.9923506       0.642803478      -48.9091104      0.642803478      -48.9091104      0.753806458      39.9923506       
105.65           0.763168234      39.189994        0.632005749      -49.7323366      0.632005749      -49.7323366      0.763168234      39.189994        
108.64           0.772085116      38.4125221       0.621424954      -50.5296395      0.621424954      -50.5296395      0.772085116      38.4125221       
111.63           0.780580214      37.6590636       0.611062037      -51.3019679      0.611062037      -51.3019679      0.780580214      37.6590636       
114.62           0.788675568      36.9287641       0.600917019      -52.0502454      0.600917019      -52.0502454      0.788675568      36.9287641       
117.61           0.796392166      36.2207889       0.590989125      -52.7753696      0.590989125      -52.7753696      0.796392166      36.2207889       
120.6            0.803749958      35.5343246       0.581276896      -53.4782105      0.581276896      -53.4782105      0.803749958      35.5343246       
123.59           0.810767881      34.8685808       0.571778285      -54.1596103      0.571778285      -54.1596103      0.810767881      34.8685808       
126.58           0.817463891      34.2227906       0.562490755      -54.8203823      0.562490755      -54.8203823      0.817463891      34.2227906       
129.57           0.823854996      33.5962121       0.553411351      -55.4613114      0.553411351      -55.4613114      0.823854996      33.5962121       
132.56           0.829957291      32.9881278       0.544536776      -56.0831541      0.544536776      -56.0831541      0.829957291      32.9881278       
135.55           0.835785997      32.3978454       0.535863451      -56.6866382      0.535863451      -56.6866382      0.835785997      32.3978454       
138.54           0.841355501      31.8246975       0.527387569      -57.272464       0.527387569      -57.272464       0.841355501      31.8246975       
141.53           0.846679389      31.2680416       0.519105149      -57.8413043      0.519105149      -57.8413043      0.846679389      31.2680416       
144.52           0.851770494      30.7272591       0.51101207       -58.393805       0.51101207       -58.393805       0.851770494      30.7272591       
147.51           0.856640927      30.2017556       0.503104115      -58.9305863      0.503104115      -58.9305863      0.856640927      30.2017556       
150.5            0.861302119      29.6909601       0.495377         -59.4522429      0.495377         -59.4522429      0.861302119      29.6909601       
153.49           0.865764853      29.194324        0.487826399      -59.959345       0.487826399      -59.959345       0.865764853      29.194324        
156.48           0.870039306      28.711321        0.480447974      -60.4524393      0.480447974      -60.4524393      0.870039306      28.711321        
159.47           0.874135075      28.2414462       0.473237389      -60.9320496      0.473237389      -60.9320496      0.874135075      28.2414462       
162.46           0.878061216      27.7842152       0.46619033       -61.3986776      0.46619033       -61.3986776      0.878061216      27.7842152       
165.45           0.881826273      27.3391637       0.459302523      -61.8528039      0.459302523      -61.8528039      0.881826273      27.3391637       
168.44           0.885438306      26.9058464       0.452569739      -62.2948889      0.452569739      -62.2948889      0.885438306      26.9058464       
171.43           0.88890492       26.4838368       0.445987811      -62.7253732      0.445987811      -62.7253732      0.88890492       26.4838368       
174.42           0.892233295      26.0727258       0.439552639      -63.1446792      0.439552639      -63.1446792      0.892233295      26.0727258       
177.41           0.895430205      25.6721217       0.433260198      -63.5532109      0.433260198      -63.5532109      0.895430205      25.6721217       
180.4            0.898502047      25.2816489       0.427106543      -63.9513554      0.427106543      -63.9513554      0.898502047      25.2816489       
183.39           0.901454862      24.9009475       0.421087815      -64.3394834      0.421087815      -64.3394834      0.901454862      24.9009475       
186.38           0.904294355      24.5296727       0.41520024       -64.7179499      0.41520024       -64.7179499      0.904294355      24.5296727       
189.37           0.907025918      24.167494        0.409440138      -65.0870949      0.409440138      -65.0870949      0.907025918      24.167494        
192.36           0.909654644      23.8140946       0.403803919      -65.447244       0.403803919      -65.447244       0.909654644      23.8140946       
195.35           0.91218535       23.4691711       0.398288087      -65.7987094      0.398288087      -65.7987094      0.91218535       23.4691711       
198.34           0.91462259       23.1324322       0.392889238      -66.14179        0.392889238      -66.14179        0.91462259       23.1324322       
201.33           0.916970671      22.803599        0.387604063      -66.4767722      0.387604063      -66.4767722      0.916970671      22.803599        
204.32           0.919233671      22.4824038       0.382429347      -66.8039308      0.382429347      -66.8039308      0.919233671      22.4824038       
207.31           0.921415447      22.1685902       0.377361964      -67.1235289      0.377361964      -67.1235289      0.921415447      22.1685902       
210.3            0.923519652      21.8619118       0.372398881      -67.4358189      0.372398881      -67.4358189      0.923519652      21.8619118       
213.29           0.925549748      21.5621326       0.367537154      -67.7410431      0.367537154      -67.7410431      0.925549748      21.5621326       
216.28           0.927509013      21.2690259       0.362773929      -68.0394335      0.362773929      -68.0394335      0.927509013      21.2690259       
219.27           0.929400555      20.9823743       0.358106436      -68.331213       0.358106436      -68.331213       0.929400555      20.9823743       
222.26           0.931227322      20.7019688       0.353531991      -68.6165954      0.353531991      -68.6165954      0.931227322      20.7019688       
225.25           0.932992108      20.4276091       0.349047992      -68.8957859      0.349047992      -68.8957859      0.932992108      20.4276091       
228.24           0.934697566      20.1591026       0.344651919      -69.1689816      0.344651919      -69.1689816      0.934697566      20.1591026       
231.23           0.936346214      19.8962643       0.340341329      -69.4363717      0.340341329      -69.4363717      0.936346214      19.8962643       
234.22           0.937940444      19.6389165       0.336113856      -69.698138       0.336113856      -69.698138       0.937940444      19.6389165       
237.21           0.939482526      19.3868883       0.331967209      -69.9544552      0.331967209      -69.9544552      0.939482526      19.3868883       
240.2            0.940974619      19.1400157       0.32789917       -70.2054909      0.32789917       -70.2054909      0.940974619      19.1400157       
243.19           0.942418775      18.8981407       0.323907588      -70.4514067      0.323907588      -70.4514067      0.942418775      18.8981407       
246.18           0.943816946      18.6611114       0.319990385      -70.6923577      0.319990385      -70.6923577      0.943816946      18.6611114       
249.17           0.945170987      18.4287818       0.316145544      -70.928493       0.316145544      -70.928493       0.945170987      18.4287818       
252.16           0.946482666      18.2010113       0.312371115      -71.1599561      0.312371115      -71.1599561      0.946482666      18.2010113       
255.15           0.947753665      17.9776647       0.308665209      -71.3868853      0.308665209      -71.3868853      0.947753665      17.9776647       
258.14           0.948985585      17.7586117       0.305025998      -71.6094133      0.305025998      -71.6094133      0.948985585      17.7586117       
261.13           0.950179953      17.5437269       0.30145171       -71.8276682      0.30145171       -71.8276682      0.950179953      17.5437269       
264.12           0.951338223      17.3328894       0.29794063       -72.0417733      0.29794063       -72.0417733      0.951338223      17.3328894       
267.11           0.952461782      17.125983        0.294491098      -72.2518472      0.294491098      -72.2518472      0.952461782      17.125983        
270.1            0.953551954      16.9228953       0.291101506      -72.4580042      0.291101506      -72.4580042      0.953551954      16.9228953       
273.09           0.954609998      16.7235185       0.287770296      -72.6603547      0.287770296      -72.6603547      0.954609998      16.7235185       
276.08           0.955637121      16.5277481       0.284495959      -72.8590048      0.284495959      -72.8590048      0.955637121      16.5277481       
279.07           0.956634472      16.3354837       0.281277034      -73.0540569      0.281277034      -73.0540569      0.956634472      16.3354837       
282.06           0.957603149      16.1466283       0.278112106      -73.2456098      0.278112106      -73.2456098      0.957603149      16.1466283       
285.05           0.958544201      15.9610883       0.274999802      -73.4337589      0.274999802      -73.4337589      0.958544201      15.9610883       
288.04           0.959458631      15.7787735       0.271938795      -73.6185959      0.271938795      -73.6185959      0.959458631      15.7787735       
291.03           0.960347398      15.5995967       0.268927795      -73.8002098      0.268927795      -73.8002098      0.960347398      15.5995967       
294.02           0.961211418      15.4234736       0.265965556      -73.9786861      0.265965556      -73.9786861      0.961211418      15.4234736       
297.01           0.962051569      15.2503232       0.263050867      -74.1541075      0.263050867      -74.1541075      0.962051569      15.2503232       
300              0.96286869       15.0800667       0.260182556      -74.3265539      0.260182556      -74.3265539      0.96286869       15.0800667       
302.99           0.963663584      14.9126284       0.257359486      -74.4961024      0.257359486      -74.4961024      0.963663584      14.9126284       
305.98           0.96443702       14.7479349       0.254580555      -74.6628276      0.254580555      -74.6628276      0.96443702       14.7479349       
308.97           0.965189737      14.5859153       0.251844693      -74.8268016      0.251844693      -74.8268016      0.965189737      14.5859153       
311.96           0.96592244       14.426501        0.249150864      -74.9880939      0.249150864      -74.9880939      0.96592244       14.426501        
314.95           0.966635805      14.2696259       0.246498062      -75.1467719      0.246498062      -75.1467719      0.966635805      14.2696259       
317.94           0.967330482      14.1152257       0.243885311      -75.3029008      0.243885311      -75.3029008      0.967330482      14.1152257       
320.93           0.968007093      13.9632383       0.241311666      -75.4565434      0.241311666      -75.4565434      0.968007093      13.9632383       
323.92           0.968666235      13.8136039       0.238776206      -75.6077608      0.238776206      -75.6077608      0.968666235      13.8136039       
326.91           0.969308481      13.6662641       0.236278041      -75.7566119      0.236278041      -75.7566119      0.969308481      13.6662641       
329.9            0.969934382      13.5211628       0.233816304      -75.9031538      0.233816304      -75.9031538      0.969934382      13.5211628       
332.89           0.970544465      13.3782453       0.231390157      -76.0474417      0.231390157      -76.0474417      0.970544465      13.3782453       
335.88           0.971139237      13.237459        0.228998783      -76.1895291      0.228998783      -76.1895291      0.971139237      13.237459        
338.87           0.971719186      13.0987526       0.226641389      -76.329468       0.226641389      -76.329468       0.971719186      13.0987526       
341.86           0.972284781      12.9620767       0.224317206      -76.4673083      0.224317206      -76.4673083      0.972284781      12.9620767       
344.85           0.97283647       12.827383        0.222025487      -76.6030989      0.222025487      -76.6030989      0.97283647       12.827383        
347.84           0.973374688      12.6946251       0.219765506      -76.7368868      0.219765506      -76.7368868      0.973374688      12.6946251       
350.83           0.97389985       12.5637578       0.217536557      -76.8687176      0.217536557      -76.8687176      0.97389985       12.5637578       
353.82           0.974412358      12.4347372       0.215337953      -76.9986358      0.215337953      -76.9986358      0.974412358      12.4347372       
356.81           0.974912596      12.3075209       0.21316903       -77.1266841      0.21316903       -77.1266841      0.974912596      12.3075209       
359.8            0.975400935      12.1820677       0.211029138      -77.2529042      0.211029138      -77.2529042      0.975400935      12.1820677       
362.79           0.975877733      12.0583375       0.208917648      -77.3773365      0.208917648      -77.3773365      0.975877733      12.0583375       
365.78           0.976343334      11.9362915       0.206833947      -77.5000202      0.206833947      -77.5000202      0.976343334      11.9362915       
368.77           0.976798068      11.8158919       0.204777439      -77.6209933      0.204777439      -77.6209933      0.976798068      11.8158919       
371.76           0.977242256      11.6971023       0.202747546      -77.7402927      0.202747546      -77.7402927      0.977242256      11.6971023       
374.75           0.977676206      11.579887        0.200743702      -77.8579542      0.200743702      -77.8579542      0.977676206      11.579887        
377.74           0.978100212      11.4642114       0.198765361      -77.9740125      0.198765361      -77.9740125      0.978100212      11.4642114       
380.73           0.978514563      11.3500421       0.196811987      -78.0885013      0.196811987      -78.0885013      0.978514563      11.3500421       
