! Coilcraft 0805HT-R10 Chip Inductor				
! 24 June 2002			
# MHZ S MA R 50
!Freq             MagS11           AngS11           MagS21           AngS21           MagS12           AngS12           MagS22           AngS22
1                0.0103152561     37.2409633       0.991807696      -0.360623737     0.991807696      -0.360623737     0.0103152561     37.2409633       
6.48             0.0420884725     72.5862349       0.988220523      -2.3290381       0.988220523      -2.3290381       0.0420884725     72.5862349       
11.96            0.0757840862     76.1682853       0.98463581       -4.28598157      0.98463581       -4.28598157      0.0757840862     76.1682853       
17.44            0.109375769      76.5187678       0.980288837      -6.22889709      0.980288837      -6.22889709      0.109375769      76.5187678       
22.92            0.142613661      75.8761213       0.9750578        -8.15435149      0.9750578        -8.15435149      0.142613661      75.8761213       
28.4             0.175363793      74.8028609       0.968923311      -10.0588189      0.968923311      -10.0588189      0.175363793      74.8028609       
33.88            0.207522356      73.5107737       0.961905033      -11.9388864      0.961905033      -11.9388864      0.207522356      73.5107737       
39.36            0.239001326      72.0992403       0.954043146      -13.7913511      0.954043146      -13.7913511      0.239001326      72.0992403       
44.84            0.269725041      70.622037        0.945390376      -15.6132772      0.945390376      -15.6132772      0.269725041      70.622037        
50.32            0.299629237      69.1113334       0.93600756       -17.4020315      0.93600756       -17.4020315      0.299629237      69.1113334       
55.8             0.328660667      67.5878401       0.925960676      -19.1553037      0.925960676      -19.1553037      0.328660667      67.5878401       
61.28            0.356776778      66.0656309       0.91531862       -20.8711157      0.91531862       -20.8711157      0.356776778      66.0656309       
66.76            0.383945277      64.5546501       0.904151428      -22.5478221      0.904151428      -22.5478221      0.383945277      64.5546501       
72.24            0.410143572      63.0621134       0.892528842      -24.1841029      0.892528842      -24.1841029      0.410143572      63.0621134       
77.72            0.435358081      61.5933396       0.880519131      -25.7789505      0.880519131      -25.7789505      0.435358081      61.5933396       
83.2             0.459583446      60.1522724       0.868188153      -27.3316518      0.868188153      -27.3316518      0.459583446      60.1522724       
88.68            0.482821686      58.7418228       0.855598625      -28.8417676      0.855598625      -28.8417676      0.482821686      58.7418228       
94.16            0.505081313      57.3641054       0.842809579      -30.3091093      0.842809579      -30.3091093      0.505081313      57.3641054       
99.64            0.526376455      56.0206073       0.829875991      -31.733714       0.829875991      -31.733714       0.526376455      56.0206073       
105.12           0.546725991      54.7123135       0.816848546      -33.1158203      0.816848546      -33.1158203      0.546725991      54.7123135       
110.6            0.566152735      53.4398034       0.803773539      -34.4558429      0.803773539      -34.4558429      0.566152735      53.4398034       
116.08           0.584682669      52.2033268       0.790692867      -35.7543488      0.790692867      -35.7543488      0.584682669      52.2033268       
121.56           0.602344249      51.0028646       0.777644113      -37.012035       0.777644113      -37.012035       0.602344249      51.0028646       
127.04           0.619167771      49.8381795       0.764660693      -38.2297064      0.764660693      -38.2297064      0.619167771      49.8381795       
132.52           0.635184818      48.7088566       0.751772047      -39.4082569      0.751772047      -39.4082569      0.635184818      48.7088566       
138              0.650427769      47.6143391       0.739003874      -40.5486509      0.739003874      -40.5486509      0.650427769      47.6143391       
143.48           0.664929383      46.5539568       0.726378381      -41.6519077      0.726378381      -41.6519077      0.664929383      46.5539568       
148.96           0.678722447      45.5269508       0.71391455       -42.7190866      0.71391455       -42.7190866      0.678722447      45.5269508       
154.44           0.691839476      44.5324946       0.701628401      -43.7512748      0.701628401      -43.7512748      0.691839476      44.5324946       
159.92           0.704312475      43.5697113       0.689533268      -44.7495763      0.689533268      -44.7495763      0.704312475      43.5697113       
165.4            0.716172742      42.6376889       0.677640046      -45.7151021      0.677640046      -45.7151021      0.716172742      42.6376889       
170.88           0.727450718      41.7354921       0.665957452      -46.6489623      0.665957452      -46.6489623      0.727450718      41.7354921       
176.36           0.73817587       40.862173        0.654492246      -47.5522594      0.654492246      -47.5522594      0.73817587       40.862173        
181.84           0.748376607      40.0167797       0.643249464      -48.4260824      0.643249464      -48.4260824      0.748376607      40.0167797       
187.32           0.75808022       39.1983634       0.632232609      -49.2715023      0.632232609      -49.2715023      0.75808022       39.1983634       
192.8            0.767312849      38.4059844       0.621443849      -50.089568       0.621443849      -50.089568       0.767312849      38.4059844       
198.28           0.776099465      37.6387163       0.61088418       -50.8813035      0.61088418       -50.8813035      0.776099465      37.6387163       
203.76           0.784463869      36.8956503       0.600553585      -51.6477058      0.600553585      -51.6477058      0.784463869      36.8956503       
209.24           0.792428699      36.1758982       0.590451175      -52.3897425      0.590451175      -52.3897425      0.792428699      36.1758982       
214.72           0.800015453      35.4785939       0.580575311      -53.1083513      0.580575311      -53.1083513      0.800015453      35.4785939       
220.2            0.807244518      34.8028963       0.570923721      -53.8044389      0.570923721      -53.8044389      0.807244518      34.8028963       
225.68           0.814135199      34.1479894       0.561493598      -54.4788802      0.561493598      -54.4788802      0.814135199      34.1479894       
231.16           0.82070576       33.5130837       0.552281688      -55.1325187      0.552281688      -55.1325187      0.82070576       33.5130837       
236.64           0.826973463      32.8974166       0.543284372      -55.7661664      0.543284372      -55.7661664      0.826973463      32.8974166       
242.12           0.832954613      32.3002525       0.53449773       -56.3806042      0.53449773       -56.3806042      0.832954613      32.3002525       
247.6            0.838664599      31.7208828       0.525917609      -56.976582       0.525917609      -56.976582       0.838664599      31.7208828       
253.08           0.844117938      31.1586256       0.517539668      -57.5548198      0.517539668      -57.5548198      0.844117938      31.1586256       
258.56           0.849328318      30.6128253       0.509359428      -58.1160083      0.509359428      -58.1160083      0.849328318      30.6128253       
264.04           0.854308646      30.0828523       0.501372316      -58.6608094      0.501372316      -58.6608094      0.854308646      30.0828523       
269.52           0.859071083      29.5681022       0.49357369       -59.1898576      0.49357369       -59.1898576      0.859071083      29.5681022       
275              0.86362709       29.0679951       0.485958878      -59.7037604      0.485958878      -59.7037604      0.86362709       29.0679951       
280.48           0.867987465      28.5819749       0.478523199      -60.2030995      0.478523199      -60.2030995      0.867987465      28.5819749       
285.96           0.872162382      28.1095089       0.471261984      -60.6884316      0.471261984      -60.6884316      0.872162382      28.1095089       
291.44           0.876161424      27.6500862       0.464170598      -61.1602895      0.464170598      -61.1602895      0.876161424      27.6500862       
296.92           0.879993625      27.2032179       0.457244451      -61.619183       0.457244451      -61.619183       0.879993625      27.2032179       
302.4            0.883667492      26.7684354       0.450479015      -62.0655997      0.450479015      -62.0655997      0.883667492      26.7684354       
307.88           0.887191047      26.3452903       0.443869831      -62.5000062      0.443869831      -62.5000062      0.887191047      26.3452903       
313.36           0.89057185       25.933353        0.437412521      -62.9228488      0.437412521      -62.9228488      0.89057185       25.933353        
318.84           0.893817027      25.5322123       0.431102792      -63.3345543      0.431102792      -63.3345543      0.893817027      25.5322123       
324.32           0.896933298      25.1414746       0.424936443      -63.7355311      0.424936443      -63.7355311      0.896933298      25.1414746       
329.8            0.899927003      24.7607631       0.418909371      -64.1261698      0.418909371      -64.1261698      0.899927003      24.7607631       
335.28           0.902804123      24.3897169       0.41301757       -64.5068443      0.41301757       -64.5068443      0.902804123      24.3897169       
340.76           0.9055703        24.0279905       0.407257136      -64.8779122      0.407257136      -64.8779122      0.9055703        24.0279905       
346.24           0.908230864      23.6752532       0.401624267      -65.2397158      0.401624267      -65.2397158      0.908230864      23.6752532       
351.72           0.910790845      23.3311882       0.396115267      -65.5925825      0.396115267      -65.5925825      0.910790845      23.3311882       
357.2            0.913254995      22.995492        0.39072654       -65.9368261      0.39072654       -65.9368261      0.913254995      22.995492        
362.68           0.915627806      22.667874        0.385454595      -66.2727467      0.385454595      -66.2727467      0.915627806      22.667874        
368.16           0.917913523      22.3480556       0.380296044      -66.6006318      0.380296044      -66.6006318      0.917913523      22.3480556       
373.64           0.920116159      22.0357702       0.375247598      -66.9207569      0.375247598      -66.9207569      0.920116159      22.0357702       
379.12           0.922239511      21.7307619       0.370306068      -67.2333858      0.370306068      -67.2333858      0.922239511      21.7307619       
384.6            0.924287172      21.4327856       0.365468364      -67.5387712      0.365468364      -67.5387712      0.924287172      21.4327856       
390.08           0.926262545      21.1416062       0.360731491      -67.8371555      0.360731491      -67.8371555      0.926262545      21.1416062       
395.56           0.928168849      20.8569983       0.356092547      -68.128771       0.356092547      -68.128771       0.928168849      20.8569983       
401.04           0.930009135      20.5787456       0.351548724      -68.4138403      0.351548724      -68.4138403      0.930009135      20.5787456       
406.52           0.931786297      20.3066408       0.347097301      -68.6925771      0.347097301      -68.6925771      0.931786297      20.3066408       
412              0.933503075      20.0404846       0.342735645      -68.9651865      0.342735645      -68.9651865      0.933503075      20.0404846       
417.48           0.93516207       19.780086        0.338461207      -69.2318649      0.338461207      -69.2318649      0.93516207       19.780086        
422.96           0.936765748      19.5252615       0.334271522      -69.4928014      0.334271522      -69.4928014      0.936765748      19.5252615       
428.44           0.938316453      19.2758348       0.330164203      -69.748177       0.330164203      -69.748177       0.938316453      19.2758348       
433.92           0.939816406      19.0316366       0.326136941      -69.998166       0.326136941      -69.998166       0.939816406      19.0316366       
439.4            0.941267722      18.7925043       0.322187502      -70.2429354      0.322187502      -70.2429354      0.941267722      18.7925043       
444.88           0.942672405      18.5582816       0.318313726      -70.482646       0.318313726      -70.482646       0.942672405      18.5582816       
450.36           0.944032366      18.3288181       0.31451352       -70.7174523      0.31451352       -70.7174523      0.944032366      18.3288181       
455.84           0.945349417      18.1039692       0.310784864      -70.9475026      0.310784864      -70.9475026      0.945349417      18.1039692       
461.32           0.946625286      17.8835961       0.307125798      -71.1729398      0.307125798      -71.1729398      0.946625286      17.8835961       
466.8            0.947861616      17.6675648       0.303534432      -71.3939011      0.303534432      -71.3939011      0.947861616      17.6675648       
472.28           0.94905997       17.4557468       0.300008931      -71.6105188      0.300008931      -71.6105188      0.94905997       17.4557468       
477.76           0.950221838      17.2480181       0.296547525      -71.82292        0.296547525      -71.82292        0.950221838      17.2480181       
483.24           0.95134864       17.0442593       0.293148497      -72.0312271      0.293148497      -72.0312271      0.95134864       17.0442593       
488.72           0.952441729      16.8443557       0.289810189      -72.235558       0.289810189      -72.235558       0.952441729      16.8443557       
494.2            0.953502394      16.6481964       0.286530993      -72.4360262      0.286530993      -72.4360262      0.953502394      16.6481964       
499.68           0.954531865      16.4556749       0.283309355      -72.632741       0.283309355      -72.632741       0.954531865      16.4556749       
505.16           0.955531318      16.2666883       0.280143771      -72.825808       0.280143771      -72.825808       0.955531318      16.2666883       
510.64           0.956501872      16.0811375       0.277032783      -73.0153288      0.277032783      -73.0153288      0.956501872      16.0811375       
516.12           0.957444597      15.8989269       0.273974981      -73.2014011      0.273974981      -73.2014011      0.957444597      15.8989269       
521.6            0.958360515      15.7199644       0.270968999      -73.3841197      0.270968999      -73.3841197      0.958360515      15.7199644       
527.08           0.959250603      15.5441608       0.268013515      -73.5635755      0.268013515      -73.5635755      0.959250603      15.5441608       
532.56           0.960115794      15.3714305       0.265107247      -73.7398565      0.265107247      -73.7398565      0.960115794      15.3714305       
538.04           0.96095698       15.2016905       0.262248954      -73.9130475      0.262248954      -73.9130475      0.96095698       15.2016905       
543.52           0.961775015      15.0348608       0.259437434      -74.0832306      0.259437434      -74.0832306      0.961775015      15.0348608       
549              0.962570716      14.8708642       0.256671523      -74.2504848      0.256671523      -74.2504848      0.962570716      14.8708642       
554.48           0.963344864      14.7096259       0.253950091      -74.4148864      0.253950091      -74.4148864      0.963344864      14.7096259       
559.96           0.964098208      14.5510738       0.251272045      -74.5765094      0.251272045      -74.5765094      0.964098208      14.5510738       
565.44           0.964831464      14.3951382       0.248636324      -74.735425       0.248636324      -74.735425       0.964831464      14.3951382       
570.92           0.965545319      14.2417518       0.2460419        -74.8917021      0.2460419        -74.8917021      0.965545319      14.2417518       
576.4            0.966240432      14.0908492       0.243487776      -75.0454074      0.243487776      -75.0454074      0.966240432      14.0908492       
581.88           0.966917432      13.9423676       0.240972986      -75.1966054      0.240972986      -75.1966054      0.966917432      13.9423676       
587.36           0.967576924      13.7962459       0.238496592      -75.3453582      0.238496592      -75.3453582      0.967576924      13.7962459       
592.84           0.96821949       13.6524251       0.236057684      -75.4917263      0.236057684      -75.4917263      0.96821949       13.6524251       
598.32           0.968845685      13.5108481       0.23365538       -75.6357679      0.23365538       -75.6357679      0.968845685      13.5108481       
603.8            0.969456044      13.3714597       0.231288824      -75.7775396      0.231288824      -75.7775396      0.969456044      13.3714597       
609.28           0.97005108       13.2342062       0.228957184      -75.9170958      0.228957184      -75.9170958      0.97005108       13.2342062       
614.76           0.970631286      13.099036        0.226659655      -76.0544896      0.226659655      -76.0544896      0.970631286      13.099036        
620.24           0.971197134      12.9658986       0.224395452      -76.1897721      0.224395452      -76.1897721      0.971197134      12.9658986       
625.72           0.97174908       12.8347456       0.222163817      -76.3229931      0.222163817      -76.3229931      0.97174908       12.8347456       
631.2            0.972287561      12.7055298       0.219964009      -76.4542005      0.219964009      -76.4542005      0.972287561      12.7055298       
636.68           0.972812997      12.5782054       0.217795313      -76.5834411      0.217795313      -76.5834411      0.972812997      12.5782054       
642.16           0.973325791      12.4527281       0.215657031      -76.7107598      0.215657031      -76.7107598      0.973325791      12.4527281       
647.64           0.973826334      12.329055        0.213548487      -76.8362005      0.213548487      -76.8362005      0.973826334      12.329055        
653.12           0.974314998      12.2071444       0.211469024      -76.9598056      0.211469024      -76.9598056      0.974314998      12.2071444       
658.6            0.974792144      12.0869559       0.209418001      -77.0816164      0.209418001      -77.0816164      0.974792144      12.0869559       
664.08           0.975258119      11.9684502       0.207394798      -77.2016726      0.207394798      -77.2016726      0.975258119      11.9684502       
669.56           0.975713256      11.8515893       0.205398812      -77.320013       0.205398812      -77.320013       0.975713256      11.8515893       
675.04           0.976157877      11.7363362       0.203429454      -77.4366753      0.203429454      -77.4366753      0.976157877      11.7363362       
680.52           0.976592291      11.622655        0.201486154      -77.5516958      0.201486154      -77.5516958      0.976592291      11.622655        
686              0.977016798      11.510511        0.199568356      -77.6651099      0.199568356      -77.6651099      0.977016798      11.510511        
691.48           0.977431684      11.3998702       0.19767552       -77.7769521      0.19767552       -77.7769521      0.977431684      11.3998702       
696.96           0.977837228      11.2906998       0.195807122      -77.8872556      0.195807122      -77.8872556      0.977837228      11.2906998       
