! Coilcraft 0805HT-3N9 Chip Inductor				
! 24 June 2002			
# MHZ S MA R 50
!Freq             MagS11           AngS11           MagS21           AngS21           MagS12           AngS12           MagS22           AngS22
1                0.000670440231   21.9874382       0.999378355      -0.0143910485    0.999378355      -0.0143910485    0.000670440231   21.9874382       
32.17            0.00816265756    81.1508375       0.998776874      -0.462689796     0.998776874      -0.462689796     0.00816265756    81.1508375       
63.34            0.0159618492     83.809993        0.998405017      -0.910705435     0.998405017      -0.910705435     0.0159618492     83.809993        
94.51            0.0237674589     84.5812358       0.998036053      -1.35848446      0.998036053      -1.35848446      0.0237674589     84.5812358       
125.68           0.0315708556     84.8098817       0.997639648      -1.80602161      0.997639648      -1.80602161      0.0315708556     84.8098817       
156.85           0.0393693465     84.8015573       0.997203984      -2.25329883      0.997203984      -2.25329883      0.0393693465     84.8015573       
188.02           0.0471613415     84.6666143       0.996723044      -2.70029242      0.996723044      -2.70029242      0.0471613415     84.6666143       
219.19           0.0549455773     84.4553263       0.99619332       -3.14697556      0.99619332       -3.14697556      0.0549455773     84.4553263       
250.36           0.0627209135     84.1941348       0.995612601      -3.5933196       0.995612601      -3.5933196       0.0627209135     84.1941348       
281.53           0.0704862644     83.8983876       0.994979424      -4.03929472      0.994979424      -4.03929472      0.0704862644     83.8983876       
312.7            0.0782405722     83.5776608       0.9942928        -4.48487028      0.9942928        -4.48487028      0.0782405722     83.5776608       
343.87           0.085982796      83.2382697       0.993552057      -4.93001518      0.993552057      -4.93001518      0.085982796      83.2382697       
375.04           0.0937119066     82.8845667       0.99275675       -5.37469796      0.99275675       -5.37469796      0.0937119066     82.8845667       
406.21           0.101426884      82.5196608       0.991906597      -5.81888696      0.991906597      -5.81888696      0.101426884      82.5196608       
437.38           0.109126719      82.1458405       0.991001446      -6.26255044      0.991001446      -6.26255044      0.109126719      82.1458405       
468.55           0.116810408      81.7648336       0.990041245      -6.70565665      0.990041245      -6.70565665      0.116810408      81.7648336       
499.72           0.124476959      81.3779733       0.989026023      -7.14817387      0.989026023      -7.14817387      0.124476959      81.3779733       
530.89           0.132125391      80.9863081       0.98795588       -7.5900705       0.98795588       -7.5900705       0.132125391      80.9863081       
562.06           0.13975473       80.5906768       0.98683097       -8.03131508      0.98683097       -8.03131508      0.13975473       80.5906768       
593.23           0.147364016      80.1917606       0.985651499      -8.47187634      0.985651499      -8.47187634      0.147364016      80.1917606       
624.4            0.154952299      79.7901199       0.984417719      -8.91172322      0.984417719      -8.91172322      0.154952299      79.7901199       
655.57           0.162518641      79.386222        0.983129918      -9.35082492      0.983129918      -9.35082492      0.162518641      79.386222        
686.74           0.170062117      78.9804603       0.98178842       -9.78915093      0.98178842       -9.78915093      0.170062117      78.9804603       
717.91           0.177581818      78.5731698       0.980393583      -10.226671       0.980393583      -10.226671       0.177581818      78.5731698       
749.08           0.185076845      78.1646383       0.978945791      -10.6633553      0.978945791      -10.6633553      0.185076845      78.1646383       
780.25           0.192546317      77.7551152       0.977445458      -11.0991742      0.977445458      -11.0991742      0.192546317      77.7551152       
811.42           0.199989365      77.3448184       0.97589302       -11.5340985      0.97589302       -11.5340985      0.199989365      77.3448184       
842.59           0.207405138      76.9339398       0.97428894       -11.9680995      0.97428894       -11.9680995      0.207405138      76.9339398       
873.76           0.214792799      76.5226493       0.972633699      -12.4011488      0.972633699      -12.4011488      0.214792799      76.5226493       
904.93           0.222151528      76.1110986       0.970927801      -12.8332183      0.970927801      -12.8332183      0.222151528      76.1110986       
936.1            0.229480524      75.6994237       0.969171766      -13.2642804      0.969171766      -13.2642804      0.229480524      75.6994237       
967.27           0.236778999      75.2877475       0.967366135      -13.6943082      0.967366135      -13.6943082      0.236778999      75.2877475       
998.44           0.244046186      74.8761812       0.965511463      -14.1232748      0.965511463      -14.1232748      0.244046186      74.8761812       
1029.61          0.251281333      74.4648263       0.963608324      -14.5511542      0.963608324      -14.5511542      0.251281333      74.4648263       
1060.78          0.258483709      74.0537757       0.961657303      -14.9779205      0.961657303      -14.9779205      0.258483709      74.0537757       
1091.95          0.2656526        73.6431146       0.959659001      -15.4035486      0.959659001      -15.4035486      0.2656526        73.6431146       
1123.12          0.272787309      73.232922        0.957614033      -15.8280136      0.957614033      -15.8280136      0.272787309      73.232922        
1154.29          0.279887161      72.8232705       0.955523022      -16.2512914      0.955523022      -16.2512914      0.279887161      72.8232705       
1185.46          0.286951497      72.4142279       0.953386608      -16.6733582      0.953386608      -16.6733582      0.286951497      72.4142279       
1216.63          0.293979678      72.0058572       0.951205437      -17.0941907      0.951205437      -17.0941907      0.293979678      72.0058572       
1247.8           0.300971086      71.5982173       0.948980167      -17.5137663      0.948980167      -17.5137663      0.300971086      71.5982173       
1278.97          0.30792512       71.1913632       0.946711464      -17.9320628      0.946711464      -17.9320628      0.30792512       71.1913632       
1310.14          0.314841199      70.7853468       0.944400003      -18.3490586      0.944400003      -18.3490586      0.314841199      70.7853468       
1341.31          0.321718764      70.3802164       0.942046468      -18.7647325      0.942046468      -18.7647325      0.321718764      70.3802164       
1372.48          0.328557272      69.976018        0.939651548      -19.179064       0.939651548      -19.179064       0.328557272      69.976018        
1403.65          0.335356202      69.5727946       0.937215939      -19.5920331      0.937215939      -19.5920331      0.335356202      69.5727946       
1434.82          0.342115052      69.170587        0.934740342      -20.0036203      0.934740342      -20.0036203      0.342115052      69.170587        
1465.99          0.348833339      68.7694338       0.932225466      -20.4138067      0.932225466      -20.4138067      0.348833339      68.7694338       
1497.16          0.355510601      68.3693716       0.92967202       -20.8225739      0.92967202       -20.8225739      0.355510601      68.3693716       
1528.33          0.362146393      67.9704348       0.927080722      -21.229904       0.927080722      -21.229904       0.362146393      67.9704348       
1559.5           0.368740294      67.5726563       0.924452289      -21.6357799      0.924452289      -21.6357799      0.368740294      67.5726563       
1590.67          0.375291897      67.1760672       0.921787442      -22.0401847      0.921787442      -22.0401847      0.375291897      67.1760672       
1621.84          0.381800817      66.7806972       0.919086907      -22.4431022      0.919086907      -22.4431022      0.381800817      66.7806972       
1653.01          0.38826669       66.3865743       0.916351408      -22.844517       0.916351408      -22.844517       0.38826669       66.3865743       
1684.18          0.394689166      65.9937251       0.913581671      -23.2444138      0.913581671      -23.2444138      0.394689166      65.9937251       
1715.35          0.401067919      65.6021751       0.910778425      -23.6427781      0.910778425      -23.6427781      0.401067919      65.6021751       
1746.52          0.407402639      65.2119484       0.907942396      -24.039596       0.907942396      -24.039596       0.407402639      65.2119484       
1777.69          0.413693034      64.8230678       0.905074313      -24.4348539      0.905074313      -24.4348539      0.413693034      64.8230678       
1808.86          0.419938832      64.4355552       0.9021749        -24.828539       0.9021749        -24.828539       0.419938832      64.4355552       
1840.03          0.426139778      64.0494313       0.899244884      -25.2206389      0.899244884      -25.2206389      0.426139778      64.0494313       
1871.2           0.432295636      63.6647155       0.896284988      -25.6111416      0.896284988      -25.6111416      0.432295636      63.6647155       
1902.37          0.438406185      63.2814267       0.893295933      -26.000036       0.893295933      -26.000036       0.438406185      63.2814267       
1933.54          0.444471225      62.8995825       0.890278438      -26.387311       0.890278438      -26.387311       0.444471225      62.8995825       
1964.71          0.45049057       62.5191996       0.88723322       -26.7729566      0.88723322       -26.7729566      0.45049057       62.5191996       
1995.88          0.456464054      62.1402939       0.884160992      -27.1569627      0.884160992      -27.1569627      0.456464054      62.1402939       
2027.05          0.462391524      61.7628804       0.881062462      -27.5393203      0.881062462      -27.5393203      0.462391524      61.7628804       
2058.22          0.468272845      61.3869733       0.877938336      -27.9200204      0.877938336      -27.9200204      0.468272845      61.3869733       
2089.39          0.4741079        61.012586        0.874789316      -28.2990548      0.874789316      -28.2990548      0.4741079        61.012586        
2120.56          0.479896584      60.6397311       0.871616096      -28.6764157      0.871616096      -28.6764157      0.479896584      60.6397311       
2151.73          0.48563881       60.2684205       0.868419369      -29.0520957      0.868419369      -29.0520957      0.48563881       60.2684205       
2182.9           0.491334506      59.8986653       0.865199822      -29.426088       0.865199822      -29.426088       0.491334506      59.8986653       
2214.07          0.496983613      59.5304759       0.861958133      -29.7983862      0.861958133      -29.7983862      0.496983613      59.5304759       
2245.24          0.502586089      59.1638622       0.85869498       -30.1689843      0.85869498       -30.1689843      0.502586089      59.1638622       
2276.41          0.508141905      58.7988332       0.85541103       -30.5378769      0.85541103       -30.5378769      0.508141905      58.7988332       
2307.58          0.513651045      58.4353975       0.852106946      -30.905059       0.852106946      -30.905059       0.513651045      58.4353975       
2338.75          0.519113508      58.0735629       0.848783385      -31.2705259      0.848783385      -31.2705259      0.519113508      58.0735629       
2369.92          0.524529305      57.7133366       0.845440995      -31.6342735      0.845440995      -31.6342735      0.524529305      57.7133366       
2401.09          0.529898461      57.3547254       0.84208042       -31.9962981      0.84208042       -31.9962981      0.529898461      57.3547254       
2432.26          0.535221014      56.9977354       0.838702294      -32.3565962      0.838702294      -32.3565962      0.535221014      56.9977354       
2463.43          0.540497011      56.6423722       0.835307247      -32.715165       0.835307247      -32.715165       0.540497011      56.6423722       
2494.6           0.545726516      56.2886407       0.831895898      -33.072002       0.831895898      -33.072002       0.545726516      56.2886407       
2525.77          0.550909599      55.9365456       0.828468861      -33.427105       0.828468861      -33.427105       0.550909599      55.9365456       
2556.94          0.556046346      55.5860908       0.825026741      -33.7804723      0.825026741      -33.7804723      0.556046346      55.5860908       
2588.11          0.561136851      55.2372799       0.821570136      -34.1321025      0.821570136      -34.1321025      0.561136851      55.2372799       
2619.28          0.56618122       54.8901159       0.818099635      -34.4819945      0.818099635      -34.4819945      0.56618122       54.8901159       
2650.45          0.571179569      54.5446015       0.81461582       -34.8301478      0.81461582       -34.8301478      0.571179569      54.5446015       
2681.62          0.576132023      54.2007388       0.811119264      -35.176562       0.811119264      -35.176562       0.576132023      54.2007388       
2712.79          0.581038718      53.8585295       0.807610533      -35.5212371      0.807610533      -35.5212371      0.581038718      53.8585295       
2743.96          0.585899798      53.517975        0.804090182      -35.8641736      0.804090182      -35.8641736      0.585899798      53.517975        
2775.13          0.590715416      53.1790761       0.80055876       -36.2053721      0.80055876       -36.2053721      0.590715416      53.1790761       
2806.3           0.595485736      52.8418334       0.797016807      -36.5448336      0.797016807      -36.5448336      0.595485736      52.8418334       
2837.47          0.600210928      52.506247        0.793464854      -36.8825595      0.793464854      -36.8825595      0.600210928      52.506247        
2868.64          0.60489117       52.1723166       0.789903424      -37.2185514      0.789903424      -37.2185514      0.60489117       52.1723166       
2899.81          0.609526648      51.8400417       0.78633303       -37.5528112      0.78633303       -37.5528112      0.609526648      51.8400417       
2930.98          0.614117558      51.5094211       0.782754178      -37.885341       0.782754178      -37.885341       0.614117558      51.5094211       
2962.15          0.618664098      51.1804538       0.779167365      -38.2161434      0.779167365      -38.2161434      0.618664098      51.1804538       
2993.32          0.623166478      50.853138        0.775573079      -38.5452212      0.775573079      -38.5452212      0.623166478      50.853138        
3024.49          0.627624912      50.5274719       0.771971799      -38.8725772      0.771971799      -38.8725772      0.627624912      50.5274719       
3055.66          0.63203962       50.2034531       0.768363996      -39.1982148      0.768363996      -39.1982148      0.63203962       50.2034531       
3086.83          0.636410829      49.8810791       0.764750132      -39.5221375      0.764750132      -39.5221375      0.636410829      49.8810791       
3118             0.640738771      49.5603471       0.761130661      -39.844349       0.761130661      -39.844349       0.640738771      49.5603471       
3149.17          0.645023685      49.241254        0.757506027      -40.1648533      0.757506027      -40.1648533      0.645023685      49.241254        
3180.34          0.649265813      48.9237964       0.753876667      -40.4836546      0.753876667      -40.4836546      0.649265813      48.9237964       
3211.51          0.653465403      48.6079707       0.750243008      -40.8007572      0.750243008      -40.8007572      0.653465403      48.6079707       
3242.68          0.657622709      48.2937729       0.746605471      -41.1161659      0.746605471      -41.1161659      0.657622709      48.2937729       
3273.85          0.661737986      47.9811991       0.742964464      -41.4298853      0.742964464      -41.4298853      0.661737986      47.9811991       
3305.02          0.665811498      47.6702447       0.739320391      -41.7419206      0.739320391      -41.7419206      0.665811498      47.6702447       
3336.19          0.669843508      47.3609053       0.735673647      -42.0522769      0.735673647      -42.0522769      0.669843508      47.3609053       
3367.36          0.673834286      47.053176        0.732024615      -42.3609595      0.732024615      -42.3609595      0.673834286      47.053176        
3398.53          0.677784104      46.7470518       0.728373675      -42.6679742      0.728373675      -42.6679742      0.677784104      46.7470518       
3429.7           0.681693239      46.4425276       0.724721194      -42.9733264      0.724721194      -42.9733264      0.681693239      46.4425276       
3460.87          0.685561969      46.1395979       0.721067536      -43.2770222      0.721067536      -43.2770222      0.685561969      46.1395979       
3492.04          0.689390577      45.8382571       0.717413052      -43.5790675      0.717413052      -43.5790675      0.689390577      45.8382571       
3523.21          0.693179346      45.5384996       0.713758087      -43.8794686      0.713758087      -43.8794686      0.693179346      45.5384996       
3554.38          0.696928563      45.2403193       0.71010298       -44.1782316      0.71010298       -44.1782316      0.696928563      45.2403193       
3585.55          0.700638519      44.9437102       0.70644806       -44.4753631      0.70644806       -44.4753631      0.700638519      44.9437102       
3616.72          0.704309503      44.648666        0.702793648      -44.7708697      0.702793648      -44.7708697      0.704309503      44.648666        
3647.89          0.70794181       44.3551803       0.699140059      -45.064758       0.699140059      -45.064758       0.70794181       44.3551803       
3679.06          0.711535734      44.0632467       0.695487599      -45.3570349      0.695487599      -45.3570349      0.711535734      44.0632467       
3710.23          0.715091572      43.7728584       0.691836568      -45.6477072      0.691836568      -45.6477072      0.715091572      43.7728584       
3741.4           0.718609621      43.4840085       0.688187258      -45.936782       0.688187258      -45.936782       0.718609621      43.4840085       
3772.57          0.722090181      43.1966903       0.684539954      -46.2242664      0.684539954      -46.2242664      0.722090181      43.1966903       
3803.74          0.725533552      42.9108966       0.680894932      -46.5101677      0.680894932      -46.5101677      0.725533552      42.9108966       
3834.91          0.728940035      42.6266203       0.677252463      -46.7944931      0.677252463      -46.7944931      0.728940035      42.6266203       
3866.08          0.732309932      42.3438542       0.673612812      -47.0772501      0.673612812      -47.0772501      0.732309932      42.3438542       
3897.25          0.735643545      42.0625908       0.669976234      -47.3584461      0.669976234      -47.3584461      0.735643545      42.0625908       
3928.42          0.738941177      41.7828226       0.666342979      -47.6380886      0.666342979      -47.6380886      0.738941177      41.7828226       
3959.59          0.742203131      41.5045423       0.662713291      -47.9161853      0.662713291      -47.9161853      0.742203131      41.5045423       
