! Coilcraft 0805HT-R15 Chip Inductor				
! 24 June 2002			
# MHZ S MA R 50
!Freq             MagS11           AngS11           MagS21           AngS21           MagS12           AngS12           MagS22           AngS22
1                0.0134210391     42.0683191       0.990077776      -0.520392188     0.990077776      -0.520392188     0.0134210391     42.0683191       
5.74             0.0534224428     73.4185516       0.986084566      -2.97633058      0.986084566      -2.97633058      0.0534224428     73.4185516       
10.48            0.0954064658     76.0615326       0.981396673      -5.41405285      0.981396673      -5.41405285      0.0954064658     76.0615326       
15.22            0.137048385      75.7469229       0.975345154      -7.827287        0.975345154      -7.827287        0.137048385      75.7469229       
19.96            0.177987858      74.5343721       0.967861099      -10.2089979      0.967861099      -10.2089979      0.177987858      74.5343721       
24.7             0.218004813      72.9455481       0.95898541       -12.5523861      0.95898541       -12.5523861      0.218004813      72.9455481       
29.44            0.256926112      71.1785545       0.948805577      -14.8511944      0.948805577      -14.8511944      0.256926112      71.1785545       
34.18            0.294610651      69.3273749       0.937434743      -17.0998645      0.937434743      -17.0998645      0.294610651      69.3273749       
38.92            0.330945821      67.4434453       0.925000917      -19.2936207      0.925000917      -19.2936207      0.330945821      67.4434453       
43.66            0.365845954      65.5577794       0.911639818      -21.4285073      0.911639818      -21.4285073      0.365845954      65.5577794       
48.4             0.399250793      63.6903358       0.897489504      -23.5013903      0.897489504      -23.5013903      0.399250793      63.6903358       
53.14            0.431123575      61.8544933       0.882686187      -25.5099312      0.882686187      -25.5099312      0.431123575      61.8544933       
57.88            0.461448719      60.0594036       0.867361001      -27.4525396      0.867361001      -27.4525396      0.461448719      60.0594036       
62.62            0.490229228      58.3113335       0.851637593      -29.3283111      0.851637593      -29.3283111      0.490229228      58.3113335       
67.36            0.51748397       56.6144877       0.835630444      -31.1369562      0.835630444      -31.1369562      0.51748397       56.6144877       
72.1             0.543244959      54.9715463       0.819443813      -32.8787239      0.819443813      -32.8787239      0.543244959      54.9715463       
76.84            0.56755475       53.3840368       0.803171219      -34.5543248      0.803171219      -34.5543248      0.56755475       53.3840368       
81.58            0.590464028      51.8526029       0.786895343      -36.164856       0.786895343      -36.164856       0.590464028      51.8526029       
86.32            0.61202944       50.3772076       0.770688273      -37.7117311      0.770688273      -37.7117311      0.61202944       50.3772076       
91.06            0.632311704      48.9572894       0.754611987      -39.1966146      0.754611987      -39.1966146      0.632311704      48.9572894       
95.8             0.651373983      47.5918861       0.738719009      -40.621364       0.738719009      -40.621364       0.651373983      47.5918861       
100.54           0.669280541      46.2797332       0.723053167      -41.9879785      0.723053167      -41.9879785      0.669280541      46.2797332       
105.28           0.686095639      45.0193437       0.707650411      -43.298554       0.707650411      -43.298554       0.686095639      45.0193437       
110.02           0.70188266       43.8090721       0.692539635      -44.5552455      0.692539635      -44.5552455      0.70188266       43.8090721       
114.76           0.716703437      42.6471657       0.677743496      -45.7602352      0.677743496      -45.7602352      0.716703437      42.6471657       
119.5            0.730617742      41.5318062       0.663279182      -46.9157061      0.663279182      -46.9157061      0.730617742      41.5318062       
124.24           0.743682934      40.4611431       0.649159138      -48.0238212      0.649159138      -48.0238212      0.743682934      40.4611431       
128.98           0.755953708      39.4333195       0.635391735      -49.0867059      0.635391735      -49.0867059      0.755953708      39.4333195       
133.72           0.767481959      38.4464929       0.62198187       -50.1064353      0.62198187       -50.1064353      0.767481959      38.4464929       
138.46           0.778316707      37.4988512       0.608931505      -51.0850244      0.608931505      -51.0850244      0.778316707      37.4988512       
143.2            0.788504097      36.5886243       0.596240152      -52.0244203      0.596240152      -52.0244203      0.788504097      36.5886243       
147.94           0.798087434      35.7140935       0.58390529       -52.9264977      0.58390529       -52.9264977      0.798087434      35.7140935       
152.68           0.807107256      34.8735975       0.571922734      -53.7930553      0.571922734      -53.7930553      0.807107256      34.8735975       
157.42           0.815601439      34.0655366       0.560286953      -54.6258147      0.560286953      -54.6258147      0.815601439      34.0655366       
162.16           0.823605306      33.288376        0.548991347      -55.4264193      0.548991347      -55.4264193      0.823605306      33.288376        
166.9            0.831151758      32.5406462       0.53802848       -56.1964353      0.53802848       -56.1964353      0.831151758      32.5406462       
171.64           0.838271404      31.8209441       0.527390277      -56.9373527      0.527390277      -56.9373527      0.838271404      31.8209441       
176.38           0.844992701      31.1279319       0.517068199      -57.6505873      0.517068199      -57.6505873      0.844992701      31.1279319       
181.12           0.851342081      30.4603365       0.507053381      -58.3374826      0.507053381      -58.3374826      0.851342081      30.4603365       
185.86           0.85734409       29.8169474       0.497336752      -58.9993125      0.497336752      -58.9993125      0.85734409       29.8169474       
190.6            0.863021513      29.1966151       0.487909135      -59.6372843      0.487909135      -59.6372843      0.863021513      29.1966151       
195.34           0.868395495      28.5982488       0.478761324      -60.2525411      0.478761324      -60.2525411      0.868395495      28.5982488       
200.08           0.87348566       28.0208142       0.469884156      -60.846165       0.469884156      -60.846165       0.87348566       28.0208142       
204.82           0.878310219      27.4633308       0.461268564      -61.4191798      0.461268564      -61.4191798      0.878310219      27.4633308       
209.56           0.882886075      26.9248698       0.452905616      -61.9725544      0.452905616      -61.9725544      0.882886075      26.9248698       
214.3            0.887228921      26.4045514       0.444786556      -62.5072051      0.444786556      -62.5072051      0.887228921      26.4045514       
219.04           0.891353328      25.9015423       0.436902823      -63.0239986      0.436902823      -63.0239986      0.891353328      25.9015423       
223.78           0.89527283       25.4150536       0.429246078      -63.5237548      0.429246078      -63.5237548      0.89527283       25.4150536       
228.52           0.899000005      24.9443381       0.421808213      -64.0072494      0.421808213      -64.0072494      0.899000005      24.9443381       
233.26           0.902546543      24.4886883       0.414581368      -64.4752162      0.414581368      -64.4752162      0.902546543      24.4886883       
238              0.905923319      24.0474343       0.407557929      -64.9283496      0.407557929      -64.9283496      0.905923319      24.0474343       
242.74           0.909140449      23.6199412       0.400730539      -65.3673067      0.400730539      -65.3673067      0.909140449      23.6199412       
247.48           0.912207352      23.205608        0.394092095      -65.7927098      0.394092095      -65.7927098      0.912207352      23.205608        
252.22           0.9151328        22.8038648       0.387635749      -66.205148       0.387635749      -66.205148       0.9151328        22.8038648       
256.96           0.917924969      22.4141717       0.381354901      -66.6051794      0.381354901      -66.6051794      0.917924969      22.4141717       
261.7            0.920591482      22.0360167       0.375243203      -66.9933329      0.375243203      -66.9933329      0.920591482      22.0360167       
266.44           0.92313945       21.6689143       0.369294545      -67.3701097      0.369294545      -67.3701097      0.92313945       21.6689143       
271.18           0.925575514      21.3124039       0.363503057      -67.7359851      0.363503057      -67.7359851      0.925575514      21.3124039       
275.92           0.927905874      20.9660483       0.357863097      -68.09141        0.357863097      -68.09141        0.927905874      20.9660483       
280.66           0.930136329      20.6294327       0.352369246      -68.4368122      0.352369246      -68.4368122      0.930136329      20.6294327       
285.4            0.932272298      20.3021629       0.347016302      -68.7725978      0.347016302      -68.7725978      0.932272298      20.3021629       
290.14           0.934318854      19.9838646       0.341799271      -69.0991526      0.341799271      -69.0991526      0.934318854      19.9838646       
294.88           0.936280746      19.674182        0.336713361      -69.416843       0.336713361      -69.416843       0.936280746      19.674182        
299.62           0.938162426      19.3727768       0.331753973      -69.7260172      0.331753973      -69.7260172      0.938162426      19.3727768       
304.36           0.939968064      19.0793272       0.326916697      -70.0270065      0.326916697      -70.0270065      0.939968064      19.0793272       
309.1            0.941701573      18.793527        0.322197298      -70.3201259      0.322197298      -70.3201259      0.941701573      18.793527        
313.84           0.943366628      18.5150849       0.317591716      -70.6056751      0.317591716      -70.6056751      0.943366628      18.5150849       
318.58           0.944966676      18.2437234       0.313096055      -70.8839397      0.313096055      -70.8839397      0.944966676      18.2437234       
323.32           0.94650496       17.9791779       0.308706577      -71.1551913      0.308706577      -71.1551913      0.94650496       17.9791779       
328.06           0.947984527      17.7211965       0.304419697      -71.4196891      0.304419697      -71.4196891      0.947984527      17.7211965       
332.8            0.949408246      17.469539        0.300231973      -71.6776799      0.300231973      -71.6776799      0.949408246      17.469539        
337.54           0.950778815      17.2239762       0.296140103      -71.9293993      0.296140103      -71.9293993      0.950778815      17.2239762       
342.28           0.952098777      16.9842894       0.292140917      -72.1750719      0.292140917      -72.1750719      0.952098777      16.9842894       
347.02           0.953370528      16.7502698       0.288231372      -72.4149121      0.288231372      -72.4149121      0.953370528      16.7502698       
351.76           0.954596328      16.5217181       0.284408548      -72.6491246      0.284408548      -72.6491246      0.954596328      16.5217181       
356.5            0.955778308      16.2984438       0.28066964       -72.877905       0.28066964       -72.877905       0.955778308      16.2984438       
361.24           0.956918482      16.0802648       0.277011954      -73.1014401      0.277011954      -73.1014401      0.956918482      16.0802648       
365.98           0.95801875       15.8670072       0.273432902      -73.3199086      0.273432902      -73.3199086      0.95801875       15.8670072       
370.72           0.959080908      15.6585043       0.26993          -73.5334814      0.26993          -73.5334814      0.959080908      15.6585043       
375.46           0.960106656      15.4545968       0.266500856      -73.742322       0.266500856      -73.742322       0.960106656      15.4545968       
380.2            0.9610976        15.2551324       0.263143176      -73.9465866      0.263143176      -73.9465866      0.9610976        15.2551324       
384.94           0.962055261      15.0599648       0.259854752      -74.1464253      0.259854752      -74.1464253      0.962055261      15.0599648       
389.68           0.96298108       14.8689542       0.25663346       -74.3419814      0.25663346       -74.3419814      0.96298108       14.8689542       
394.42           0.96387642       14.6819666       0.25347726       -74.5333925      0.25347726       -74.5333925      0.96387642       14.6819666       
399.16           0.964742577      14.4988733       0.250384187      -74.7207903      0.250384187      -74.7207903      0.964742577      14.4988733       
403.9            0.965580777      14.3195511       0.247352352      -74.9043013      0.247352352      -74.9043013      0.965580777      14.3195511       
408.64           0.966392183      14.1438817       0.244379934      -75.0840465      0.244379934      -75.0840465      0.966392183      14.1438817       
413.38           0.967177902      13.9717516       0.241465182      -75.2601424      0.241465182      -75.2601424      0.967177902      13.9717516       
418.12           0.967938984      13.8030519       0.238606411      -75.4327007      0.238606411      -75.4327007      0.967938984      13.8030519       
422.86           0.968676424      13.6376778       0.235801996      -75.6018285      0.235801996      -75.6018285      0.968676424      13.6376778       
427.6            0.969391173      13.4755287       0.233050371      -75.7676288      0.233050371      -75.7676288      0.969391173      13.4755287       
432.34           0.970084131      13.3165082       0.23035003       -75.9302007      0.23035003       -75.9302007      0.970084131      13.3165082       
437.08           0.970756157      13.1605231       0.227699518      -76.0896393      0.227699518      -76.0896393      0.970756157      13.1605231       
441.82           0.971408067      13.0074843       0.225097433      -76.2460361      0.225097433      -76.2460361      0.971408067      13.0074843       
446.56           0.97204064       12.8573056       0.222542426      -76.399479       0.222542426      -76.399479       0.97204064       12.8573056       
451.3            0.972654616      12.7099045       0.220033191      -76.5500528      0.220033191      -76.5500528      0.972654616      12.7099045       
456.04           0.973250702      12.5652012       0.217568472      -76.697839       0.217568472      -76.697839       0.973250702      12.5652012       
460.78           0.973829571      12.4231191       0.215147054      -76.8429159      0.215147054      -76.8429159      0.973829571      12.4231191       
465.52           0.974391866      12.2835844       0.212767766      -76.9853593      0.212767766      -76.9853593      0.974391866      12.2835844       
470.26           0.9749382        12.1465257       0.210429477      -77.1252418      0.210429477      -77.1252418      0.9749382        12.1465257       
475              0.975469159      12.0118747       0.208131094      -77.2626336      0.208131094      -77.2626336      0.975469159      12.0118747       
479.74           0.9759853        11.879565        0.205871562      -77.3976024      0.205871562      -77.3976024      0.9759853        11.879565        
484.48           0.976487159      11.749533        0.203649862      -77.5302134      0.203649862      -77.5302134      0.976487159      11.749533        
489.22           0.976975245      11.6217171       0.201465008      -77.6605294      0.201465008      -77.6605294      0.976975245      11.6217171       
493.96           0.977450047      11.4960579       0.199316047      -77.7886112      0.199316047      -77.7886112      0.977450047      11.4960579       
498.7            0.977912032      11.3724982       0.197202059      -77.9145172      0.197202059      -77.9145172      0.977912032      11.3724982       
503.44           0.978361645      11.2509825       0.195122152      -78.0383041      0.195122152      -78.0383041      0.978361645      11.2509825       
508.18           0.978799316      11.1314576       0.193075466      -78.1600263      0.193075466      -78.1600263      0.978799316      11.1314576       
512.92           0.979225452      11.0138716       0.191061167      -78.2797366      0.191061167      -78.2797366      0.979225452      11.0138716       
517.66           0.979640446      10.8981748       0.189078448      -78.397486       0.189078448      -78.397486       0.979640446      10.8981748       
522.4            0.980044674      10.7843189       0.187126528      -78.5133235      0.187126528      -78.5133235      0.980044674      10.7843189       
527.14           0.980438495      10.6722574       0.185204652      -78.6272968      0.185204652      -78.6272968      0.980438495      10.6722574       
531.88           0.980822255      10.5619451       0.183312087      -78.7394519      0.183312087      -78.7394519      0.980822255      10.5619451       
536.62           0.981196285      10.4533384       0.181448123      -78.8498332      0.181448123      -78.8498332      0.981196285      10.4533384       
541.36           0.981560903      10.3463952       0.179612075      -78.9584837      0.179612075      -78.9584837      0.981560903      10.3463952       
546.1            0.981916413      10.2410747       0.177803276      -79.065445       0.177803276      -79.065445       0.981916413      10.2410747       
550.84           0.982263109      10.1373372       0.176021082      -79.1707575      0.176021082      -79.1707575      0.982263109      10.1373372       
555.58           0.98260127       10.0351446       0.174264866      -79.27446        0.174264866      -79.27446        0.98260127       10.0351446       
560.32           0.982931168      9.93445974       0.172534022      -79.3765903      0.172534022      -79.3765903      0.982931168      9.93445974       
565.06           0.983253061      9.83524677       0.170827963      -79.477185       0.170827963      -79.477185       0.983253061      9.83524677       
569.8            0.9835672        9.73747089       0.169146116      -79.5762794      0.169146116      -79.5762794      0.9835672        9.73747089       
574.54           0.983873823      9.64109838       0.16748793       -79.6739078      0.16748793       -79.6739078      0.983873823      9.64109838       
579.28           0.984173161      9.54609658       0.165852867      -79.7701034      0.165852867      -79.7701034      0.984173161      9.54609658       
584.02           0.984465437      9.45243378       0.164240405      -79.8648985      0.164240405      -79.8648985      0.984465437      9.45243378       
588.76           0.984750863      9.36007927       0.162650039      -79.9583242      0.162650039      -79.9583242      0.984750863      9.36007927       
593.5            0.985029646      9.26900322       0.161081277      -80.0504109      0.161081277      -80.0504109      0.985029646      9.26900322       
598.24           0.985301982      9.17917673       0.159533641      -80.1411878      0.159533641      -80.1411878      0.985301982      9.17917673       
602.98           0.985568063      9.09057173       0.158006669      -80.2306834      0.158006669      -80.2306834      0.985568063      9.09057173       
