! Coilcraft 0805HT-33N Chip Inductor				
! 24 June 2002			
# MHZ S MA R 50
!Freq             MagS11           AngS11           MagS21           AngS21           MagS12           AngS12           MagS22           AngS22
1                0.00326360716    39.2065931       0.997473256      -0.118499915     0.997473256      -0.118499915     0.00326360716    39.2065931       
10.72            0.0224839361     78.6149963       0.995805621      -1.2683088       0.995805621      -1.2683088       0.0224839361     78.6149963       
20.44            0.0424088892     81.1859169       0.994385234      -2.4154291       0.994385234      -2.4154291       0.0424088892     81.1859169       
30.16            0.0623138815     81.5365667       0.992743941      -3.55954252      0.992743941      -3.55954252      0.0623138815     81.5365667       
39.88            0.0821460468     81.2290617       0.990805715      -4.70001602      0.990805715      -4.70001602      0.0821460468     81.2290617       
49.6             0.101877162      80.6337281       0.98854384       -5.83614264      0.98854384       -5.83614264      0.101877162      80.6337281       
59.32            0.121484108      79.8866189       0.985948267      -6.96719298      0.985948267      -6.96719298      0.121484108      79.8866189       
69.04            0.140945738      79.0504766       0.983016821      -8.09243642      0.983016821      -8.09243642      0.140945738      79.0504766       
78.76            0.160242133      78.158712        0.97975187       -9.21115257      0.97975187       -9.21115257      0.160242133      78.158712        
88.48            0.179354413      77.2310096       0.976158763      -10.3226387      0.976158763      -10.3226387      0.179354413      77.2310096       
98.2             0.198264713      76.2798811       0.972244996      -11.4262152      0.972244996      -11.4262152      0.198264713      76.2798811       
107.92           0.216956206      75.3137672       0.968019693      -12.5212293      0.968019693      -12.5212293      0.216956206      75.3137672       
117.64           0.23541315       74.3386424       0.963493264      -13.6070585      0.963493264      -13.6070585      0.23541315       74.3386424       
127.36           0.25362092       73.3589057       0.958677145      -14.6831128      0.958677145      -14.6831128      0.25362092       73.3589057       
137.08           0.271566043      72.3779032       0.953583598      -15.748837       0.953583598      -15.748837       0.271566043      72.3779032       
146.8            0.289236221      71.3982497       0.948225539      -16.8037116      0.948225539      -16.8037116      0.289236221      71.3982497       
156.52           0.306620343      70.422034        0.942616394      -17.8472546      0.942616394      -17.8472546      0.306620343      70.422034        
166.24           0.323708488      69.4509546       0.936769966      -18.8790214      0.936769966      -18.8790214      0.323708488      69.4509546       
175.96           0.340491918      68.4864125       0.93070032       -19.8986057      0.93070032       -19.8986057      0.340491918      68.4864125       
185.68           0.356963063      67.5295758       0.924421677      -20.9056393      0.924421677      -20.9056393      0.356963063      67.5295758       
195.4            0.373115492      66.5814259       0.917948315      -21.8997919      0.917948315      -21.8997919      0.373115492      66.5814259       
205.12           0.38894389       65.6427918       0.911294482      -22.8807705      0.911294482      -22.8807705      0.38894389       65.6427918       
214.84           0.404444009      64.7143753       0.904474319      -23.8483188      0.904474319      -23.8483188      0.404444009      64.7143753       
224.56           0.419612634      63.7967708       0.897501786      -24.8022161      0.897501786      -24.8022161      0.419612634      63.7967708       
234.28           0.434447528      62.8904803       0.890390602      -25.7422765      0.890390602      -25.7422765      0.434447528      62.8904803       
244              0.448947384      61.9959255       0.883154186      -26.6683472      0.883154186      -26.6683472      0.448947384      61.9959255       
253.72           0.46311177       61.1134581       0.875805611      -27.5803077      0.875805611      -27.5803077      0.46311177       61.1134581       
263.44           0.476941068      60.2433672       0.868357563      -28.4780677      0.868357563      -28.4780677      0.476941068      60.2433672       
273.16           0.490436425      59.3858871       0.860822303      -29.3615664      0.860822303      -29.3615664      0.490436425      59.3858871       
282.88           0.503599688      58.5412021       0.853211645      -30.2307699      0.853211645      -30.2307699      0.503599688      58.5412021       
292.6            0.516433346      57.7094524       0.845536927      -31.0856704      0.845536927      -31.0856704      0.516433346      57.7094524       
302.32           0.52894048       56.8907382       0.837808999      -31.9262843      0.837808999      -31.9262843      0.52894048       56.8907382       
312.04           0.541124699      56.0851239       0.830038207      -32.7526504      0.830038207      -32.7526504      0.541124699      56.0851239       
321.76           0.55299009       55.2926412       0.822234389      -33.5648284      0.822234389      -33.5648284      0.55299009       55.2926412       
331.48           0.564541165      54.5132926       0.814406872      -34.3628976      0.814406872      -34.3628976      0.564541165      54.5132926       
341.2            0.57578281       53.7470544       0.806564467      -35.1469545      0.806564467      -35.1469545      0.57578281       53.7470544       
350.92           0.586720239      52.9938791       0.798715481      -35.9171124      0.798715481      -35.9171124      0.586720239      52.9938791       
360.64           0.597358946      52.253698        0.790867716      -36.6734988      0.790867716      -36.6734988      0.597358946      52.253698        
370.36           0.607704665      51.5264233       0.783028484      -37.416255       0.783028484      -37.416255       0.607704665      51.5264233       
380.08           0.61776333       50.8119502       0.775204614      -38.145534       0.775204614      -38.145534       0.61776333       50.8119502       
389.8            0.627541038      50.1101587       0.767402469      -38.8614994      0.767402469      -38.8614994      0.627541038      50.1101587       
399.52           0.637044013      49.4209157       0.759627956      -39.5643245      0.759627956      -39.5643245      0.637044013      49.4209157       
409.24           0.646278574      48.744076        0.751886545      -40.2541907      0.751886545      -40.2541907      0.646278574      48.744076        
418.96           0.655251112      48.0794842       0.744183284      -40.9312865      0.744183284      -40.9312865      0.655251112      48.0794842       
428.68           0.663968053      47.4269761       0.736522817      -41.5958068      0.736522817      -41.5958068      0.663968053      47.4269761       
438.4            0.672435846      46.7863796       0.728909401      -42.2479515      0.728909401      -42.2479515      0.672435846      46.7863796       
448.12           0.680660932      46.1575162       0.721346925      -42.887925       0.721346925      -42.887925       0.680660932      46.1575162       
457.84           0.688649728      45.5402017       0.713838926      -43.515935       0.713838926      -43.515935       0.688649728      45.5402017       
467.56           0.696408611      44.9342476       0.706388609      -44.132192       0.706388609      -44.132192       0.696408611      44.9342476       
477.28           0.703943899      44.3394616       0.698998863      -44.7369084      0.698998863      -44.7369084      0.703943899      44.3394616       
487              0.711261841      43.7556485       0.691672281      -45.3302983      0.691672281      -45.3302983      0.711261841      43.7556485       
496.72           0.718368604      43.182611        0.684411175      -45.9125762      0.684411175      -45.9125762      0.718368604      43.182611        
506.44           0.72527026       42.6201504       0.677217592      -46.4839569      0.677217592      -46.4839569      0.72527026       42.6201504       
516.16           0.731972782      42.0680671       0.670093333      -47.0446552      0.670093333      -47.0446552      0.731972782      42.0680671       
525.88           0.738482033      41.5261612       0.663039968      -47.5948849      0.663039968      -47.5948849      0.738482033      41.5261612       
535.6            0.744803759      40.9942328       0.656058848      -48.1348588      0.656058848      -48.1348588      0.744803759      40.9942328       
545.32           0.750943587      40.4720828       0.649151123      -48.6647882      0.649151123      -48.6647882      0.750943587      40.4720828       
555.04           0.756907019      39.959513        0.642317755      -49.1848827      0.642317755      -49.1848827      0.756907019      39.959513        
564.76           0.76269943       39.4563266       0.635559531      -49.6953498      0.635559531      -49.6953498      0.76269943       39.4563266       
574.48           0.768326063      38.9623284       0.628877076      -50.1963945      0.628877076      -50.1963945      0.768326063      38.9623284       
584.2            0.773792029      38.4773251       0.622270863      -50.6882196      0.622270863      -50.6882196      0.773792029      38.4773251       
593.92           0.779102307      38.0011256       0.615741228      -51.1710248      0.615741228      -51.1710248      0.779102307      38.0011256       
603.64           0.784261743      37.5335412       0.609288376      -51.6450071      0.609288376      -51.6450071      0.784261743      37.5335412       
613.36           0.789275047      37.0743858       0.602912397      -52.1103605      0.602912397      -52.1103605      0.789275047      37.0743858       
623.08           0.794146799      36.6234758       0.596613271      -52.5672755      0.596613271      -52.5672755      0.794146799      36.6234758       
632.8            0.798881446      36.1806307       0.590390878      -53.0159398      0.590390878      -53.0159398      0.798881446      36.1806307       
642.52           0.803483305      35.7456729       0.584245008      -53.4565373      0.584245008      -53.4565373      0.803483305      35.7456729       
652.24           0.807956563      35.3184278       0.578175367      -53.8892488      0.578175367      -53.8892488      0.807956563      35.3184278       
661.96           0.812305281      34.8987239       0.572181586      -54.3142514      0.572181586      -54.3142514      0.812305281      34.8987239       
671.68           0.816533396      34.4863929       0.566263227      -54.7317189      0.566263227      -54.7317189      0.816533396      34.4863929       
681.4            0.820644722      34.0812699       0.560419789      -55.1418215      0.560419789      -55.1418215      0.820644722      34.0812699       
691.12           0.824642951      33.6831929       0.554650717      -55.5447257      0.554650717      -55.5447257      0.824642951      33.6831929       
700.84           0.82853166       33.2920037       0.548955403      -55.9405947      0.548955403      -55.9405947      0.82853166       33.2920037       
710.56           0.83231431       32.9075468       0.543333197      -56.3295879      0.543333197      -56.3295879      0.83231431       32.9075468       
720.28           0.835994252      32.5296705       0.537783404      -56.7118615      0.537783404      -56.7118615      0.835994252      32.5296705       
730              0.839574724      32.1582261       0.532305298      -57.087568       0.532305298      -57.087568       0.839574724      32.1582261       
739.72           0.843058862      31.7930682       0.526898119      -57.4568564      0.526898119      -57.4568564      0.843058862      31.7930682       
749.44           0.846449696      31.4340548       0.521561079      -57.8198722      0.521561079      -57.8198722      0.846449696      31.4340548       
759.16           0.849750156      31.0810468       0.516293368      -58.1767579      0.516293368      -58.1767579      0.849750156      31.0810468       
768.88           0.852963074      30.7339088       0.511094153      -58.5276521      0.511094153      -58.5276521      0.852963074      30.7339088       
778.6            0.856091188      30.392508        0.505962585      -58.8726906      0.505962585      -58.8726906      0.856091188      30.392508        
788.32           0.859137145      30.056715        0.500897799      -59.2120055      0.500897799      -59.2120055      0.859137145      30.056715        
798.04           0.862103501      29.7264034       0.495898919      -59.5457259      0.495898919      -59.5457259      0.862103501      29.7264034       
807.76           0.864992726      29.4014499       0.490965059      -59.8739779      0.490965059      -59.8739779      0.864992726      29.4014499       
817.48           0.867807209      29.0817341       0.486095324      -60.1968843      0.486095324      -60.1968843      0.867807209      29.0817341       
827.2            0.870549254      28.7671384       0.481288816      -60.5145648      0.481288816      -60.5145648      0.870549254      28.7671384       
836.92           0.873221091      28.4575481       0.47654463       -60.8271364      0.47654463       -60.8271364      0.873221091      28.4575481       
846.64           0.875824872      28.1528516       0.471861862      -61.1347129      0.471861862      -61.1347129      0.875824872      28.1528516       
856.36           0.878362675      27.8529396       0.467239607      -61.4374055      0.467239607      -61.4374055      0.878362675      27.8529396       
866.08           0.880836511      27.5577058       0.462676959      -61.7353224      0.462676959      -61.7353224      0.880836511      27.5577058       
875.8            0.88324832       27.2670465       0.458173016      -62.0285692      0.458173016      -62.0285692      0.88324832       27.2670465       
885.52           0.885599976      26.9808604       0.453726879      -62.3172488      0.453726879      -62.3172488      0.885599976      26.9808604       
895.24           0.88789329       26.6990489       0.449337655      -62.6014614      0.449337655      -62.6014614      0.88789329       26.6990489       
904.96           0.890130013      26.4215159       0.445004452      -62.8813048      0.445004452      -62.8813048      0.890130013      26.4215159       
914.68           0.892311834      26.1481675       0.440726388      -63.1568742      0.440726388      -63.1568742      0.892311834      26.1481675       
924.4            0.894440387      25.8789123       0.436502588      -63.4282625      0.436502588      -63.4282625      0.894440387      25.8789123       
934.12           0.89651725       25.6136612       0.432332183      -63.6955601      0.432332183      -63.6955601      0.89651725       25.6136612       
943.84           0.898543948      25.3523272       0.428214313      -63.9588552      0.428214313      -63.9588552      0.898543948      25.3523272       
953.56           0.900521954      25.0948258       0.424148126      -64.2182336      0.424148126      -64.2182336      0.900521954      25.0948258       
963.28           0.902452693      24.8410742       0.420132781      -64.4737791      0.420132781      -64.4737791      0.902452693      24.8410742       
973              0.90433754       24.5909921       0.416167445      -64.7255733      0.416167445      -64.7255733      0.90433754       24.5909921       
982.72           0.906177826      24.3445009       0.412251297      -64.9736956      0.412251297      -64.9736956      0.906177826      24.3445009       
992.44           0.907974837      24.1015241       0.408383525      -65.2182235      0.408383525      -65.2182235      0.907974837      24.1015241       
1002.16          0.909729815      23.8619871       0.404563326      -65.4592325      0.404563326      -65.4592325      0.909729815      23.8619871       
1011.88          0.911443962      23.6258173       0.400789912      -65.6967961      0.400789912      -65.6967961      0.911443962      23.6258173       
1021.6           0.91311844       23.3929438       0.397062504      -65.9309861      0.397062504      -65.9309861      0.91311844       23.3929438       
1031.32          0.914754372      23.1632974       0.393380332      -66.1618723      0.393380332      -66.1618723      0.914754372      23.1632974       
1041.04          0.916352845      22.9368107       0.389742641      -66.3895229      0.389742641      -66.3895229      0.916352845      22.9368107       
1050.76          0.91791491       22.7134181       0.386148686      -66.6140041      0.386148686      -66.6140041      0.91791491       22.7134181       
1060.48          0.919441583      22.4930555       0.382597732      -66.8353807      0.382597732      -66.8353807      0.919441583      22.4930555       
1070.2           0.920933847      22.2756605       0.379089059      -67.0537157      0.379089059      -67.0537157      0.920933847      22.2756605       
1079.92          0.922392654      22.0611721       0.375621954      -67.2690706      0.375621954      -67.2690706      0.922392654      22.0611721       
1089.64          0.923818924      21.8495309       0.37219572       -67.4815053      0.37219572       -67.4815053      0.923818924      21.8495309       
1099.36          0.925213547      21.640679        0.368809669      -67.6910782      0.368809669      -67.6910782      0.925213547      21.640679        
1109.08          0.926577385      21.4345599       0.365463124      -67.8978463      0.365463124      -67.8978463      0.926577385      21.4345599       
1118.8           0.927911273      21.2311185       0.362155422      -68.1018651      0.362155422      -68.1018651      0.927911273      21.2311185       
1128.52          0.929216019      21.0303011       0.358885909      -68.3031887      0.358885909      -68.3031887      0.929216019      21.0303011       
1138.24          0.930492403      20.8320551       0.355653943      -68.5018698      0.355653943      -68.5018698      0.930492403      20.8320551       
1147.96          0.931741185      20.6363294       0.352458893      -68.6979601      0.352458893      -68.6979601      0.931741185      20.6363294       
1157.68          0.932963095      20.4430742       0.34930014       -68.8915095      0.34930014       -68.8915095      0.932963095      20.4430742       
1167.4           0.934158845      20.2522406       0.346177076      -69.0825672      0.346177076      -69.0825672      0.934158845      20.2522406       
1177.12          0.935329123      20.0637813       0.343089102      -69.2711807      0.343089102      -69.2711807      0.935329123      20.0637813       
1186.84          0.936474594      19.8776498       0.340035631      -69.4573968      0.340035631      -69.4573968      0.936474594      19.8776498       
1196.56          0.937595905      19.6938008       0.337016088      -69.6412607      0.337016088      -69.6412607      0.937595905      19.6938008       
1206.28          0.93869368       19.5121902       0.334029906      -69.8228169      0.334029906      -69.8228169      0.93869368       19.5121902       
1216             0.939768526      19.332775        0.331076529      -70.0021085      0.331076529      -70.0021085      0.939768526      19.332775        
1225.72          0.94082103       19.1555129       0.328155413      -70.1791777      0.328155413      -70.1791777      0.94082103       19.1555129       
1235.44          0.941851763      18.9803629       0.325266022      -70.3540656      0.325266022      -70.3540656      0.941851763      18.9803629       
