! Coilcraft 0805HT-12N Chip Inductor				
! 24 June 2002			
# MHZ S MA R 50
!Freq             MagS11           AngS11           MagS21           AngS21           MagS12           AngS12           MagS22           AngS22
1                0.00148881809    30.3399662       0.998715369      -0.0431445088    0.998715369      -0.0431445088    0.00148881809    30.3399662       
18.7             0.0142426279     80.1796216       0.997669488      -0.805990129     0.997669488      -0.805990129     0.0142426279     80.1796216       
36.4             0.0274954988     82.7607529       0.996908438      -1.56786031      0.996908438      -1.56786031      0.0274954988     82.7607529       
54.1             0.0407507319     83.320082        0.996082405      -2.32875654      0.996082405      -2.32875654      0.0407507319     83.320082        
71.8             0.0539866367     83.2928699       0.995140136      -3.08853504      0.995140136      -3.08853504      0.0539866367     83.2928699       
89.5             0.0671937613     83.0095284       0.994062103      -3.84701608      0.994062103      -3.84701608      0.0671937613     83.0095284       
107.2            0.0803649626     82.5899232       0.992838954      -4.60400511      0.992838954      -4.60400511      0.0803649626     82.5899232       
124.9            0.0934938212     82.0888295       0.991465861      -5.35930072      0.991465861      -5.35930072      0.0934938212     82.0888295       
142.6            0.10657424       81.5351482       0.989940424      -6.11269858      0.989940424      -6.11269858      0.10657424       81.5351482       
160.3            0.119600318      80.9457243       0.98826172       -6.86399381      0.98826172       -6.86399381      0.119600318      80.9457243       
178              0.132566314      80.3311272       0.986429816      -7.61298243      0.986429816      -7.61298243      0.132566314      80.3311272       
195.7            0.145466633      79.6983797       0.984445496      -8.35946251      0.984445496      -8.35946251      0.145466633      79.6983797       
213.4            0.158295827      79.0523681       0.982310086      -9.10323496      0.982310086      -9.10323496      0.158295827      79.0523681       
231.1            0.171048606      78.3966244       0.98002535       -9.84410421      0.98002535       -9.84410421      0.171048606      78.3966244       
248.8            0.183719843      77.7337854       0.977593407      -10.5818788      0.977593407      -10.5818788      0.183719843      77.7337854       
266.5            0.196304582      77.0658744       0.97501668       -11.3163717      0.97501668       -11.3163717      0.196304582      77.0658744       
284.2            0.208798047      76.3944822       0.97229785       -12.0474011      0.97229785       -12.0474011      0.208798047      76.3944822       
301.9            0.22119565       75.7208854       0.969439824      -12.77479        0.969439824      -12.77479        0.22119565       75.7208854       
319.6            0.233492995      75.0461279       0.966445706      -13.4983676      0.966445706      -13.4983676      0.233492995      75.0461279       
337.3            0.24568589       74.3710773       0.963318772      -14.2179683      0.963318772      -14.2179683      0.24568589       74.3710773       
355              0.257770343      73.6964646       0.960062451      -14.9334331      0.960062451      -14.9334331      0.257770343      73.6964646       
372.7            0.269742573      73.0229137       0.956680302      -15.644609       0.956680302      -15.644609       0.269742573      73.0229137       
390.4            0.281599013      72.3509629       0.953175999      -16.3513494      0.953175999      -16.3513494      0.281599013      72.3509629       
408.1            0.293336307      71.6810807       0.949553316      -17.0535145      0.949553316      -17.0535145      0.293336307      71.6810807       
425.8            0.304951315      71.0136785       0.945816107      -17.7509708      0.945816107      -17.7509708      0.304951315      71.0136785       
443.5            0.316441114      70.3491199       0.941968298      -18.4435917      0.941968298      -18.4435917      0.316441114      70.3491199       
461.2            0.327802998      69.687728        0.938013868      -19.1312574      0.938013868      -19.1312574      0.327802998      69.687728        
478.9            0.339034472      69.0297914       0.93395684       -19.8138548      0.93395684       -19.8138548      0.339034472      69.0297914       
496.6            0.350133259      68.3755688       0.929801266      -20.4912777      0.929801266      -20.4912777      0.350133259      68.3755688       
514.3            0.361097289      67.7252926       0.925551219      -21.1634267      0.925551219      -21.1634267      0.361097289      67.7252926       
532              0.3719247        67.0791724       0.921210779      -21.8302089      0.921210779      -21.8302089      0.3719247        67.0791724       
549.7            0.382613837      66.4373969       0.916784023      -22.4915384      0.916784023      -22.4915384      0.382613837      66.4373969       
567.4            0.393163241      65.8001367       0.912275018      -23.1473356      0.912275018      -23.1473356      0.393163241      65.8001367       
585.1            0.403571652      65.1675456       0.907687811      -23.7975278      0.907687811      -23.7975278      0.403571652      65.1675456       
602.8            0.413837997      64.5397621       0.903026417      -24.4420484      0.903026417      -24.4420484      0.413837997      64.5397621       
620.5            0.423961391      63.916911        0.898294817      -25.0808372      0.898294817      -25.0808372      0.423961391      63.916911        
638.2            0.433941126      63.2991042       0.893496947      -25.7138403      0.893496947      -25.7138403      0.433941126      63.2991042       
655.9            0.443776669      62.686442        0.888636692      -26.3410096      0.888636692      -26.3410096      0.443776669      62.686442        
673.6            0.453467653      62.0790136       0.883717879      -26.9623031      0.883717879      -26.9623031      0.453467653      62.0790136       
691.3            0.463013872      61.476898        0.878744274      -27.5776844      0.878744274      -27.5776844      0.463013872      61.476898        
709              0.472415274      60.8801649       0.873719573      -28.1871227      0.873719573      -28.1871227      0.472415274      60.8801649       
726.7            0.481671953      60.2888749       0.868647403      -28.7905927      0.868647403      -28.7905927      0.481671953      60.2888749       
744.4            0.490784145      59.7030805       0.863531312      -29.388074       0.863531312      -29.388074       0.490784145      59.7030805       
762.1            0.49975222       59.1228264       0.858374767      -29.9795517      0.858374767      -29.9795517      0.49975222       59.1228264       
779.8            0.508576673      58.5481498       0.853181155      -30.5650153      0.853181155      -30.5650153      0.508576673      58.5481498       
797.5            0.51725812       57.9790813       0.847953775      -31.1444592      0.847953775      -31.1444592      0.51725812       57.9790813       
815.2            0.525797291      57.4156448       0.842695838      -31.7178823      0.842695838      -31.7178823      0.525797291      57.4156448       
832.9            0.534195021      56.8578582       0.837410466      -32.2852876      0.837410466      -32.2852876      0.534195021      56.8578582       
850.6            0.542452245      56.3057337       0.832100688      -32.8466824      0.832100688      -32.8466824      0.542452245      56.3057337       
868.3            0.550569993      55.7592783       0.826769441      -33.4020778      0.826769441      -33.4020778      0.550569993      55.7592783       
886              0.558549379      55.2184937       0.821419569      -33.9514887      0.821419569      -33.9514887      0.558549379      55.2184937       
903.7            0.566391601      54.683377        0.816053821      -34.4949333      0.816053821      -34.4949333      0.566391601      54.683377        
921.4            0.57409793       54.1539208       0.810674854      -35.0324335      0.810674854      -35.0324335      0.57409793       54.1539208       
939.1            0.581669705      53.6301135       0.805285228      -35.5640142      0.805285228      -35.5640142      0.581669705      53.6301135       
956.8            0.58910833       53.1119398       0.799887412      -36.0897032      0.799887412      -36.0897032      0.58910833       53.1119398       
974.5            0.596415265      52.5993804       0.79448378       -36.6095313      0.79448378       -36.6095313      0.596415265      52.5993804       
992.2            0.603592024      52.0924129       0.789076615      -37.1235318      0.789076615      -37.1235318      0.603592024      52.0924129       
1009.9           0.610640167      51.5910116       0.783668109      -37.6317406      0.783668109      -37.6317406      0.610640167      51.5910116       
1027.6           0.617561295      51.0951476       0.778260362      -38.1341959      0.778260362      -38.1341959      0.617561295      51.0951476       
1045.3           0.62435705       50.6047896       0.772855387      -38.6309381      0.772855387      -38.6309381      0.62435705       50.6047896       
1063             0.631029103      50.1199036       0.767455109      -39.1220095      0.767455109      -39.1220095      0.631029103      50.1199036       
1080.7           0.637579158      49.640453        0.762061368      -39.6074543      0.762061368      -39.6074543      0.637579158      49.640453        
1098.4           0.64400894       49.1663994       0.756675918      -40.0873186      0.756675918      -40.0873186      0.64400894       49.1663994       
1116.1           0.650320197      48.697702        0.751300432      -40.5616499      0.751300432      -40.5616499      0.650320197      48.697702        
1133.8           0.656514695      48.2343184       0.745936504      -41.0304971      0.745936504      -41.0304971      0.656514695      48.2343184       
1151.5           0.66259421       47.7762043       0.740585648      -41.4939108      0.740585648      -41.4939108      0.66259421       47.7762043       
1169.2           0.668560533      47.323314        0.735249301      -41.9519424      0.735249301      -41.9519424      0.668560533      47.323314        
1186.9           0.674415461      46.8756002       0.729928827      -42.4046446      0.729928827      -42.4046446      0.674415461      46.8756002       
1204.6           0.680160793      46.4330146       0.724625518      -42.8520711      0.724625518      -42.8520711      0.680160793      46.4330146       
1222.3           0.685798333      45.9955075       0.719340593      -43.2942763      0.719340593      -43.2942763      0.685798333      45.9955075       
1240             0.691329884      45.5630281       0.714075207      -43.7313156      0.714075207      -43.7313156      0.691329884      45.5630281       
1257.7           0.696757245      45.1355249       0.708830447      -44.1632449      0.708830447      -44.1632449      0.696757245      45.1355249       
1275.4           0.70208221       44.7129454       0.703607335      -44.5901208      0.703607335      -44.5901208      0.70208221       44.7129454       
1293.1           0.707306566      44.2952366       0.698406833      -45.0120003      0.698406833      -45.0120003      0.707306566      44.2952366       
1310.8           0.712432091      43.8823447       0.693229844      -45.4289409      0.693229844      -45.4289409      0.712432091      43.8823447       
1328.5           0.717460552      43.4742154       0.688077212      -45.8410005      0.688077212      -45.8410005      0.717460552      43.4742154       
1346.2           0.722393704      43.070794        0.682949726      -46.2482369      0.682949726      -46.2482369      0.722393704      43.070794        
1363.9           0.727233287      42.6720253       0.677848123      -46.6507086      0.677848123      -46.6507086      0.727233287      42.6720253       
1381.6           0.731981027      42.2778542       0.672773086      -47.0484739      0.672773086      -47.0484739      0.731981027      42.2778542       
1399.3           0.736638632      41.8882249       0.667725252      -47.4415912      0.667725252      -47.4415912      0.736638632      41.8882249       
1417             0.741207795      41.5030817       0.662705208      -47.830119       0.662705208      -47.830119       0.741207795      41.5030817       
1434.7           0.745690188      41.122369        0.657713498      -48.2141156      0.657713498      -48.2141156      0.745690188      41.122369        
1452.4           0.750087464      40.7460307       0.652750619      -48.5936394      0.652750619      -48.5936394      0.750087464      40.7460307       
1470.1           0.754401258      40.3740113       0.64781703       -48.9687484      0.64781703       -48.9687484      0.754401258      40.3740113       
1487.8           0.75863318       40.0062549       0.642913147      -49.3395006      0.642913147      -49.3395006      0.75863318       40.0062549       
1505.5           0.762784821      39.642706        0.638039349      -49.7059536      0.638039349      -49.7059536      0.762784821      39.642706        
1523.2           0.766857751      39.2833092       0.63319598       -50.068165       0.63319598       -50.068165       0.766857751      39.2833092       
1540.9           0.770853514      38.9280093       0.628383346      -50.4261917      0.628383346      -50.4261917      0.770853514      38.9280093       
1558.6           0.774773633      38.5767515       0.623601722      -50.7800906      0.623601722      -50.7800906      0.774773633      38.5767515       
1576.3           0.778619609      38.2294811       0.61885135       -51.1299179      0.61885135       -51.1299179      0.778619609      38.2294811       
1594             0.782392916      37.8861438       0.614132442      -51.4757297      0.614132442      -51.4757297      0.782392916      37.8861438       
1611.7           0.786095006      37.5466857       0.609445182      -51.8175814      0.609445182      -51.8175814      0.786095006      37.5466857       
1629.4           0.789727307      37.2110533       0.604789725      -52.1555282      0.604789725      -52.1555282      0.789727307      37.2110533       
1647.1           0.793291224      36.8791934       0.600166202      -52.4896245      0.600166202      -52.4896245      0.793291224      36.8791934       
1664.8           0.796788135      36.5510532       0.595574716      -52.8199245      0.595574716      -52.8199245      0.796788135      36.5510532       
1682.5           0.800219396      36.2265807       0.59101535       -53.1464817      0.59101535       -53.1464817      0.800219396      36.2265807       
1700.2           0.803586338      35.905724        0.586488163      -53.4693491      0.586488163      -53.4693491      0.803586338      35.905724        
1717.9           0.806890267      35.5884317       0.581993193      -53.7885792      0.581993193      -53.7885792      0.806890267      35.5884317       
1735.6           0.810132468      35.2746533       0.577530457      -54.1042238      0.577530457      -54.1042238      0.810132468      35.2746533       
1753.3           0.813314198      34.9643384       0.573099955      -54.4163343      0.573099955      -54.4163343      0.813314198      34.9643384       
1771             0.816436692      34.6574373       0.568701667      -54.7249614      0.568701667      -54.7249614      0.816436692      34.6574373       
1788.7           0.819501163      34.3539008       0.564335558      -55.0301553      0.564335558      -55.0301553      0.819501163      34.3539008       
1806.4           0.822508797      34.0536804       0.560001575      -55.3319654      0.560001575      -55.3319654      0.822508797      34.0536804       
1824.1           0.82546076       33.7567281       0.555699652      -55.6304407      0.555699652      -55.6304407      0.82546076       33.7567281       
1841.8           0.828358193      33.4629963       0.551429708      -55.9256294      0.551429708      -55.9256294      0.828358193      33.4629963       
1859.5           0.831202216      33.1724381       0.547191648      -56.2175793      0.547191648      -56.2175793      0.831202216      33.1724381       
1877.2           0.833993923      32.8850074       0.542985365      -56.5063374      0.542985365      -56.5063374      0.833993923      32.8850074       
1894.9           0.836734389      32.6006584       0.538810741      -56.79195        0.538810741      -56.79195        0.836734389      32.6006584       
1912.6           0.839424667      32.3193459       0.534667645      -57.0744631      0.534667645      -57.0744631      0.839424667      32.3193459       
1930.3           0.842065787      32.0410254       0.530555938      -57.3539217      0.530555938      -57.3539217      0.842065787      32.0410254       
1948             0.844658758      31.7656531       0.526475469      -57.6303703      0.526475469      -57.6303703      0.844658758      31.7656531       
1965.7           0.847204567      31.4931855       0.522426081      -57.903853       0.522426081      -57.903853       0.847204567      31.4931855       
1983.4           0.849704182      31.22358         0.518407605      -58.1744128      0.518407605      -58.1744128      0.849704182      31.22358         
2001.1           0.852158551      30.9567944       0.514419867      -58.4420926      0.514419867      -58.4420926      0.852158551      30.9567944       
2018.8           0.854568599      30.6927872       0.510462684      -58.7069342      0.510462684      -58.7069342      0.854568599      30.6927872       
2036.5           0.856935234      30.4315174       0.506535869      -58.9689791      0.506535869      -58.9689791      0.856935234      30.4315174       
2054.2           0.859259343      30.1729446       0.502639224      -59.2282681      0.502639224      -59.2282681      0.859259343      30.1729446       
2071.9           0.861541796      29.9170292       0.498772551      -59.4848412      0.498772551      -59.4848412      0.861541796      29.9170292       
2089.6           0.863783441      29.6637318       0.494935641      -59.7387381      0.494935641      -59.7387381      0.863783441      29.6637318       
2107.3           0.865985111      29.413014        0.491128285      -59.9899977      0.491128285      -59.9899977      0.865985111      29.413014        
2125             0.868147619      29.1648376       0.487350267      -60.2386583      0.487350267      -60.2386583      0.868147619      29.1648376       
2142.7           0.870271761      28.9191653       0.483601368      -60.4847576      0.483601368      -60.4847576      0.870271761      28.9191653       
2160.4           0.872358316      28.6759601       0.479881363      -60.7283328      0.479881363      -60.7283328      0.872358316      28.6759601       
2178.1           0.874408044      28.4351857       0.476190028      -60.9694204      0.476190028      -60.9694204      0.874408044      28.4351857       
2195.8           0.87642169       28.1968064       0.472527133      -61.2080564      0.472527133      -61.2080564      0.87642169       28.1968064       
2213.5           0.878399984      27.960787        0.468892445      -61.4442762      0.468892445      -61.4442762      0.878399984      27.960787        
2231.2           0.880343637      27.7270927       0.46528573       -61.6781146      0.46528573       -61.6781146      0.880343637      27.7270927       
2248.9           0.882253345      27.4956895       0.461706751      -61.9096059      0.461706751      -61.9096059      0.882253345      27.4956895       
