! Coilcraft 0805HT-68N Chip Inductor				
! 24 June 2002			
# MHZ S MA R 50
!Freq             MagS11           AngS11           MagS21           AngS21           MagS12           AngS12           MagS22           AngS22
1                0.00687976762    37.9025536       0.994580453      -0.243474063     0.994580453      -0.243474063     0.00687976762    37.9025536       
7.48             0.0326544838     74.2343559       0.991625765      -1.81609037      0.991625765      -1.81609037      0.0326544838     74.2343559       
13.96            0.0597147383     77.6805171       0.988981327      -3.38182295      0.988981327      -3.38182295      0.0597147383     77.6805171       
20.44            0.086729087      78.1976104       0.985922584      -4.93972549      0.985922584      -4.93972549      0.086729087      78.1976104       
26.92            0.11355854       77.8160254       0.982324876      -6.48815936      0.982324876      -6.48815936      0.11355854       77.8160254       
33.4             0.140130686      77.0392115       0.97815051       -8.02534397      0.97815051       -8.02534397      0.140130686      77.0392115       
39.88            0.166388625      76.0557796       0.973392756      -9.54948692      0.973392756      -9.54948692      0.166388625      76.0557796       
46.36            0.192282422      74.9538422       0.968060228      -11.058841       0.968060228      -11.058841       0.192282422      74.9538422       
52.84            0.217767056      73.7808336       0.962170694      -12.5517369      0.962170694      -12.5517369      0.217767056      73.7808336       
59.32            0.242801891      72.5649842       0.955748007      -14.0266038      0.955748007      -14.0266038      0.242801891      72.5649842       
65.8             0.267350569      71.324405        0.94882029       -15.4819845      0.94882029       -15.4819845      0.267350569      71.324405        
72.28            0.291381016      70.0714075       0.941418712      -16.916545       0.941418712      -16.916545       0.291381016      70.0714075       
78.76            0.314865437      68.8147472       0.933576569      -18.3290807      0.933576569      -18.3290807      0.314865437      68.8147472       
85.24            0.33778029       67.560873        0.925328554      -19.7185206      0.925328554      -19.7185206      0.33778029       67.560873        
91.72            0.360106193      66.3146636       0.916710145      -21.0839277      0.916710145      -21.0839277      0.360106193      66.3146636       
98.2             0.381827803      65.0798832       0.907757089      -22.4244986      0.907757089      -22.4244986      0.381827803      65.0798832       
104.68           0.402933636      63.8594744       0.898504955      -23.7395606      0.898504955      -23.7395606      0.402933636      63.8594744       
111.16           0.423415859      62.6557559       0.888988765      -25.0285673      0.888988765      -25.0285673      0.423415859      62.6557559       
117.64           0.443270046      61.4705583       0.879242669      -26.2910937      0.879242669      -26.2910937      0.443270046      61.4705583       
124.12           0.462494924      60.3053222       0.869299691      -27.5268295      0.869299691      -27.5268295      0.462494924      60.3053222       
130.6            0.48109209       59.1611701       0.859191513      -28.7355722      0.859191513      -28.7355722      0.48109209       59.1611701       
137.08           0.499065738      58.0389613       0.84894831       -29.9172196      0.84894831       -29.9172196      0.499065738      58.0389613       
143.56           0.516422368      56.9393351       0.838598632      -31.071762       0.838598632      -31.071762       0.516422368      56.9393351       
150.04           0.533170518      55.8627448       0.828169316      -32.199274       0.828169316      -32.199274       0.533170518      55.8627448       
156.52           0.549320485      54.8094854       0.817685434      -33.2999066      0.817685434      -33.2999066      0.549320485      54.8094854       
163              0.564884078      53.7797174       0.807170277      -34.3738796      0.807170277      -34.3738796      0.564884078      53.7797174       
169.48           0.579874367      52.7734861       0.796645352      -35.4214736      0.796645352      -35.4214736      0.579874367      52.7734861       
175.96           0.594305465      51.7907384       0.786130414      -36.443023       0.786130414      -36.443023       0.594305465      51.7907384       
182.44           0.608192316      50.8313373       0.7756435        -37.4389087      0.7756435        -37.4389087      0.608192316      50.8313373       
188.92           0.621550505      49.8950747       0.765200992      -38.4095519      0.765200992      -38.4095519      0.621550505      49.8950747       
195.4            0.634396089      48.9816821       0.754817683      -39.3554077      0.754817683      -39.3554077      0.634396089      48.9816821       
201.88           0.646745443      48.0908406       0.744506847      -40.2769597      0.744506847      -40.2769597      0.646745443      48.0908406       
208.36           0.658615122      47.2221887       0.734280328      -41.1747144      0.734280328      -41.1747144      0.658615122      47.2221887       
214.84           0.670021744      46.3753308       0.724148618      -42.049197       0.724148618      -42.049197       0.670021744      46.3753308       
221.32           0.680981888      45.5498429       0.714120946      -42.9009466      0.714120946      -42.9009466      0.680981888      45.5498429       
227.8            0.691511998      44.7452785       0.704205364      -43.7305125      0.704205364      -43.7305125      0.691511998      44.7452785       
234.28           0.701628315      43.961174        0.694408832      -44.5384509      0.694408832      -44.5384509      0.701628315      43.961174        
240.76           0.711346808      43.197053        0.684737306      -45.3253214      0.684737306      -45.3253214      0.711346808      43.197053        
247.24           0.720683122      42.45243         0.675195813      -46.0916849      0.675195813      -46.0916849      0.720683122      42.45243         
253.72           0.729652537      41.7268138       0.665788531      -46.8381004      0.665788531      -46.8381004      0.729652537      41.7268138       
260.2            0.738269934      41.0197105       0.656518866      -47.5651238      0.656518866      -47.5651238      0.738269934      41.0197105       
266.68           0.746549766      40.330626        0.64738952       -48.2733052      0.64738952       -48.2733052      0.746549766      40.330626        
273.16           0.75450604       39.6590681       0.638402558      -48.9631883      0.638402558      -48.9631883      0.75450604       39.6590681       
279.64           0.762152304      39.0045486       0.629559468      -49.6353082      0.629559468      -49.6353082      0.762152304      39.0045486       
286.12           0.769501639      38.3665844       0.620861221      -50.290191       0.620861221      -50.290191       0.769501639      38.3665844       
292.6            0.776566652      37.744699        0.612308327      -50.9283525      0.612308327      -50.9283525      0.776566652      37.744699        
299.08           0.78335948       37.1384239       0.603900878      -51.5502977      0.603900878      -51.5502977      0.78335948       37.1384239       
305.56           0.789891787      36.5472992       0.595638602      -52.15652        0.595638602      -52.15652        0.789891787      36.5472992       
312.04           0.796174777      35.9708741       0.587520897      -52.7475009      0.587520897      -52.7475009      0.796174777      35.9708741       
318.52           0.802219195      35.4087082       0.579546877      -53.3237097      0.579546877      -53.3237097      0.802219195      35.4087082       
325              0.80803534       34.8603709       0.571715403      -53.885603       0.571715403      -53.885603       0.80803534       34.8603709       
331.48           0.813633074      34.325443        0.564025116      -54.4336251      0.564025116      -54.4336251      0.813633074      34.325443        
337.96           0.819021837      33.8035156       0.556474466      -54.9682072      0.556474466      -54.9682072      0.819021837      33.8035156       
344.44           0.824210654      33.2941914       0.549061741      -55.4897681      0.549061741      -55.4897681      0.824210654      33.2941914       
350.92           0.829208156      32.7970841       0.541785088      -55.998714       0.541785088      -55.998714       0.829208156      32.7970841       
357.4            0.834022586      32.3118185       0.534642533      -56.4954384      0.534642533      -56.4954384      0.834022586      32.3118185       
363.88           0.838661818      31.8380305       0.527632009      -56.9803225      0.527632009      -56.9803225      0.838661818      31.8380305       
370.36           0.843133371      31.3753674       0.520751362      -57.4537354      0.520751362      -57.4537354      0.843133371      31.3753674       
376.84           0.847444419      30.9234869       0.513998376      -57.9160343      0.513998376      -57.9160343      0.847444419      30.9234869       
383.32           0.85160181       30.4820579       0.507370783      -58.3675645      0.507370783      -58.3675645      0.85160181       30.4820579       
389.8            0.855612076      30.0507596       0.500866274      -58.8086602      0.500866274      -58.8086602      0.855612076      30.0507596       
396.28           0.85948145       29.6292817       0.494482516      -59.239644       0.494482516      -59.239644       0.85948145       29.6292817       
402.76           0.863215875      29.217324        0.488217156      -59.660828       0.488217156      -59.660828       0.863215875      29.217324        
409.24           0.86682102       28.8145961       0.482067831      -60.0725135      0.482067831      -60.0725135      0.86682102       28.8145961       
415.72           0.870302291      28.4208173       0.476032178      -60.4749915      0.476032178      -60.4749915      0.870302291      28.4208173       
422.2            0.873664843      28.0357164       0.470107839      -60.8685433      0.470107839      -60.8685433      0.873664843      28.0357164       
428.68           0.876913595      27.6590312       0.464292469      -61.2534401      0.464292469      -61.2534401      0.876913595      27.6590312       
435.16           0.880053234      27.2905084       0.458583738      -61.6299442      0.458583738      -61.6299442      0.880053234      27.2905084       
441.64           0.883088233      26.9299032       0.452979336      -61.9983084      0.452979336      -61.9983084      0.883088233      26.9299032       
448.12           0.886022859      26.5769792       0.447476982      -62.3587769      0.447476982      -62.3587769      0.886022859      26.5769792       
454.6            0.888861179      26.2315082       0.442074419      -62.7115855      0.442074419      -62.7115855      0.888861179      26.2315082       
461.08           0.891607076      25.8932696       0.436769424      -63.0569617      0.436769424      -63.0569617      0.891607076      25.8932696       
467.56           0.894264254      25.5620503       0.431559807      -63.3951253      0.431559807      -63.3951253      0.894264254      25.5620503       
474.04           0.896836246      25.2376448       0.426443413      -63.726288       0.426443413      -63.726288       0.896836246      25.2376448       
480.52           0.899326425      24.9198542       0.421418124      -64.0506547      0.421418124      -64.0506547      0.899326425      24.9198542       
487              0.901738011      24.6084868       0.416481861      -64.3684229      0.416481861      -64.3684229      0.901738011      24.6084868       
493.48           0.904074078      24.3033572       0.411632586      -64.6797833      0.411632586      -64.6797833      0.904074078      24.3033572       
499.96           0.906337559      24.0042864       0.406868299      -64.9849199      0.406868299      -64.9849199      0.906337559      24.0042864       
506.44           0.908531259      23.7111016       0.402187042      -65.2840107      0.402187042      -65.2840107      0.908531259      23.7111016       
512.92           0.910657854      23.4236357       0.397586899      -65.5772272      0.397586899      -65.5772272      0.910657854      23.4236357       
519.4            0.912719903      23.1417274       0.393065995      -65.8647352      0.393065995      -65.8647352      0.912719903      23.1417274       
525.88           0.914719849      22.8652207       0.388622494      -66.1466948      0.388622494      -66.1466948      0.914719849      22.8652207       
532.36           0.916660029      22.5939652       0.384254607      -66.4232606      0.384254607      -66.4232606      0.916660029      22.5939652       
538.84           0.918542676      22.3278153       0.379960582      -66.694582       0.379960582      -66.694582       0.918542676      22.3278153       
545.32           0.920369926      22.0666302       0.375738708      -66.9608033      0.375738708      -66.9608033      0.920369926      22.0666302       
551.8            0.922143821      21.8102741       0.371587317      -67.2220639      0.371587317      -67.2220639      0.922143821      21.8102741       
558.28           0.923866317      21.5586156       0.36750478       -67.4784987      0.36750478       -67.4784987      0.923866317      21.5586156       
564.76           0.925539282      21.3115275       0.363489507      -67.7302378      0.363489507      -67.7302378      0.925539282      21.3115275       
571.24           0.927164507      21.0688871       0.359539947      -67.977407       0.359539947      -67.977407       0.927164507      21.0688871       
577.72           0.928743704      20.8305755       0.35565459       -68.2201282      0.35565459       -68.2201282      0.928743704      20.8305755       
584.2            0.930278515      20.5964779       0.351831959      -68.458519       0.351831959      -68.458519       0.930278515      20.5964779       
590.68           0.93177051       20.366483        0.348070619      -68.6926931      0.348070619      -68.6926931      0.93177051       20.366483        
597.16           0.933221194      20.1404835       0.344369169      -68.9227607      0.344369169      -68.9227607      0.933221194      20.1404835       
603.64           0.934632011      19.9183751       0.340726243      -69.1488282      0.340726243      -69.1488282      0.934632011      19.9183751       
610.12           0.936004343      19.7000574       0.337140511      -69.3709986      0.337140511      -69.3709986      0.936004343      19.7000574       
616.6            0.937339516      19.4854327       0.333610677      -69.5893716      0.333610677      -69.5893716      0.937339516      19.4854327       
623.08           0.9386388        19.2744067       0.330135478      -69.8040437      0.330135478      -69.8040437      0.9386388        19.2744067       
629.56           0.939903414      19.0668882       0.326713683      -70.0151083      0.326713683      -70.0151083      0.939903414      19.0668882       
636.04           0.941134529      18.8627886       0.323344095      -70.2226557      0.323344095      -70.2226557      0.941134529      18.8627886       
642.52           0.942333267      18.6620224       0.320025546      -70.4267735      0.320025546      -70.4267735      0.942333267      18.6620224       
649              0.943500706      18.4645064       0.316756898      -70.6275464      0.316756898      -70.6275464      0.943500706      18.4645064       
655.48           0.94463788       18.2701603       0.313537045      -70.8250566      0.313537045      -70.8250566      0.94463788       18.2701603       
661.96           0.945745782      18.0789063       0.310364906      -71.0193836      0.310364906      -71.0193836      0.945745782      18.0789063       
668.44           0.946825367      17.8906688       0.307239432      -71.2106045      0.307239432      -71.2106045      0.946825367      17.8906688       
674.92           0.947877553      17.7053746       0.304159599      -71.398794       0.304159599      -71.398794       0.947877553      17.7053746       
681.4            0.948903219      17.5229527       0.30112441       -71.5840244      0.30112441       -71.5840244      0.948903219      17.5229527       
687.88           0.949903214      17.3433345       0.298132894      -71.766366       0.298132894      -71.766366       0.949903214      17.3433345       
694.36           0.950878352      17.1664531       0.295184105      -71.9458867      0.295184105      -71.9458867      0.950878352      17.1664531       
700.84           0.951829416      16.9922439       0.292277122      -72.1226525      0.292277122      -72.1226525      0.951829416      16.9922439       
707.32           0.95275716       16.8206441       0.289411046      -72.2967275      0.289411046      -72.2967275      0.95275716       16.8206441       
713.8            0.953662309      16.6515927       0.286585005      -72.4681736      0.286585005      -72.4681736      0.953662309      16.6515927       
720.28           0.954545561      16.4850307       0.283798146      -72.6370512      0.283798146      -72.6370512      0.954545561      16.4850307       
726.76           0.955407587      16.3209007       0.281049638      -72.8034186      0.281049638      -72.8034186      0.955407587      16.3209007       
733.24           0.956249034      16.159147        0.278338675      -72.9673326      0.278338675      -72.9673326      0.956249034      16.159147        
739.72           0.957070526      15.9997155       0.275664467      -73.1288481      0.275664467      -73.1288481      0.957070526      15.9997155       
746.2            0.957872661      15.8425538       0.273026247      -73.2880187      0.273026247      -73.2880187      0.957872661      15.8425538       
752.68           0.958656019      15.6876107       0.270423268      -73.4448961      0.270423268      -73.4448961      0.958656019      15.6876107       
759.16           0.959421157      15.5348368       0.267854799      -73.5995308      0.267854799      -73.5995308      0.959421157      15.5348368       
765.64           0.960168612      15.3841839       0.265320131      -73.7519718      0.265320131      -73.7519718      0.960168612      15.3841839       
772.12           0.960898901      15.2356053       0.26281857       -73.9022665      0.26281857       -73.9022665      0.960898901      15.2356053       
778.6            0.961612523      15.0890555       0.260349442      -74.0504611      0.260349442      -74.0504611      0.961612523      15.0890555       
785.08           0.962309962      14.9444904       0.257912089      -74.1966005      0.257912089      -74.1966005      0.962309962      14.9444904       
791.56           0.962991681      14.8018669       0.255505868      -74.3407283      0.255505868      -74.3407283      0.962991681      14.8018669       
798.04           0.963658128      14.6611434       0.253130155      -74.4828869      0.253130155      -74.4828869      0.963658128      14.6611434       
804.52           0.964309737      14.5222791       0.25078434       -74.6231175      0.25078434       -74.6231175      0.964309737      14.5222791       
811              0.964946926      14.3852347       0.248467827      -74.7614601      0.248467827      -74.7614601      0.964946926      14.3852347       
817.48           0.965570098      14.2499716       0.246180036      -74.8979538      0.246180036      -74.8979538      0.965570098      14.2499716       
823.96           0.966179643      14.1164526       0.243920401      -75.0326363      0.243920401      -75.0326363      0.966179643      14.1164526       
