! Coilcraft 0805HT-1N8 Chip Inductor				
! 24 June 2002			
# MHZ S MA R 50
!Freq             MagS11           AngS11           MagS21           AngS21           MagS12           AngS12           MagS22           AngS22
1                0.000377592874   17.4159318       0.999639723      -0.00647766547   0.999639723      -0.00647766547   0.000377592874   17.4159318       
37.66            0.00430882584    80.8077923       0.999320731      -0.243873526     0.999320731      -0.243873526     0.00430882584    80.8077923       
74.32            0.0084383805     83.9420733       0.999144702      -0.481200897     0.999144702      -0.481200897     0.0084383805     83.9420733       
110.98           0.0125744445     85.0152763       0.998985949      -0.718485132     0.998985949      -0.718485132     0.0125744445     85.0152763       
147.64           0.0167119255     85.5009235       0.998828023      -0.955736657     0.998828023      -0.955736657     0.0167119255     85.5009235       
184.3            0.0208496514     85.7311471       0.998664484      -1.19296221      0.998664484      -1.19296221      0.0208496514     85.7311471       
220.96           0.0249871911     85.8252598       0.998492013      -1.43016688      0.998492013      -1.43016688      0.0249871911     85.8252598       
257.62           0.029124339      85.8374017       0.99830863       -1.66735483      0.99830863       -1.66735483      0.029124339      85.8374017       
294.28           0.0332609764     85.7959491       0.998113047      -1.90452966      0.998113047      -1.90452966      0.0332609764     85.7959491       
330.94           0.0373970236     85.7173187       0.997904364      -2.14169456      0.997904364      -2.14169456      0.0373970236     85.7173187       
367.6            0.0415324202     85.6117188       0.997681927      -2.37885247      0.997681927      -2.37885247      0.0415324202     85.6117188       
404.26           0.0456671158     85.4858576       0.997445242      -2.61600611      0.997445242      -2.61600611      0.0456671158     85.4858576       
440.92           0.0498010656     85.3443396       0.997193922      -2.85315802      0.997193922      -2.85315802      0.0498010656     85.3443396       
477.58           0.0539342277     85.190439        0.996927663      -3.09031064      0.996927663      -3.09031064      0.0539342277     85.190439        
514.24           0.0580665619     85.0265534       0.996646213      -3.3274663       0.996646213      -3.3274663       0.0580665619     85.0265534       
550.9            0.062198029      84.8544819       0.996349368      -3.56462724      0.996349368      -3.56462724      0.062198029      84.8544819       
587.56           0.0663285901     84.6756033       0.996036956      -3.80179562      0.996036956      -3.80179562      0.0663285901     84.6756033       
624.22           0.0704582066     84.4909935       0.995708828      -4.03897355      0.995708828      -4.03897355      0.0704582066     84.4909935       
660.88           0.0745868394     84.3015057       0.99536486       -4.27616307      0.99536486       -4.27616307      0.0745868394     84.3015057       
697.54           0.0787144496     84.1078253       0.995004943      -4.51336619      0.995004943      -4.51336619      0.0787144496     84.1078253       
734.2            0.082840998      83.9105103       0.99462898       -4.75058486      0.99462898       -4.75058486      0.082840998      83.9105103       
770.86           0.0869664448     83.7100197       0.994236888      -4.987821        0.994236888      -4.987821        0.0869664448     83.7100197       
807.52           0.0910907501     83.506735        0.993828592      -5.22507649      0.993828592      -5.22507649      0.0910907501     83.506735        
844.18           0.0952138735     83.3009757       0.993404025      -5.46235318      0.993404025      -5.46235318      0.0952138735     83.3009757       
880.84           0.0993357743     83.0930121       0.992963126      -5.69965287      0.992963126      -5.69965287      0.0993357743     83.0930121       
917.5            0.103456411      82.8830739       0.99250584       -5.93697737      0.99250584       -5.93697737      0.103456411      82.8830739       
954.16           0.107575743      82.6713582       0.992032118      -6.17432843      0.992032118      -6.17432843      0.107575743      82.6713582       
990.82           0.111693727      82.4580348       0.991541914      -6.41170777      0.991541914      -6.41170777      0.111693727      82.4580348       
1027.48          0.115810322      82.2432509       0.991035185      -6.64911711      0.991035185      -6.64911711      0.115810322      82.2432509       
1064.14          0.119925484      82.0271348       0.990511892      -6.88655813      0.990511892      -6.88655813      0.119925484      82.0271348       
1100.8           0.12403917       81.809799        0.989972         -7.12403249      0.989972         -7.12403249      0.12403917       81.809799        
1137.46          0.128151337      81.591342        0.989415474      -7.36154182      0.989415474      -7.36154182      0.128151337      81.591342        
1174.12          0.13226194       81.3718514       0.988842283      -7.59908773      0.988842283      -7.59908773      0.13226194       81.3718514       
1210.78          0.136370935      81.1514042       0.988252397      -7.83667182      0.988252397      -7.83667182      0.136370935      81.1514042       
1247.44          0.140478277      80.9300695       0.987645787      -8.07429565      0.987645787      -8.07429565      0.140478277      80.9300695       
1284.1           0.144583921      80.7079086       0.987022427      -8.31196077      0.987022427      -8.31196077      0.144583921      80.7079086       
1320.76          0.14868782       80.4849765       0.986382293      -8.54966869      0.986382293      -8.54966869      0.14868782       80.4849765       
1357.42          0.152789928      80.2613227       0.985725358      -8.78742093      0.985725358      -8.78742093      0.152789928      80.2613227       
1394.08          0.156890199      80.0369916       0.985051602      -9.02521896      0.985051602      -9.02521896      0.156890199      80.0369916       
1430.74          0.160988586      79.8120234       0.984361001      -9.26306424      0.984361001      -9.26306424      0.160988586      79.8120234       
1467.4           0.16508504       79.5864544       0.983653535      -9.50095821      0.983653535      -9.50095821      0.16508504       79.5864544       
1504.06          0.169179514      79.3603176       0.982929183      -9.73890228      0.982929183      -9.73890228      0.169179514      79.3603176       
1540.72          0.173271959      79.133643        0.982187925      -9.97689785      0.982187925      -9.97689785      0.173271959      79.133643        
1577.38          0.177362326      78.9064579       0.981429743      -10.2149463      0.981429743      -10.2149463      0.177362326      78.9064579       
1614.04          0.181450565      78.6787873       0.980654619      -10.4530489      0.980654619      -10.4530489      0.181450565      78.6787873       
1650.7           0.185536626      78.4506538       0.979862535      -10.6912071      0.979862535      -10.6912071      0.185536626      78.4506538       
1687.36          0.189620459      78.2220784       0.979053473      -10.9294221      0.979053473      -10.9294221      0.189620459      78.2220784       
1724.02          0.193702013      77.9930803       0.978227417      -11.1676953      0.978227417      -11.1676953      0.193702013      77.9930803       
1760.68          0.197781236      77.763677        0.977384351      -11.4060278      0.977384351      -11.4060278      0.197781236      77.763677        
1797.34          0.201858076      77.5338847       0.976524259      -11.644421       0.976524259      -11.644421       0.201858076      77.5338847       
1834             0.20593248       77.3037183       0.975647125      -11.882876       0.975647125      -11.882876       0.20593248       77.3037183       
1870.66          0.210004396      77.0731917       0.974752936      -12.1213939      0.974752936      -12.1213939      0.210004396      77.0731917       
1907.32          0.214073769      76.8423175       0.973841675      -12.3599761      0.973841675      -12.3599761      0.214073769      76.8423175       
1943.98          0.218140547      76.6111076       0.97291333       -12.5986236      0.97291333       -12.5986236      0.218140547      76.6111076       
1980.64          0.222204673      76.3795727       0.971967886      -12.8373375      0.971967886      -12.8373375      0.222204673      76.3795727       
2017.3           0.226266093      76.1477231       0.971005329      -13.076119       0.971005329      -13.076119       0.226266093      76.1477231       
2053.96          0.230324751      75.9155681       0.970025647      -13.314969       0.970025647      -13.314969       0.230324751      75.9155681       
2090.62          0.23438059       75.6831164       0.969028826      -13.5538887      0.969028826      -13.5538887      0.23438059       75.6831164       
2127.28          0.238433555      75.4503762       0.968014854      -13.792879       0.968014854      -13.792879       0.238433555      75.4503762       
2163.94          0.242483586      75.217355        0.966983719      -14.0319409      0.966983719      -14.0319409      0.242483586      75.217355        
2200.6           0.246530627      74.9840599       0.965935408      -14.2710755      0.965935408      -14.2710755      0.246530627      74.9840599       
2237.26          0.250574619      74.7504974       0.96486991       -14.5102835      0.96486991       -14.5102835      0.250574619      74.7504974       
2273.92          0.254615502      74.5166736       0.963787214      -14.749566       0.963787214      -14.749566       0.254615502      74.5166736       
2310.58          0.258653216      74.2825944       0.962687309      -14.9889237      0.962687309      -14.9889237      0.258653216      74.2825944       
2347.24          0.262687702      74.048265        0.961570183      -15.2283577      0.961570183      -15.2283577      0.262687702      74.048265        
2383.9           0.266718899      73.8136906       0.960435826      -15.4678686      0.960435826      -15.4678686      0.266718899      73.8136906       
2420.56          0.270746745      73.5788758       0.959284228      -15.7074573      0.959284228      -15.7074573      0.270746745      73.5788758       
2457.22          0.274771177      73.343825        0.958115379      -15.9471245      0.958115379      -15.9471245      0.274771177      73.343825        
2493.88          0.278792134      73.1085425       0.95692927       -16.186871       0.95692927       -16.186871       0.278792134      73.1085425       
2530.54          0.282809551      72.873032        0.955725891      -16.4266976      0.955725891      -16.4266976      0.282809551      72.873032        
2567.2           0.286823365      72.6372974       0.954505234      -16.6666047      0.954505234      -16.6666047      0.286823365      72.6372974       
2603.86          0.290833511      72.401342        0.953267289      -16.9065932      0.953267289      -16.9065932      0.290833511      72.401342        
2640.52          0.294839924      72.1651692       0.952012048      -17.1466636      0.952012048      -17.1466636      0.294839924      72.1651692       
2677.18          0.298842539      71.928782        0.950739504      -17.3868165      0.950739504      -17.3868165      0.298842539      71.928782        
2713.84          0.302841288      71.6921833       0.949449649      -17.6270525      0.949449649      -17.6270525      0.302841288      71.6921833       
2750.5           0.306836104      71.4553759       0.948142475      -17.8673721      0.948142475      -17.8673721      0.306836104      71.4553759       
2787.16          0.310826921      71.2183624       0.946817976      -18.1077758      0.946817976      -18.1077758      0.310826921      71.2183624       
2823.82          0.31481367       70.9811454       0.945476145      -18.348264       0.945476145      -18.348264       0.31481367       70.9811454       
2860.48          0.318796281      70.743727        0.944116976      -18.5888372      0.944116976      -18.5888372      0.318796281      70.743727        
2897.14          0.322774685      70.5061097       0.942740463      -18.8294957      0.942740463      -18.8294957      0.322774685      70.5061097       
2933.8           0.326748812      70.2682955       0.941346601      -19.0702399      0.941346601      -19.0702399      0.326748812      70.2682955       
2970.46          0.330718591      70.0302864       0.939935385      -19.3110702      0.939935385      -19.3110702      0.330718591      70.0302864       
3007.12          0.33468395       69.7920845       0.93850681       -19.5519868      0.93850681       -19.5519868      0.33468395       69.7920845       
3043.78          0.338644817      69.5536915       0.937060872      -19.7929899      0.937060872      -19.7929899      0.338644817      69.5536915       
3080.44          0.34260112       69.3151093       0.935597568      -20.0340799      0.935597568      -20.0340799      0.34260112       69.3151093       
3117.1           0.346552784      69.0763396       0.934116894      -20.2752569      0.934116894      -20.2752569      0.346552784      69.0763396       
3153.76          0.350499737      68.837384        0.932618848      -20.516521       0.932618848      -20.516521       0.350499737      68.837384        
3190.42          0.354441902      68.5982441       0.931103427      -20.7578724      0.931103427      -20.7578724      0.354441902      68.5982441       
3227.08          0.358379205      68.3589214       0.92957063       -20.999311       0.92957063       -20.999311       0.358379205      68.3589214       
3263.74          0.362311569      68.1194175       0.928020454      -21.2408371      0.928020454      -21.2408371      0.362311569      68.1194175       
3300.4           0.366238918      67.8797337       0.9264529        -21.4824505      0.9264529        -21.4824505      0.366238918      67.8797337       
3337.06          0.370161175      67.6398715       0.924867967      -21.7241513      0.924867967      -21.7241513      0.370161175      67.6398715       
3373.72          0.37407826       67.3998322       0.923265656      -21.9659393      0.923265656      -21.9659393      0.37407826       67.3998322       
3410.38          0.377990097      67.1596172       0.921645966      -22.2078144      0.921645966      -22.2078144      0.377990097      67.1596172       
3447.04          0.381896605      66.9192277       0.9200089        -22.4497766      0.9200089        -22.4497766      0.381896605      66.9192277       
3483.7           0.385797705      66.6786651       0.918354459      -22.6918256      0.918354459      -22.6918256      0.385797705      66.6786651       
3520.36          0.389693315      66.4379305       0.916682646      -22.9339611      0.916682646      -22.9339611      0.389693315      66.4379305       
3557.02          0.393583355      66.1970251       0.914993464      -23.176183       0.914993464      -23.176183       0.393583355      66.1970251       
3593.68          0.397467743      65.9559503       0.913286917      -23.4184909      0.913286917      -23.4184909      0.397467743      65.9559503       
3630.34          0.401346397      65.7147072       0.911563009      -23.6608844      0.911563009      -23.6608844      0.401346397      65.7147072       
3667             0.405219232      65.473297        0.909821745      -23.9033632      0.909821745      -23.9033632      0.405219232      65.473297        
3703.66          0.409086167      65.2317208       0.90806313       -24.1459268      0.90806313       -24.1459268      0.409086167      65.2317208       
3740.32          0.412947115      64.9899798       0.906287171      -24.3885748      0.906287171      -24.3885748      0.412947115      64.9899798       
3776.98          0.416801992      64.7480752       0.904493875      -24.6313067      0.904493875      -24.6313067      0.416801992      64.7480752       
3813.64          0.420650714      64.5060081       0.90268325       -24.8741219      0.90268325       -24.8741219      0.420650714      64.5060081       
3850.3           0.424493192      64.2637796       0.900855304      -25.1170197      0.900855304      -25.1170197      0.424493192      64.2637796       
3886.96          0.428329341      64.021391        0.899010045      -25.3599996      0.899010045      -25.3599996      0.428329341      64.021391        
3923.62          0.432159073      63.7788434       0.897147485      -25.6030609      0.897147485      -25.6030609      0.432159073      63.7788434       
3960.28          0.435982301      63.5361379       0.895267632      -25.8462029      0.895267632      -25.8462029      0.435982301      63.5361379       
3996.94          0.439798935      63.2932758       0.893370499      -26.0894247      0.893370499      -26.0894247      0.439798935      63.2932758       
4033.6           0.443608886      63.0502581       0.891456098      -26.3327256      0.891456098      -26.3327256      0.443608886      63.0502581       
4070.26          0.447412065      62.807086        0.889524442      -26.5761046      0.889524442      -26.5761046      0.447412065      62.807086        
4106.92          0.451208381      62.5637608       0.887575544      -26.819561       0.887575544      -26.819561       0.451208381      62.5637608       
4143.58          0.454997744      62.3202836       0.885609418      -27.0630937      0.885609418      -27.0630937      0.454997744      62.3202836       
4180.24          0.458780062      62.0766557       0.883626081      -27.3067018      0.883626081      -27.3067018      0.458780062      62.0766557       
4216.9           0.462555242      61.8328783       0.881625548      -27.5503842      0.881625548      -27.5503842      0.462555242      61.8328783       
4253.56          0.466323193      61.5889526       0.879607835      -27.7941398      0.879607835      -27.7941398      0.466323193      61.5889526       
4290.22          0.470083821      61.3448798       0.877572963      -28.0379675      0.877572963      -28.0379675      0.470083821      61.3448798       
4326.88          0.473837033      61.1006614       0.875520947      -28.2818661      0.875520947      -28.2818661      0.473837033      61.1006614       
4363.54          0.477582735      60.8562984       0.87345181       -28.5258344      0.87345181       -28.5258344      0.477582735      60.8562984       
4400.2           0.481320832      60.6117923       0.87136557       -28.7698711      0.87136557       -28.7698711      0.481320832      60.6117923       
4436.86          0.485051228      60.3671444       0.86926225       -29.0139749      0.86926225       -29.0139749      0.485051228      60.3671444       
4473.52          0.488773829      60.1223559       0.867141872      -29.2581444      0.867141872      -29.2581444      0.488773829      60.1223559       
4510.18          0.492488538      59.8774284       0.865004459      -29.5023782      0.865004459      -29.5023782      0.492488538      59.8774284       
4546.84          0.496195258      59.6323632       0.862850036      -29.7466749      0.862850036      -29.7466749      0.496195258      59.6323632       
4583.5           0.499893893      59.3871616       0.860678627      -29.9910328      0.860678627      -29.9910328      0.499893893      59.3871616       
4620.16          0.503584345      59.1418252       0.85849026       -30.2354506      0.85849026       -30.2354506      0.503584345      59.1418252       
4656.82          0.507266517      58.8963554       0.856284962      -30.4799264      0.856284962      -30.4799264      0.507266517      58.8963554       
