! Coilcraft 0805HT-27N Chip Inductor				
! 24 June 2002			
# MHZ S MA R 50
!Freq             MagS11           AngS11           MagS21           AngS21           MagS12           AngS12           MagS22           AngS22
1                0.00298008437    34.5047689       0.997545603      -0.0969614849    0.997545603      -0.0969614849    0.00298008437    34.5047689       
10.97            0.0189104661     77.540786        0.996091333      -1.06218586      0.996091333      -1.06218586      0.0189104661     77.540786        
20.94            0.0356224073     80.8215883       0.994939571      -2.02555126      0.994939571      -2.02555126      0.0356224073     80.8215883       
30.91            0.0523459157     81.5576644       0.993664869      -2.98696815      0.993664869      -2.98696815      0.0523459157     81.5576644       
40.88            0.0690321509     81.540563        0.992197012      -3.9461048       0.992197012      -3.9461048       0.0690321509     81.540563        
50.85            0.085660334      81.1937241       0.990509724      -4.9025687       0.990509724      -4.9025687       0.085660334      81.1937241       
60.82            0.102215281      80.6720239       0.988591271      -5.85594429      0.988591271      -5.85594429      0.102215281      80.6720239       
70.79            0.118683679      80.046495        0.986436574      -6.8058079       0.986436574      -6.8058079       0.118683679      80.046495        
80.76            0.13505313       79.3547049       0.984044239      -7.7517354       0.984044239      -7.7517354       0.13505313       79.3547049       
90.73            0.151311845      78.6186004       0.981415197      -8.69330696      0.981415197      -8.69330696      0.151311845      78.6186004       
100.7            0.167448551      77.8519902       0.978551995      -9.63011026      0.978551995      -9.63011026      0.167448551      77.8519902       
110.67           0.183452467      77.064081        0.975458377      -10.5617429      0.975458377      -10.5617429      0.183452467      77.064081        
120.64           0.199313304      76.2613058       0.972139022      -11.4878144      0.972139022      -11.4878144      0.199313304      76.2613058       
130.61           0.21502128       75.4483371       0.968599362      -12.4079473      0.968599362      -12.4079473      0.21502128       75.4483371       
140.58           0.230567142      74.628681        0.964845448      -13.3217791      0.964845448      -13.3217791      0.230567142      74.628681        
150.55           0.245942172      73.8050424       0.960883846      -14.2289626      0.960883846      -14.2289626      0.245942172      73.8050424       
160.52           0.261138213      72.9795581       0.956721554      -15.129167       0.956721554      -15.129167       0.261138213      72.9795581       
170.49           0.276147669      72.1539501       0.952365925      -16.0220787      0.952365925      -16.0220787      0.276147669      72.1539501       
180.46           0.290963522      71.3296308       0.947824607      -16.9074017      0.947824607      -16.9074017      0.290963522      71.3296308       
190.43           0.305579329      70.5077749       0.943105483      -17.7848577      0.943105483      -17.7848577      0.305579329      70.5077749       
200.4            0.319989227      69.6893721       0.938216622      -18.6541871      0.938216622      -18.6541871      0.319989227      69.6893721       
210.37           0.33418793       68.8752638       0.933166228      -19.5151482      0.933166228      -19.5151482      0.33418793       68.8752638       
220.34           0.348170722      68.0661716       0.927962598      -20.3675181      0.927962598      -20.3675181      0.348170722      68.0661716       
230.31           0.361933449      67.2627182       0.922614082      -21.2110921      0.922614082      -21.2110921      0.361933449      67.2627182       
240.28           0.375472511      66.4654431       0.917129042      -22.0456837      0.917129042      -22.0456837      0.375472511      66.4654431       
250.25           0.388784841      65.6748155       0.911515821      -22.8711245      0.911515821      -22.8711245      0.388784841      65.6748155       
260.22           0.401867898      64.8912438       0.905782711      -23.6872638      0.905782711      -23.6872638      0.401867898      64.8912438       
270.19           0.414719644      64.1150838       0.899937919      -24.493968       0.899937919      -24.493968       0.414719644      64.1150838       
280.16           0.427338527      63.3466449       0.893989548      -25.2911208      0.893989548      -25.2911208      0.427338527      63.3466449       
290.13           0.439723459      62.5861953       0.887945566      -26.078622       0.887945566      -26.078622       0.439723459      62.5861953       
300.1            0.451873797      61.8339666       0.88181379       -26.8563874      0.88181379       -26.8563874      0.451873797      61.8339666       
310.07           0.463789318      61.0901575       0.875601865      -27.6243483      0.875601865      -27.6243483      0.463789318      61.0901575       
320.04           0.475470197      60.3549369       0.869317245      -28.3824505      0.869317245      -28.3824505      0.475470197      60.3549369       
330.01           0.486916985      59.6284465       0.862967185      -29.1306542      0.862967185      -29.1306542      0.486916985      59.6284465       
339.98           0.498130585      58.9108037       0.856558722      -29.868933       0.856558722      -29.868933       0.498130585      58.9108037       
349.95           0.509112225      58.2021032       0.85009867       -30.5972733      0.85009867       -30.5972733      0.509112225      58.2021032       
359.92           0.519863441      57.5024191       0.843593608      -31.3156738      0.843593608      -31.3156738      0.519863441      57.5024191       
369.89           0.530386047      56.811807        0.837049876      -32.0241448      0.837049876      -32.0241448      0.530386047      56.811807        
379.86           0.54068212       56.1303048       0.830473571      -32.7227074      0.830473571      -32.7227074      0.54068212       56.1303048       
389.83           0.55075397       55.4579348       0.823870539      -33.4113929      0.823870539      -33.4113929      0.55075397       55.4579348       
399.8            0.560604125      54.7947048       0.81724638       -34.0902424      0.81724638       -34.0902424      0.560604125      54.7947048       
409.77           0.570235306      54.140609        0.810606443      -34.7593057      0.810606443      -34.7593057      0.570235306      54.140609        
419.74           0.57965041       53.4956297       0.803955828      -35.418641       0.803955828      -35.418641       0.57965041       53.4956297       
429.71           0.588852488      52.8597378       0.797299387      -36.0683143      0.797299387      -36.0683143      0.588852488      52.8597378       
439.68           0.597844729      52.232894        0.79064173       -36.7083988      0.79064173       -36.7083988      0.597844729      52.232894        
449.65           0.606630443      51.6150498       0.783987223      -37.3389739      0.783987223      -37.3389739      0.606630443      51.6150498       
459.62           0.615213043      51.006148        0.777339997      -37.9601255      0.777339997      -37.9601255      0.615213043      51.006148        
469.59           0.62359603       50.4061237       0.770703953      -38.5719445      0.770703953      -38.5719445      0.62359603       50.4061237       
479.56           0.631782977      49.8149053       0.764082763      -39.174527       0.764082763      -39.174527       0.631782977      49.8149053       
489.53           0.63977752       49.2324147       0.757479881      -39.7679736      0.757479881      -39.7679736      0.63977752       49.2324147       
499.5            0.64758334       48.6585679       0.750898546      -40.3523887      0.750898546      -40.3523887      0.64758334       48.6585679       
509.47           0.655204154      48.0932763       0.744341792      -40.9278806      0.744341792      -40.9278806      0.655204154      48.0932763       
519.44           0.662643702      47.5364465       0.73781245       -41.4945604      0.73781245       -41.4945604      0.662643702      47.5364465       
529.41           0.669905741      46.9879811       0.731313162      -42.0525421      0.731313162      -42.0525421      0.669905741      46.9879811       
539.38           0.67699403       46.4477793       0.72484638       -42.601942       0.72484638       -42.601942       0.67699403       46.4477793       
549.35           0.683912326      45.9157371       0.71841438       -43.1428786      0.71841438       -43.1428786      0.683912326      45.9157371       
559.32           0.690664373      45.391748        0.712019267      -43.6754719      0.712019267      -43.6754719      0.690664373      45.391748        
569.29           0.697253898      44.8757032       0.70566298       -44.1998432      0.70566298       -44.1998432      0.697253898      44.8757032       
579.26           0.7036846        44.3674918       0.699347303      -44.7161152      0.699347303      -44.7161152      0.7036846        44.3674918       
589.23           0.709960151      43.8670018       0.69307387       -45.2244112      0.69307387       -45.2244112      0.709960151      43.8670018       
599.2            0.716084183      43.3741194       0.686844174      -45.724855       0.686844174      -45.724855       0.716084183      43.3741194       
609.17           0.722060289      42.8887303       0.680659569      -46.2175709      0.680659569      -46.2175709      0.722060289      42.8887303       
619.14           0.727892017      42.4107192       0.674521284      -46.7026831      0.674521284      -46.7026831      0.727892017      42.4107192       
629.11           0.733582866      41.9399705       0.668430424      -47.1803161      0.668430424      -47.1803161      0.733582866      41.9399705       
639.08           0.739136283      41.4763682       0.662387977      -47.6505937      0.662387977      -47.6505937      0.739136283      41.4763682       
649.05           0.74455566       41.0197964       0.656394825      -48.1136394      0.656394825      -48.1136394      0.74455566       41.0197964       
659.02           0.749844334      40.5701395       0.650451743      -48.5695763      0.650451743      -48.5695763      0.749844334      40.5701395       
668.99           0.75500558       40.1272819       0.64455941       -49.0185265      0.64455941       -49.0185265      0.75500558       40.1272819       
678.96           0.760042614      39.6911086       0.638718412      -49.4606115      0.638718412      -49.4606115      0.760042614      39.6911086       
688.93           0.764958591      39.2615054       0.632929251      -49.8959515      0.632929251      -49.8959515      0.764958591      39.2615054       
698.9            0.769756602      38.8383587       0.627192345      -50.3246658      0.627192345      -50.3246658      0.769756602      38.8383587       
708.87           0.774439673      38.4215558       0.621508035      -50.7468726      0.621508035      -50.7468726      0.774439673      38.4215558       
718.84           0.779010768      38.0109849       0.615876593      -51.1626888      0.615876593      -51.1626888      0.779010768      38.0109849       
728.81           0.783472784      37.6065354       0.610298222      -51.5722297      0.610298222      -51.5722297      0.783472784      37.6065354       
738.78           0.787828554      37.2080978       0.604773062      -51.9756096      0.604773062      -51.9756096      0.787828554      37.2080978       
748.75           0.792080847      36.8155638       0.599301195      -52.3729411      0.599301195      -52.3729411      0.792080847      36.8155638       
758.72           0.796232367      36.4288264       0.593882649      -52.7643353      0.593882649      -52.7643353      0.796232367      36.4288264       
768.69           0.800285752      36.0477799       0.5885174        -53.1499017      0.5885174        -53.1499017      0.800285752      36.0477799       
778.66           0.804243578      35.6723201       0.583205377      -53.5297484      0.583205377      -53.5297484      0.804243578      35.6723201       
788.63           0.808108357      35.3023442       0.577946464      -53.9039816      0.577946464      -53.9039816      0.808108357      35.3023442       
798.6            0.811882539      34.9377509       0.572740508      -54.2727062      0.572740508      -54.2727062      0.811882539      34.9377509       
808.57           0.815568511      34.5784403       0.567587313      -54.6360251      0.567587313      -54.6360251      0.815568511      34.5784403       
818.54           0.819168599      34.2243142       0.562486651      -54.9940396      0.562486651      -54.9940396      0.819168599      34.2243142       
828.51           0.822685071      33.8752757       0.557438263      -55.3468494      0.557438263      -55.3468494      0.822685071      33.8752757       
838.48           0.826120132      33.5312298       0.552441859      -55.6945524      0.552441859      -55.6945524      0.826120132      33.5312298       
848.45           0.829475933      33.1920828       0.54749712       -56.0372449      0.54749712       -56.0372449      0.829475933      33.1920828       
858.42           0.832754565      32.8577428       0.542603707      -56.3750213      0.542603707      -56.3750213      0.832754565      32.8577428       
868.39           0.835958064      32.5281192       0.537761253      -56.7079743      0.537761253      -56.7079743      0.835958064      32.5281192       
878.36           0.839088412      32.2031233       0.532969374      -57.0361952      0.532969374      -57.0361952      0.839088412      32.2031233       
888.33           0.842147535      31.8826679       0.528227666      -57.3597733      0.528227666      -57.3597733      0.842147535      31.8826679       
898.3            0.845137308      31.5666673       0.523535709      -57.6787963      0.523535709      -57.6787963      0.845137308      31.5666673       
908.27           0.848059555      31.2550374       0.518893065      -57.9933502      0.518893065      -57.9933502      0.848059555      31.2550374       
918.24           0.850916048      30.9476957       0.514299286      -58.3035193      0.514299286      -58.3035193      0.850916048      30.9476957       
928.21           0.853708512      30.6445613       0.50975391       -58.6093865      0.50975391       -58.6093865      0.853708512      30.6445613       
938.18           0.856438621      30.3455548       0.505256463      -58.9110328      0.505256463      -58.9110328      0.856438621      30.3455548       
948.15           0.859108006      30.0505982       0.500806464      -59.2085376      0.500806464      -59.2085376      0.859108006      30.0505982       
958.12           0.86171825       29.7596154       0.496403421      -59.5019789      0.496403421      -59.5019789      0.86171825       29.7596154       
968.09           0.864270892      29.4725313       0.492046838      -59.791433       0.492046838      -59.791433       0.864270892      29.4725313       
978.06           0.866767428      29.1892726       0.48773621       -60.0769747      0.48773621       -60.0769747      0.866767428      29.1892726       
988.03           0.869209312      28.9097675       0.483471029      -60.3586771      0.483471029      -60.3586771      0.869209312      28.9097675       
998              0.871597956      28.6339453       0.47925078       -60.6366121      0.47925078       -60.6366121      0.871597956      28.6339453       
1007.97          0.873934733      28.3617371       0.475074949      -60.9108498      0.475074949      -60.9108498      0.873934733      28.3617371       
1017.94          0.876220976      28.0930752       0.470943014      -61.1814591      0.470943014      -61.1814591      0.876220976      28.0930752       
1027.91          0.878457982      27.8278934       0.466854457      -61.4485074      0.466854457      -61.4485074      0.878457982      27.8278934       
1037.88          0.880647011      27.5661266       0.462808754      -61.7120606      0.462808754      -61.7120606      0.880647011      27.5661266       
1047.85          0.882789285      27.3077113       0.458805383      -61.9721832      0.458805383      -61.9721832      0.882789285      27.3077113       
1057.82          0.884885993      27.0525852       0.454843822      -62.2289385      0.454843822      -62.2289385      0.884885993      27.0525852       
1067.79          0.886938291      26.8006874       0.450923549      -62.4823884      0.450923549      -62.4823884      0.886938291      26.8006874       
1077.76          0.8889473        26.551958        0.447044042      -62.7325934      0.447044042      -62.7325934      0.8889473        26.551958        
1087.73          0.890914111      26.3063387       0.443204784      -62.9796127      0.443204784      -62.9796127      0.890914111      26.3063387       
1097.7           0.892839784      26.063772        0.439405257      -63.2235045      0.439405257      -63.2235045      0.892839784      26.063772        
1107.67          0.894725348      25.824202        0.435644946      -63.4643254      0.435644946      -63.4643254      0.894725348      25.824202        
1117.64          0.896571804      25.5875738       0.43192334       -63.7021311      0.43192334       -63.7021311      0.896571804      25.5875738       
1127.61          0.898380122      25.3538335       0.42823993       -63.9369759      0.42823993       -63.9369759      0.898380122      25.3538335       
1137.58          0.900151249      25.1229286       0.424594209      -64.168913       0.424594209      -64.168913       0.900151249      25.1229286       
1147.55          0.901886101      24.8948075       0.420985678      -64.3979945      0.420985678      -64.3979945      0.901886101      24.8948075       
1157.52          0.903585571      24.6694198       0.417413837      -64.6242714      0.417413837      -64.6242714      0.903585571      24.6694198       
1167.49          0.905250526      24.4467162       0.413878194      -64.8477935      0.413878194      -64.8477935      0.905250526      24.4467162       
1177.46          0.906881808      24.2266482       0.410378258      -65.0686096      0.410378258      -65.0686096      0.906881808      24.2266482       
1187.43          0.908480236      24.0091685       0.406913546      -65.2867674      0.406913546      -65.2867674      0.908480236      24.0091685       
1197.4           0.910046605      23.7942308       0.403483576      -65.5023137      0.403483576      -65.5023137      0.910046605      23.7942308       
1207.37          0.911581691      23.5817898       0.400087875      -65.7152942      0.400087875      -65.7152942      0.911581691      23.5817898       
1217.34          0.913086244      23.371801        0.396725971      -65.9257535      0.396725971      -65.9257535      0.913086244      23.371801        
1227.31          0.914560995      23.164221        0.393397399      -66.1337355      0.393397399      -66.1337355      0.914560995      23.164221        
1237.28          0.916006657      22.9590071       0.390101699      -66.339283       0.390101699      -66.339283       0.916006657      22.9590071       
1247.25          0.917423919      22.7561178       0.386838418      -66.5424378      0.386838418      -66.5424378      0.917423919      22.7561178       
1257.22          0.918813453      22.5555122       0.383607104      -66.7432411      0.383607104      -66.7432411      0.918813453      22.5555122       
1267.19          0.920175914      22.3571504       0.380407314      -66.9417328      0.380407314      -66.9417328      0.920175914      22.3571504       
