! Coilcraft 0805HT-6N8 Chip Inductor				
! 24 June 2002			
# MHZ S MA R 50
!Freq             MagS11           AngS11           MagS21           AngS21           MagS12           AngS12           MagS22           AngS22
1                0.00109892423    23.1859391       0.998989927      -0.0248149108    0.998989927      -0.0248149108    0.00109892423    23.1859391       
24.69            0.0108419438     79.5903355       0.998097988      -0.612149273     0.998097988      -0.612149273     0.0108419438     79.5903355       
48.38            0.0210451399     82.6306144       0.997519002      -1.19889935      0.997519002      -1.19889935      0.0210451399     82.6306144       
72.07            0.0312582517     83.4738852       0.99693114       -1.78512693      0.99693114       -1.78512693      0.0312582517     83.4738852       
95.76            0.0414647399     83.6815869       0.996289429      -2.37079436      0.996289429      -2.37079436      0.0414647399     83.6815869       
119.45           0.0516589342     83.6114414       0.995576424      -2.95583931      0.995576424      -2.95583931      0.0516589342     83.6114414       
143.14           0.0618372037     83.3929654       0.994783379      -3.54018864      0.994783379      -3.54018864      0.0618372037     83.3929654       
166.83           0.0719965313     83.0852466       0.993905338      -4.12376358      0.993905338      -4.12376358      0.0719965313     83.0852466       
190.52           0.0821341403     82.7193966       0.99293932       -4.7064822       0.99293932       -4.7064822       0.0821341403     82.7193966       
214.21           0.0922473711     82.3134957       0.991883509      -5.28826075      0.991883509      -5.28826075      0.0922473711     82.3134957       
237.9            0.102333634      81.878842        0.990736837      -5.86901452      0.990736837      -5.86901452      0.102333634      81.878842        
261.59           0.112390389      81.4229018       0.989498746      -6.44865844      0.989498746      -6.44865844      0.112390389      81.4229018       
285.28           0.122415144      80.9508341       0.988169056      -7.02710746      0.988169056      -7.02710746      0.122415144      80.9508341       
308.97           0.132405443      80.4663366       0.986747867      -7.60427689      0.986747867      -7.60427689      0.132405443      80.4663366       
332.66           0.142358879      79.9721422       0.985235508      -8.18008264      0.985235508      -8.18008264      0.142358879      79.9721422       
356.35           0.152273085      79.4703244       0.983632489      -8.7544414       0.983632489      -8.7544414       0.152273085      79.4703244       
380.04           0.162145741      78.9624922       0.981939474      -9.32727084      0.981939474      -9.32727084      0.162145741      78.9624922       
403.73           0.171974578      78.4499198       0.980157258      -9.89848976      0.980157258      -9.89848976      0.171974578      78.4499198       
427.42           0.181757374      77.9336336       0.97828675       -10.4680182      0.97828675       -10.4680182      0.181757374      77.9336336       
451.11           0.191491965      77.4144742       0.976328961      -11.0357775      0.976328961      -11.0357775      0.191491965      77.4144742       
474.8            0.201176238      76.8931393       0.974284989      -11.6016905      0.974284989      -11.6016905      0.201176238      76.8931393       
498.49           0.210808141      76.3702159       0.972156015      -12.1656817      0.972156015      -12.1656817      0.210808141      76.3702159       
522.18           0.22038568       75.8462031       0.969943292      -12.727677       0.969943292      -12.727677       0.22038568       75.8462031       
545.87           0.229906921      75.3215302       0.967648136      -13.2876041      0.967648136      -13.2876041      0.229906921      75.3215302       
569.56           0.239369997      74.7965699       0.965271927      -13.8453924      0.965271927      -13.8453924      0.239369997      74.7965699       
593.25           0.248773099      74.2716483       0.962816095      -14.4009734      0.962816095      -14.4009734      0.248773099      74.2716483       
616.94           0.258114489      73.7470532       0.960282122      -14.95428        0.960282122      -14.95428        0.258114489      73.7470532       
640.63           0.267392492      73.2230404       0.957671534      -15.5052475      0.957671534      -15.5052475      0.267392492      73.2230404       
664.32           0.276605501      72.6998385       0.954985897      -16.0538128      0.954985897      -16.0538128      0.276605501      72.6998385       
688.01           0.285751978      72.1776533       0.952226812      -16.5999149      0.952226812      -16.5999149      0.285751978      72.1776533       
711.7            0.294830453      71.6566707       0.949395913      -17.1434948      0.949395913      -17.1434948      0.294830453      71.6566707       
735.39           0.303839524      71.1370594       0.946494865      -17.6844958      0.946494865      -17.6844958      0.303839524      71.1370594       
759.08           0.31277786       70.6189734       0.943525355      -18.2228628      0.943525355      -18.2228628      0.31277786       70.6189734       
782.77           0.321644197      70.1025535       0.940489092      -18.7585432      0.940489092      -18.7585432      0.321644197      70.1025535       
806.46           0.330437342      69.5879288       0.937387806      -19.2914862      0.937387806      -19.2914862      0.330437342      69.5879288       
830.15           0.339156171      69.0752183       0.93422324       -19.8216433      0.93422324       -19.8216433      0.339156171      69.0752183       
853.84           0.347799627      68.5645315       0.93099715       -20.3489681      0.93099715       -20.3489681      0.347799627      68.5645315       
877.53           0.356366724      68.0559697       0.927711303      -20.8734161      0.927711303      -20.8734161      0.356366724      68.0559697       
901.22           0.364856541      67.5496265       0.924367471      -21.3949451      0.924367471      -21.3949451      0.364856541      67.5496265       
924.91           0.373268226      67.0455886       0.920967431      -21.9135149      0.920967431      -21.9135149      0.373268226      67.0455886       
948.6            0.381600992      66.5439365       0.917512962      -22.4290875      0.917512962      -22.4290875      0.381600992      66.5439365       
972.29           0.389854118      66.0447445       0.914005843      -22.9416268      0.914005843      -22.9416268      0.389854118      66.0447445       
995.98           0.398026947      65.5480818       0.910447848      -23.4510989      0.910447848      -23.4510989      0.398026947      65.5480818       
1019.67          0.406118886      65.0540125       0.906840747      -23.9574717      0.906840747      -23.9574717      0.406118886      65.0540125       
1043.36          0.414129404      64.5625961       0.903186303      -24.4607155      0.903186303      -24.4607155      0.414129404      64.5625961       
1067.05          0.42205803       64.0738873       0.899486269      -24.9608023      0.899486269      -24.9608023      0.42205803       64.0738873       
1090.74          0.429904354      63.5879373       0.895742386      -25.457706       0.895742386      -25.457706       0.429904354      63.5879373       
1114.43          0.437668024      63.1047929       0.891956384      -25.9514026      0.891956384      -25.9514026      0.437668024      63.1047929       
1138.12          0.445348744      62.6244976       0.888129977      -26.4418701      0.888129977      -26.4418701      0.445348744      62.6244976       
1161.81          0.452946276      62.1470912       0.884264862      -26.929088       0.884264862      -26.929088       0.452946276      62.1470912       
1185.5           0.460460432      61.6726103       0.880362719      -27.413038       0.880362719      -27.413038       0.460460432      61.6726103       
1209.19          0.46789108       61.2010885       0.87642521       -27.8937033      0.87642521       -27.8937033      0.46789108       61.2010885       
1232.88          0.475238139      60.7325564       0.872453974      -28.3710692      0.872453974      -28.3710692      0.475238139      60.7325564       
1256.57          0.482501574      60.2670416       0.868450629      -28.8451224      0.868450629      -28.8451224      0.482501574      60.2670416       
1280.26          0.489681401      59.8045694       0.864416772      -29.3158515      0.864416772      -29.3158515      0.489681401      59.8045694       
1303.95          0.496777681      59.3451621       0.860353973      -29.7832465      0.860353973      -29.7832465      0.496777681      59.3451621       
1327.64          0.503790519      58.8888399       0.85626378       -30.2472993      0.85626378       -30.2472993      0.503790519      58.8888399       
1351.33          0.510720064      58.4356207       0.852147714      -30.7080031      0.852147714      -30.7080031      0.510720064      58.4356207       
1375.02          0.517566505      57.9855198       0.848007268      -31.1653528      0.848007268      -31.1653528      0.517566505      57.9855198       
1398.71          0.524330073      57.5385508       0.843843911      -31.6193446      0.843843911      -31.6193446      0.524330073      57.5385508       
1422.4           0.531011033      57.0947251       0.839659082      -32.0699763      0.839659082      -32.0699763      0.531011033      57.0947251       
1446.09          0.53760969       56.6540521       0.835454193      -32.5172469      0.835454193      -32.5172469      0.53760969       56.6540521       
1469.78          0.544126382      56.2165394       0.831230624      -32.9611571      0.831230624      -32.9611571      0.544126382      56.2165394       
1493.47          0.55056148       55.7821928       0.826989731      -33.4017083      0.826989731      -33.4017083      0.55056148       55.7821928       
1517.16          0.556915388      55.3510165       0.822732836      -33.8389038      0.822732836      -33.8389038      0.556915388      55.3510165       
1540.85          0.563188538      54.9230131       0.818461232      -34.2727477      0.818461232      -34.2727477      0.563188538      54.9230131       
1564.54          0.569381392      54.4981833       0.814176185      -34.7032453      0.814176185      -34.7032453      0.569381392      54.4981833       
1588.23          0.575494439      54.0765269       0.809878927      -35.1304032      0.809878927      -35.1304032      0.575494439      54.0765269       
1611.92          0.581528193      53.6580417       0.805570662      -35.5542289      0.805570662      -35.5542289      0.581528193      53.6580417       
1635.61          0.587483193      53.2427246       0.801252563      -35.9747312      0.801252563      -35.9747312      0.587483193      53.2427246       
1659.3           0.593359997      52.830571        0.796925772      -36.3919195      0.796925772      -36.3919195      0.593359997      52.830571        
1682.99          0.59915919       52.421575        0.792591401      -36.8058045      0.792591401      -36.8058045      0.59915919       52.421575        
1706.68          0.604881373      52.0157298       0.788250534      -37.2163977      0.788250534      -37.2163977      0.604881373      52.0157298       
1730.37          0.610527167      51.6130273       0.783904221      -37.6237115      0.783904221      -37.6237115      0.610527167      51.6130273       
1754.06          0.616097209      51.2134582       0.779553486      -38.027759       0.779553486      -38.027759       0.616097209      51.2134582       
1777.75          0.621592153      50.8170126       0.775199321      -38.4285542      0.775199321      -38.4285542      0.621592153      50.8170126       
1801.44          0.627012669      50.4236793       0.77084269       -38.826112       0.77084269       -38.826112       0.627012669      50.4236793       
1825.13          0.63235944       50.0334463       0.766484525      -39.2204478      0.766484525      -39.2204478      0.63235944       50.0334463       
1848.82          0.63763316       49.6463008       0.762125734      -39.6115777      0.762125734      -39.6115777      0.63763316       49.6463008       
1872.51          0.642834536      49.262229        0.757767192      -39.9995187      0.757767192      -39.9995187      0.642834536      49.262229        
1896.2           0.647964285      48.8812166       0.753409749      -40.384288       0.753409749      -40.384288       0.647964285      48.8812166       
1919.89          0.653023134      48.5032484       0.749054225      -40.7659039      0.749054225      -40.7659039      0.653023134      48.5032484       
1943.58          0.658011817      48.1283085       0.744701413      -41.1443847      0.744701413      -41.1443847      0.658011817      48.1283085       
1967.27          0.662931078      47.7563804       0.740352082      -41.5197497      0.740352082      -41.5197497      0.662931078      47.7563804       
1990.96          0.667781664      47.387447        0.73600697       -41.8920183      0.73600697       -41.8920183      0.667781664      47.387447        
2014.65          0.672564332      47.0214907       0.731666793      -42.2612106      0.731666793      -42.2612106      0.672564332      47.0214907       
2038.34          0.677279839      46.6584931       0.727332238      -42.627347       0.727332238      -42.627347       0.677279839      46.6584931       
2062.03          0.68192895       46.2984357       0.723003968      -42.9904484      0.723003968      -42.9904484      0.68192895       46.2984357       
2085.72          0.686512432      45.9412992       0.718682624      -43.350536       0.718682624      -43.350536       0.686512432      45.9412992       
2109.41          0.691031054      45.587064        0.714368819      -43.7076313      0.714368819      -43.7076313      0.691031054      45.587064        
2133.1           0.695485587      45.23571         0.710063144      -44.0617562      0.710063144      -44.0617562      0.695485587      45.23571         
2156.79          0.699876804      44.887217        0.705766167      -44.4129328      0.705766167      -44.4129328      0.699876804      44.887217        
2180.48          0.704205477      44.541564        0.701478434      -44.7611837      0.701478434      -44.7611837      0.704205477      44.541564        
2204.17          0.708472379      44.1987301       0.697200467      -45.1065313      0.697200467      -45.1065313      0.708472379      44.1987301       
2227.86          0.712678284      43.8586939       0.692932767      -45.4489987      0.692932767      -45.4489987      0.712678284      43.8586939       
2251.55          0.716823961      43.5214338       0.688675816      -45.7886089      0.688675816      -45.7886089      0.716823961      43.5214338       
2275.24          0.72091018       43.1869279       0.684430072      -46.1253851      0.684430072      -46.1253851      0.72091018       43.1869279       
2298.93          0.724937709      42.8551542       0.680195975      -46.4593507      0.680195975      -46.4593507      0.724937709      42.8551542       
2322.62          0.728907312      42.5260902       0.675973945      -46.7905294      0.675973945      -46.7905294      0.728907312      42.5260902       
2346.31          0.732819751      42.1997136       0.671764384      -47.1189447      0.671764384      -47.1189447      0.732819751      42.1997136       
2370             0.736675783      41.8760018       0.667567672      -47.4446204      0.667567672      -47.4446204      0.736675783      41.8760018       
2393.69          0.740476163      41.5549319       0.663384175      -47.7675803      0.663384175      -47.7675803      0.740476163      41.5549319       
2417.38          0.74422164       41.2364812       0.659214239      -48.0878484      0.659214239      -48.0878484      0.74422164       41.2364812       
2441.07          0.74791296       40.9206266       0.655058194      -48.4054486      0.655058194      -48.4054486      0.74791296       40.9206266       
2464.76          0.751550865      40.6073452       0.650916351      -48.720405       0.650916351      -48.720405       0.751550865      40.6073452       
2488.45          0.755136087      40.2966137       0.646789009      -49.0327414      0.646789009      -49.0327414      0.755136087      40.2966137       
2512.14          0.758669359      39.988409        0.642676448      -49.342482       0.642676448      -49.342482       0.758669359      39.988409        
2535.83          0.762151404      39.6827079       0.638578934      -49.6496506      0.638578934      -49.6496506      0.762151404      39.6827079       
2559.52          0.765582939      39.3794873       0.634496718      -49.9542714      0.634496718      -49.9542714      0.765582939      39.3794873       
2583.21          0.768964678      39.0787237       0.630430036      -50.2563683      0.630430036      -50.2563683      0.768964678      39.0787237       
2606.9           0.772297326      38.7803941       0.626379112      -50.5559651      0.626379112      -50.5559651      0.772297326      38.7803941       
2630.59          0.775581582      38.4844753       0.622344156      -50.8530858      0.622344156      -50.8530858      0.775581582      38.4844753       
2654.28          0.778818138      38.190944        0.618325362      -51.147754       0.618325362      -51.147754       0.778818138      38.190944        
2677.97          0.782007681      37.8997771       0.614322916      -51.4399936      0.614322916      -51.4399936      0.782007681      37.8997771       
2701.66          0.785150889      37.6109516       0.610336989      -51.7298282      0.610336989      -51.7298282      0.785150889      37.6109516       
2725.35          0.788248433      37.3244443       0.606367741      -52.0172812      0.606367741      -52.0172812      0.788248433      37.3244443       
2749.04          0.791300978      37.0402325       0.60241532       -52.3023761      0.60241532       -52.3023761      0.791300978      37.0402325       
2772.73          0.79430918       36.7582931       0.598479864      -52.5851363      0.598479864      -52.5851363      0.79430918       36.7582931       
2796.42          0.79727369       36.4786035       0.5945615        -52.8655849      0.5945615        -52.8655849      0.79727369       36.4786035       
2820.11          0.800195149      36.2011408       0.590660344      -53.143745       0.590660344      -53.143745       0.800195149      36.2011408       
2843.8           0.803074191      35.9258826       0.586776504      -53.4196396      0.586776504      -53.4196396      0.803074191      35.9258826       
2867.49          0.805911445      35.6528064       0.582910075      -53.6932914      0.582910075      -53.6932914      0.805911445      35.6528064       
2891.18          0.808707528      35.3818898       0.579061147      -53.9647232      0.579061147      -53.9647232      0.808707528      35.3818898       
2914.87          0.811463053      35.1131105       0.575229798      -54.2339575      0.575229798      -54.2339575      0.811463053      35.1131105       
2938.56          0.814178623      34.8464466       0.571416099      -54.5010166      0.571416099      -54.5010166      0.814178623      34.8464466       
2962.25          0.816854835      34.5818759       0.567620112      -54.7659227      0.567620112      -54.7659227      0.816854835      34.5818759       
2985.94          0.819492277      34.3193768       0.563841892      -55.0286979      0.563841892      -55.0286979      0.819492277      34.3193768       
3009.63          0.822091529      34.0589274       0.560081484      -55.289364       0.560081484      -55.289364       0.822091529      34.0589274       
