! Coilcraft 0805HT-15N Chip Inductor				
! 24 June 2002			
# MHZ S MA R 50
!Freq             MagS11           AngS11           MagS21           AngS21           MagS12           AngS12           MagS22           AngS22
1                0.00160043125    34.8676239       0.998687305      -0.0524910141    0.998687305      -0.0524910141    0.00160043125    34.8676239       
13.72            0.0127420338     79.5286617       0.997762894      -0.719534766     0.997762894      -0.719534766     0.0127420338     79.5286617       
26.44            0.0243251264     82.4615433       0.997100399      -1.38583423      0.997100399      -1.38583423      0.0243251264     82.4615433       
39.16            0.0359181932     83.2302202       0.99640455       -2.0514249       0.99640455       -2.0514249       0.0359181932     83.2302202       
51.88            0.0475005629     83.3629975       0.995628545      -2.71622938      0.995628545      -2.71622938      0.0475005629     83.3629975       
64.6             0.0590645355     83.216671        0.99475414       -3.38014109      0.99475414       -3.38014109      0.0590645355     83.216671        
77.32            0.0706049056     82.921281        0.993772287      -4.04304089      0.993772287      -4.04304089      0.0706049056     82.921281        
90.04            0.0821172362     82.5363445       0.99267801       -4.70480326      0.99267801       -4.70480326      0.0821172362     82.5363445       
102.76           0.0935974059     82.0932602       0.991468485      -5.36529942      0.991468485      -5.36529942      0.0935974059     82.0932602       
115.48           0.105041458      81.6103032       0.990142178      -6.024399        0.990142178      -6.024399        0.105041458      81.6103032       
128.2            0.116445547      81.0989109       0.988698397      -6.68197123      0.988698397      -6.68197123      0.116445547      81.0989109       
140.92           0.127805914      80.5666551       0.987137046      -7.3378856       0.987137046      -7.3378856       0.127805914      80.5666551       
153.64           0.139118885      80.0187791       0.985458469      -7.99201256      0.985458469      -7.99201256      0.139118885      80.0187791       
166.36           0.150380864      79.4590512       0.983663354      -8.64422384      0.983663354      -8.64422384      0.150380864      79.4590512       
179.08           0.161588343      78.890265        0.981752667      -9.29439288      0.981752667      -9.29439288      0.161588343      78.890265        
191.8            0.172737898      78.3145484       0.979727605      -9.94239514      0.979727605      -9.94239514      0.172737898      78.3145484       
204.52           0.183826199      77.7335594       0.977589562      -10.5881083      0.977589562      -10.5881083      0.183826199      77.7335594       
217.24           0.19485001       77.1486175       0.9753401        -11.2314125      0.9753401        -11.2314125      0.19485001       77.1486175       
229.96           0.205806194      76.5607911       0.972980933      -11.8721906      0.972980933      -11.8721906      0.205806194      76.5607911       
242.68           0.216691719      75.9709598       0.970513904      -12.5103283      0.970513904      -12.5103283      0.216691719      75.9709598       
255.4            0.22750366       75.3798581       0.967940974      -13.1457142      0.967940974      -13.1457142      0.22750366       75.3798581       
268.12           0.238239199      74.7881072       0.965264211      -13.7782402      0.965264211      -13.7782402      0.238239199      74.7881072       
280.84           0.248895633      74.1962388       0.962485774      -14.4078012      0.962485774      -14.4078012      0.248895633      74.1962388       
293.56           0.259470373      73.6047123       0.959607906      -15.0342956      0.959607906      -15.0342956      0.259470373      73.6047123       
306.28           0.269960946      73.0139286       0.956632925      -15.6576253      0.956632925      -15.6576253      0.269960946      73.0139286       
319              0.280364998      72.4242403       0.953563215      -16.2776956      0.953563215      -16.2776956      0.280364998      72.4242403       
331.72           0.290680294      71.8359597       0.950401218      -16.8944153      0.950401218      -16.8944153      0.290680294      71.8359597       
344.44           0.300904719      71.2493654       0.947149425      -17.5076971      0.947149425      -17.5076971      0.300904719      71.2493654       
357.16           0.311036281      70.6647067       0.943810373      -18.1174571      0.943810373      -18.1174571      0.311036281      70.6647067       
369.88           0.321073104      70.0822087       0.940386633      -18.7236153      0.940386633      -18.7236153      0.321073104      70.0822087       
382.6            0.331013438      69.5020745       0.936880808      -19.3260952      0.936880808      -19.3260952      0.331013438      69.5020745       
395.32           0.34085565       68.9244885       0.933295525      -19.9248243      0.933295525      -19.9248243      0.34085565       68.9244885       
408.04           0.350598227      68.3496188       0.929633427      -20.5197336      0.929633427      -20.5197336      0.350598227      68.3496188       
420.76           0.360239773      67.7776182       0.925897172      -21.110758       0.925897172      -21.110758       0.360239773      67.7776182       
433.48           0.369779012      67.2086266       0.922089425      -21.697836       0.922089425      -21.697836       0.369779012      67.2086266       
446.2            0.379214781      66.6427719       0.918212853      -22.2809099      0.918212853      -22.2809099      0.379214781      66.6427719       
458.92           0.38854603       66.0801712       0.91427012       -22.8599256      0.91427012       -22.8599256      0.38854603       66.0801712       
471.64           0.397771823      65.5209316       0.910263882      -23.4348327      0.910263882      -23.4348327      0.397771823      65.5209316       
484.36           0.40689133       64.9651511       0.906196786      -24.0055842      0.906196786      -24.0055842      0.40689133       64.9651511       
497.08           0.41590383       64.4129196       0.902071461      -24.5721369      0.902071461      -24.5721369      0.41590383       64.4129196       
509.8            0.424808707      63.864319        0.897890519      -25.1344509      0.897890519      -25.1344509      0.424808707      63.864319        
522.52           0.433605444      63.319424        0.893656546      -25.6924897      0.893656546      -25.6924897      0.433605444      63.319424        
535.24           0.442293624      62.7783026       0.889372104      -26.2462203      0.889372104      -26.2462203      0.442293624      62.7783026       
547.96           0.450872926      62.2410167       0.885039726      -26.7956129      0.885039726      -26.7956129      0.450872926      62.2410167       
560.68           0.459343122      61.7076221       0.880661909      -27.340641       0.880661909      -27.340641       0.459343122      61.7076221       
573.4            0.467704073      61.1781691       0.876241118      -27.8812811      0.876241118      -27.8812811      0.467704073      61.1781691       
586.12           0.475955727      60.6527028       0.871779779      -28.4175129      0.871779779      -28.4175129      0.475955727      60.6527028       
598.84           0.484098114      60.1312633       0.86728028       -28.9493191      0.86728028       -28.9493191      0.484098114      60.1312633       
611.56           0.492131346      59.6138863       0.862744964      -29.4766852      0.862744964      -29.4766852      0.492131346      59.6138863       
624.28           0.50005561       59.1006028       0.858176132      -29.9995995      0.858176132      -29.9995995      0.50005561       59.1006028       
637              0.507871167      58.5914398       0.853576041      -30.5180532      0.853576041      -30.5180532      0.507871167      58.5914398       
649.72           0.515578348      58.0864202       0.848946898      -31.03204        0.848946898      -31.03204        0.515578348      58.0864202       
662.44           0.523177551      57.5855633       0.844290863      -31.5415561      0.844290863      -31.5415561      0.523177551      57.5855633       
675.16           0.530669239      57.0888849       0.839610049      -32.0466004      0.839610049      -32.0466004      0.530669239      57.0888849       
687.88           0.538053932      56.5963971       0.834906515      -32.547174       0.834906515      -32.547174       0.538053932      56.5963971       
700.6            0.54533221       56.1081093       0.830182272      -33.0432803      0.830182272      -33.0432803      0.54533221       56.1081093       
713.32           0.552504706      55.6240274       0.825439278      -33.5349249      0.825439278      -33.5349249      0.552504706      55.6240274       
726.04           0.559572103      55.1441548       0.820679439      -34.0221156      0.820679439      -34.0221156      0.559572103      55.1441548       
738.76           0.566535133      54.6684919       0.815904608      -34.5048621      0.815904608      -34.5048621      0.566535133      54.6684919       
751.48           0.573394573      54.1970366       0.811116587      -34.9831761      0.811116587      -34.9831761      0.573394573      54.1970366       
764.2            0.58015124       53.7297845       0.806317125      -35.4570711      0.806317125      -35.4570711      0.58015124       53.7297845       
776.92           0.586805994      53.2667287       0.801507916      -35.9265624      0.801507916      -35.9265624      0.586805994      53.2667287       
789.64           0.593359726      52.8078603       0.796690604      -36.3916671      0.796690604      -36.3916671      0.593359726      52.8078603       
802.36           0.599813365      52.353168        0.791866779      -36.8524036      0.791866779      -36.8524036      0.599813365      52.353168        
815.08           0.60616787       51.9026389       0.787037981      -37.3087921      0.787037981      -37.3087921      0.60616787       51.9026389       
827.8            0.612424226      51.4562581       0.782205696      -37.760854       0.782205696      -37.760854       0.612424226      51.4562581       
840.52           0.618583447      51.0140091       0.77737136       -38.2086122      0.77737136       -38.2086122      0.618583447      51.0140091       
853.24           0.624646569      50.5758735       0.772536359      -38.6520909      0.772536359      -38.6520909      0.624646569      50.5758735       
865.96           0.630614652      50.1418316       0.767702029      -39.0913153      0.767702029      -39.0913153      0.630614652      50.1418316       
878.68           0.636488771      49.7118621       0.762869655      -39.5263121      0.762869655      -39.5263121      0.636488771      49.7118621       
891.4            0.642270021      49.2859426       0.758040475      -39.9571086      0.758040475      -39.9571086      0.642270021      49.2859426       
904.12           0.647959512      48.8640492       0.753215679      -40.3837335      0.753215679      -40.3837335      0.647959512      48.8640492       
916.84           0.653558367      48.4461569       0.748396411      -40.8062162      0.748396411      -40.8062162      0.653558367      48.4461569       
929.56           0.65906772       48.0322395       0.743583768      -41.224587       0.743583768      -41.224587       0.65906772       48.0322395       
942.28           0.664488714      47.62227         0.738778802      -41.6388771      0.738778802      -41.6388771      0.664488714      47.62227         
955              0.669822502      47.2162204       0.733982521      -42.0491182      0.733982521      -42.0491182      0.669822502      47.2162204       
967.72           0.675070241      46.8140616       0.729195889      -42.455343       0.729195889      -42.455343       0.675070241      46.8140616       
980.44           0.680233094      46.4157639       0.72441983       -42.8575846      0.72441983       -42.8575846      0.680233094      46.4157639       
993.16           0.685312229      46.0212969       0.719655224      -43.2558767      0.719655224      -43.2558767      0.685312229      46.0212969       
1005.88          0.690308814      45.6306293       0.714902912      -43.6502536      0.714902912      -43.6502536      0.690308814      45.6306293       
1018.6           0.695224017      45.2437293       0.710163697      -44.0407501      0.710163697      -44.0407501      0.695224017      45.2437293       
1031.32          0.700059008      44.8605647       0.705438343      -44.4274012      0.705438343      -44.4274012      0.700059008      44.8605647       
1044.04          0.704814954      44.4811024       0.700727575      -44.8102425      0.700727575      -44.8102425      0.704814954      44.4811024       
1056.76          0.709493021      44.1053092       0.696032084      -45.1893098      0.696032084      -45.1893098      0.709493021      44.1053092       
1069.48          0.714094369      43.7331513       0.691352525      -45.5646393      0.691352525      -45.5646393      0.714094369      43.7331513       
1082.2           0.718620155      43.3645945       0.686689521      -45.9362674      0.686689521      -45.9362674      0.718620155      43.3645945       
1094.92          0.723071531      42.9996046       0.682043658      -46.3042306      0.682043658      -46.3042306      0.723071531      42.9996046       
1107.64          0.727449641      42.6381467       0.677415493      -46.6685658      0.677415493      -46.6685658      0.727449641      42.6381467       
1120.36          0.731755624      42.2801858       0.672805551      -47.0293099      0.672805551      -47.0293099      0.731755624      42.2801858       
1133.08          0.73599061       41.925687        0.668214327      -47.3864997      0.668214327      -47.3864997      0.73599061       41.925687        
1145.8           0.740155721      41.5746147       0.663642288      -47.7401726      0.663642288      -47.7401726      0.740155721      41.5746147       
1158.52          0.74425207       41.2269336       0.65908987       -48.0903655      0.65908987       -48.0903655      0.74425207       41.2269336       
1171.24          0.748280761      40.8826082       0.654557484      -48.4371157      0.654557484      -48.4371157      0.748280761      40.8826082       
1183.96          0.752242887      40.5416028       0.650045516      -48.7804602      0.650045516      -48.7804602      0.752242887      40.5416028       
1196.68          0.756139532      40.2038818       0.645554323      -49.1204362      0.645554323      -49.1204362      0.756139532      40.2038818       
1209.4           0.759971767      39.8694096       0.64108424       -49.4570807      0.64108424       -49.4570807      0.759971767      39.8694096       
1222.12          0.763740654      39.5381505       0.636635579      -49.7904306      0.636635579      -49.7904306      0.763740654      39.5381505       
1234.84          0.767447241      39.210069        0.632208628      -50.1205227      0.632208628      -50.1205227      0.767447241      39.210069        
1247.56          0.771092567      38.8851295       0.627803652      -50.4473939      0.627803652      -50.4473939      0.771092567      38.8851295       
1260.28          0.774677656      38.5632966       0.623420899      -50.7710806      0.623420899      -50.7710806      0.774677656      38.5632966       
1273             0.77820352       38.2445349       0.619060592      -51.0916192      0.619060592      -51.0916192      0.77820352       38.2445349       
1285.72          0.78167116       37.9288094       0.614722938      -51.409046       0.614722938      -51.409046       0.78167116       37.9288094       
1298.44          0.785081563      37.6160848       0.610408123      -51.723397       0.610408123      -51.723397       0.785081563      37.6160848       
1311.16          0.788435702      37.3063264       0.606116317      -52.034708       0.606116317      -52.034708       0.788435702      37.3063264       
1323.88          0.791734539      36.9994995       0.601847672      -52.3430145      0.601847672      -52.3430145      0.791734539      36.9994995       
1336.6           0.79497902       36.6955694       0.597602324      -52.6483519      0.597602324      -52.6483519      0.79497902       36.6955694       
1349.32          0.798170081      36.394502        0.593380391      -52.9507553      0.593380391      -52.9507553      0.798170081      36.394502        
1362.04          0.801308641      36.096263        0.589181978      -53.2502596      0.589181978      -53.2502596      0.801308641      36.096263        
1374.76          0.804395608      35.8008188       0.585007175      -53.5468992      0.585007175      -53.5468992      0.804395608      35.8008188       
1387.48          0.807431876      35.5081355       0.580856058      -53.8407085      0.580856058      -53.8407085      0.807431876      35.5081355       
1400.2           0.810418324      35.2181799       0.57672869       -54.1317215      0.57672869       -54.1317215      0.810418324      35.2181799       
1412.92          0.81335582       34.9309188       0.572625121      -54.4199717      0.572625121      -54.4199717      0.81335582       34.9309188       
1425.64          0.816245216      34.6463195       0.568545388      -54.7054927      0.568545388      -54.7054927      0.816245216      34.6463195       
1438.36          0.819087352      34.3643493       0.564489518      -54.9883175      0.564489518      -54.9883175      0.819087352      34.3643493       
1451.08          0.821883055      34.084976        0.560457526      -55.2684788      0.560457526      -55.2684788      0.821883055      34.084976        
1463.8           0.824633137      33.8081676       0.556449416      -55.546009       0.556449416      -55.546009       0.824633137      33.8081676       
1476.52          0.827338398      33.5338924       0.552465184      -55.8209403      0.552465184      -55.8209403      0.827338398      33.5338924       
1489.24          0.829999624      33.2621189       0.548504814      -56.0933044      0.548504814      -56.0933044      0.829999624      33.2621189       
1501.96          0.832617589      32.9928163       0.544568283      -56.3631328      0.544568283      -56.3631328      0.832617589      32.9928163       
1514.68          0.835193052      32.7259535       0.540655556      -56.6304565      0.540655556      -56.6304565      0.835193052      32.7259535       
1527.4           0.837726761      32.4615003       0.536766595      -56.8953063      0.536766595      -56.8953063      0.837726761      32.4615003       
1540.12          0.840219451      32.1994265       0.532901348      -57.1577126      0.532901348      -57.1577126      0.840219451      32.1994265       
1552.84          0.842671844      31.9397021       0.529059762      -57.4177055      0.529059762      -57.4177055      0.842671844      31.9397021       
1565.56          0.845084648      31.6822979       0.525241771      -57.6753146      0.525241771      -57.6753146      0.845084648      31.6822979       
1578.28          0.847458561      31.4271845       0.521447307      -57.9305693      0.521447307      -57.9305693      0.847458561      31.4271845       
1591             0.849794267      31.1743331       0.517676292      -58.1834986      0.517676292      -58.1834986      0.849794267      31.1743331       
1603.72          0.852092439      30.9237152       0.513928646      -58.4341312      0.513928646      -58.4341312      0.852092439      30.9237152       
1616.44          0.854353737      30.6753026       0.510204279      -58.6824954      0.510204279      -58.6824954      0.854353737      30.6753026       
