! Coilcraft 0805HT-18N Chip Inductor				
! 24 June 2002			
# MHZ S MA R 50
!Freq             MagS11           AngS11           MagS21           AngS21           MagS12           AngS12           MagS22           AngS22
1                0.00200292593    33.3854071       0.998328189      -0.063254089     0.998328189      -0.063254089     0.00200292593    33.3854071       
14.71            0.0164481232     79.5285259       0.997141806      -0.929409796     0.997141806      -0.929409796     0.0164481232     79.5285259       
28.42            0.0314818683     82.2226763       0.996228206      -1.79424575      0.996228206      -1.79424575      0.0314818683     82.2226763       
42.13            0.0465173125     82.7677657       0.995214351      -2.65770834      0.995214351      -2.65770834      0.0465173125     82.7677657       
55.84            0.0615241575     82.6864491       0.994042892      -3.51956209      0.994042892      -3.51956209      0.0615241575     82.6864491       
69.55            0.0764887074     82.3318407       0.992692254      -4.37952654      0.992692254      -4.37952654      0.0764887074     82.3318407       
83.26            0.0914004692     81.8322818       0.991152505      -5.2373035       0.991152505      -5.2373035       0.0914004692     81.8322818       
96.97            0.106249996      81.2464666       0.989418966      -6.09258762      0.989418966      -6.09258762      0.106249996      81.2464666       
110.68           0.121028344      80.6053875       0.987489835      -6.94507174      0.987489835      -6.94507174      0.121028344      80.6053875       
124.39           0.135726905      79.92713         0.985365098      -7.79445014      0.985365098      -7.79445014      0.135726905      79.92713         
138.1            0.150337358      79.2230618       0.983045971      -8.6404207       0.983045971      -8.6404207       0.150337358      79.2230618       
151.81           0.164851658      78.5007552       0.980534578      -9.48268654      0.980534578      -9.48268654      0.164851658      78.5007552       
165.52           0.179262047      77.7654959       0.977833745      -10.3209572      0.977833745      -10.3209572      0.179262047      77.7654959       
179.23           0.193561059      77.0211197       0.97494687       -11.1549499      0.97494687       -11.1549499      0.193561059      77.0211197       
192.94           0.20774154       76.2705028       0.971877823      -11.9843899      0.971877823      -11.9843899      0.20774154       76.2705028       
206.65           0.221796657      75.5158632       0.968630874      -12.8090118      0.968630874      -12.8090118      0.221796657      75.5158632       
220.36           0.235719913      74.7589533       0.965210632      -13.6285597      0.965210632      -13.6285597      0.235719913      74.7589533       
234.07           0.249505154      74.0011865       0.961622001      -14.4427881      0.961622001      -14.4427881      0.249505154      74.0011865       
247.78           0.263146582      73.2437239       0.957870135      -15.2514618      0.957870135      -15.2514618      0.263146582      73.2437239       
261.49           0.276638761      72.4875341       0.953960399      -16.0543567      0.953960399      -16.0543567      0.276638761      72.4875341       
275.2            0.289976616      71.7334359       0.949898339      -16.85126        0.949898339      -16.85126        0.289976616      71.7334359       
288.91           0.303155446      70.9821295       0.945689648      -17.6419702      0.945689648      -17.6419702      0.303155446      70.9821295       
302.62           0.316170915      70.2342192       0.941340141      -18.4262975      0.941340141      -18.4262975      0.316170915      70.2342192       
316.33           0.32901906       69.4902309       0.936855724      -19.2040639      0.936855724      -19.2040639      0.32901906       69.4902309       
330.04           0.341696281      68.750625        0.93224237       -19.9751028      0.93224237       -19.9751028      0.341696281      68.750625        
343.75           0.354199343      68.0158064       0.927506099      -20.7392596      0.927506099      -20.7392596      0.354199343      68.0158064       
357.46           0.366525369      67.2861328       0.922652952      -21.4963913      0.922652952      -21.4963913      0.366525369      67.2861328       
371.17           0.37867183       66.5619212       0.917688972      -22.2463666      0.917688972      -22.2463666      0.37867183       66.5619212       
384.88           0.390636542      65.8434521       0.912620185      -22.9890655      0.912620185      -22.9890655      0.390636542      65.8434521       
398.59           0.402417655      65.1309747       0.907452581      -23.7243792      0.907452581      -23.7243792      0.402417655      65.1309747       
412.3            0.414013642      64.4247098       0.9021921        -24.4522102      0.9021921        -24.4522102      0.414013642      64.4247098       
426.01           0.425423289      63.7248524       0.896844614      -25.1724715      0.896844614      -25.1724715      0.425423289      63.7248524       
439.72           0.436645686      63.0315748       0.891415914      -25.885087       0.891415914      -25.885087       0.436645686      63.0315748       
453.43           0.44768021       62.3450282       0.885911701      -26.5899907      0.885911701      -26.5899907      0.44768021       62.3450282       
467.14           0.458526516      61.6653445       0.880337567      -27.2871265      0.880337567      -27.2871265      0.458526516      61.6653445       
480.85           0.469184525      60.9926381       0.874698992      -27.9764481      0.874698992      -27.9764481      0.469184525      60.9926381       
494.56           0.479654408      60.3270071       0.869001332      -28.6579183      0.869001332      -28.6579183      0.479654408      60.3270071       
508.27           0.489936574      59.6685344       0.863249811      -29.3315091      0.863249811      -29.3315091      0.489936574      59.6685344       
521.98           0.500031656      59.0172893       0.857449514      -29.9972008      0.857449514      -29.9972008      0.500031656      59.0172893       
535.69           0.509940499      58.373328        0.851605383      -30.6549822      0.851605383      -30.6549822      0.509940499      58.373328        
549.4            0.519664144      57.7366947       0.84572221       -31.3048498      0.84572221       -31.3048498      0.519664144      57.7366947       
563.11           0.529203819      57.1074225       0.839804635      -31.9468076      0.839804635      -31.9468076      0.529203819      57.1074225       
576.82           0.538560922      56.4855343       0.833857141      -32.5808667      0.833857141      -32.5808667      0.538560922      56.4855343       
590.53           0.547737009      55.8710431       0.827884054      -33.2070449      0.827884054      -33.2070449      0.547737009      55.8710431       
604.24           0.556733784      55.2639531       0.821889539      -33.8253664      0.821889539      -33.8253664      0.556733784      55.2639531       
617.95           0.565553084      54.6642602       0.815877603      -34.4358615      0.815877603      -34.4358615      0.565553084      54.6642602       
631.66           0.574196869      54.0719525       0.80985209       -35.0385658      0.80985209       -35.0385658      0.574196869      54.0719525       
645.37           0.582667211      53.4870111       0.803816686      -35.6335206      0.803816686      -35.6335206      0.582667211      53.4870111       
659.08           0.590966279      52.9094101       0.797774917      -36.2207718      0.797774917      -36.2207718      0.590966279      52.9094101       
672.79           0.599096336      52.339118        0.791730153      -36.8003701      0.791730153      -36.8003701      0.599096336      52.339118        
686.5            0.607059722      51.7760973       0.785685606      -37.3723703      0.785685606      -37.3723703      0.607059722      51.7760973       
700.21           0.614858847      51.2203053       0.779644339      -37.9368313      0.779644339      -37.9368313      0.614858847      51.2203053       
713.92           0.622496184      50.6716945       0.77360926       -38.4938157      0.77360926       -38.4938157      0.622496184      50.6716945       
727.63           0.629974257      50.1302132       0.767583134      -39.0433891      0.767583134      -39.0433891      0.629974257      50.1302132       
741.34           0.637295635      49.5958055       0.76156858       -39.5856206      0.76156858       -39.5856206      0.637295635      49.5958055       
755.05           0.644462923      49.0684118       0.755568074      -40.1205818      0.755568074      -40.1205818      0.644462923      49.0684118       
768.76           0.651478758      48.5479694       0.74958396       -40.6483469      0.74958396       -40.6483469      0.651478758      48.5479694       
782.47           0.658345797      48.0344123       0.743618445      -41.1689925      0.743618445      -41.1689925      0.658345797      48.0344123       
796.18           0.665066714      47.5276719       0.737673609      -41.6825969      0.737673609      -41.6825969      0.665066714      47.5276719       
809.89           0.671644195      47.0276773       0.731751406      -42.1892407      0.731751406      -42.1892407      0.671644195      47.0276773       
823.6            0.678080929      46.5343552       0.725853668      -42.6890056      0.725853668      -42.6890056      0.678080929      46.5343552       
837.31           0.684379608      46.0476306       0.719982112      -43.1819751      0.719982112      -43.1819751      0.684379608      46.0476306       
851.02           0.690542916      45.5674266       0.714138341      -43.6682336      0.714138341      -43.6682336      0.690542916      45.5674266       
864.73           0.69657353       45.093665        0.70832385       -44.1478666      0.70832385       -44.1478666      0.69657353       45.093665        
878.44           0.702474114      44.6262663       0.70254003       -44.6209605      0.70254003       -44.6209605      0.702474114      44.6262663       
892.15           0.708247316      44.1651498       0.696788171      -45.0876022      0.696788171      -45.0876022      0.708247316      44.1651498       
905.86           0.713895763      43.7102341       0.691069467      -45.5478795      0.691069467      -45.5478795      0.713895763      43.7102341       
919.57           0.71942206       43.261437        0.685385021      -46.0018801      0.685385021      -46.0018801      0.71942206       43.261437        
933.28           0.724828785      42.8186758       0.679735847      -46.4496923      0.679735847      -46.4496923      0.724828785      42.8186758       
946.99           0.73011849       42.3818672       0.674122875      -46.8914042      0.674122875      -46.8914042      0.73011849       42.3818672       
960.7            0.735293697      41.9509278       0.668546953      -47.3271043      0.668546953      -47.3271043      0.735293697      41.9509278       
974.41           0.740356893      41.525774        0.663008856      -47.7568807      0.663008856      -47.7568807      0.740356893      41.525774        
988.12           0.745310535      41.1063222       0.657509282      -48.1808214      0.657509282      -48.1808214      0.745310535      41.1063222       
1001.83          0.750157041      40.6924888       0.652048862      -48.599014       0.652048862      -48.599014       0.750157041      40.6924888       
1015.54          0.754898796      40.2841904       0.64662816       -49.0115458      0.64662816       -49.0115458      0.754898796      40.2841904       
1029.25          0.759538145      39.8813439       0.641247678      -49.4185037      0.641247678      -49.4185037      0.759538145      39.8813439       
1042.96          0.764077395      39.4838666       0.635907858      -49.8199739      0.635907858      -49.8199739      0.764077395      39.4838666       
1056.67          0.768518813      39.091676        0.630609086      -50.2160421      0.630609086      -50.2160421      0.768518813      39.091676        
1070.38          0.772864627      38.7046903       0.625351693      -50.6067932      0.625351693      -50.6067932      0.772864627      38.7046903       
1084.09          0.777117023      38.3228283       0.620135961      -50.9923117      0.620135961      -50.9923117      0.777117023      38.3228283       
1097.8           0.781278147      37.9460093       0.614962124      -51.3726809      0.614962124      -51.3726809      0.781278147      37.9460093       
1111.51          0.785350105      37.5741533       0.609830371      -51.7479836      0.609830371      -51.7479836      0.785350105      37.5741533       
1125.22          0.789334958      37.2071812       0.604740849      -52.1183015      0.604740849      -52.1183015      0.789334958      37.2071812       
1138.93          0.793234729      36.8450144       0.599693665      -52.4837157      0.599693665      -52.4837157      0.793234729      36.8450144       
1152.64          0.797051398      36.4875752       0.594688885      -52.8443061      0.594688885      -52.8443061      0.797051398      36.4875752       
1166.35          0.800786904      36.134787        0.589726545      -53.2001518      0.589726545      -53.2001518      0.800786904      36.134787        
1180.06          0.804443145      35.7865737       0.584806645      -53.5513308      0.584806645      -53.5513308      0.804443145      35.7865737       
1193.77          0.808021977      35.4428602       0.579929153      -53.8979201      0.579929153      -53.8979201      0.808021977      35.4428602       
1207.48          0.811525217      35.1035726       0.575094009      -54.2399959      0.575094009      -54.2399959      0.811525217      35.1035726       
1221.19          0.814954641      34.7686377       0.570301126      -54.577633       0.570301126      -54.577633       0.814954641      34.7686377       
1234.9           0.818311985      34.4379833       0.565550392      -54.9109055      0.565550392      -54.9109055      0.818311985      34.4379833       
1248.61          0.821598947      34.1115381       0.560841669      -55.2398861      0.560841669      -55.2398861      0.821598947      34.1115381       
1262.32          0.824817184      33.7892321       0.556174798      -55.5646467      0.556174798      -55.5646467      0.824817184      33.7892321       
1276.03          0.827968315      33.4709959       0.5515496        -55.8852579      0.5515496        -55.8852579      0.827968315      33.4709959       
1289.74          0.831053924      33.1567615       0.546965877      -56.2017895      0.546965877      -56.2017895      0.831053924      33.1567615       
1303.45          0.834075554      32.8464617       0.542423413      -56.5143099      0.542423413      -56.5143099      0.834075554      32.8464617       
1317.16          0.837034713      32.5400302       0.537921974      -56.8228866      0.537921974      -56.8228866      0.837034713      32.5400302       
1330.87          0.839932874      32.2374021       0.533461312      -57.127586       0.533461312      -57.127586       0.839932874      32.2374021       
1344.58          0.842771472      31.9385132       0.529041167      -57.4284734      0.529041167      -57.4284734      0.842771472      31.9385132       
1358.29          0.845551911      31.6433005       0.524661262      -57.7256129      0.524661262      -57.7256129      0.845551911      31.6433005       
1372             0.848275558      31.3517018       0.520321313      -58.0190678      0.520321313      -58.0190678      0.848275558      31.3517018       
1385.71          0.850943746      31.0636563       0.516021021      -58.3088999      0.516021021      -58.3088999      0.850943746      31.0636563       
1399.42          0.853557778      30.7791038       0.511760079      -58.5951705      0.511760079      -58.5951705      0.853557778      30.7791038       
1413.13          0.856118923      30.4979854       0.507538173      -58.8779393      0.507538173      -58.8779393      0.856118923      30.4979854       
1426.84          0.85862842       30.220243        0.503354977      -59.1572653      0.503354977      -59.1572653      0.85862842       30.220243        
1440.55          0.861087475      29.9458197       0.49921016       -59.4332064      0.49921016       -59.4332064      0.861087475      29.9458197       
1454.26          0.863497266      29.6746594       0.495103386      -59.7058193      0.495103386      -59.7058193      0.863497266      29.6746594       
1467.97          0.86585894       29.406707        0.49103431       -59.9751599      0.49103431       -59.9751599      0.86585894       29.406707        
1481.68          0.868173617      29.1419086       0.487002584      -60.2412831      0.487002584      -60.2412831      0.868173617      29.1419086       
1495.39          0.870442388      28.8802109       0.483007855      -60.5042425      0.483007855      -60.5042425      0.870442388      28.8802109       
1509.1           0.872666315      28.6215617       0.479049767      -60.7640912      0.479049767      -60.7640912      0.872666315      28.6215617       
1522.81          0.874846436      28.3659098       0.475127958      -61.0208808      0.475127958      -61.0208808      0.874846436      28.3659098       
1536.52          0.876983762      28.1132049       0.471242066      -61.2746625      0.471242066      -61.2746625      0.876983762      28.1132049       
1550.23          0.879079276      27.8633976       0.467391726      -61.525486       0.467391726      -61.525486       0.879079276      27.8633976       
1563.94          0.88113394       27.6164392       0.46357657       -61.7734006      0.46357657       -61.7734006      0.88113394       27.6164392       
1577.65          0.883148688      27.3722822       0.459796231      -62.0184542      0.459796231      -62.0184542      0.883148688      27.3722822       
1591.36          0.885124433      27.1308798       0.456050338      -62.2606942      0.456050338      -62.2606942      0.885124433      27.1308798       
1605.07          0.887062063      26.8921861       0.452338522      -62.5001668      0.452338522      -62.5001668      0.887062063      26.8921861       
1618.78          0.888962445      26.656156        0.448660411      -62.7369176      0.448660411      -62.7369176      0.888962445      26.656156        
1632.49          0.890826424      26.4227453       0.445015637      -62.9709911      0.445015637      -62.9709911      0.890826424      26.4227453       
1646.2           0.892654821      26.1919106       0.441403828      -63.2024311      0.441403828      -63.2024311      0.892654821      26.1919106       
1659.91          0.894448439      25.9636092       0.437824616      -63.4312805      0.437824616      -63.4312805      0.894448439      25.9636092       
1673.62          0.896208059      25.7377994       0.434277631      -63.6575815      0.434277631      -63.6575815      0.896208059      25.7377994       
1687.33          0.897934444      25.51444         0.430762508      -63.8813753      0.430762508      -63.8813753      0.897934444      25.51444         
1701.04          0.899628336      25.293491        0.42727888       -64.1027025      0.42727888       -64.1027025      0.899628336      25.293491        
1714.75          0.901290458      25.0749127       0.423826382      -64.3216027      0.423826382      -64.3216027      0.901290458      25.0749127       
1728.46          0.902921515      24.8586663       0.420404653      -64.538115       0.420404653      -64.538115       0.902921515      24.8586663       
1742.17          0.904522196      24.6447139       0.417013332      -64.7522777      0.417013332      -64.7522777      0.904522196      24.6447139       
