! Coilcraft 0805HT-R12 Chip Inductor				
! 24 June 2002			
# MHZ S MA R 50
!Freq             MagS11           AngS11           MagS21           AngS21           MagS12           AngS12           MagS22           AngS22
1                0.011457277      40.2906809       0.991288381      -0.428240674     0.991288381      -0.428240674     0.011457277      40.2906809       
6.23             0.047795936      73.3641048       0.987379147      -2.65837349      0.987379147      -2.65837349      0.047795936      73.3641048       
11.46            0.0859763636     76.2885235       0.983175217      -4.87346817      0.983175217      -4.87346817      0.0859763636     76.2885235       
16.69            0.123918801      76.2196532       0.977916597      -7.06929851      0.977916597      -7.06929851      0.123918801      76.2196532       
21.92            0.161331434      75.2376913       0.971498948      -9.24072915      0.971498948      -9.24072915      0.161331434      75.2376913       
27.15            0.198040991      73.8663406       0.963928087      -11.3826524      0.963928087      -11.3826524      0.198040991      73.8663406       
32.38            0.233909894      72.303719        0.955253937      -13.4902516      0.955253937      -13.4902516      0.233909894      72.303719        
37.61            0.268822943      70.6434409       0.945550238      -15.5591308      0.945550238      -15.5591308      0.268822943      70.6434409       
42.84            0.302684317      68.9365676       0.934905087      -17.5853891      0.934905087      -17.5853891      0.302684317      68.9365676       
48.07            0.33541662       67.2138611       0.923415177      -19.5656614      0.923415177      -19.5656614      0.33541662       67.2138611       
53.3             0.366960187      65.4951999       0.911181656      -21.4971354      0.911181656      -21.4971354      0.366960187      65.4951999       
58.53            0.3972722        63.7940637       0.898306928      -23.3775493      0.898306928      -23.3775493      0.3972722        63.7940637       
63.76            0.426325544      62.1198772       0.884892112      -25.2051747      0.884892112      -25.2051747      0.426325544      62.1198772       
68.99            0.454107406      60.4793311       0.871035039      -26.9787877      0.871035039      -26.9787877      0.454107406      60.4793311       
74.22            0.480617726      58.8771789       0.856828721      -28.6976322      0.856828721      -28.6976322      0.480617726      58.8771789       
79.45            0.505867543      57.3167472       0.842360233      -30.3613767      0.842360233      -30.3613767      0.505867543      57.3167472       
84.68            0.529877336      55.8002799       0.827709965      -31.9700689      0.827709965      -31.9700689      0.529877336      55.8002799       
89.91            0.552675399      54.3291826       0.812951187      -33.5240882      0.812951187      -33.5240882      0.552675399      54.3291826       
95.14            0.574296314      52.9042031       0.798149869      -35.0240998      0.798149869      -35.0240998      0.574296314      52.9042031       
100.37           0.594779542      51.5255694       0.783364727      -36.4710097      0.783364727      -36.4710097      0.594779542      51.5255694       
105.6            0.614168157      50.1930978       0.768647421      -37.8659228      0.768647421      -37.8659228      0.614168157      50.1930978       
110.83           0.632507731      48.9062799       0.754042882      -39.2101045      0.754042882      -39.2101045      0.632507731      48.9062799       
116.06           0.649845372      47.6643528       0.739589727      -40.5049456      0.739589727      -40.5049456      0.649845372      47.6643528       
121.29           0.666228914      46.4663571       0.725320726      -41.7519315      0.725320726      -41.7519315      0.666228914      46.4663571       
126.52           0.681706234      45.3111843       0.711263294      -42.9526146      0.711263294      -42.9526146      0.681706234      45.3111843       
131.75           0.696324712      44.1976157       0.697440003      -44.108591       0.697440003      -44.108591       0.696324712      44.1976157       
136.98           0.710130782      43.1243553       0.683869076      -45.22148        0.683869076      -45.22148        0.710130782      43.1243553       
142.21           0.723169607      42.0900556       0.670564869      -46.2929075      0.670564869      -46.2929075      0.723169607      42.0900556       
147.44           0.735484811      41.09334         0.65753833       -47.3244915      0.65753833       -47.3244915      0.735484811      41.09334         
152.67           0.747118311      40.13282         0.644797417      -48.3178308      0.644797417      -48.3178308      0.747118311      40.13282         
157.9            0.758110183      39.2071098       0.632347497      -49.2744955      0.632347497      -49.2744955      0.758110183      39.2071098       
163.13           0.768498599      38.3148372       0.620191694      -50.1960195      0.620191694      -50.1960195      0.768498599      38.3148372       
168.36           0.778319791      37.454653        0.608331219      -51.0838954      0.608331219      -51.0838954      0.778319791      37.454653        
173.59           0.787608049      36.6252376       0.59676565       -51.9395696      0.59676565       -51.9395696      0.787608049      36.6252376       
178.82           0.796395751      35.8253065       0.585493195      -52.7644397      0.585493195      -52.7644397      0.796395751      35.8253065       
184.05           0.804713402      35.0536141       0.574510914      -53.5598524      0.574510914      -53.5598524      0.804713402      35.0536141       
189.28           0.812589697      34.3089563       0.563814921      -54.3271022      0.563814921      -54.3271022      0.812589697      34.3089563       
194.51           0.820051583      33.5901723       0.553400556      -55.0674313      0.553400556      -55.0674313      0.820051583      33.5901723       
199.74           0.827124343      32.8961459       0.543262536      -55.7820297      0.543262536      -55.7820297      0.827124343      32.8961459       
204.97           0.833831669      32.2258055       0.533395087      -56.4720353      0.533395087      -56.4720353      0.833831669      32.2258055       
210.2            0.840195748      31.5781241       0.523792059      -57.1385353      0.523792059      -57.1385353      0.840195748      31.5781241       
215.43           0.846237341      30.952119        0.514447019      -57.7825673      0.514447019      -57.7825673      0.846237341      30.952119        
220.66           0.85197587       30.3468507       0.505353334      -58.4051208      0.505353334      -58.4051208      0.85197587       30.3468507       
225.89           0.857429493      29.7614222       0.496504245      -59.0071385      0.496504245      -59.0071385      0.857429493      29.7614222       
231.12           0.862615185      29.1949774       0.487892921      -59.5895181      0.487892921      -59.5895181      0.862615185      29.1949774       
236.35           0.867548811      28.6467          0.479512513      -60.1531143      0.479512513      -60.1531143      0.867548811      28.6467          
241.58           0.872245198      28.1158122       0.471356193      -60.6987402      0.471356193      -60.6987402      0.872245198      28.1158122       
246.81           0.876718205      27.601573        0.463417189      -61.2271693      0.463417189      -61.2271693      0.876718205      27.601573        
252.04           0.880980783      27.1032764       0.455688813      -61.7391373      0.455688813      -61.7391373      0.880980783      27.1032764       
257.27           0.885045042      26.6202507       0.448164485      -62.2353438      0.448164485      -62.2353438      0.885045042      26.6202507       
262.5            0.888922302      26.1518562       0.440837749      -62.716454       0.440837749      -62.716454       0.888922302      26.1518562       
267.73           0.892623149      25.6974842       0.433702291      -63.1831004      0.433702291      -63.1831004      0.892623149      25.6974842       
272.96           0.896157489      25.2565552       0.426751945      -63.6358844      0.426751945      -63.6358844      0.896157489      25.2565552       
278.19           0.899534588      24.8285178       0.419980708      -64.075378       0.419980708      -64.075378       0.899534588      24.8285178       
283.42           0.902763123      24.412847        0.413382737      -64.5021252      0.413382737      -64.5021252      0.902763123      24.412847        
288.65           0.905851215      24.0090433       0.406952363      -64.9166434      0.406952363      -64.9166434      0.905851215      24.0090433       
293.88           0.908806476      23.6166311       0.400684085      -65.3194247      0.400684085      -65.3194247      0.908806476      23.6166311       
299.11           0.911636036      23.2351573       0.394572575      -65.7109377      0.394572575      -65.7109377      0.911636036      23.2351573       
304.34           0.914346584      22.8641908       0.388612677      -66.0916281      0.388612677      -66.0916281      0.914346584      22.8641908       
309.57           0.916944389      22.5033207       0.382799403      -66.4619203      0.382799403      -66.4619203      0.916944389      22.5033207       
314.8            0.919435338      22.1521557       0.377127936      -66.8222185      0.377127936      -66.8222185      0.919435338      22.1521557       
320.03           0.921824957      21.8103228       0.371593621      -67.1729075      0.371593621      -67.1729075      0.921824957      21.8103228       
325.26           0.924118435      21.4774665       0.366191969      -67.514354       0.366191969      -67.514354       0.924118435      21.4774665       
330.49           0.92632065       21.1532479       0.360918646      -67.8469077      0.360918646      -67.8469077      0.92632065       21.1532479       
335.72           0.928436187      20.8373437       0.355769474      -68.1709018      0.355769474      -68.1709018      0.928436187      20.8373437       
340.95           0.930469361      20.5294455       0.350740424      -68.4866539      0.350740424      -68.4866539      0.930469361      20.5294455       
346.18           0.93242423       20.2292592       0.345827614      -68.7944671      0.345827614      -68.7944671      0.93242423       20.2292592       
351.41           0.934304617      19.9365036       0.341027303      -69.0946309      0.341027303      -69.0946309      0.934304617      19.9365036       
356.64           0.936114124      19.6509107       0.336335885      -69.3874212      0.336335885      -69.3874212      0.936114124      19.6509107       
361.87           0.937856143      19.3722242       0.331749889      -69.6731018      0.331749889      -69.6731018      0.937856143      19.3722242       
367.1            0.939533876      19.1001994       0.327265971      -69.9519244      0.327265971      -69.9519244      0.939533876      19.1001994       
372.33           0.941150342      18.8346021       0.322880908      -70.2241298      0.322880908      -70.2241298      0.941150342      18.8346021       
377.56           0.942708392      18.5752089       0.318591598      -70.489948       0.318591598      -70.489948       0.942708392      18.5752089       
382.79           0.944210717      18.3218055       0.314395054      -70.7495989      0.314395054      -70.7495989      0.944210717      18.3218055       
388.02           0.94565986       18.0741874       0.310288396      -71.0032929      0.310288396      -71.0032929      0.94565986       18.0741874       
393.25           0.947058226      17.8321587       0.306268854      -71.2512314      0.306268854      -71.2512314      0.947058226      17.8321587       
398.48           0.948408089      17.5955317       0.302333757      -71.493607       0.302333757      -71.493607       0.948408089      17.5955317       
403.71           0.9497116        17.3641268       0.298480533      -71.7306043      0.298480533      -71.7306043      0.9497116        17.3641268       
408.94           0.950970795      17.1377719       0.294706705      -71.9624         0.294706705      -71.9624         0.950970795      17.1377719       
414.17           0.952187605      16.916302        0.291009885      -72.1891634      0.291009885      -72.1891634      0.952187605      16.916302        
419.4            0.953363857      16.6995591       0.287387773      -72.4110569      0.287387773      -72.4110569      0.953363857      16.6995591       
424.63           0.954501284      16.4873915       0.283838152      -72.628236       0.283838152      -72.628236       0.954501284      16.4873915       
429.86           0.95560153       16.2796538       0.280358886      -72.8408501      0.280358886      -72.8408501      0.95560153       16.2796538       
435.09           0.956666154      16.0762063       0.276947915      -73.0490423      0.276947915      -73.0490423      0.956666154      16.0762063       
440.32           0.957696636      15.8769151       0.273603254      -73.2529501      0.273603254      -73.2529501      0.957696636      15.8769151       
445.55           0.958694383      15.6816514       0.270322988      -73.4527054      0.270322988      -73.4527054      0.958694383      15.6816514       
450.78           0.959660731      15.4902917       0.26710527       -73.648435       0.26710527       -73.648435       0.959660731      15.4902917       
456.01           0.960596949      15.3027172       0.26394832       -73.8402606      0.26394832       -73.8402606      0.960596949      15.3027172       
461.24           0.961504245      15.1188138       0.260850419      -74.0282993      0.260850419      -74.0282993      0.961504245      15.1188138       
466.47           0.962383768      14.9384717       0.25780991       -74.2126635      0.25780991       -74.2126635      0.962383768      14.9384717       
471.7            0.963236612      14.7615854       0.254825192      -74.3934614      0.254825192      -74.3934614      0.963236612      14.7615854       
476.93           0.964063817      14.5880533       0.25189472       -74.5707969      0.25189472       -74.5707969      0.964063817      14.5880533       
482.16           0.964866375      14.4177776       0.249017005      -74.7447703      0.249017005      -74.7447703      0.964866375      14.4177776       
487.39           0.965645231      14.2506644       0.246190605      -74.9154778      0.246190605      -74.9154778      0.965645231      14.2506644       
492.62           0.966401287      14.0866231       0.24341413       -75.0830123      0.24341413       -75.0830123      0.966401287      14.0866231       
497.85           0.9671354        13.9255663       0.240686237      -75.247463       0.240686237      -75.247463       0.9671354        13.9255663       
503.08           0.967848392      13.76741         0.238005628      -75.408916       0.238005628      -75.408916       0.967848392      13.76741         
508.31           0.968541044      13.6120731       0.235371048      -75.5674542      0.235371048      -75.5674542      0.968541044      13.6120731       
513.54           0.969214104      13.4594777       0.232781285      -75.7231575      0.232781285      -75.7231575      0.969214104      13.4594777       
518.77           0.969868284      13.3095482       0.230235167      -75.876103       0.230235167      -75.876103       0.969868284      13.3095482       
524              0.970504267      13.1622122       0.227731561      -76.0263651      0.227731561      -76.0263651      0.970504267      13.1622122       
529.23           0.971122705      13.0173994       0.22526937       -76.1740154      0.22526937       -76.1740154      0.971122705      13.0173994       
534.46           0.971724219      12.8750423       0.222847534      -76.319123       0.222847534      -76.319123       0.971724219      12.8750423       
539.69           0.972309407      12.7350754       0.220465027      -76.4617548      0.220465027      -76.4617548      0.972309407      12.7350754       
544.92           0.972878839      12.5974357       0.218120857      -76.6019752      0.218120857      -76.6019752      0.972878839      12.5974357       
550.15           0.97343306       12.4620624       0.215814061      -76.7398465      0.215814061      -76.7398465      0.97343306       12.4620624       
555.38           0.973972594      12.3288964       0.213543711      -76.8754287      0.213543711      -76.8754287      0.973972594      12.3288964       
560.61           0.97449794       12.197881        0.211308904      -77.0087801      0.211308904      -77.0087801      0.97449794       12.197881        
565.84           0.975009579      12.0689612       0.209108769      -77.1399566      0.209108769      -77.1399566      0.975009579      12.0689612       
571.07           0.975507971      11.9420838       0.206942461      -77.2690126      0.206942461      -77.2690126      0.975507971      11.9420838       
576.3            0.975993555      11.8171973       0.20480916       -77.3960006      0.20480916       -77.3960006      0.975993555      11.8171973       
581.53           0.976466757      11.694252        0.202708072      -77.5209713      0.202708072      -77.5209713      0.976466757      11.694252        
586.76           0.97692798       11.5731999       0.20063843       -77.6439737      0.20063843       -77.6439737      0.97692798       11.5731999       
591.99           0.977377614      11.4539943       0.198599486      -77.7650554      0.198599486      -77.7650554      0.977377614      11.4539943       
597.22           0.977816033      11.3365901       0.196590519      -77.8842624      0.196590519      -77.8842624      0.977816033      11.3365901       
602.45           0.978243596      11.2209436       0.194610826      -78.0016391      0.194610826      -78.0016391      0.978243596      11.2209436       
607.68           0.978660648      11.1070127       0.192659729      -78.1172285      0.192659729      -78.1172285      0.978660648      11.1070127       
612.91           0.979067519      10.9947562       0.190736566      -78.2310725      0.190736566      -78.2310725      0.979067519      10.9947562       
618.14           0.979464529      10.8841345       0.188840698      -78.3432114      0.188840698      -78.3432114      0.979464529      10.8841345       
623.37           0.979851984      10.7751092       0.186971503      -78.4536844      0.186971503      -78.4536844      0.979851984      10.7751092       
628.6            0.980230177      10.6676429       0.185128378      -78.5625293      0.185128378      -78.5625293      0.980230177      10.6676429       
633.83           0.980599393      10.5616995       0.183310737      -78.669783       0.183310737      -78.669783       0.980599393      10.5616995       
639.06           0.980959903      10.4572439       0.181518012      -78.775481       0.181518012      -78.775481       0.980959903      10.4572439       
644.29           0.98131197       10.3542421       0.17974965       -78.879658       0.17974965       -78.879658       0.98131197       10.3542421       
649.52           0.981655846      10.2526611       0.178005115      -78.9823475      0.178005115      -78.9823475      0.981655846      10.2526611       
654.75           0.981991775      10.1524688       0.176283885      -79.0835818      0.176283885      -79.0835818      0.981991775      10.1524688       
659.98           0.982319991      10.0536343       0.174585454      -79.1833927      0.174585454      -79.1833927      0.982319991      10.0536343       
665.21           0.982640719      9.95612717       0.172909328      -79.2818105      0.172909328      -79.2818105      0.982640719      9.95612717       
