! Coilcraft 0805HT-22N Chip Inductor				
! 24 June 2002			
# MHZ S MA R 50
!Freq             MagS11           AngS11           MagS21           AngS21           MagS12           AngS12           MagS22           AngS22
1                0.00240918863    34.8546581       0.998023959      -0.079043525     0.998023959      -0.079043525     0.00240918863    34.8546581       
14.46            0.0201912187     79.4239438       0.996491781      -1.14129797      0.996491781      -1.14129797      0.0201912187     79.4239438       
27.92            0.0386205062     81.8358509       0.995250008      -2.20136142      0.995250008      -2.20136142      0.0386205062     81.8358509       
41.38            0.0570320779     82.1616769       0.993829357      -3.25902328      0.993829357      -3.25902328      0.0570320779     82.1616769       
54.84            0.0753853562     81.8768618       0.992158705      -4.31379433      0.992158705      -4.31379433      0.0753853562     81.8768618       
68.3             0.0936584042     81.3256078       0.990212584      -5.36512005      0.990212584      -5.36512005      0.0936584042     81.3256078       
81.76            0.111833011      80.6336474       0.987980641      -6.41242401      0.987980641      -6.41242401      0.111833011      80.6336474       
95.22            0.129892356      79.8587898       0.98545953       -7.45512528      0.98545953       -7.45512528      0.129892356      79.8587898       
108.68           0.147820457      79.0317531       0.982649878      -8.49264767      0.982649878      -8.49264767      0.147820457      79.0317531       
122.14           0.165602039      78.1706004       0.979554879      -9.52442559      0.979554879      -9.52442559      0.165602039      78.1706004       
135.6            0.183222515      77.2867901       0.976179555      -10.5499082      0.976179555      -10.5499082      0.183222515      77.2867901       
149.06           0.200668013      76.3880368       0.97253031       -11.5685625      0.97253031       -11.5685625      0.200668013      76.3880368       
162.52           0.217925406      75.4797903       0.968614641      -12.5798759      0.968614641      -12.5798759      0.217925406      75.4797903       
175.98           0.234982348      74.5660562       0.964440926      -13.583358       0.964440926      -13.583358       0.234982348      74.5660562       
189.44           0.251827301      73.6498778       0.96001827       -14.5785426      0.96001827       -14.5785426      0.251827301      73.6498778       
202.9            0.268449563      72.7336322       0.955356365      -15.5649886      0.955356365      -15.5649886      0.268449563      72.7336322       
216.36           0.284839282      71.8192191       0.950465386      -16.5422809      0.950465386      -16.5422809      0.284839282      71.8192191       
229.82           0.300987469      70.9081863       0.94535589       -17.5100315      0.94535589       -17.5100315      0.300987469      70.9081863       
243.28           0.316885999      70.0018148       0.940038728      -18.4678801      0.940038728      -18.4678801      0.316885999      70.0018148       
256.74           0.332527612      69.1011777       0.934524967      -19.4154937      0.934524967      -19.4154937      0.332527612      69.1011777       
270.2            0.347905904      68.2071831       0.928825812      -20.3525673      0.928825812      -20.3525673      0.347905904      68.2071831       
283.66           0.36301531       67.3206049       0.922952546      -21.2788238      0.922952546      -21.2788238      0.36301531       67.3206049       
297.12           0.37785109       66.442106        0.916916463      -22.1940133      0.916916463      -22.1940133      0.37785109       66.442106        
310.58           0.392409304      65.5722557       0.910728811      -23.0979131      0.910728811      -23.0979131      0.392409304      65.5722557       
324.04           0.406686785      64.7115434       0.904400746      -23.9903271      0.904400746      -23.9903271      0.406686785      64.7115434       
337.5            0.420681109      63.8603893       0.897943282      -24.871085       0.897943282      -24.871085       0.420681109      63.8603893       
350.96           0.434390561      63.019153        0.891367248      -25.7400416      0.891367248      -25.7400416      0.434390561      63.019153        
364.42           0.447814104      62.1881405       0.884683255      -26.597076       0.884683255      -26.597076       0.447814104      62.1881405       
377.88           0.460951337      61.36761         0.877901663      -27.4420908      0.877901663      -27.4420908      0.460951337      61.36761         
391.34           0.473802463      60.5577771       0.871032549      -28.2750109      0.871032549      -28.2750109      0.473802463      60.5577771       
404.8            0.486368244      59.7588185       0.864085688      -29.0957825      0.864085688      -29.0957825      0.486368244      59.7588185       
418.26           0.498649967      58.9708763       0.857070529      -29.9043721      0.857070529      -29.9043721      0.498649967      58.9708763       
431.72           0.510649401      58.1940606       0.849996184      -30.7007656      0.849996184      -30.7007656      0.510649401      58.1940606       
445.18           0.522368764      57.428453        0.84287141       -31.4849668      0.84287141       -31.4849668      0.522368764      57.428453        
458.64           0.533810679      56.6741085       0.8357046        -32.2569967      0.8357046        -32.2569967      0.533810679      56.6741085       
472.1            0.544978139      55.9310584       0.828503782      -33.0168921      0.828503782      -33.0168921      0.544978139      55.9310584       
485.56           0.555874473      55.1993123       0.821276607      -33.7647048      0.821276607      -33.7647048      0.555874473      55.1993123       
499.02           0.566503309      54.4788598       0.814030354      -34.5005         0.814030354      -34.5005         0.566503309      54.4788598       
512.48           0.57686854       53.7696724       0.806771929      -35.2243561      0.806771929      -35.2243561      0.57686854       53.7696724       
525.94           0.586974294      53.0717055       0.799507867      -35.9363628      0.799507867      -35.9363628      0.586974294      53.0717055       
539.4            0.596824904      52.3848995       0.792244336      -36.6366207      0.792244336      -36.6366207      0.596824904      52.3848995       
552.86           0.606424877      51.7091814       0.784987146      -37.32524        0.784987146      -37.32524        0.606424877      51.7091814       
566.32           0.61577887       51.044466        0.777741754      -38.00234        0.777741754      -38.00234        0.61577887       51.044466        
579.78           0.624891661      50.3906575       0.770513275      -38.6680476      0.770513275      -38.6680476      0.624891661      50.3906575       
593.24           0.633768131      49.7476502       0.763306488      -39.3224972      0.763306488      -39.3224972      0.633768131      49.7476502       
606.7            0.642413236      49.1153297       0.756125849      -39.965829       0.756125849      -39.965829       0.642413236      49.1153297       
620.16           0.650831991      48.4935742       0.7489755        -40.5981894      0.7489755        -40.5981894      0.650831991      48.4935742       
633.62           0.659029452      47.8822549       0.741859286      -41.2197292      0.741859286      -41.2197292      0.659029452      47.8822549       
647.08           0.667010694      47.2812373       0.734780756      -41.8306035      0.734780756      -41.8306035      0.667010694      47.2812373       
660.54           0.674780801      46.6903816       0.727743187      -42.430971       0.727743187      -42.430971       0.674780801      46.6903816       
674              0.682344848      46.1095438       0.720749588      -43.0209934      0.720749588      -43.0209934      0.682344848      46.1095438       
687.46           0.689707893      45.5385762       0.713802713      -43.6008347      0.713802713      -43.6008347      0.689707893      45.5385762       
700.92           0.696874958      44.9773279       0.706905079      -44.1706611      0.706905079      -44.1706611      0.696874958      44.9773279       
714.38           0.703851026      44.4256456       0.700058969      -44.7306399      0.700058969      -44.7306399      0.703851026      44.4256456       
727.84           0.710641027      43.8833741       0.693266452      -45.2809396      0.693266452      -45.2809396      0.710641027      43.8833741       
741.3            0.717249834      43.3503564       0.686529389      -45.8217294      0.686529389      -45.8217294      0.717249834      43.3503564       
754.76           0.723682253      42.8264349       0.679849447      -46.3531785      0.679849447      -46.3531785      0.723682253      42.8264349       
768.22           0.729943015      42.3114509       0.673228109      -46.8754562      0.673228109      -46.8754562      0.729943015      42.3114509       
781.68           0.736036777      41.8052458       0.666666687      -47.3887312      0.666666687      -47.3887312      0.736036777      41.8052458       
795.14           0.741968112      41.3076608       0.660166327      -47.8931719      0.660166327      -47.8931719      0.741968112      41.3076608       
808.6            0.747741507      40.8185376       0.653728025      -48.3889453      0.653728025      -48.3889453      0.747741507      40.8185376       
822.06           0.75336136       40.3377184       0.647352633      -48.8762175      0.647352633      -48.8762175      0.75336136       40.3377184       
835.52           0.758831977      39.8650464       0.64104087       -49.3551531      0.64104087       -49.3551531      0.758831977      39.8650464       
848.98           0.76415757       39.4003659       0.634793327      -49.8259154      0.634793327      -49.8259154      0.76415757       39.4003659       
862.44           0.769342256      38.9435225       0.628610481      -50.2886655      0.628610481      -50.2886655      0.769342256      38.9435225       
875.9            0.774390056      38.4943631       0.6224927        -50.7435632      0.6224927        -50.7435632      0.774390056      38.4943631       
889.36           0.779304893      38.0527365       0.61644025       -51.1907658      0.61644025       -51.1907658      0.779304893      38.0527365       
902.82           0.784090595      37.618493        0.610453305      -51.6304287      0.610453305      -51.6304287      0.784090595      37.618493        
916.28           0.788750891      37.1914851       0.604531948      -52.0627052      0.604531948      -52.0627052      0.788750891      37.1914851       
929.74           0.793289413      36.771567        0.598676187      -52.4877462      0.598676187      -52.4877462      0.793289413      36.771567        
943.2            0.797709697      36.3585952       0.592885951      -52.9057002      0.592885951      -52.9057002      0.797709697      36.3585952       
956.66           0.802015186      35.9524282       0.587161104      -53.3167132      0.587161104      -53.3167132      0.802015186      35.9524282       
970.12           0.806209224      35.5529267       0.581501444      -53.720929       0.581501444      -53.720929       0.806209224      35.5529267       
983.58           0.810295067      35.159954        0.575906713      -54.1184886      0.575906713      -54.1184886      0.810295067      35.159954        
997.04           0.814275876      34.7733754       0.5703766        -54.5095307      0.5703766        -54.5095307      0.814275876      34.7733754       
1010.5           0.818154722      34.3930585       0.564910745      -54.8941913      0.564910745      -54.8941913      0.818154722      34.3930585       
1023.96          0.821934589      34.0188737       0.559508744      -55.2726039      0.559508744      -55.2726039      0.821934589      34.0188737       
1037.42          0.825618371      33.6506934       0.554170153      -55.6448994      0.554170153      -55.6448994      0.825618371      33.6506934       
1050.88          0.82920888       33.2883925       0.548894492      -56.011206       0.548894492      -56.011206       0.82920888       33.2883925       
1064.34          0.832708842      32.9318484       0.543681248      -56.3716496      0.543681248      -56.3716496      0.832708842      32.9318484       
1077.8           0.836120903      32.580941        0.538529877      -56.7263532      0.538529877      -56.7263532      0.836120903      32.580941        
1091.26          0.839447628      32.2355523       0.533439811      -57.0754376      0.533439811      -57.0754376      0.839447628      32.2355523       
1104.72          0.842691506      31.895567        0.528410456      -57.4190209      0.528410456      -57.4190209      0.842691506      31.895567        
1118.18          0.845854949      31.560872        0.5234412        -57.7572185      0.5234412        -57.7572185      0.845854949      31.560872        
1131.64          0.848940296      31.2313567       0.51853141       -58.0901438      0.51853141       -58.0901438      0.848940296      31.2313567       
1145.1           0.851949811      30.9069127       0.513680439      -58.4179072      0.513680439      -58.4179072      0.851949811      30.9069127       
1158.56          0.854885693      30.587434        0.508887623      -58.7406171      0.508887623      -58.7406171      0.854885693      30.587434        
1172.02          0.857750068      30.2728169       0.504152288      -59.0583792      0.504152288      -59.0583792      0.857750068      30.2728169       
1185.48          0.860545001      29.9629599       0.499473752      -59.3712971      0.499473752      -59.3712971      0.860545001      29.9629599       
1198.94          0.863272487      29.6577639       0.49485132       -59.679472       0.49485132       -59.679472       0.863272487      29.6577639       
1212.4           0.865934464      29.3571317       0.490284294      -59.9830027      0.490284294      -59.9830027      0.865934464      29.3571317       
1225.86          0.868532805      29.0609685       0.485771969      -60.281986       0.485771969      -60.281986       0.868532805      29.0609685       
1239.32          0.871069328      28.7691815       0.481313637      -60.5765161      0.481313637      -60.5765161      0.871069328      28.7691815       
1252.78          0.873545792      28.4816801       0.476908584      -60.8666854      0.476908584      -60.8666854      0.873545792      28.4816801       
1266.24          0.8759639        28.1983757       0.4725561        -61.1525841      0.4725561        -61.1525841      0.8759639        28.1983757       
1279.7           0.878325304      27.9191817       0.468255469      -61.4343002      0.468255469      -61.4343002      0.878325304      27.9191817       
1293.16          0.880631602      27.6440135       0.464005979      -61.7119197      0.464005979      -61.7119197      0.880631602      27.6440135       
1306.62          0.882884343      27.3727884       0.459806917      -61.9855268      0.459806917      -61.9855268      0.882884343      27.3727884       
1320.08          0.885085026      27.1054256       0.455657574      -62.2552033      0.455657574      -62.2552033      0.885085026      27.1054256       
1333.54          0.887235105      26.8418463       0.451557244      -62.5210296      0.451557244      -62.5210296      0.887235105      26.8418463       
1347             0.889335987      26.5819734       0.447505221      -62.7830838      0.447505221      -62.7830838      0.889335987      26.5819734       
1360.46          0.891389035      26.3257315       0.443500808      -63.0414425      0.443500808      -63.0414425      0.891389035      26.3257315       
1373.92          0.89339557       26.073047        0.439543309      -63.2961801      0.439543309      -63.2961801      0.89339557       26.073047        
1387.38          0.895356869      25.8238483       0.435632035      -63.5473698      0.435632035      -63.5473698      0.895356869      25.8238483       
1400.84          0.897274174      25.578065        0.431766302      -63.7950825      0.431766302      -63.7950825      0.897274174      25.578065        
1414.3           0.899148683      25.3356287       0.427945432      -64.0393879      0.427945432      -64.0393879      0.899148683      25.3356287       
1427.76          0.900981561      25.0964723       0.424168755      -64.2803537      0.424168755      -64.2803537      0.900981561      25.0964723       
1441.22          0.902773934      24.8605305       0.420435604      -64.5180463      0.420435604      -64.5180463      0.902773934      24.8605305       
1454.68          0.904526895      24.6277394       0.416745323      -64.7525304      0.416745323      -64.7525304      0.904526895      24.6277394       
1468.14          0.9062415        24.3980367       0.413097261      -64.9838691      0.413097261      -64.9838691      0.9062415        24.3980367       
1481.6           0.907918777      24.1713614       0.409490776      -65.2121241      0.409490776      -65.2121241      0.907918777      24.1713614       
1495.06          0.909559718      23.947654        0.405925231      -65.4373557      0.405925231      -65.4373557      0.909559718      23.947654        
1508.52          0.911165287      23.7268563       0.402400001      -65.6596228      0.402400001      -65.6596228      0.911165287      23.7268563       
1521.98          0.912736417      23.5089116       0.398914464      -65.8789827      0.398914464      -65.8789827      0.912736417      23.5089116       
1535.44          0.914274014      23.2937644       0.395468011      -66.0954915      0.395468011      -66.0954915      0.914274014      23.2937644       
1548.9           0.915778956      23.0813605       0.392060038      -66.3092041      0.392060038      -66.3092041      0.915778956      23.0813605       
1562.36          0.917252092      22.8716471       0.388689949      -66.520174       0.388689949      -66.520174       0.917252092      22.8716471       
1575.82          0.918694248      22.6645723       0.385357159      -66.7284533      0.385357159      -66.7284533      0.918694248      22.6645723       
1589.28          0.920106224      22.4600858       0.38206109       -66.9340932      0.38206109       -66.9340932      0.920106224      22.4600858       
1602.74          0.921488796      22.258138        0.378801171      -67.1371435      0.378801171      -67.1371435      0.921488796      22.258138        
1616.2           0.922842715      22.058681        0.375576842      -67.3376529      0.375576842      -67.3376529      0.922842715      22.058681        
1629.66          0.924168713      21.8616674       0.372387549      -67.5356689      0.372387549      -67.5356689      0.924168713      21.8616674       
1643.12          0.925467496      21.6670513       0.369232748      -67.731238       0.369232748      -67.731238       0.925467496      21.6670513       
1656.58          0.926739753      21.4747878       0.366111902      -67.9244056      0.366111902      -67.9244056      0.926739753      21.4747878       
1670.04          0.927986149      21.2848328       0.363024484      -68.115216       0.363024484      -68.115216       0.927986149      21.2848328       
1683.5           0.929207331      21.0971434       0.359969975      -68.3037125      0.359969975      -68.3037125      0.929207331      21.0971434       
1696.96          0.930403928      20.9116777       0.356947863      -68.4899375      0.356947863      -68.4899375      0.930403928      20.9116777       
1710.42          0.931576547      20.7283946       0.353957644      -68.6739323      0.353957644      -68.6739323      0.931576547      20.7283946       
