! Coilcraft 0805HT-47N Chip Inductor				
! 24 June 2002			
# MHZ S MA R 50
!Freq             MagS11           AngS11           MagS21           AngS21           MagS12           AngS12           MagS22           AngS22
1                0.00496013703    36.2006413       0.996001707      -0.168523745     0.996001707      -0.168523745     0.00496013703    36.2006413       
9.98             0.029917227      76.4594683       0.993421265      -1.67776151      0.993421265      -1.67776151      0.029917227      76.4594683       
18.96            0.0559779644     79.2919651       0.991126444      -3.18130089      0.991126444      -3.18130089      0.0559779644     79.2919651       
27.94            0.0819756518     79.5507273       0.988425512      -4.67825022      0.988425512      -4.67825022      0.0819756518     79.5507273       
36.92            0.10780537       79.042294        0.985209507      -6.16711606      0.985209507      -6.16711606      0.10780537       79.042294        
45.9             0.133407473      78.2001842       0.981445765      -7.6462855       0.981445765      -7.6462855       0.133407473      78.2001842       
54.88            0.158732708      77.1847818       0.977128376      -9.11413468      0.977128376      -9.11413468      0.158732708      77.1847818       
63.86            0.183736723      76.0705723       0.972264654      -10.5690762      0.972264654      -10.5690762      0.183736723      76.0705723       
72.84            0.208378863      74.8975539       0.966869849      -12.009586       0.966869849      -12.009586       0.208378863      74.8975539       
81.82            0.232621929      73.6895248       0.960964547      -13.4342216      0.960964547      -13.4342216      0.232621929      73.6895248       
90.8             0.256432193      72.4617755       0.954573146      -14.8416344      0.954573146      -14.8416344      0.256432193      72.4617755       
99.78            0.279779463      71.2247314       0.94772283       -16.2305785      0.94772283       -16.2305785      0.279779463      71.2247314       
108.76           0.302637138      69.9858388       0.940442806      -17.5999173      0.940442806      -17.5999173      0.302637138      69.9858388       
117.74           0.324982217      68.7506129       0.932763682      -18.9486265      0.932763682      -18.9486265      0.324982217      68.7506129       
126.72           0.346795268      67.5232543       0.924716955      -20.2757967      0.924716955      -20.2757967      0.346795268      67.5232543       
135.7            0.368060355      66.3070286       0.916334563      -21.580633       0.916334563      -21.580633       0.368060355      66.3070286       
144.68           0.388764923      65.1045122       0.907648498      -22.8624539      0.907648498      -22.8624539      0.388764923      65.1045122       
153.66           0.408899648      63.9177551       0.898690479      -24.1206884      0.898690479      -24.1206884      0.408899648      63.9177551       
162.64           0.428458261      62.7483942       0.889491657      -25.3548724      0.889491657      -25.3548724      0.428458261      62.7483942       
171.62           0.447437347      61.5977346       0.880082375      -26.564644       0.880082375      -26.564644       0.447437347      61.5977346       
180.6            0.465836133      60.4668092       0.870491969      -27.7497383      0.870491969      -27.7497383      0.465836133      60.4668092       
189.58           0.483656263      59.3564237       0.860748596      -28.9099815      0.860748596      -28.9099815      0.483656263      59.3564237       
198.56           0.500901564      58.2671924       0.850879113      -30.0452847      0.850879113      -30.0452847      0.500901564      58.2671924       
207.54           0.517577823      57.1995663       0.840908975      -31.1556375      0.840908975      -31.1556375      0.517577823      57.1995663       
216.52           0.533692554      56.1538565       0.830862169      -32.2411015      0.830862169      -32.2411015      0.533692554      56.1538565       
225.5            0.549254782      55.1302533       0.820761175      -33.3018038      0.820761175      -33.3018038      0.549254782      55.1302533       
234.48           0.564274832      54.1288429       0.810626943      -34.3379302      0.810626943      -34.3379302      0.564274832      54.1288429       
243.46           0.578764129      53.1496214       0.800478902      -35.3497196      0.800478902      -35.3497196      0.578764129      53.1496214       
252.44           0.592735014      52.1925072       0.79033497       -36.3374574      0.79033497       -36.3374574      0.592735014      52.1925072       
261.42           0.60620057       51.2573516       0.780211591      -37.3014702      0.780211591      -37.3014702      0.60620057       51.2573516       
270.4            0.619174463      50.3439487       0.770123782      -38.24212        0.770123782      -38.24212        0.619174463      50.3439487       
279.38           0.631670801      49.4520432       0.760085179      -39.1597992      0.760085179      -39.1597992      0.631670801      49.4520432       
288.36           0.643704003      48.5813385       0.750108103      -40.0549261      0.750108103      -40.0549261      0.643704003      48.5813385       
297.34           0.65528868       47.731503        0.74020362       -40.9279402      0.74020362       -40.9279402      0.65528868       47.731503        
306.32           0.666439538      46.902176        0.730381615      -41.7792985      0.730381615      -41.7792985      0.666439538      46.902176        
315.3            0.677171284      46.0929731       0.720650858      -42.6094713      0.720650858      -42.6094713      0.677171284      46.0929731       
324.28           0.687498552      45.3034908       0.711019076      -43.4189397      0.711019076      -43.4189397      0.687498552      45.3034908       
333.26           0.697435828      44.5333103       0.701493026      -44.2081916      0.701493026      -44.2081916      0.697435828      44.5333103       
342.24           0.7069974        43.7820019       0.69207856       -44.9777199      0.69207856       -44.9777199      0.7069974        43.7820019       
351.22           0.716197309      43.0491274       0.6827807        -45.7280195      0.6827807        -45.7280195      0.716197309      43.0491274       
360.2            0.725049304      42.3342433       0.673603696      -46.4595855      0.673603696      -46.4595855      0.725049304      42.3342433       
369.18           0.733566814      41.6369033       0.664551093      -47.1729113      0.664551093      -47.1729113      0.733566814      41.6369033       
378.16           0.741762921      40.9566604       0.655625791      -47.8684867      0.655625791      -47.8684867      0.741762921      40.9566604       
387.14           0.74965034       40.2930686       0.646830103      -48.5467968      0.646830103      -48.5467968      0.74965034       40.2930686       
396.12           0.757241404      39.6456849       0.638165803      -49.2083207      0.638165803      -49.2083207      0.757241404      39.6456849       
405.1            0.764548055      39.01407         0.629634184      -49.8535305      0.629634184      -49.8535305      0.764548055      39.01407         
414.08           0.771581833      38.3977903       0.621236098      -50.4828902      0.621236098      -50.4828902      0.771581833      38.3977903       
423.06           0.77835388       37.7964182       0.612972006      -51.0968551      0.612972006      -51.0968551      0.77835388       37.7964182       
432.04           0.784874935      37.2095335       0.604842014      -51.6958716      0.604842014      -51.6958716      0.784874935      37.2095335       
441.02           0.791155338      36.6367235       0.596845913      -52.2803759      0.596845913      -52.2803759      0.791155338      36.6367235       
450              0.797205033      36.0775839       0.588983213      -52.8507944      0.588983213      -52.8507944      0.797205033      36.0775839       
458.98           0.803033576      35.5317193       0.581253174      -53.4075431      0.581253174      -53.4075431      0.803033576      35.5317193       
467.96           0.808650143      34.9987433       0.573654837      -53.9510273      0.573654837      -53.9510273      0.808650143      34.9987433       
476.94           0.814063535      34.478279        0.566187051      -54.4816417      0.566187051      -54.4816417      0.814063535      34.478279        
485.92           0.819282194      33.9699588       0.558848493      -54.9997703      0.558848493      -54.9997703      0.819282194      33.9699588       
494.9            0.824314205      33.473425        0.551637698      -55.5057861      0.551637698      -55.5057861      0.824314205      33.473425        
503.88           0.829167313      32.9883294       0.544553072      -56.0000515      0.544553072      -56.0000515      0.829167313      32.9883294       
512.86           0.833848935      32.5143339       0.537592914      -56.4829185      0.537592914      -56.4829185      0.833848935      32.5143339       
521.84           0.838366164      32.0511095       0.530755433      -56.9547281      0.530755433      -56.9547281      0.838366164      32.0511095       
530.82           0.842725788      31.5983373       0.52403876       -57.4158113      0.52403876       -57.4158113      0.842725788      31.5983373       
539.8            0.846934299      31.1557076       0.517440966      -57.8664886      0.517440966      -57.8664886      0.846934299      31.1557076       
548.78           0.850997902      30.7229202       0.51096007       -58.3070706      0.51096007       -58.3070706      0.850997902      30.7229202       
557.76           0.854922531      30.299684        0.504594051      -58.7378581      0.504594051      -58.7378581      0.854922531      30.299684        
566.74           0.858713856      29.8857169       0.498340862      -59.1591423      0.498340862      -59.1591423      0.858713856      29.8857169       
575.72           0.862377295      29.4807459       0.49219843       -59.5712049      0.49219843       -59.5712049      0.862377295      29.4807459       
584.7            0.865918028      29.0845064       0.486164672      -59.9743185      0.486164672      -59.9743185      0.865918028      29.0845064       
593.68           0.869341001      28.6967423       0.4802375        -60.3687469      0.4802375        -60.3687469      0.869341001      28.6967423       
602.66           0.872650942      28.3172057       0.474414824      -60.7547451      0.474414824      -60.7547451      0.872650942      28.3172057       
611.64           0.875852368      27.9456568       0.46869456       -61.1325597      0.46869456       -61.1325597      0.875852368      27.9456568       
620.62           0.878949594      27.5818636       0.463074633      -61.5024292      0.463074633      -61.5024292      0.878949594      27.5818636       
629.6            0.881946744      27.2256015       0.457552984      -61.8645843      0.457552984      -61.8645843      0.881946744      27.2256015       
638.58           0.884847759      26.8766534       0.452127573      -62.2192476      0.452127573      -62.2192476      0.884847759      26.8766534       
647.56           0.887656402      26.5348092       0.446796378      -62.5666348      0.446796378      -62.5666348      0.887656402      26.5348092       
656.54           0.890376273      26.1998659       0.441557404      -62.9069541      0.441557404      -62.9069541      0.890376273      26.1998659       
665.52           0.893010811      25.871627        0.43640868       -63.2404067      0.43640868       -63.2404067      0.893010811      25.871627        
674.5            0.895563303      25.5499025       0.431348265      -63.5671873      0.431348265      -63.5671873      0.895563303      25.5499025       
683.48           0.898036891      25.2345088       0.426374246      -63.8874839      0.426374246      -63.8874839      0.898036891      25.2345088       
692.46           0.900434582      24.9252682       0.421484743      -64.2014784      0.421484743      -64.2014784      0.900434582      24.9252682       
701.44           0.902759246      24.6220088       0.416677908      -64.5093465      0.416677908      -64.5093465      0.902759246      24.6220088       
710.42           0.905013634      24.3245646       0.411951926      -64.811258       0.411951926      -64.811258       0.905013634      24.3245646       
719.4            0.907200373      24.0327749       0.407305016      -65.1073772      0.407305016      -65.1073772      0.907200373      24.0327749       
728.38           0.909321979      23.7464842       0.402735432      -65.3978629      0.402735432      -65.3978629      0.909321979      23.7464842       
737.36           0.911380858      23.4655422       0.398241462      -65.6828685      0.398241462      -65.6828685      0.911380858      23.4655422       
746.34           0.913379312      23.1898036       0.393821431      -65.9625427      0.393821431      -65.9625427      0.913379312      23.1898036       
755.32           0.915319547      22.9191277       0.389473697      -66.2370288      0.389473697      -66.2370288      0.915319547      22.9191277       
764.3            0.917203673      22.6533784       0.385196656      -66.5064658      0.385196656      -66.5064658      0.917203673      22.6533784       
773.28           0.919033712      22.392424        0.380988735      -66.7709879      0.380988735      -66.7709879      0.919033712      22.392424        
782.26           0.920811599      22.1361371       0.376848401      -67.0307251      0.376848401      -67.0307251      0.920811599      22.1361371       
791.24           0.922539189      21.8843945       0.372774151      -67.2858029      0.372774151      -67.2858029      0.922539189      21.8843945       
800.22           0.924218259      21.6370769       0.36876452       -67.536343       0.36876452       -67.536343       0.924218259      21.6370769       
809.2            0.925850513      21.3940686       0.364818075      -67.782463       0.364818075      -67.782463       0.925850513      21.3940686       
818.18           0.927437584      21.1552579       0.360933416      -68.0242768      0.360933416      -68.0242768      0.927437584      21.1552579       
827.16           0.928981035      20.9205365       0.357109177      -68.2618947      0.357109177      -68.2618947      0.928981035      20.9205365       
836.14           0.93048237       20.6897995       0.353344026      -68.4954232      0.353344026      -68.4954232      0.93048237       20.6897995       
845.12           0.931943028      20.4629456       0.349636661      -68.7249657      0.349636661      -68.7249657      0.931943028      20.4629456       
854.1            0.933364391      20.2398762       0.34598581       -68.9506222      0.34598581       -68.9506222      0.933364391      20.2398762       
863.08           0.934747785      20.0204962       0.342390236      -69.1724896      0.342390236      -69.1724896      0.934747785      20.0204962       
872.06           0.936094483      19.8047132       0.338848729      -69.3906616      0.338848729      -69.3906616      0.936094483      19.8047132       
881.04           0.937405706      19.5924378       0.33536011       -69.6052291      0.33536011       -69.6052291      0.937405706      19.5924378       
890.02           0.938682629      19.3835833       0.331923227      -69.8162801      0.331923227      -69.8162801      0.938682629      19.3835833       
899              0.939926378      19.1780658       0.32853696       -70.0239001      0.32853696       -70.0239001      0.939926378      19.1780658       
907.98           0.941138037      18.9758038       0.325200214      -70.2281715      0.325200214      -70.2281715      0.941138037      18.9758038       
916.96           0.942318645      18.7767182       0.321911922      -70.4291746      0.321911922      -70.4291746      0.942318645      18.7767182       
925.94           0.943469205      18.5807326       0.318671043      -70.626987       0.318671043      -70.626987       0.943469205      18.5807326       
934.92           0.944590676      18.3877727       0.315476563      -70.821684       0.315476563      -70.821684       0.944590676      18.3877727       
943.9            0.945683984      18.1977665       0.312327491      -71.0133387      0.312327491      -71.0133387      0.945683984      18.1977665       
952.88           0.946750018      18.010644        0.309222865      -71.2020218      0.309222865      -71.2020218      0.946750018      18.010644        
961.86           0.947789634      17.8263375       0.306161741      -71.387802       0.306161741      -71.387802       0.947789634      17.8263375       
970.84           0.948803655      17.6447811       0.303143205      -71.570746       0.303143205      -71.570746       0.948803655      17.6447811       
979.82           0.949792873      17.4659111       0.30016636       -71.7509184      0.30016636       -71.7509184      0.949792873      17.4659111       
988.8            0.950758053      17.2896653       0.297230335      -71.9283819      0.297230335      -71.9283819      0.950758053      17.2896653       
997.78           0.951699927      17.1159836       0.29433428       -72.1031974      0.29433428       -72.1031974      0.951699927      17.1159836       
1006.76          0.952619204      16.9448076       0.291477365      -72.275424       0.291477365      -72.275424       0.952619204      16.9448076       
1015.74          0.953516566      16.7760805       0.288658781      -72.445119       0.288658781      -72.445119       0.953516566      16.7760805       
1024.72          0.954392668      16.6097471       0.285877741      -72.6123382      0.285877741      -72.6123382      0.954392668      16.6097471       
1033.7           0.955248143      16.4457539       0.283133475      -72.7771356      0.283133475      -72.7771356      0.955248143      16.4457539       
1042.68          0.956083602      16.2840489       0.280425234      -72.9395638      0.280425234      -72.9395638      0.956083602      16.2840489       
1051.66          0.956899633      16.1245814       0.277752285      -73.0996737      0.277752285      -73.0996737      0.956899633      16.1245814       
1060.64          0.957696803      15.9673023       0.275113915      -73.2575149      0.275113915      -73.2575149      0.957696803      15.9673023       
1069.62          0.958475659      15.8121639       0.272509429      -73.4131356      0.272509429      -73.4131356      0.958475659      15.8121639       
1078.6           0.959236728      15.6591196       0.269938148      -73.5665825      0.269938148      -73.5665825      0.959236728      15.6591196       
1087.58          0.959980521      15.5081243       0.267399409      -73.7179012      0.267399409      -73.7179012      0.959980521      15.5081243       
1096.56          0.960707528      15.359134        0.264892566      -73.8671357      0.264892566      -73.8671357      0.960707528      15.359134        
1105.54          0.961418224      15.2121061       0.26241699       -74.0143292      0.26241699       -74.0143292      0.961418224      15.2121061       
1114.52          0.962113068      15.066999        0.259972065      -74.1595232      0.259972065      -74.1595232      0.962113068      15.066999        
1123.5           0.962792501      14.9237721       0.257557191      -74.3027585      0.257557191      -74.3027585      0.962792501      14.9237721       
1132.48          0.963456951      14.7823863       0.255171782      -74.4440745      0.255171782      -74.4440745      0.963456951      14.7823863       
1141.46          0.964106831      14.642803        0.252815268      -74.5835096      0.252815268      -74.5835096      0.964106831      14.642803        
