! Coilcraft 0805HT-39N Chip Inductor				
! 24 June 2002			
# MHZ S MA R 50
!Freq             MagS11           AngS11           MagS21           AngS21           MagS12           AngS12           MagS22           AngS22
1                0.00423048645    36.1597534       0.996587537      -0.143508766     0.996587537      -0.143508766     0.00423048645    36.1597534       
10.47            0.0266479065     77.6722515       0.994651329      -1.49980007      0.994651329      -1.49980007      0.0266479065     77.6722515       
19.94            0.050105538      80.4111984       0.992883579      -2.85219317      0.992883579      -2.85219317      0.050105538      80.4111984       
29.41            0.073530043      80.6897458       0.990764968      -4.19997538      0.990764968      -4.19997538      0.073530043      80.6897458       
38.88            0.0968373976     80.246244        0.98821366       -5.54202848      0.98821366       -5.54202848      0.0968373976     80.246244        
48.35            0.119981927      79.4906043       0.985204056      -6.87715008      0.985204056      -6.87715008      0.119981927      79.4906043       
57.82            0.142926273      78.5728073       0.981730147      -8.20412507      0.981730147      -8.20412507      0.142926273      78.5728073       
67.29            0.16563663       77.5618805       0.977795571      -9.52175647      0.977795571      -9.52175647      0.16563663       77.5618805       
76.76            0.188081651      76.4945878       0.973409769      -10.8288833      0.973409769      -10.8288833      0.188081651      76.4945878       
86.23            0.210232191      75.3926365       0.968586133      -12.1243924      0.968586133      -12.1243924      0.210232191      75.3926365       
95.7             0.232061295      74.2698769       0.963340944      -13.4072272      0.963340944      -13.4072272      0.232061295      74.2698769       
105.17           0.253544241      73.1356979       0.957692681      -14.676394       0.957692681      -14.676394       0.253544241      73.1356979       
114.64           0.274658598      71.9967786       0.951661507      -15.930967       0.951661507      -15.930967       0.274658598      71.9967786       
124.11           0.295384269      70.858058        0.945268865      -17.1700918      0.945268865      -17.1700918      0.295384269      70.858058        
133.58           0.315703507      69.7233026       0.938537141      -18.3929876      0.938537141      -18.3929876      0.315703507      69.7233026       
143.05           0.335600911      68.5954549       0.931489365      -19.5989485      0.931489365      -19.5989485      0.335600911      68.5954549       
152.52           0.355063391      67.4768572       0.924148949      -20.7873441      0.924148949      -20.7873441      0.355063391      67.4768572       
161.99           0.374080119      66.3693985       0.91653946       -21.9576189      0.91653946       -21.9576189      0.374080119      66.3693985       
171.46           0.392642453      65.2746163       0.908684406      -23.1092913      0.908684406      -23.1092913      0.392642453      65.2746163       
180.93           0.410743844      64.1937679       0.900607057      -24.2419515      0.900607057      -24.2419515      0.410743844      64.1937679       
190.4            0.428379736      63.1278821       0.892330285      -25.3552599      0.892330285      -25.3552599      0.428379736      63.1278821       
199.87           0.445547443      62.0777979       0.883876421      -26.4489437      0.883876421      -26.4489437      0.445547443      62.0777979       
209.34           0.462246026      61.0441942       0.87526714       -27.522794       0.87526714       -27.522794       0.462246026      61.0441942       
218.81           0.478476162      60.0276132       0.866523363      -28.5766626      0.866523363      -28.5766626      0.478476162      60.0276132       
228.28           0.49424001       59.0284787       0.857665173      -29.6104581      0.857665173      -29.6104581      0.49424001       59.0284787       
237.75           0.509541074      58.0471117       0.848711755      -30.6241426      0.848711755      -30.6241426      0.509541074      58.0471117       
247.22           0.52438407       57.0837432       0.839681351      -31.6177272      0.839681351      -31.6177272      0.52438407       57.0837432       
256.69           0.538774795      56.1385253       0.830591221      -32.5912691      0.830591221      -32.5912691      0.538774795      56.1385253       
266.16           0.552719997      55.2115404       0.821457631      -33.5448668      0.821457631      -33.5448668      0.552719997      55.2115404       
275.63           0.566227254      54.3028099       0.812295839      -34.478657       0.812295839      -34.478657       0.566227254      54.3028099       
285.1            0.57930486       53.4123009       0.803120101      -35.3928107      0.803120101      -35.3928107      0.57930486       53.4123009       
294.57           0.591961711      52.5399335       0.793943683      -36.2875299      0.793943683      -36.2875299      0.591961711      52.5399335       
304.04           0.604207209      51.685586        0.784778876      -37.1630436      0.784778876      -37.1630436      0.604207209      51.685586        
313.51           0.61605116       50.8491006       0.775637021      -38.0196053      0.775637021      -38.0196053      0.61605116       50.8491006       
322.98           0.627503695      50.0302876       0.766528544      -38.8574895      0.766528544      -38.8574895      0.627503695      50.0302876       
332.45           0.638575182      49.2289304       0.757462985      -39.6769892      0.757462985      -39.6769892      0.638575182      49.2289304       
341.92           0.649276162      48.4447888       0.748449034      -40.4784126      0.748449034      -40.4784126      0.649276162      48.4447888       
351.39           0.659617279      47.6776025       0.739494576      -41.2620813      0.739494576      -41.2620813      0.659617279      47.6776025       
360.86           0.669609221      46.9270947       0.730606726      -42.0283275      0.730606726      -42.0283275      0.669609221      46.9270947       
370.33           0.679262673      46.1929745       0.721791875      -42.7774922      0.721791875      -42.7774922      0.679262673      46.1929745       
379.8            0.688588269      45.4749396       0.713055728      -43.5099232      0.713055728      -43.5099232      0.688588269      45.4749396       
389.27           0.697596551      44.7726788       0.704403348      -44.225973       0.704403348      -44.225973       0.697596551      44.7726788       
398.74           0.706297938      44.0858736       0.695839199      -44.9259977      0.695839199      -44.9259977      0.706297938      44.0858736       
408.21           0.714702693      43.4142006       0.687367181      -45.6103552      0.687367181      -45.6103552      0.714702693      43.4142006       
417.68           0.7228209        42.7573328       0.678990674      -46.2794041      0.678990674      -46.2794041      0.7228209        42.7573328       
427.15           0.730662444      42.1149409       0.670712575      -46.9335025      0.670712575      -46.9335025      0.730662444      42.1149409       
436.62           0.738236992      41.4866952       0.662535332      -47.5730066      0.662535332      -47.5730066      0.738236992      41.4866952       
446.09           0.745553978      40.8722662       0.654460981      -48.1982706      0.654460981      -48.1982706      0.745553978      40.8722662       
455.56           0.752622597      40.2713257       0.646491177      -48.809645       0.646491177      -48.809645       0.752622597      40.2713257       
465.03           0.759451792      39.683548        0.63862723       -49.4074767      0.63862723       -49.4074767      0.759451792      39.683548        
474.5            0.766050249      39.1086102       0.630870126      -49.9921077      0.630870126      -49.9921077      0.766050249      39.1086102       
483.97           0.772426394      38.5461932       0.623220565      -50.563875       0.623220565      -50.563875       0.772426394      38.5461932       
493.44           0.778588394      37.995982        0.61567898       -51.1231102      0.61567898       -51.1231102      0.778588394      37.995982        
502.91           0.78454415       37.4576666       0.608245561      -51.6701389      0.608245561      -51.6701389      0.78454415       37.4576666       
512.38           0.790301302      36.930942        0.600920286      -52.2052804      0.600920286      -52.2052804      0.790301302      36.930942        
521.85           0.795867233      36.4155085       0.593702931      -52.7288477      0.593702931      -52.7288477      0.795867233      36.4155085       
531.32           0.801249066      35.9110724       0.586593099      -53.2411472      0.586593099      -53.2411472      0.801249066      35.9110724       
540.79           0.806453674      35.4173459       0.579590233      -53.7424782      0.579590233      -53.7424782      0.806453674      35.4173459       
550.26           0.811487681      34.9340472       0.572693635      -54.2331335      0.572693635      -54.2331335      0.811487681      34.9340472       
559.73           0.81635747       34.460901        0.56590248       -54.7133987      0.56590248       -54.7133987      0.81635747       34.460901        
569.2            0.821069185      33.9976382       0.559215833      -55.1835524      0.559215833      -55.1835524      0.821069185      33.9976382       
578.67           0.825628741      33.5439961       0.552632659      -55.6438662      0.552632659      -55.6438662      0.825628741      33.5439961       
588.14           0.830041825      33.0997185       0.54615184       -56.094605       0.54615184       -56.094605       0.830041825      33.0997185       
597.61           0.83431391       32.6645556       0.539772179      -56.5360263      0.539772179      -56.5360263      0.83431391       32.6645556       
607.08           0.838450254      32.2382641       0.533492417      -56.9683809      0.533492417      -56.9683809      0.838450254      32.2382641       
616.55           0.842455913      31.820607        0.527311238      -57.391913       0.527311238      -57.391913       0.842455913      31.820607        
626.02           0.846335742      31.4113536       0.52122728       -57.8068597      0.52122728       -57.8068597      0.846335742      31.4113536       
635.49           0.850094408      31.0102796       0.515239141      -58.2134518      0.515239141      -58.2134518      0.850094408      31.0102796       
644.96           0.85373639       30.6171665       0.509345387      -58.6119134      0.509345387      -58.6119134      0.85373639       30.6171665       
654.43           0.857265992      30.2318023       0.503544558      -59.0024623      0.503544558      -59.0024623      0.857265992      30.2318023       
663.9            0.860687344      29.8539806       0.497835174      -59.38531        0.497835174      -59.38531        0.860687344      29.8539806       
673.37           0.864004412      29.4835011       0.492215741      -59.7606618      0.492215741      -59.7606618      0.864004412      29.4835011       
682.84           0.867221005      29.1201691       0.486684752      -60.1287172      0.486684752      -60.1287172      0.867221005      29.1201691       
692.31           0.870340776      28.7637954       0.481240698      -60.4896697      0.481240698      -60.4896697      0.870340776      28.7637954       
701.78           0.873367234      28.4141964       0.475882064      -60.8437072      0.475882064      -60.8437072      0.873367234      28.4141964       
711.25           0.876303747      28.071194        0.47060734       -61.1910119      0.47060734       -61.1910119      0.876303747      28.071194        
720.72           0.879153546      27.7346149       0.465415017      -61.5317606      0.465415017      -61.5317606      0.879153546      27.7346149       
730.19           0.881919734      27.4042912       0.460303595      -61.8661249      0.460303595      -61.8661249      0.881919734      27.4042912       
739.66           0.884605288      27.0800599       0.455271582      -62.1942713      0.455271582      -62.1942713      0.884605288      27.0800599       
749.13           0.887213069      26.7617628       0.4503175        -62.5163613      0.4503175        -62.5163613      0.887213069      26.7617628       
758.6            0.88974582       26.4492462       0.445439882      -62.8325513      0.445439882      -62.8325513      0.88974582       26.4492462       
768.07           0.892206176      26.1423613       0.440637277      -63.1429934      0.440637277      -63.1429934      0.892206176      26.1423613       
777.54           0.894596666      25.8409634       0.43590825       -63.4478348      0.43590825       -63.4478348      0.894596666      25.8409634       
787.01           0.89691972       25.5449123       0.431251384      -63.7472185      0.431251384      -63.7472185      0.89691972       25.5449123       
796.48           0.89917767       25.2540719       0.426665283      -64.0412831      0.426665283      -64.0412831      0.89917767       25.2540719       
805.95           0.901372756      24.9683101       0.422148567      -64.3301629      0.422148567      -64.3301629      0.901372756      24.9683101       
815.42           0.90350713       24.6874987       0.417699878      -64.6139884      0.417699878      -64.6139884      0.90350713       24.6874987       
824.89           0.905582859      24.4115135       0.413317881      -64.892886       0.413317881      -64.892886       0.905582859      24.4115135       
834.36           0.907601929      24.1402337       0.40900126       -65.1669784      0.40900126       -65.1669784      0.907601929      24.1402337       
843.83           0.909566247      23.8735424       0.404748723      -65.4363847      0.404748723      -65.4363847      0.909566247      23.8735424       
853.3            0.911477648      23.611326        0.400558999      -65.7012203      0.400558999      -65.7012203      0.911477648      23.611326        
862.77           0.913337894      23.3534741       0.39643084       -65.9615971      0.39643084       -65.9615971      0.913337894      23.3534741       
872.24           0.915148678      23.0998797       0.392363022      -66.2176238      0.392363022      -66.2176238      0.915148678      23.0998797       
881.71           0.916911629      22.8504391       0.388354342      -66.4694059      0.388354342      -66.4694059      0.916911629      22.8504391       
891.18           0.918628314      22.6050515       0.384403622      -66.7170457      0.384403622      -66.7170457      0.918628314      22.6050515       
900.65           0.920300239      22.3636189       0.380509704      -66.9606424      0.380509704      -66.9606424      0.920300239      22.3636189       
910.12           0.921928852      22.1260464       0.376671456      -67.2002923      0.376671456      -67.2002923      0.921928852      22.1260464       
919.59           0.923515547      21.8922418       0.372887766      -67.436089       0.372887766      -67.436089       0.923515547      21.8922418       
929.06           0.925061665      21.6621155       0.369157547      -67.6681233      0.369157547      -67.6681233      0.925061665      21.6621155       
938.53           0.926568497      21.4355806       0.365479732      -67.8964832      0.365479732      -67.8964832      0.926568497      21.4355806       
948              0.928037284      21.2125526       0.361853278      -68.1212543      0.361853278      -68.1212543      0.928037284      21.2125526       
957.47           0.929469223      20.9929495       0.358277163      -68.3425197      0.358277163      -68.3425197      0.929469223      20.9929495       
966.94           0.930865464      20.7766917       0.354750387      -68.5603599      0.354750387      -68.5603599      0.930865464      20.7766917       
976.41           0.932227117      20.5637018       0.35127197       -68.7748533      0.35127197       -68.7748533      0.932227117      20.5637018       
985.88           0.933555249      20.3539046       0.347840954      -68.986076       0.347840954      -68.986076       0.933555249      20.3539046       
995.35           0.934850889      20.147227        0.344456403      -69.1941018      0.344456403      -69.1941018      0.934850889      20.147227        
1004.82          0.936115028      19.9435981       0.341117399      -69.3990025      0.341117399      -69.3990025      0.936115028      19.9435981       
1014.29          0.937348623      19.7429488       0.337823045      -69.6008479      0.337823045      -69.6008479      0.937348623      19.7429488       
1023.76          0.938552592      19.5452122       0.334572463      -69.7997056      0.334572463      -69.7997056      0.938552592      19.5452122       
1033.23          0.939727825      19.3503231       0.331364797      -69.9956415      0.331364797      -69.9956415      0.939727825      19.3503231       
1042.7           0.940875177      19.158218        0.328199207      -70.1887196      0.328199207      -70.1887196      0.940875177      19.158218        
1052.17          0.941995473      18.9688353       0.325074872      -70.3790021      0.325074872      -70.3790021      0.941995473      18.9688353       
1061.64          0.943089511      18.7821152       0.32199099       -70.5665493      0.32199099       -70.5665493      0.943089511      18.7821152       
1071.11          0.944158057      18.5979994       0.318946777      -70.7514201      0.318946777      -70.7514201      0.944158057      18.5979994       
1080.58          0.945201853      18.4164312       0.315941466      -70.9336716      0.315941466      -70.9336716      0.945201853      18.4164312       
1090.05          0.946221615      18.2373555       0.312974307      -71.1133594      0.312974307      -71.1133594      0.946221615      18.2373555       
1099.52          0.947218032      18.0607186       0.310044567      -71.2905374      0.310044567      -71.2905374      0.947218032      18.0607186       
1108.99          0.948191773      17.8864684       0.30715153       -71.4652582      0.30715153       -71.4652582      0.948191773      17.8864684       
1118.46          0.94914348       17.714554        0.304294495      -71.637573       0.304294495      -71.637573       0.94914348       17.714554        
1127.93          0.950073775      17.5449261       0.301472777      -71.8075314      0.301472777      -71.8075314      0.950073775      17.5449261       
1137.4           0.950983258      17.3775364       0.298685707      -71.9751818      0.298685707      -71.9751818      0.950983258      17.3775364       
1146.87          0.951872511      17.2123383       0.29593263       -72.1405713      0.29593263       -72.1405713      0.951872511      17.2123383       
1156.34          0.952742093      17.0492861       0.293212906      -72.3037457      0.293212906      -72.3037457      0.952742093      17.0492861       
1165.81          0.953592548      16.8883353       0.290525911      -72.4647496      0.290525911      -72.4647496      0.953592548      16.8883353       
1175.28          0.954424397      16.7294428       0.287871031      -72.6236263      0.287871031      -72.6236263      0.954424397      16.7294428       
1184.75          0.955238149      16.5725664       0.28524767       -72.7804181      0.28524767       -72.7804181      0.955238149      16.5725664       
1194.22          0.956034292      16.4176651       0.282655243      -72.9351661      0.282655243      -72.9351661      0.956034292      16.4176651       
1203.69          0.956813301      16.2646989       0.280093179      -73.0879104      0.280093179      -73.0879104      0.956813301      16.2646989       
