! Coilcraft 0805HT-8N2 Chip Inductor				
! 24 June 2002			
# MHZ S MA R 50
!Freq             MagS11           AngS11           MagS21           AngS21           MagS12           AngS12           MagS22           AngS22
1                0.00116836825    26.1070908       0.998950969      -0.0294890343    0.998950969      -0.0294890343    0.00116836825    26.1070908       
21.2             0.0110733982     79.2476471       0.997993395      -0.624585261     0.997993395      -0.624585261     0.0110733982     79.2476471       
41.4             0.0214099036     82.3384265       0.997371336      -1.21904238      0.997371336      -1.21904238      0.0214099036     82.3384265       
61.6             0.031755958      83.2129844       0.996746041      -1.81293274      0.996746041      -1.81293274      0.031755958      83.2129844       
81.8             0.042094733      83.43934         0.996068719      -2.40622041      0.996068719      -2.40622041      0.042094733      83.43934         
102              0.0524203968     83.3806818       0.995320392      -2.99884226      0.995320392      -2.99884226      0.0524203968     83.3806818       
122.2            0.0627291978     83.1692783       0.994491521      -3.59072326      0.994491521      -3.59072326      0.0627291978     83.1692783       
142.4            0.0730180115     82.8657134       0.993576693      -4.18178214      0.993576693      -4.18178214      0.0730180115     82.8657134       
162.6            0.0832839595     82.5019819       0.992572644      -4.77193412      0.992572644      -4.77193412      0.0832839595     82.5019819       
182.8            0.093524283      82.096722        0.991477376      -5.3610924       0.991477376      -5.3610924       0.093524283      82.096722        
203              0.103736295      81.6616037       0.9902897        -5.94916911      0.9902897        -5.94916911      0.103736295      81.6616037       
223.2            0.113917363      81.2043517       0.989008989      -6.53607593      0.989008989      -6.53607593      0.113917363      81.2043517       
243.4            0.124064898      80.7303117       0.987635017      -7.12172457      0.987635017      -7.12172457      0.124064898      80.7303117       
263.6            0.134176357      80.24332         0.986167867      -7.70602708      0.986167867      -7.70602708      0.134176357      80.24332         
283.8            0.144249244      79.7462148       0.984607864      -8.28889615      0.984607864      -8.28889615      0.144249244      79.7462148       
304              0.154281108      79.2411519       0.982955531      -8.87024531      0.982955531      -8.87024531      0.154281108      79.2411519       
324.2            0.164269546      78.7298055       0.981211556      -9.44998911      0.981211556      -9.44998911      0.164269546      78.7298055       
344.4            0.17421221       78.2135023       0.979376767      -10.0280433      0.979376767      -10.0280433      0.17421221       78.2135023       
364.6            0.184106806      77.693312        0.977452114      -10.604325       0.977452114      -10.604325       0.184106806      77.693312        
384.8            0.193951095      77.1701107       0.975438652      -11.1787527      0.975438652      -11.1787527      0.193951095      77.1701107       
405              0.203742898      76.6446263       0.973337536      -11.7512465      0.973337536      -11.7512465      0.203742898      76.6446263       
425.2            0.213480099      76.1174709       0.97115          -12.3217282      0.97115          -12.3217282      0.213480099      76.1174709       
445.4            0.223160644      75.5891655       0.968877359      -12.8901211      0.968877359      -12.8901211      0.223160644      75.5891655       
465.6            0.232782544      75.0601582       0.966520996      -13.4563507      0.966520996      -13.4563507      0.232782544      75.0601582       
485.8            0.242343878      74.5308378       0.964082355      -14.020344       0.964082355      -14.020344       0.242343878      74.5308378       
506              0.251842794      74.0015447       0.961562938      -14.5820302      0.961562938      -14.5820302      0.251842794      74.0015447       
526.2            0.261277506      73.4725792       0.958964297      -15.1413404      0.958964297      -15.1413404      0.261277506      73.4725792       
546.4            0.270646302      72.944208        0.956288032      -15.6982078      0.956288032      -15.6982078      0.270646302      72.944208        
566.6            0.27994754       72.4166697       0.953535783      -16.2525675      0.953535783      -16.2525675      0.27994754       72.4166697       
586.8            0.289179652      71.8901785       0.950709227      -16.8043569      0.950709227      -16.8043569      0.289179652      71.8901785       
607              0.29834114       71.3649281       0.947810076      -17.3535156      0.947810076      -17.3535156      0.29834114       71.3649281       
627.2            0.30743058       70.8410944       0.944840068      -17.8999852      0.944840068      -17.8999852      0.30743058       70.8410944       
647.4            0.316446623      70.3188373       0.941800968      -18.4437097      0.941800968      -18.4437097      0.316446623      70.3188373       
667.6            0.325387991      69.7983031       0.938694563      -18.9846351      0.938694563      -18.9846351      0.325387991      69.7983031       
687.8            0.334253479      69.2796262       0.935522657      -19.5227097      0.935522657      -19.5227097      0.334253479      69.2796262       
708              0.343041957      68.7629297       0.93228707       -20.0578841      0.93228707       -20.0578841      0.343041957      68.7629297       
728.2            0.351752367      68.2483272       0.928989634      -20.5901111      0.928989634      -20.5901111      0.351752367      68.2483272       
748.4            0.36038372       67.7359236       0.925632187      -21.1193456      0.925632187      -21.1193456      0.36038372       67.7359236       
768.6            0.368935101      67.2258155       0.922216577      -21.6455449      0.922216577      -21.6455449      0.368935101      67.2258155       
788.8            0.377405665      66.7180926       0.918744653      -22.1686685      0.918744653      -22.1686685      0.377405665      66.7180926       
809              0.385794636      66.2128377       0.915218263      -22.688678       0.915218263      -22.688678       0.385794636      66.2128377       
829.2            0.394101308      65.7101275       0.911639254      -23.2055371      0.911639254      -23.2055371      0.394101308      65.7101275       
849.4            0.402325039      65.2100329       0.90800947       -23.7192119      0.90800947       -23.7192119      0.402325039      65.2100329       
869.6            0.410465258      64.7126198       0.904330745      -24.2296705      0.904330745      -24.2296705      0.410465258      64.7126198       
889.8            0.418521453      64.2179488       0.900604907      -24.7368831      0.900604907      -24.7368831      0.418521453      64.2179488       
910              0.426493182      63.7260763       0.896833771      -25.240822       0.896833771      -25.240822       0.426493182      63.7260763       
930.2            0.43438006       63.237054        0.893019139      -25.7414616      0.893019139      -25.7414616      0.43438006       63.237054        
950.4            0.442181765      62.7509298       0.889162797      -26.2387784      0.889162797      -26.2387784      0.442181765      62.7509298       
970.6            0.449898034      62.2677476       0.885266517      -26.7327505      0.885266517      -26.7327505      0.449898034      62.2677476       
990.8            0.457528662      61.7875478       0.88133205       -27.2233585      0.88133205       -27.2233585      0.457528662      61.7875478       
1011             0.465073498      61.3103672       0.877361128      -27.7105846      0.877361128      -27.7105846      0.465073498      61.3103672       
1031.2           0.472532447      60.8362396       0.873355461      -28.1944128      0.873355461      -28.1944128      0.472532447      60.8362396       
1051.4           0.479905466      60.3651955       0.869316738      -28.6748291      0.869316738      -28.6748291      0.479905466      60.3651955       
1071.6           0.487192563      59.8972626       0.865246622      -29.1518213      0.865246622      -29.1518213      0.487192563      59.8972626       
1091.8           0.494393795      59.4324657       0.861146752      -29.6253788      0.861146752      -29.6253788      0.494393795      59.4324657       
1112             0.501509266      58.9708271       0.85701874       -30.0954928      0.85701874       -30.0954928      0.501509266      58.9708271       
1132.2           0.508539126      58.5123662       0.852864173      -30.5621563      0.852864173      -30.5621563      0.508539126      58.5123662       
1152.4           0.515483569      58.0571005       0.848684608      -31.0253635      0.848684608      -31.0253635      0.515483569      58.0571005       
1172.6           0.52234283       57.6050448       0.844481574      -31.4851106      0.844481574      -31.4851106      0.52234283       57.6050448       
1192.8           0.529117185      57.1562118       0.840256571      -31.9413951      0.840256571      -31.9413951      0.529117185      57.1562118       
1213             0.53580695       56.7106121       0.836011068      -32.3942159      0.836011068      -32.3942159      0.53580695       56.7106121       
1233.2           0.542412476      56.2682544       0.831746506      -32.8435737      0.831746506      -32.8435737      0.542412476      56.2682544       
1253.4           0.54893415       55.8291453       0.827464292      -33.28947        0.827464292      -33.28947        0.54893415       55.8291453       
1273.6           0.555372391      55.3932898       0.823165805      -33.7319082      0.823165805      -33.7319082      0.555372391      55.3932898       
1293.8           0.561727652      54.9606908       0.818852389      -34.1708926      0.818852389      -34.1708926      0.561727652      54.9606908       
1314             0.568000415      54.5313498       0.81452536       -34.6064288      0.81452536       -34.6064288      0.568000415      54.5313498       
1334.2           0.57419119       54.1052667       0.810185998      -35.0385239      0.810185998      -35.0385239      0.57419119       54.1052667       
1354.4           0.580300515      53.6824398       0.805835556      -35.4671857      0.805835556      -35.4671857      0.580300515      53.6824398       
1374.6           0.586328953      53.262866        0.80147525       -35.8924233      0.80147525       -35.8924233      0.586328953      53.262866        
1394.8           0.59227709       52.8465407       0.797106266      -36.3142469      0.797106266      -36.3142469      0.59227709       52.8465407       
1415             0.598145537      52.4334581       0.79272976       -36.7326678      0.79272976       -36.7326678      0.598145537      52.4334581       
1435.2           0.603934923      52.0236112       0.788346852      -37.1476979      0.788346852      -37.1476979      0.603934923      52.0236112       
1455.4           0.609645898      51.6169917       0.783958635      -37.5593504      0.783958635      -37.5593504      0.609645898      51.6169917       
1475.6           0.61527913       51.2135902       0.779566166      -37.9676393      0.779566166      -37.9676393      0.61527913       51.2135902       
1495.8           0.620835303      50.8133962       0.775170473      -38.3725792      0.775170473      -38.3725792      0.620835303      50.8133962       
1516             0.626315118      50.4163982       0.770772554      -38.7741857      0.770772554      -38.7741857      0.626315118      50.4163982       
1536.2           0.63171929       50.0225837       0.766373374      -39.1724753      0.766373374      -39.1724753      0.63171929       50.0225837       
1556.4           0.637048545      49.6319395       0.761973868      -39.5674649      0.761973868      -39.5674649      0.637048545      49.6319395       
1576.6           0.642303624      49.2444512       0.757574943      -39.9591724      0.757574943      -39.9591724      0.642303624      49.2444512       
1596.8           0.647485278      48.8601039       0.753177474      -40.3476159      0.753177474      -40.3476159      0.647485278      48.8601039       
1617             0.652594265      48.4788816       0.748782307      -40.7328147      0.748782307      -40.7328147      0.652594265      48.4788816       
1637.2           0.657631355      48.1007678       0.744390261      -41.1147882      0.744390261      -41.1147882      0.657631355      48.1007678       
1657.4           0.662597324      47.7257453       0.740002126      -41.4935565      0.740002126      -41.4935565      0.662597324      47.7257453       
1677.6           0.667492956      47.3537962       0.735618662      -41.8691402      0.735618662      -41.8691402      0.667492956      47.3537962       
1697.8           0.672319039      46.9849021       0.731240605      -42.2415605      0.731240605      -42.2415605      0.672319039      46.9849021       
1718             0.677076367      46.6190438       0.726868661      -42.6108387      0.726868661      -42.6108387      0.677076367      46.6190438       
1738.2           0.681765737      46.2562018       0.722503511      -42.976997       0.722503511      -42.976997       0.681765737      46.2562018       
1758.4           0.686387951      45.896356        0.718145811      -43.3400575      0.718145811      -43.3400575      0.686387951      45.896356        
1778.6           0.690943811      45.539486        0.713796191      -43.7000429      0.713796191      -43.7000429      0.690943811      45.539486        
1798.8           0.695434123      45.1855707       0.709455255      -44.0569762      0.709455255      -44.0569762      0.695434123      45.1855707       
1819             0.699859694      44.8345888       0.705123583      -44.4108807      0.705123583      -44.4108807      0.699859694      44.8345888       
1839.2           0.704221328      44.4865187       0.700801734      -44.7617799      0.700801734      -44.7617799      0.704221328      44.4865187       
1859.4           0.708519833      44.1413383       0.696490241      -45.1096976      0.696490241      -45.1096976      0.708519833      44.1413383       
1879.6           0.712756013      43.7990252       0.692189615      -45.4546579      0.692189615      -45.4546579      0.712756013      43.7990252       
1899.8           0.716930673      43.4595569       0.687900345      -45.796685       0.687900345      -45.796685       0.716930673      43.4595569       
1920             0.721044613      43.1229104       0.683622898      -46.1358032      0.683622898      -46.1358032      0.721044613      43.1229104       
1940.2           0.725098632      42.7890627       0.679357722      -46.472037       0.679357722      -46.472037       0.725098632      42.7890627       
1960.4           0.729093527      42.4579906       0.675105242      -46.8054113      0.675105242      -46.8054113      0.729093527      42.4579906       
1980.6           0.733030091      42.1296704       0.670865864      -47.1359508      0.670865864      -47.1359508      0.733030091      42.1296704       
2000.8           0.736909111      41.8040787       0.666639976      -47.4636803      0.666639976      -47.4636803      0.736909111      41.8040787       
2021             0.740731373      41.4811915       0.662427946      -47.7886248      0.662427946      -47.7886248      0.740731373      41.4811915       
2041.2           0.744497656      41.1609851       0.658230122      -48.1108094      0.658230122      -48.1108094      0.744497656      41.1609851       
2061.4           0.748208734      40.8434355       0.654046838      -48.4302591      0.654046838      -48.4302591      0.748208734      40.8434355       
2081.6           0.751865378      40.5285186       0.649878407      -48.746999       0.649878407      -48.746999       0.751865378      40.5285186       
2101.8           0.75546835       40.2162102       0.645725128      -49.0610543      0.645725128      -49.0610543      0.75546835       40.2162102       
2122             0.759018408      39.9064862       0.641587282      -49.37245        0.641587282      -49.37245        0.759018408      39.9064862       
2142.2           0.762516304      39.5993225       0.637465136      -49.6812111      0.637465136      -49.6812111      0.762516304      39.5993225       
2162.4           0.765962784      39.2946947       0.633358938      -49.9873629      0.633358938      -49.9873629      0.765962784      39.2946947       
2182.6           0.769358584      38.9925787       0.629268927      -50.2909302      0.629268927      -50.2909302      0.769358584      38.9925787       
2202.8           0.772704438      38.6929503       0.625195322      -50.591938       0.625195322      -50.591938       0.772704438      38.6929503       
2223             0.77600107       38.3957853       0.621138331      -50.8904113      0.621138331      -50.8904113      0.77600107       38.3957853       
2243.2           0.779249196      38.1010595       0.617098149      -51.1863748      0.617098149      -51.1863748      0.779249196      38.1010595       
2263.4           0.782449527      37.8087489       0.613074956      -51.4798533      0.613074956      -51.4798533      0.782449527      37.8087489       
2283.6           0.785602766      37.5188294       0.609068922      -51.7708714      0.609068922      -51.7708714      0.785602766      37.5188294       
2303.8           0.788709607      37.2312771       0.605080202      -52.0594535      0.605080202      -52.0594535      0.788709607      37.2312771       
2324             0.791770738      36.946068        0.601108941      -52.3456242      0.601108941      -52.3456242      0.791770738      36.946068        
2344.2           0.794786837      36.6631785       0.597155273      -52.6294078      0.597155273      -52.6294078      0.794786837      36.6631785       
2364.4           0.797758577      36.3825849       0.59321932       -52.9108282      0.59321932       -52.9108282      0.797758577      36.3825849       
2384.6           0.80068662       36.1042634       0.589301194      -53.1899097      0.589301194      -53.1899097      0.80068662       36.1042634       
2404.8           0.803571621      35.8281907       0.585400997      -53.466676       0.585400997      -53.466676       0.803571621      35.8281907       
2425             0.806414229      35.5543435       0.58151882       -53.7411509      0.58151882       -53.7411509      0.806414229      35.5543435       
2445.2           0.809215083      35.2826984       0.577654747      -54.0133579      0.577654747      -54.0133579      0.809215083      35.2826984       
2465.4           0.811974812      35.0132325       0.573808851      -54.2833205      0.573808851      -54.2833205      0.811974812      35.0132325       
2485.6           0.814694041      34.7459227       0.569981197      -54.5510618      0.569981197      -54.5510618      0.814694041      34.7459227       
2505.8           0.817373383      34.4807464       0.56617184       -54.8166049      0.56617184       -54.8166049      0.817373383      34.4807464       
2526             0.820013446      34.2176807       0.56238083       -55.0799727      0.56238083       -55.0799727      0.820013446      34.2176807       
2546.2           0.822614826      33.9567033       0.558608206      -55.341188       0.558608206      -55.341188       0.822614826      33.9567033       
2566.4           0.825178116      33.6977919       0.554854002      -55.6002731      0.554854002      -55.6002731      0.825178116      33.6977919       
