! Coilcraft 0805HT-4N7 Chip Inductor				
! 24 June 2002			
# MHZ S MA R 50
!Freq             MagS11           AngS11           MagS21           AngS21           MagS12           AngS12           MagS22           AngS22
1                0.000787861476   20.9986973       0.999264501      -0.0161880852    0.999264501      -0.0161880852    0.000787861476   20.9986973       
29.43            0.00841650039    80.3905623       0.998629503      -0.476121562     0.998629503      -0.476121562     0.00841650039    80.3905623       
57.86            0.0164124278     83.3586751       0.99823497       -0.935745784     0.99823497       -0.935745784     0.0164124278     83.3586751       
86.29            0.0244177699     84.2374308       0.997844091      -1.39511045      0.997844091      -1.39511045      0.0244177699     84.2374308       
114.72           0.0324213892     84.5175727       0.997424703      -1.85420917      0.997424703      -1.85420917      0.0324213892     84.5175727       
143.15           0.0404199444     84.5371183       0.996964264      -2.31302166      0.996964264      -2.31302166      0.0404199444     84.5371183       
171.58           0.0484115509     84.4178036       0.996456392      -2.77152145      0.996456392      -2.77152145      0.0484115509     84.4178036       
200.01           0.0563947598     84.2149597       0.995897372      -3.22967872      0.995897372      -3.22967872      0.0563947598     84.2149597       
228.44           0.0643682884     83.9576282       0.995284864      -3.68746167      0.995284864      -3.68746167      0.0643682884     83.9576282       
256.87           0.0723309288     83.6626356       0.994617328      -4.1448372       0.994617328      -4.1448372       0.0723309288     83.6626356       
285.3            0.080281512      83.3404637       0.993893726      -4.60177138      0.993893726      -4.60177138      0.080281512      83.3404637       
313.73           0.0882188919     82.998015        0.993113362      -5.05822976      0.993113362      -5.05822976      0.0882188919     82.998015        
342.16           0.0961419387     82.6400407       0.992275778      -5.51417752      0.992275778      -5.51417752      0.0961419387     82.6400407       
370.59           0.104049535      82.2699307       0.991380695      -5.96957968      0.991380695      -5.96957968      0.104049535      82.2699307       
399.02           0.111940577      81.8901775       0.99042797       -6.42440116      0.99042797       -6.42440116      0.111940577      81.8901775       
427.45           0.119813968      81.5026609       0.989417571      -6.8786069       0.989417571      -6.8786069       0.119813968      81.5026609       
455.88           0.127668628      81.1088306       0.98834955       -7.33216191      0.98834955       -7.33216191      0.127668628      81.1088306       
484.31           0.135503485      80.7098256       0.987224036      -7.78503135      0.987224036      -7.78503135      0.135503485      80.7098256       
512.74           0.143317482      80.3065564       0.986041219      -8.23718057      0.986041219      -8.23718057      0.143317482      80.3065564       
541.17           0.151109572      79.899762        0.984801343      -8.68857513      0.984801343      -8.68857513      0.151109572      79.899762        
569.6            0.158878726      79.4900501       0.983504701      -9.13918089      0.983504701      -9.13918089      0.158878726      79.4900501       
598.03           0.166623926      79.0779269       0.982151628      -9.58896401      0.982151628      -9.58896401      0.166623926      79.0779269       
626.46           0.174344171      78.6638186       0.980742496      -10.037891       0.980742496      -10.037891       0.174344171      78.6638186       
654.89           0.182038476      78.2480878       0.979277715      -10.4859286      0.979277715      -10.4859286      0.182038476      78.2480878       
683.32           0.18970587       77.8310459       0.977757722      -10.9330442      0.977757722      -10.9330442      0.18970587       77.8310459       
711.75           0.197345401      77.4129628       0.976182987      -11.3792054      0.976182987      -11.3792054      0.197345401      77.4129628       
740.18           0.204956135      76.994074        0.974554006      -11.8243803      0.974554006      -11.8243803      0.204956135      76.994074        
768.61           0.212537156      76.5745869       0.9728713        -12.2685374      0.9728713        -12.2685374      0.212537156      76.5745869       
797.04           0.220087564      76.1546851       0.971135413      -12.7116457      0.971135413      -12.7116457      0.220087564      76.1546851       
825.47           0.22760648       75.7345325       0.969346912      -13.1536748      0.969346912      -13.1536748      0.22760648       75.7345325       
853.9            0.235093046      75.3142757       0.967506384      -13.5945947      0.967506384      -13.5945947      0.235093046      75.3142757       
882.33           0.24254642       74.8940474       0.965614435      -14.0343759      0.965614435      -14.0343759      0.24254642       74.8940474       
910.76           0.249965784      74.4739675       0.963671688      -14.4729894      0.963671688      -14.4729894      0.249965784      74.4739675       
939.19           0.257350339      74.0541455       0.961678785      -14.9104068      0.961678785      -14.9104068      0.257350339      74.0541455       
967.62           0.264699305      73.6346814       0.959636381      -15.3466004      0.959636381      -15.3466004      0.264699305      73.6346814       
996.05           0.272011926      73.215667        0.957545148      -15.7815429      0.957545148      -15.7815429      0.272011926      73.215667        
1024.48          0.279287467      72.7971871       0.955405771      -16.2152075      0.955405771      -16.2152075      0.279287467      72.7971871       
1052.91          0.286525212      72.3793199       0.953218948      -16.6475681      0.953218948      -16.6475681      0.286525212      72.3793199       
1081.34          0.29372447       71.9621383       0.950985386      -17.0785993      0.950985386      -17.0785993      0.29372447       71.9621383       
1109.77          0.300884569      71.5457098       0.948705808      -17.5082762      0.948705808      -17.5082762      0.300884569      71.5457098       
1138.2           0.308004862      71.1300976       0.946380942      -17.9365743      0.946380942      -17.9365743      0.308004862      71.1300976       
1166.63          0.315084722      70.7153606       0.94401153       -18.3634701      0.94401153       -18.3634701      0.315084722      70.7153606       
1195.06          0.322123546      70.3015542       0.941598318      -18.7889405      0.941598318      -18.7889405      0.322123546      70.3015542       
1223.49          0.32912075       69.8887303       0.939142062      -19.2129629      0.939142062      -19.2129629      0.32912075       69.8887303       
1251.92          0.336075775      69.4769377       0.936643526      -19.6355157      0.936643526      -19.6355157      0.336075775      69.4769377       
1280.35          0.342988085      69.0662225       0.934103478      -20.0565774      0.934103478      -20.0565774      0.342988085      69.0662225       
1308.78          0.349857163      68.656628        0.931522692      -20.4761277      0.931522692      -20.4761277      0.349857163      68.656628        
1337.21          0.356682517      68.2481952       0.928901947      -20.8941465      0.928901947      -20.8941465      0.356682517      68.2481952       
1365.64          0.363463676      67.8409628       0.926242027      -21.3106146      0.926242027      -21.3106146      0.363463676      67.8409628       
1394.07          0.370200192      67.4349674       0.923543716      -21.7255132      0.923543716      -21.7255132      0.370200192      67.4349674       
1422.5           0.376891637      67.0302438       0.920807806      -22.1388243      0.920807806      -22.1388243      0.376891637      67.0302438       
1450.93          0.383537605      66.6268247       0.918035086      -22.5505304      0.918035086      -22.5505304      0.383537605      66.6268247       
1479.36          0.390137714      66.2247413       0.915226349      -22.9606148      0.915226349      -22.9606148      0.390137714      66.2247413       
1507.79          0.396691601      65.8240231       0.912382389      -23.3690613      0.912382389      -23.3690613      0.396691601      65.8240231       
1536.22          0.403198925      65.424698        0.909504         -23.7758544      0.909504         -23.7758544      0.403198925      65.424698        
1564.65          0.409659367      65.0267926       0.906591975      -24.180979       0.906591975      -24.180979       0.409659367      65.0267926       
1593.08          0.416072626      64.6303319       0.903647106      -24.584421       0.903647106      -24.584421       0.416072626      64.6303319       
1621.51          0.422438424      64.2353398       0.900670186      -24.9861665      0.900670186      -24.9861665      0.422438424      64.2353398       
1649.94          0.428756502      63.8418388       0.897662003      -25.3862025      0.897662003      -25.3862025      0.428756502      63.8418388       
1678.37          0.435026623      63.4498503       0.894623345      -25.7845165      0.894623345      -25.7845165      0.435026623      63.4498503       
1706.8           0.441248566      63.0593944       0.891554996      -26.1810966      0.891554996      -26.1810966      0.441248566      63.0593944       
1735.23          0.447422134      62.6704903       0.888457736      -26.5759314      0.888457736      -26.5759314      0.447422134      62.6704903       
1763.66          0.453547145      62.2831561       0.885332343      -26.9690103      0.885332343      -26.9690103      0.453547145      62.2831561       
1792.09          0.459623438      61.8974087       0.882179591      -27.3603231      0.882179591      -27.3603231      0.459623438      61.8974087       
1820.52          0.46565087       61.5132641       0.879000246      -27.7498602      0.879000246      -27.7498602      0.46565087       61.5132641       
1848.95          0.471629316      61.1307377       0.875795074      -28.1376125      0.875795074      -28.1376125      0.471629316      61.1307377       
1877.38          0.477558668      60.7498434       0.872564832      -28.5235717      0.872564832      -28.5235717      0.477558668      60.7498434       
1905.81          0.483438837      60.3705947       0.869310272      -28.9077299      0.869310272      -28.9077299      0.483438837      60.3705947       
1934.24          0.48926975       59.9930041       0.866032141      -29.2900795      0.866032141      -29.2900795      0.48926975       59.9930041       
1962.67          0.495051351      59.6170833       0.862731179      -29.6706138      0.862731179      -29.6706138      0.495051351      59.6170833       
1991.1           0.5007836        59.2428431       0.859408119      -30.0493266      0.859408119      -30.0493266      0.5007836        59.2428431       
2019.53          0.506466473      58.8702936       0.856063688      -30.4262119      0.856063688      -30.4262119      0.506466473      58.8702936       
2047.96          0.512099962      58.4994443       0.852698605      -30.8012644      0.852698605      -30.8012644      0.512099962      58.4994443       
2076.39          0.517684073      58.1303037       0.849313581      -31.1744795      0.849313581      -31.1744795      0.517684073      58.1303037       
2104.82          0.523218829      57.76288         0.845909321      -31.5458527      0.845909321      -31.5458527      0.523218829      57.76288         
2133.25          0.528704265      57.3971804       0.842486521      -31.9153803      0.842486521      -31.9153803      0.528704265      57.3971804       
2161.68          0.534140431      57.0332115       0.839045868      -32.2830588      0.839045868      -32.2830588      0.534140431      57.0332115       
2190.11          0.539527391      56.6709794       0.835588042      -32.6488854      0.835588042      -32.6488854      0.539527391      56.6709794       
2218.54          0.544865222      56.3104895       0.832113714      -33.0128576      0.832113714      -33.0128576      0.544865222      56.3104895       
2246.97          0.550154013      55.9517466       0.828623546      -33.3749735      0.828623546      -33.3749735      0.550154013      55.9517466       
2275.4           0.555393867      55.5947549       0.825118192      -33.7352313      0.825118192      -33.7352313      0.555393867      55.5947549       
2303.83          0.560584898      55.2395182       0.821598295      -34.0936301      0.821598295      -34.0936301      0.560584898      55.2395182       
2332.26          0.565727233      54.8860396       0.81806449       -34.4501689      0.81806449       -34.4501689      0.565727233      54.8860396       
2360.69          0.570821007      54.5343218       0.814517405      -34.8048476      0.814517405      -34.8048476      0.570821007      54.5343218       
2389.12          0.57586637       54.1843668       0.810957655      -35.1576661      0.810957655      -35.1576661      0.57586637       54.1843668       
2417.55          0.580863479      53.8361763       0.807385847      -35.5086249      0.807385847      -35.5086249      0.580863479      53.8361763       
2445.98          0.585812505      53.4897515       0.803802578      -35.8577248      0.803802578      -35.8577248      0.585812505      53.4897515       
2474.41          0.590713626      53.145093        0.800208438      -36.204967       0.800208438      -36.204967       0.590713626      53.145093        
2502.84          0.59556703       52.802201        0.796604003      -36.5503529      0.796604003      -36.5503529      0.59556703       52.802201        
2531.27          0.600372913      52.4610756       0.792989842      -36.8938845      0.792989842      -36.8938845      0.600372913      52.4610756       
2559.7           0.605131484      52.1217159       0.789366515      -37.235564       0.789366515      -37.235564       0.605131484      52.1217159       
2588.13          0.609842954      51.784121        0.785734569      -37.5753938      0.785734569      -37.5753938      0.609842954      51.784121        
2616.56          0.614507548      51.4482896       0.782094545      -37.9133769      0.782094545      -37.9133769      0.614507548      51.4482896       
2644.99          0.619125495      51.1142197       0.778446971      -38.2495164      0.778446971      -38.2495164      0.619125495      51.1142197       
2673.42          0.623697033      50.7819094       0.774792368      -38.5838157      0.774792368      -38.5838157      0.623697033      50.7819094       
2701.85          0.628222406      50.4513561       0.771131244      -38.9162787      0.771131244      -38.9162787      0.628222406      50.4513561       
2730.28          0.632701865      50.122557        0.767464099      -39.2469092      0.767464099      -39.2469092      0.632701865      50.122557        
2758.71          0.637135668      49.7955088       0.763791425      -39.5757116      0.763791425      -39.5757116      0.637135668      49.7955088       
2787.14          0.641524079      49.4702082       0.7601137        -39.9026904      0.7601137        -39.9026904      0.641524079      49.4702082       
2815.57          0.645867366      49.1466513       0.756431397      -40.2278505      0.756431397      -40.2278505      0.645867366      49.1466513       
2844             0.650165806      48.8248341       0.752744975      -40.5511968      0.752744975      -40.5511968      0.650165806      48.8248341       
2872.43          0.654419677      48.5047521       0.749054887      -40.8727347      0.749054887      -40.8727347      0.654419677      48.5047521       
2900.86          0.658629265      48.1864008       0.745361574      -41.1924696      0.745361574      -41.1924696      0.658629265      48.1864008       
2929.29          0.66279486       47.8697752       0.741665469      -41.5104073      0.741665469      -41.5104073      0.66279486       47.8697752       
2957.72          0.666916755      47.5548701       0.737966994      -41.8265537      0.737966994      -41.8265537      0.666916755      47.5548701       
2986.15          0.670995249      47.2416802       0.734266564      -42.1409149      0.734266564      -42.1409149      0.670995249      47.2416802       
3014.58          0.675030642      46.9301998       0.730564582      -42.4534972      0.730564582      -42.4534972      0.675030642      46.9301998       
3043.01          0.679023241      46.620423        0.726861444      -42.7643072      0.726861444      -42.7643072      0.679023241      46.620423        
3071.44          0.682973354      46.3123437       0.723157536      -43.0733516      0.723157536      -43.0733516      0.682973354      46.3123437       
3099.87          0.686881293      46.0059557       0.719453235      -43.3806372      0.719453235      -43.3806372      0.686881293      46.0059557       
3128.3           0.690747372      45.7012525       0.715748909      -43.686171       0.715748909      -43.686171       0.690747372      45.7012525       
3156.73          0.694571909      45.3982274       0.712044916      -43.9899601      0.712044916      -43.9899601      0.694571909      45.3982274       
3185.16          0.698355222      45.0968734       0.708341609      -44.292012       0.708341609      -44.292012       0.698355222      45.0968734       
3213.59          0.702097635      44.7971837       0.704639328      -44.5923341      0.704639328      -44.5923341      0.702097635      44.7971837       
3242.02          0.705799469      44.4991509       0.700938407      -44.890934       0.700938407      -44.890934       0.705799469      44.4991509       
3270.45          0.709461051      44.2027677       0.697239172      -45.1878193      0.697239172      -45.1878193      0.709461051      44.2027677       
3298.88          0.713082707      43.9080266       0.693541938      -45.482998       0.693541938      -45.482998       0.713082707      43.9080266       
3327.31          0.716664766      43.61492         0.689847013      -45.7764781      0.689847013      -45.7764781      0.716664766      43.61492         
3355.74          0.720207558      43.3234399       0.6861547        -46.0682675      0.6861547        -46.0682675      0.720207558      43.3234399       
3384.17          0.723711412      43.0335787       0.682465289      -46.3583744      0.682465289      -46.3583744      0.723711412      43.0335787       
3412.6           0.727176661      42.745328        0.678779066      -46.6468072      0.678779066      -46.6468072      0.727176661      42.745328        
3441.03          0.730603636      42.4586799       0.675096307      -46.9335741      0.675096307      -46.9335741      0.730603636      42.4586799       
3469.46          0.733992669      42.1736261       0.671417281      -47.2186837      0.671417281      -47.2186837      0.733992669      42.1736261       
3497.89          0.737344094      41.8901581       0.66774225       -47.5021444      0.66774225       -47.5021444      0.737344094      41.8901581       
3526.32          0.740658244      41.6082674       0.664071469      -47.7839648      0.664071469      -47.7839648      0.740658244      41.6082674       
3554.75          0.743935451      41.3279456       0.660405184      -48.0641536      0.660405184      -48.0641536      0.743935451      41.3279456       
3583.18          0.747176049      41.049184        0.656743636      -48.3427195      0.656743636      -48.3427195      0.747176049      41.049184        
3611.61          0.750380371      40.7719739       0.653087056      -48.6196713      0.653087056      -48.6196713      0.750380371      40.7719739       
