! Coilcraft 0805HT-56N Chip Inductor				
! 24 June 2002			
# MHZ S MA R 50
!Freq             MagS11           AngS11           MagS21           AngS21           MagS12           AngS12           MagS22           AngS22
1                0.0061401634     34.5600958       0.994949478      -0.200582244     0.994949478      -0.200582244     0.0061401634     34.5600958       
8.98             0.0321991092     75.0119139       0.992160386      -1.79648557      0.992160386      -1.79648557      0.0321991092     75.0119139       
16.96            0.0596849481     78.3022992       0.989626336      -3.38574403      0.989626336      -3.38574403      0.0596849481     78.3022992       
24.94            0.0871182674     78.6972545       0.986630847      -4.96724471      0.986630847      -4.96724471      0.0871182674     78.6972545       
32.92            0.114360167      78.2255628       0.983059375      -6.53920883      0.983059375      -6.53920883      0.114360167      78.2255628       
40.9             0.141336691      77.3776273       0.978879491      -8.0997322       0.978879491      -8.0997322       0.141336691      77.3776273       
48.88            0.167988885      76.3350161       0.974087993      -9.64691048      0.974087993      -9.64691048      0.167988885      76.3350161       
56.86            0.194264706      75.1819933       0.968696308      -11.1788948      0.968696308      -11.1788948      0.194264706      75.1819933       
64.84            0.220117159      73.963754        0.962724704      -12.6939236      0.962724704      -12.6939236      0.220117159      73.963754        
72.82            0.245503841      72.7071481       0.956199391      -14.1903442      0.956199391      -14.1903442      0.245503841      72.7071481       
80.8             0.270386881      71.4293939       0.949150778      -15.6666269      0.949150778      -15.6666269      0.270386881      71.4293939       
88.78            0.294732959      70.1422011       0.941612273      -17.1213754      0.941612273      -17.1213754      0.294732959      70.1422011       
96.76            0.318513311      68.853905        0.933619366      -18.5533326      0.933619366      -18.5533326      0.318513311      68.853905        
104.74           0.341703692      67.5706508       0.925208887      -19.9613847      0.925208887      -19.9613847      0.341703692      67.5706508       
112.72           0.36428428       66.2970904       0.916418379      -21.3445612      0.916418379      -21.3445612      0.36428428       66.2970904       
120.7            0.386239535      65.0368125       0.907285567      -22.7020345      0.907285567      -22.7020345      0.386239535      65.0368125       
128.68           0.407557999      63.7926203       0.897847894      -24.0331155      0.897847894      -24.0331155      0.407557999      63.7926203       
136.66           0.428232064      62.5667167       0.888142135      -25.3372498      0.888142135      -25.3372498      0.428232064      62.5667167       
144.64           0.448257712      61.360834        0.878204067      -26.6140113      0.878204067      -26.6140113      0.448257712      61.360834        
152.62           0.467634222      60.1763264       0.868068203      -27.8630949      0.868068203      -27.8630949      0.467634222      60.1763264       
160.6            0.486363876      59.0142385       0.857767574      -29.084309       0.857767574      -29.084309       0.486363876      59.0142385       
168.58           0.504451652      57.8753583       0.847333561      -30.2775675      0.847333561      -30.2775675      0.504451652      57.8753583       
176.56           0.521904919      56.7602583       0.836795779      -31.4428804      0.836795779      -31.4428804      0.521904919      56.7602583       
184.54           0.538733137      55.6693285       0.826181992      -32.5803463      0.826181992      -32.5803463      0.538733137      55.6693285       
192.52           0.554947572      54.6028039       0.815518069      -33.6901426      0.815518069      -33.6901426      0.554947572      54.6028039       
200.5            0.570561019      53.560787        0.80482797       -34.7725179      0.80482797       -34.7725179      0.570561019      53.560787        
208.48           0.585587548      52.5432678       0.794133755      -35.8277834      0.794133755      -35.8277834      0.585587548      52.5432678       
216.46           0.600042261      51.5501395       0.783455622      -36.856305       0.783455622      -36.856305       0.600042261      51.5501395       
224.44           0.613941081      50.5812139       0.772811955      -37.8584965      0.772811955      -37.8584965      0.613941081      50.5812139       
232.42           0.627300545      49.6362329       0.76221939       -38.8348118      0.76221939       -38.8348118      0.627300545      49.6362329       
240.4            0.640137633      48.7148806       0.751692895      -39.7857391      0.751692895      -39.7857391      0.640137633      48.7148806       
248.38           0.652469602      47.8167921       0.741245848      -40.7117948      0.741245848      -40.7117948      0.652469602      47.8167921       
256.36           0.664313853      46.9415622       0.730890133      -41.6135176      0.730890133      -41.6135176      0.664313853      46.9415622       
264.34           0.675687803      46.0887532       0.720636227      -42.4914643      0.720636227      -42.4914643      0.675687803      46.0887532       
272.32           0.686608784      45.2579011       0.710493299      -43.3462048      0.710493299      -43.3462048      0.686608784      45.2579011       
280.3            0.69709395       44.4485213       0.700469302      -44.1783183      0.700469302      -44.1783183      0.69709395       44.4485213       
288.28           0.7071602        43.660114        0.690571063      -44.9883895      0.690571063      -44.9883895      0.7071602        43.660114        
296.26           0.716824119      42.8921683       0.680804374      -45.7770059      0.680804374      -45.7770059      0.716824119      42.8921683       
304.24           0.726101922      42.1441662       0.67117408       -46.5447544      0.67117408       -46.5447544      0.726101922      42.1441662       
312.22           0.735009417      41.4155858       0.661684161      -47.2922195      0.661684161      -47.2922195      0.735009417      41.4155858       
320.2            0.743561966      40.7059041       0.652337809      -48.0199807      0.652337809      -48.0199807      0.743561966      40.7059041       
328.18           0.751774468      40.0145996       0.643137502      -48.7286111      0.643137502      -48.7286111      0.751774468      40.0145996       
336.16           0.759661334      39.3411546       0.634085076      -49.4186756      0.634085076      -49.4186756      0.759661334      39.3411546       
344.14           0.767236485      38.6850563       0.625181787      -50.0907298      0.625181787      -50.0907298      0.767236485      38.6850563       
352.12           0.774513335      38.0457991       0.616428373      -50.7453188      0.616428373      -50.7453188      0.774513335      38.0457991       
360.1            0.781504797      37.4228853       0.607825107      -51.3829763      0.607825107      -51.3829763      0.781504797      37.4228853       
368.08           0.788223283      36.8158264       0.599371853      -52.0042241      0.599371853      -52.0042241      0.788223283      36.8158264       
376.06           0.794680705      36.2241438       0.591068108      -52.6095715      0.591068108      -52.6095715      0.794680705      36.2241438       
384.04           0.80088849       35.6473693       0.582913051      -53.1995148      0.582913051      -53.1995148      0.80088849       35.6473693       
392.02           0.806857581      35.0850461       0.574905576      -53.774537       0.574905576      -53.774537       0.806857581      35.0850461       
400              0.812598456      34.5367287       0.567044334      -54.3351079      0.567044334      -54.3351079      0.812598456      34.5367287       
407.98           0.818121136      34.0019834       0.559327762      -54.8816835      0.559327762      -54.8816835      0.818121136      34.0019834       
415.96           0.823435198      33.4803883       0.551754114      -55.4147064      0.551754114      -55.4147064      0.823435198      33.4803883       
423.94           0.828549794      32.9715338       0.544321487      -55.9346059      0.544321487      -55.9346059      0.828549794      32.9715338       
431.92           0.833473661      32.4750219       0.537027846      -56.4417978      0.537027846      -56.4417978      0.833473661      32.4750219       
439.9            0.838215137      31.9904671       0.529871046      -56.9366846      0.529871046      -56.9366846      0.838215137      31.9904671       
447.88           0.84278218       31.5174952       0.52284885       -57.419656       0.52284885       -57.419656       0.84278218       31.5174952       
455.86           0.847182378      31.0557443       0.515958948      -57.8910889      0.515958948      -57.8910889      0.847182378      31.0557443       
463.84           0.851422968      30.6048636       0.509198972      -58.3513476      0.509198972      -58.3513476      0.851422968      30.6048636       
471.82           0.855510848      30.164514        0.502566511      -58.8007841      0.502566511      -58.8007841      0.855510848      30.164514        
479.8            0.859452594      29.7343674       0.49605912       -59.2397387      0.49605912       -59.2397387      0.859452594      29.7343674       
487.78           0.863254474      29.3141065       0.489674336      -59.66854        0.489674336      -59.66854        0.863254474      29.3141065       
495.76           0.866922461      28.903425        0.483409682      -60.087505       0.483409682      -60.087505       0.866922461      28.903425        
503.74           0.870462246      28.5020264       0.477262681      -60.4969401      0.477262681      -60.4969401      0.870462246      28.5020264       
511.72           0.873879254      28.1096247       0.47123086       -60.8971408      0.47123086       -60.8971408      0.873879254      28.1096247       
519.7            0.877178653      27.7259436       0.465311757      -61.2883924      0.465311757      -61.2883924      0.877178653      27.7259436       
527.68           0.880365368      27.3507162       0.459502929      -61.6709702      0.459502929      -61.6709702      0.880365368      27.3507162       
535.66           0.883444093      26.9836848       0.453801952      -62.0451396      0.453801952      -62.0451396      0.883444093      26.9836848       
543.64           0.886419302      26.6246007       0.448206433      -62.411157       0.448206433      -62.411157       0.886419302      26.6246007       
551.62           0.889295259      26.2732238       0.442714004      -62.7692695      0.442714004      -62.7692695      0.889295259      26.2732238       
559.6            0.892076029      25.9293224       0.437322334      -63.1197155      0.437322334      -63.1197155      0.892076029      25.9293224       
567.58           0.894765487      25.5926727       0.432029127      -63.4627252      0.432029127      -63.4627252      0.894765487      25.5926727       
575.56           0.897367327      25.2630589       0.426832122      -63.7985203      0.426832122      -63.7985203      0.897367327      25.2630589       
583.54           0.899885074      24.9402725       0.421729101      -64.1273151      0.421729101      -64.1273151      0.899885074      24.9402725       
591.52           0.902322088      24.6241123       0.416717887      -64.4493161      0.416717887      -64.4493161      0.902322088      24.6241123       
599.5            0.904681576      24.3143841       0.411796342      -64.7647226      0.411796342      -64.7647226      0.904681576      24.3143841       
607.48           0.906966597      24.0109006       0.406962375      -65.0737268      0.406962375      -65.0737268      0.906966597      24.0109006       
615.46           0.90918007       23.7134808       0.402213936      -65.3765144      0.402213936      -65.3765144      0.90918007       23.7134808       
623.44           0.911324782      23.42195         0.397549021      -65.6732645      0.397549021      -65.6732645      0.911324782      23.42195         
631.42           0.913403394      23.1361395       0.392965667      -65.9641498      0.392965667      -65.9641498      0.913403394      23.1361395       
639.4            0.915418447      22.8558865       0.388461959      -66.2493373      0.388461959      -66.2493373      0.915418447      22.8558865       
647.38           0.917372366      22.5810336       0.384036024      -66.5289879      0.384036024      -66.5289879      0.917372366      22.5810336       
655.36           0.91926747       22.3114291       0.379686033      -66.8032572      0.379686033      -66.8032572      0.91926747       22.3114291       
663.34           0.921105975      22.0469261       0.375410202      -67.0722954      0.375410202      -67.0722954      0.921105975      22.0469261       
671.32           0.922889997      21.787383        0.371206788      -67.3362473      0.371206788      -67.3362473      0.922889997      21.787383        
679.3            0.924621561      21.5326628       0.367074093      -67.5952531      0.367074093      -67.5952531      0.924621561      21.5326628       
687.28           0.926302603      21.2826332       0.363010459      -67.8494481      0.363010459      -67.8494481      0.926302603      21.2826332       
695.26           0.927934973      21.0371664       0.359014271      -68.0989629      0.359014271      -68.0989629      0.927934973      21.0371664       
703.24           0.929520443      20.7961386       0.355083953      -68.3439238      0.355083953      -68.3439238      0.929520443      20.7961386       
711.22           0.931060708      20.5594306       0.351217971      -68.584453       0.351217971      -68.584453       0.931060708      20.5594306       
719.2            0.932557391      20.3269266       0.347414829      -68.8206684      0.347414829      -68.8206684      0.932557391      20.3269266       
727.18           0.934012044      20.0985152       0.343673069      -69.0526839      0.343673069      -69.0526839      0.934012044      20.0985152       
735.16           0.935426155      19.8740881       0.339991273      -69.28061        0.339991273      -69.28061        0.935426155      19.8740881       
743.14           0.936801149      19.653541        0.336368057      -69.5045532      0.336368057      -69.5045532      0.936801149      19.653541        
751.12           0.938138392      19.4367727       0.332802076      -69.7246167      0.332802076      -69.7246167      0.938138392      19.4367727       
759.1            0.939439192      19.2236855       0.329292017      -69.9409002      0.329292017      -69.9409002      0.939439192      19.2236855       
767.08           0.940704802      19.0141846       0.325836603      -70.1535003      0.325836603      -70.1535003      0.940704802      19.0141846       
775.06           0.941936427      18.8081784       0.322434592      -70.3625104      0.322434592      -70.3625104      0.941936427      18.8081784       
783.04           0.943135219      18.6055783       0.319084773      -70.5680209      0.319084773      -70.5680209      0.943135219      18.6055783       
791.02           0.944302285      18.4062984       0.315785966      -70.7701192      0.315785966      -70.7701192      0.944302285      18.4062984       
799              0.945438688      18.2102554       0.312537023      -70.9688902      0.312537023      -70.9688902      0.945438688      18.2102554       
806.98           0.946545446      18.0173689       0.309336829      -71.1644158      0.309336829      -71.1644158      0.946545446      18.0173689       
814.96           0.947623538      17.8275607       0.306184294      -71.3567755      0.306184294      -71.3567755      0.947623538      17.8275607       
822.94           0.948673903      17.6407553       0.303078359      -71.5460463      0.303078359      -71.5460463      0.948673903      17.6407553       
830.92           0.949697446      17.4568795       0.300017993      -71.7323028      0.300017993      -71.7323028      0.949697446      17.4568795       
838.9            0.950695032      17.2758621       0.297002191      -71.9156171      0.297002191      -71.9156171      0.950695032      17.2758621       
846.88           0.951667495      17.0976344       0.294029977      -72.0960594      0.294029977      -72.0960594      0.951667495      17.0976344       
854.86           0.952615638      16.9221295       0.291100397      -72.2736974      0.291100397      -72.2736974      0.952615638      16.9221295       
862.84           0.953540229      16.7492829       0.288212525      -72.448597       0.288212525      -72.448597       0.953540229      16.7492829       
870.82           0.95444201       16.5790315       0.285365459      -72.6208219      0.285365459      -72.6208219      0.95444201       16.5790315       
878.8            0.955321693      16.4113147       0.282558318      -72.7904342      0.282558318      -72.7904342      0.955321693      16.4113147       
886.78           0.956179965      16.2460733       0.279790247      -72.9574936      0.279790247      -72.9574936      0.956179965      16.2460733       
894.76           0.957017484      16.0832499       0.277060412      -73.1220586      0.277060412      -73.1220586      0.957017484      16.0832499       
902.74           0.957834888      15.9227889       0.274368001      -73.2841855      0.274368001      -73.2841855      0.957834888      15.9227889       
910.72           0.958632786      15.7646362       0.271712222      -73.4439292      0.271712222      -73.4439292      0.958632786      15.7646362       
918.7            0.959411769      15.6087395       0.269092305      -73.6013429      0.269092305      -73.6013429      0.959411769      15.6087395       
926.68           0.960172404      15.4550478       0.266507498      -73.7564782      0.266507498      -73.7564782      0.960172404      15.4550478       
934.66           0.960915237      15.3035115       0.263957072      -73.9093852      0.263957072      -73.9093852      0.960915237      15.3035115       
942.64           0.961640796      15.1540828       0.261440311      -74.0601127      0.261440311      -74.0601127      0.961640796      15.1540828       
950.62           0.962349588      15.0067148       0.258956523      -74.2087079      0.258956523      -74.2087079      0.962349588      15.0067148       
958.6            0.963042104      14.8613622       0.25650503       -74.3552168      0.25650503       -74.3552168      0.963042104      14.8613622       
966.58           0.963718816      14.717981        0.254085173      -74.4996839      0.254085173      -74.4996839      0.963718816      14.717981        
974.56           0.964380179      14.5765283       0.251696309      -74.6421526      0.251696309      -74.6421526      0.964380179      14.5765283       
982.54           0.965026632      14.4369624       0.24933781       -74.7826651      0.24933781       -74.7826651      0.965026632      14.4369624       
990.52           0.965658602      14.2992428       0.247009066      -74.9212622      0.247009066      -74.9212622      0.965658602      14.2992428       
998.5            0.966276495      14.1633302       0.244709481      -75.0579838      0.244709481      -75.0579838      0.966276495      14.1633302       
1006.48          0.966880709      14.0291862       0.242438475      -75.1928685      0.242438475      -75.1928685      0.966880709      14.0291862       
1014.46          0.967471625      13.8967735       0.24019548       -75.325954       0.24019548       -75.325954       0.967471625      13.8967735       
