! Coilcraft 0805HT-82N Chip Inductor				
! 24 June 2002			
# MHZ S MA R 50
!Freq             MagS11           AngS11           MagS21           AngS21           MagS12           AngS12           MagS22           AngS22
1                0.00791114302    39.4570221       0.99390451       -0.289823833     0.99390451       -0.289823833     0.00791114302    39.4570221       
7.48             0.0387616912     74.3897885       0.990273491      -2.16048421      0.990273491      -2.16048421      0.0387616912     74.3897885       
13.96            0.0709253874     77.3150622       0.986854313      -4.02064903      0.986854313      -4.02064903      0.0709253874     77.3150622       
20.44            0.102941759      77.455459        0.982791643      -5.86838879      0.982791643      -5.86838879      0.102941759      77.455459        
26.92            0.134632987      76.7442665       0.977948847      -7.70084144      0.977948847      -7.70084144      0.134632987      76.7442665       
33.4             0.165893233      75.6624639       0.97229575       -9.51500824      0.97229575       -9.51500824      0.165893233      75.6624639       
39.88            0.196635906      74.3913114       0.965841423      -11.3079503      0.965841423      -11.3079503      0.196635906      74.3913114       
46.36            0.226785296      73.0161738       0.958615048      -13.076879       0.958615048      -13.076879       0.226785296      73.0161738       
52.84            0.256274807      71.5834602       0.950657981      -14.8192075      0.950657981      -14.8192075      0.256274807      71.5834602       
59.32            0.285046606      70.1210846       0.942019519      -16.5325845      0.942019519      -16.5325845      0.285046606      70.1210846       
65.8             0.313051557      68.6471303       0.932754188      -18.2149135      0.932754188      -18.2149135      0.313051557      68.6471303       
72.28            0.340249131      67.1739765       0.922919762      -19.8643649      0.922919762      -19.8643649      0.340249131      67.1739765       
78.76            0.366607206      65.7104468       0.912575714      -21.479379       0.912575714      -21.479379       0.366607206      65.7104468       
85.24            0.392101729      64.263011        0.901781957      -23.0586638      0.901781957      -23.0586638      0.392101729      64.263011        
91.72            0.416716275      62.8364992       0.890597806      -24.6011876      0.890597806      -24.6011876      0.416716275      62.8364992       
98.2             0.440441499      61.4345491       0.879081128      -26.1061678      0.879081128      -26.1061678      0.440441499      61.4345491       
104.68           0.463274526      60.0598997       0.867287666      -27.5730561      0.867287666      -27.5730561      0.463274526      60.0598997       
111.16           0.485218294      58.7145927       0.855270509      -29.0015222      0.855270509      -29.0015222      0.485218294      58.7145927       
117.64           0.506280878      57.4001168       0.843079696      -30.3914358      0.843079696      -30.3914358      0.506280878      57.4001168       
124.12           0.526474818      56.1175143       0.830761943      -31.7428472      0.830761943      -31.7428472      0.526474818      56.1175143       
130.6            0.545816456      54.8674632       0.818360476      -33.0559684      0.818360476      -33.0559684      0.545816456      54.8674632       
137.08           0.564325311      53.6503419       0.805914951      -34.331154       0.805914951      -34.331154       0.564325311      53.6503419       
143.56           0.582023491      52.466281        0.793461452      -35.568883       0.793461452      -35.568883       0.582023491      52.466281        
150.04           0.598935152      51.3152065       0.781032551      -36.7697407      0.781032551      -36.7697407      0.598935152      51.3152065       
156.52           0.61508601       50.1968754       0.768657412      -37.9344027      0.768657412      -37.9344027      0.61508601       50.1968754       
163              0.630502899      49.1109061       0.75636194       -39.063619       0.75636194       -39.063619       0.630502899      49.1109061       
169.48           0.645213388      48.0568039       0.744168953      -40.1582007      0.744168953      -40.1582007      0.645213388      48.0568039       
175.96           0.659245445      47.0339832       0.73209837       -41.2190063      0.73209837       -41.2190063      0.659245445      47.0339832       
182.44           0.672627149      46.0417856       0.720167417      -42.246931       0.720167417      -42.246931       0.672627149      46.0417856       
188.92           0.685386449      45.0794968       0.708390829      -43.2428961      0.708390829      -43.2428961      0.685386449      45.0794968       
195.4            0.697550955      44.1463593       0.696781059      -44.2078404      0.696781059      -44.2078404      0.697550955      44.1463593       
201.88           0.709147781      43.2415849       0.685348484      -45.1427119      0.685348484      -45.1427119      0.709147781      43.2415849       
208.36           0.720203403      42.3643644       0.674101595      -46.0484612      0.674101595      -46.0484612      0.720203403      42.3643644       
214.84           0.730743561      41.5138758       0.663047186      -46.926036       0.663047186      -46.926036       0.730743561      41.5138758       
221.32           0.740793174      40.6892916       0.652190536      -47.7763759      0.652190536      -47.7763759      0.740793174      40.6892916       
227.8            0.750376288      39.8897846       0.641535564      -48.6004081      0.641535564      -48.6004081      0.750376288      39.8897846       
234.28           0.75951603       39.1145332       0.631084993      -49.3990444      0.631084993      -49.3990444      0.75951603       39.1145332       
240.76           0.768234589      38.362725        0.620840484      -50.1731782      0.620840484      -50.1731782      0.768234589      38.362725        
247.24           0.776553205      37.6335602       0.61080277       -50.9236823      0.61080277       -50.9236823      0.776553205      37.6335602       
253.72           0.784492165      36.9262548       0.60097177       -51.6514074      0.60097177       -51.6514074      0.784492165      36.9262548       
260.2            0.792070815      36.2400419       0.591346702      -52.3571804      0.591346702      -52.3571804      0.792070815      36.2400419       
266.68           0.799307575      35.5741739       0.581926175      -53.0418036      0.581926175      -53.0418036      0.799307575      35.5741739       
273.16           0.80621996       34.9279238       0.572708278      -53.7060543      0.572708278      -53.7060543      0.80621996       34.9279238       
279.64           0.812824605      34.3005854       0.563690659      -54.3506842      0.563690659      -54.3506842      0.812824605      34.3005854       
286.12           0.819137294      33.6914747       0.554870591      -54.9764194      0.554870591      -54.9764194      0.819137294      33.6914747       
292.6            0.825172993      33.0999297       0.546245038      -55.5839602      0.546245038      -55.5839602      0.825172993      33.0999297       
299.08           0.830945878      32.5253109       0.53781071       -56.1739817      0.53781071       -56.1739817      0.830945878      32.5253109       
305.56           0.836469371      31.967001        0.529564107      -56.7471339      0.529564107      -56.7471339      0.836469371      31.967001        
312.04           0.841756176      31.4244046       0.521501566      -57.3040422      0.521501566      -57.3040422      0.841756176      31.4244046       
318.52           0.846818309      30.8969485       0.513619298      -57.8453078      0.513619298      -57.8453078      0.846818309      30.8969485       
325              0.851667132      30.3840807       0.50591342       -58.3715085      0.50591342       -58.3715085      0.851667132      30.3840807       
331.48           0.856313389      29.8852702       0.498379981      -58.8831993      0.498379981      -58.8831993      0.856313389      29.8852702       
337.96           0.860767233      29.4000066       0.491014994      -59.380913       0.491014994      -59.380913       0.860767233      29.4000066       
344.44           0.865038263      28.9277993       0.483814449      -59.8651608      0.483814449      -59.8651608      0.865038263      28.9277993       
350.92           0.869135547      28.4681769       0.476774339      -60.3364334      0.476774339      -60.3364334      0.869135547      28.4681769       
357.4            0.873067657      28.0206871       0.469890671      -60.7952014      0.469890671      -60.7952014      0.873067657      28.0206871       
363.88           0.876842693      27.5848952       0.463159481      -61.241916       0.463159481      -61.241916       0.876842693      27.5848952       
370.36           0.88046831       27.1603843       0.456576845      -61.6770101      0.456576845      -61.6770101      0.88046831       27.1603843       
376.84           0.883951743      26.7467542       0.450138892      -62.1008986      0.450138892      -62.1008986      0.883951743      26.7467542       
383.32           0.887299834      26.3436209       0.443841805      -62.5139794      0.443841805      -62.5139794      0.887299834      26.3436209       
389.8            0.890519048      25.950616        0.437681835      -62.9166338      0.437681835      -62.9166338      0.890519048      25.950616        
396.28           0.8936155        25.5673859       0.431655302      -63.3092276      0.431655302      -63.3092276      0.8936155        25.5673859       
402.76           0.896594973      25.1935916       0.425758601      -63.6921114      0.425758601      -63.6921114      0.896594973      25.1935916       
409.24           0.89946294       24.8289076       0.419988204      -64.0656214      0.419988204      -64.0656214      0.89946294       24.8289076       
415.72           0.902224576      24.4730218       0.414340662      -64.4300798      0.414340662      -64.4300798      0.902224576      24.4730218       
422.2            0.904884782      24.1256347       0.408812613      -64.785796       0.408812613      -64.785796       0.904884782      24.1256347       
428.68           0.907448197      23.7864588       0.403400772      -65.1330662      0.403400772      -65.1330662      0.907448197      23.7864588       
435.16           0.909919212      23.4552184       0.398101942      -65.4721749      0.398101942      -65.4721749      0.909919212      23.4552184       
441.64           0.912301989      23.1316486       0.39291301       -65.803395       0.39291301       -65.803395       0.912301989      23.1316486       
448.12           0.914600471      22.8154954       0.387830945      -66.1269882      0.387830945      -66.1269882      0.914600471      22.8154954       
454.6            0.916818395      22.5065148       0.3828528        -66.4432057      0.3828528        -66.4432057      0.916818395      22.5065148       
461.08           0.918959304      22.2044725       0.377975713      -66.7522887      0.377975713      -66.7522887      0.918959304      22.2044725       
467.56           0.921026559      21.9091437       0.373196901      -67.0544685      0.373196901      -67.0544685      0.921026559      21.9091437       
474.04           0.923023347      21.6203122       0.368513661      -67.3499675      0.368513661      -67.3499675      0.923023347      21.6203122       
480.52           0.924952695      21.3377705       0.363923372      -67.638999       0.363923372      -67.638999       0.924952695      21.3377705       
487              0.926817476      21.061319        0.359423488      -67.9217682      0.359423488      -67.9217682      0.926817476      21.061319        
493.48           0.928620417      20.7907661       0.35501154       -68.198472       0.35501154       -68.198472       0.928620417      20.7907661       
499.96           0.93036411       20.5259276       0.350685132      -68.4692997      0.350685132      -68.4692997      0.93036411       20.5259276       
506.44           0.932051019      20.2666262       0.346441942      -68.7344333      0.346441942      -68.7344333      0.932051019      20.2666262       
512.92           0.933683486      20.0126916       0.342279717      -68.9940477      0.342279717      -68.9940477      0.933683486      20.0126916       
519.4            0.935263737      19.7639599       0.338196275      -69.2483111      0.338196275      -69.2483111      0.935263737      19.7639599       
525.88           0.93679389       19.5202735       0.334189498      -69.4973853      0.334189498      -69.4973853      0.93679389       19.5202735       
532.36           0.938275964      19.2814805       0.330257336      -69.7414261      0.330257336      -69.7414261      0.938275964      19.2814805       
538.84           0.939711875      19.047435        0.326397801      -69.9805831      0.326397801      -69.9805831      0.939711875      19.047435        
545.32           0.941103454      18.8179964       0.322608965      -70.2150007      0.322608965      -70.2150007      0.941103454      18.8179964       
551.8            0.942452441      18.5930293       0.318888962      -70.4448176      0.318888962      -70.4448176      0.942452441      18.5930293       
558.28           0.943760495      18.3724032       0.315235981      -70.6701675      0.315235981      -70.6701675      0.943760495      18.3724032       
564.76           0.945029199      18.1559926       0.31164827       -70.8911792      0.31164827       -70.8911792      0.945029199      18.1559926       
571.24           0.946260062      17.9436763       0.30812413       -71.1079768      0.30812413       -71.1079768      0.946260062      17.9436763       
577.72           0.947454523      17.7353376       0.304661912      -71.3206797      0.304661912      -71.3206797      0.947454523      17.7353376       
584.2            0.948613955      17.530864        0.301260023      -71.5294033      0.301260023      -71.5294033      0.948613955      17.530864        
590.68           0.94973967       17.3301471       0.297916913      -71.7342587      0.297916913      -71.7342587      0.94973967       17.3301471       
597.16           0.95083292       17.1330821       0.294631086      -71.935353       0.294631086      -71.935353       0.95083292       17.1330821       
603.64           0.951894901      16.9395682       0.291401087      -72.1327895      0.291401087      -72.1327895      0.951894901      16.9395682       
610.12           0.952926755      16.7495078       0.288225507      -72.3266681      0.288225507      -72.3266681      0.952926755      16.7495078       
616.6            0.953929576      16.562807        0.285102982      -72.5170849      0.285102982      -72.5170849      0.953929576      16.562807        
623.08           0.954904408      16.3793748       0.282032188      -72.7041328      0.282032188      -72.7041328      0.954904408      16.3793748       
629.56           0.95585225       16.1991237       0.27901184       -72.8879016      0.27901184       -72.8879016      0.95585225       16.1991237       
636.04           0.956774058      16.0219689       0.276040694      -73.0684777      0.276040694      -73.0684777      0.956774058      16.0219689       
642.52           0.957670748      15.8478287       0.273117543      -73.245945       0.273117543      -73.245945       0.957670748      15.8478287       
649              0.958543195      15.6766239       0.270241216      -73.4203843      0.270241216      -73.4203843      0.958543195      15.6766239       
655.48           0.959392238      15.5082781       0.267410578      -73.5918736      0.267410578      -73.5918736      0.959392238      15.5082781       
661.96           0.960218681      15.3427175       0.264624526      -73.7604885      0.264624526      -73.7604885      0.960218681      15.3427175       
668.44           0.961023294      15.1798705       0.261881993      -73.9263019      0.261881993      -73.9263019      0.961023294      15.1798705       
674.92           0.961806816      15.019668        0.25918194       -74.0893846      0.25918194       -74.0893846      0.961806816      15.019668        
681.4            0.962569955      14.8620433       0.256523362      -74.2498047      0.256523362      -74.2498047      0.962569955      14.8620433       
687.88           0.963313389      14.7069316       0.253905281      -74.4076283      0.253905281      -74.4076283      0.963313389      14.7069316       
694.36           0.964037771      14.5542703       0.251326749      -74.5629193      0.251326749      -74.5629193      0.964037771      14.5542703       
700.84           0.964743725      14.4039987       0.248786846      -74.7157397      0.248786846      -74.7157397      0.964743725      14.4039987       
707.32           0.965431852      14.2560583       0.246284678      -74.8661492      0.246284678      -74.8661492      0.965431852      14.2560583       
713.8            0.966102728      14.110392        0.243819376      -75.0142059      0.243819376      -75.0142059      0.966102728      14.110392        
720.28           0.966756907      13.966945        0.241390099      -75.159966       0.241390099      -75.159966       0.966756907      13.966945        
726.76           0.967394921      13.8256637       0.238996027      -75.3034838      0.238996027      -75.3034838      0.967394921      13.8256637       
733.24           0.96801728       13.6864966       0.236636364      -75.4448121      0.236636364      -75.4448121      0.96801728       13.6864966       
739.72           0.968624478      13.5493935       0.234310338      -75.5840019      0.234310338      -75.5840019      0.968624478      13.5493935       
746.2            0.969216985      13.4143058       0.232017198      -75.7211027      0.232017198      -75.7211027      0.969216985      13.4143058       
752.68           0.969795257      13.2811865       0.229756214      -75.8561626      0.229756214      -75.8561626      0.969795257      13.2811865       
759.16           0.970359731      13.1499897       0.227526677      -75.9892279      0.227526677      -75.9892279      0.970359731      13.1499897       
765.64           0.970910829      13.0206713       0.225327897      -76.120344       0.225327897      -76.120344       0.970910829      13.0206713       
772.12           0.971448954      12.8931881       0.223159203      -76.2495544      0.223159203      -76.2495544      0.971448954      12.8931881       
778.6            0.971974497      12.7674985       0.221019944      -76.3769018      0.221019944      -76.3769018      0.971974497      12.7674985       
785.08           0.972487835      12.643562        0.218909485      -76.5024272      0.218909485      -76.5024272      0.972487835      12.643562        
791.56           0.972989328      12.5213392       0.216827209      -76.6261707      0.216827209      -76.6261707      0.972989328      12.5213392       
798.04           0.973479326      12.4007919       0.214772517      -76.748171       0.214772517      -76.748171       0.973479326      12.4007919       
804.52           0.973958164      12.2818831       0.212744825      -76.868466       0.212744825      -76.868466       0.973958164      12.2818831       
811              0.974426168      12.1645767       0.210743564      -76.987092       0.210743564      -76.987092       0.974426168      12.1645767       
817.48           0.974883648      12.0488377       0.208768183      -77.1040847      0.208768183      -77.1040847      0.974883648      12.0488377       
823.96           0.975330908      11.9346322       0.206818142      -77.2194786      0.206818142      -77.2194786      0.975330908      11.9346322       
