! Coilcraft 0805HT-R22 Chip Inductor				
! 8 July 2002			
# MHZ S MA R 50
!Freq             MagS11           AngS11           MagS21           AngS21           MagS12           AngS12           MagS22           AngS22
1                0.0201296771     40.6058287       0.984804598      -0.762261639     0.984804598      -0.762261639     0.0201296771     40.6058287       
4.74             0.0652526949     70.5245784       0.980177074      -3.59844251      0.980177074      -3.59844251      0.0652526949     70.5245784       
8.48             0.113299889      73.6859422       0.974260997      -6.40817816      0.974260997      -6.40817816      0.113299889      73.6859422       
12.22            0.160895554      73.4224836       0.966476292      -9.18117243      0.966476292      -9.18117243      0.160895554      73.4224836       
15.96            0.207453174      72.0968096       0.956812742      -11.9066667      0.956812742      -11.9066667      0.207453174      72.0968096       
19.7             0.252639784      70.3299306       0.945382484      -14.574663       0.945382484      -14.574663       0.252639784      70.3299306       
23.44            0.29621165       68.3610159       0.932352428      -17.1763443      0.932352428      -17.1763443      0.29621165       68.3610159       
27.18            0.337985399      66.3041486       0.917918291      -19.7042777      0.917918291      -19.7042777      0.337985399      66.3041486       
30.92            0.377829327      64.2216537       0.902289308      -22.1524966      0.902289308      -22.1524966      0.377829327      64.2216537       
34.66            0.415658235      62.1507134       0.885677393      -24.5164975      0.885677393      -24.5164975      0.415658235      62.1507134       
38.4             0.451428412      60.1147365       0.868289051      -26.7931735      0.868289051      -26.7931735      0.451428412      60.1147365       
42.14            0.485132201      58.1288494       0.850319454      -28.9807017      0.850319454      -28.9807017      0.485132201      58.1288494       
45.88            0.516792247      56.2028278       0.831948373      -31.0784036      0.831948373      -31.0784036      0.516792247      56.2028278       
49.62            0.54645575       54.3428023       0.813337685      -33.0865884      0.813337685      -33.0865884      0.54645575       54.3428023       
53.36            0.574188992      52.5523278       0.794630191      -35.0063949      0.794630191      -35.0063949      0.574188992      52.5523278       
57.1             0.600072333      50.833096        0.775949458      -36.8396359      0.775949458      -36.8396359      0.600072333      50.833096        
60.84            0.62419583       49.1854357       0.757400427      -38.5886557      0.757400427      -38.5886557      0.62419583       49.1854357       
64.58            0.646655505      47.6086768       0.739070552      -40.2561996      0.739070552      -40.2561996      0.646655505      47.6086768       
68.32            0.667550283      46.1014231       0.721031277      -41.8453014      0.721031277      -41.8453014      0.667550283      46.1014231       
72.06            0.686979545      44.6617597       0.703339674      -43.3591864      0.703339674      -43.3591864      0.686979545      44.6617597       
75.8             0.70504124       43.2874119       0.686040155      -44.8011907      0.686040155      -44.8011907      0.70504124       43.2874119       
79.54            0.721830482      41.9758684       0.66916613       -46.1746952      0.66916613       -46.1746952      0.721830482      41.9758684       
83.28            0.73743855       40.7244755       0.652741596      -47.483073       0.652741596      -47.483073       0.73743855       40.7244755       
87.02            0.751952216      39.53051         0.636782584      -48.7296483      0.636782584      -48.7296483      0.751952216      39.53051         
90.76            0.765453343      38.3912339       0.621298473      -49.9176648      0.621298473      -49.9176648      0.765453343      38.3912339       
94.5             0.77801869       37.3039357       0.606293151      -51.0502632      0.606293151      -51.0502632      0.77801869       37.3039357       
98.24            0.789719869      36.2659608       0.591766028      -52.1304644      0.591766028      -52.1304644      0.789719869      36.2659608       
101.98           0.800623417      35.2747333       0.577712912      -53.1611596      0.577712912      -53.1611596      0.800623417      35.2747333       
105.72           0.810790959      34.3277709       0.564126754      -54.1451033      0.564126754      -54.1451033      0.810790959      34.3277709       
109.46           0.820279418      33.4226949       0.550998284      -55.084911       0.550998284      -55.084911       0.820279418      33.4226949       
113.2            0.829141264      32.5572359       0.53831654       -55.9830591      0.53831654       -55.9830591      0.829141264      32.5572359       
116.94           0.837424788      31.7292364       0.526069309      -56.8418865      0.526069309      -56.8418865      0.837424788      31.7292364       
120.68           0.845174377      30.9366514       0.514243493      -57.6635984      0.514243493      -57.6635984      0.845174377      30.9366514       
124.42           0.852430795      30.1775468       0.502825407      -58.4502708      0.502825407      -58.4502708      0.852430795      30.1775468       
128.16           0.859231453      29.4500966       0.491801023      -59.2038554      0.491801023      -59.2038554      0.859231453      29.4500966       
131.9            0.865610672      28.7525798       0.481156168      -59.9261857      0.481156168      -59.9261857      0.865610672      28.7525798       
135.64           0.871599934      28.0833758       0.470876674      -60.6189828      0.470876674      -60.6189828      0.871599934      28.0833758       
139.38           0.877228115      27.4409599       0.46094851       -61.2838615      0.46094851       -61.2838615      0.877228115      27.4409599       
143.12           0.882521703      26.823899        0.451357873      -61.9223364      0.451357873      -61.9223364      0.882521703      26.823899        
146.86           0.887505002      26.2308461       0.44209126       -62.5358277      0.44209126       -62.5358277      0.887505002      26.2308461       
150.6            0.89220032       25.6605358       0.433135528      -63.1256672      0.433135528      -63.1256672      0.89220032       25.6605358       
154.34           0.896628143      25.1117796       0.424477932      -63.6931037      0.424477932      -63.6931037      0.896628143      25.1117796       
158.08           0.900807291      24.5834613       0.416106149      -64.2393085      0.416106149      -64.2393085      0.900807291      24.5834613       
161.82           0.904755066      24.0745323       0.4080083        -64.76538        0.4080083        -64.76538        0.904755066      24.0745323       
165.56           0.908487381      23.5840076       0.400172957      -65.2723491      0.400172957      -65.2723491      0.908487381      23.5840076       
169.3            0.912018884      23.1109616       0.392589147      -65.761183       0.392589147      -65.761183       0.912018884      23.1109616       
173.04           0.91536307       22.6545246       0.385246349      -66.2327903      0.385246349      -66.2327903      0.91536307       22.6545246       
176.78           0.918532373      22.2138786       0.378134492      -66.6880239      0.378134492      -66.6880239      0.918532373      22.2138786       
180.52           0.921538267      21.7882546       0.371243939      -67.1276857      0.371243939      -67.1276857      0.921538267      21.7882546       
184.26           0.924391344      21.3769288       0.364565483      -67.5525293      0.364565483      -67.5525293      0.924391344      21.3769288       
188              0.927101388      20.9792202       0.358090332      -67.9632636      0.358090332      -67.9632636      0.927101388      20.9792202       
191.74           0.929677449      20.5944872       0.351810091      -68.3605558      0.351810091      -68.3605558      0.929677449      20.5944872       
195.48           0.932127898      20.2221256       0.345716755      -68.7450341      0.345716755      -68.7450341      0.932127898      20.2221256       
199.22           0.934460491      19.8615656       0.339802688      -69.1172903      0.339802688      -69.1172903      0.934460491      19.8615656       
202.96           0.936682414      19.5122701       0.334060608      -69.4778821      0.334060608      -69.4778821      0.936682414      19.5122701       
206.7            0.938800335      19.1737322       0.328483576      -69.8273356      0.328483576      -69.8273356      0.938800335      19.1737322       
210.44           0.940820445      18.8454732       0.323064977      -70.1661473      0.323064977      -70.1661473      0.940820445      18.8454732       
214.18           0.942748494      18.5270413       0.317798504      -70.4947857      0.317798504      -70.4947857      0.942748494      18.5270413       
217.92           0.94458983       18.2180091       0.312678147      -70.8136936      0.312678147      -70.8136936      0.94458983       18.2180091       
221.66           0.946349431      17.9179728       0.307698179      -71.1232896      0.307698179      -71.1232896      0.946349431      17.9179728       
225.4            0.948031932      17.6265501       0.302853138      -71.4239695      0.302853138      -71.4239695      0.948031932      17.6265501       
229.14           0.949641653      17.3433794       0.298137817      -71.7161077      0.298137817      -71.7161077      0.949641653      17.3433794       
232.88           0.951182624      17.068118        0.293547253      -72.000059       0.293547253      -72.000059       0.951182624      17.068118        
236.62           0.952658608      16.8004412       0.28907671       -72.2761592      0.28907671       -72.2761592      0.952658608      16.8004412       
240.36           0.95407312       16.5400412       0.284721672      -72.5447269      0.284721672      -72.5447269      0.95407312       16.5400412       
244.1            0.955429444      16.286626        0.280477829      -72.8060639      0.280477829      -72.8060639      0.955429444      16.286626        
247.84           0.956730657      16.0399184       0.276341069      -73.0604569      0.276341069      -73.0604569      0.956730657      16.0399184       
251.58           0.957979636      15.7996551       0.272307467      -73.3081778      0.272307467      -73.3081778      0.957979636      15.7996551       
255.32           0.959179077      15.5655862       0.268373273      -73.5494853      0.268373273      -73.5494853      0.959179077      15.5655862       
259.06           0.960331511      15.3374739       0.264534907      -73.7846248      0.264534907      -73.7846248      0.960331511      15.3374739       
262.8            0.96143931       15.115092        0.260788949      -74.0138298      0.260788949      -74.0138298      0.96143931       15.115092        
266.54           0.962504701      14.8982255       0.257132129      -74.2373227      0.257132129      -74.2373227      0.962504701      14.8982255       
270.28           0.963529777      14.6866695       0.253561323      -74.4553149      0.253561323      -74.4553149      0.963529777      14.6866695       
274.02           0.964516507      14.4802289       0.250073542      -74.6680078      0.250073542      -74.6680078      0.964516507      14.4802289       
277.76           0.965466741      14.2787177       0.246665927      -74.8755934      0.246665927      -74.8755934      0.965466741      14.2787177       
281.5            0.966382222      14.0819587       0.243335743      -75.0782545      0.243335743      -75.0782545      0.966382222      14.0819587       
285.24           0.967264591      13.8897827       0.240080372      -75.2761657      0.240080372      -75.2761657      0.967264591      13.8897827       
288.98           0.968115396      13.7020284       0.236897306      -75.4694933      0.236897306      -75.4694933      0.968115396      13.7020284       
292.72           0.968936097      13.5185418       0.233784146      -75.6583965      0.233784146      -75.6583965      0.968936097      13.5185418       
296.46           0.96972807       13.3391755       0.23073859       -75.8430268      0.23073859       -75.8430268      0.96972807       13.3391755       
300.2            0.970492616      13.1637891       0.227758433      -76.0235294      0.227758433      -76.0235294      0.970492616      13.1637891       
303.94           0.971230963      12.9922479       0.224841562      -76.2000428      0.224841562      -76.2000428      0.971230963      12.9922479       
307.68           0.971944273      12.8244235       0.221985949      -76.3726996      0.221985949      -76.3726996      0.971944273      12.8244235       
311.42           0.972633645      12.6601927       0.219189649      -76.5416266      0.219189649      -76.5416266      0.972633645      12.6601927       
315.16           0.973300117      12.4994377       0.216450796      -76.7069452      0.216450796      -76.7069452      0.973300117      12.4994377       
318.9            0.973944676      12.3420458       0.213767599      -76.8687717      0.213767599      -76.8687717      0.973944676      12.3420458       
322.64           0.974568253      12.1879088       0.211138336      -77.0272173      0.211138336      -77.0272173      0.974568253      12.1879088       
326.38           0.975171732      12.0369231       0.208561355      -77.1823888      0.208561355      -77.1823888      0.975171732      12.0369231       
330.12           0.975755953      11.8889894       0.206035067      -77.3343884      0.206035067      -77.3343884      0.975755953      11.8889894       
333.86           0.976321711      11.7440124       0.203557947      -77.4833142      0.203557947      -77.4833142      0.976321711      11.7440124       
337.6            0.976869762      11.6019008       0.201128526      -77.6292603      0.201128526      -77.6292603      0.976869762      11.6019008       
341.34           0.977400823      11.4625666       0.198745393      -77.7723171      0.198745393      -77.7723171      0.977400823      11.4625666       
345.08           0.977915575      11.3259257       0.196407189      -77.9125711      0.196407189      -77.9125711      0.977915575      11.3259257       
348.82           0.978414668      11.1918972       0.194112608      -78.0501058      0.194112608      -78.0501058      0.978414668      11.1918972       
352.56           0.978898718      11.0604031       0.191860391      -78.1850011      0.191860391      -78.1850011      0.978898718      11.0604031       
356.3            0.979368311      10.9313687       0.189649328      -78.317334       0.189649328      -78.317334       0.979368311      10.9313687       
360.04           0.979824007      10.804722        0.18747825       -78.4471783      0.18747825       -78.4471783      0.979824007      10.804722        
363.78           0.980266338      10.680394        0.185346033      -78.5746052      0.185346033      -78.5746052      0.980266338      10.680394        
367.52           0.980695811      10.5583179       0.183251593      -78.6996832      0.183251593      -78.6996832      0.980695811      10.5583179       
371.26           0.981112908      10.4384298       0.181193887      -78.822478       0.181193887      -78.822478       0.981112908      10.4384298       
375              0.981518092      10.3206678       0.179171905      -78.943053       0.179171905      -78.943053       0.981518092      10.3206678       
378.74           0.981911802      10.2049725       0.177184676      -79.0614694      0.177184676      -79.0614694      0.981911802      10.2049725       
382.48           0.982294457      10.0912866       0.175231262      -79.1777859      0.175231262      -79.1777859      0.982294457      10.0912866       
386.22           0.98266646       9.97955492       0.173310758      -79.2920592      0.173310758      -79.2920592      0.98266646       9.97955492       
389.96           0.983028193      9.86972418       0.171422291      -79.404344       0.171422291      -79.404344       0.983028193      9.86972418       
393.7            0.983380021      9.76174303       0.169565016      -79.5146928      0.169565016      -79.5146928      0.983380021      9.76174303       
397.44           0.983722296      9.65556193       0.167738118      -79.6231565      0.167738118      -79.6231565      0.983722296      9.65556193       
401.18           0.984055351      9.55113306       0.16594081       -79.7297841      0.16594081       -79.7297841      0.984055351      9.55113306       
404.92           0.984379507      9.44841026       0.16417233       -79.8346229      0.16417233       -79.8346229      0.984379507      9.44841026       
408.66           0.98469507       9.34734896       0.162431944      -79.9377185      0.162431944      -79.9377185      0.98469507       9.34734896       
412.4            0.985002333      9.24790613       0.160718939      -80.0391151      0.160718939      -80.0391151      0.985002333      9.24790613       
416.14           0.985301578      9.15004015       0.159032628      -80.1388551      0.159032628      -80.1388551      0.985301578      9.15004015       
419.88           0.985593074      9.05371084       0.157372345      -80.2369797      0.157372345      -80.2369797      0.985593074      9.05371084       
423.62           0.985877079      8.95887934       0.155737446      -80.3335287      0.155737446      -80.3335287      0.985877079      8.95887934       
427.36           0.98615384       8.86550808       0.154127308      -80.4285404      0.154127308      -80.4285404      0.98615384       8.86550808       
431.1            0.986423595      8.77356072       0.152541327      -80.522052       0.152541327      -80.522052       0.986423595      8.77356072       
434.84           0.986686571      8.6830021        0.150978919      -80.6140993      0.150978919      -80.6140993      0.986686571      8.6830021        
438.58           0.986942987      8.5937982        0.149439518      -80.7047172      0.149439518      -80.7047172      0.986942987      8.5937982        
442.32           0.987193052      8.50591609       0.147922576      -80.7939391      0.147922576      -80.7939391      0.987193052      8.50591609       
446.06           0.987436968      8.4193239        0.146427561      -80.8817976      0.146427561      -80.8817976      0.987436968      8.4193239        
449.8            0.987674929      8.33399073       0.144953958      -80.9683242      0.144953958      -80.9683242      0.987674929      8.33399073       
453.54           0.98790712       8.24988669       0.143501269      -81.0535493      0.143501269      -81.0535493      0.98790712       8.24988669       
457.28           0.988133721      8.1669828        0.14206901       -81.1375023      0.14206901       -81.1375023      0.988133721      8.1669828        
461.02           0.988354902      8.08525097       0.14065671       -81.2202119      0.14065671       -81.2202119      0.988354902      8.08525097       
464.76           0.98857083       8.00466399       0.139263915      -81.3017058      0.139263915      -81.3017058      0.98857083       8.00466399       
468.5            0.988781664      7.92519547       0.137890183      -81.3820106      0.137890183      -81.3820106      0.988781664      7.92519547       
472.24           0.988987556      7.8468198        0.136535085      -81.4611525      0.136535085      -81.4611525      0.988987556      7.8468198        
475.98           0.989188653      7.76951217       0.135198205      -81.5391565      0.135198205      -81.5391565      0.989188653      7.76951217       
