! Coilcraft 0805HQ-12N Chip Inductor				
! 19 June 2002			
# MHZ S MA R 50
!Freq             MagS11           AngS11           MagS21           AngS21           MagS12           AngS12           MagS22           AngS22
1                0.00103734717    47.5542795       0.999300196      -0.0438892706    0.999300196      -0.0438892706    0.00103734717    47.5542795       
15.46            0.0119193709     82.4273471       0.998499136      -0.678006908     0.998499136      -0.678006908     0.0119193709     82.4273471       
29.92            0.022960167      84.1574892       0.997924213      -1.31152387      0.997924213      -1.31152387      0.022960167      84.1574892       
44.38            0.0339964907     84.4970621       0.997314119      -1.94447318      0.997314119      -1.94447318      0.0339964907     84.4970621       
58.84            0.045020305      84.4179882       0.996628586      -2.57679464      0.996628586      -2.57679464      0.045020305      84.4179882       
73.3             0.0560274206     84.1516018       0.995851927      -3.20840419      0.995851927      -3.20840419      0.0560274206     84.1516018       
87.76            0.0670143464     83.7836577       0.994976334      -3.83920737      0.994976334      -3.83920737      0.0670143464     83.7836577       
102.22           0.0779777935     83.3539653       0.993997474      -4.46910438      0.993997474      -4.46910438      0.0779777935     83.3539653       
116.68           0.0889145552     82.8837832       0.992912842      -5.09799257      0.992912842      -5.09799257      0.0889145552     82.8837832       
131.14           0.099821474      82.385617        0.991721027      -5.72576783      0.991721027      -5.72576783      0.099821474      82.385617        
145.6            0.110695434      81.8673686       0.990421329      -6.3523254       0.990421329      -6.3523254       0.110695434      81.8673686       
160.06           0.121533358      81.334315        0.989013545      -6.97756058      0.989013545      -6.97756058      0.121533358      81.334315        
174.52           0.132332218      80.7901401       0.987497844      -7.60136905      0.987497844      -7.60136905      0.132332218      80.7901401       
188.98           0.143089031      80.2375119       0.98587468       -8.22364734      0.98587468       -8.22364734      0.143089031      80.2375119       
203.44           0.153800869      79.6784227       0.984144738      -8.84429301      0.984144738      -8.84429301      0.153800869      79.6784227       
217.9            0.164464861      79.1144008       0.982308894      -9.4632049       0.982308894      -9.4632049       0.164464861      79.1144008       
232.36           0.1750782        78.5466454       0.980368189      -10.0802834      0.980368189      -10.0802834      0.1750782        78.5466454       
246.82           0.185638143      77.9761171       0.978323805      -10.6954304      0.978323805      -10.6954304      0.185638143      77.9761171       
261.28           0.196142018      77.4035992       0.976177048      -11.3085499      0.976177048      -11.3085499      0.196142018      77.4035992       
275.74           0.206587226      76.8297408       0.973929336      -11.9195474      0.973929336      -11.9195474      0.206587226      76.8297408       
290.2            0.216971244      76.2550877       0.971582185      -12.5283309      0.971582185      -12.5283309      0.216971244      76.2550877       
304.66           0.227291627      75.6801044       0.969137202      -13.1348103      0.969137202      -13.1348103      0.227291627      75.6801044       
319.12           0.237546012      75.1051914       0.966596073      -13.7388979      0.966596073      -13.7388979      0.237546012      75.1051914       
333.58           0.24773212       74.5306969       0.963960559      -14.3405081      0.963960559      -14.3405081      0.24773212       74.5306969       
348.04           0.257847757      73.9569272       0.961232488      -14.939558       0.961232488      -14.939558       0.257847757      73.9569272       
362.5            0.267890815      73.3841533       0.958413745      -15.535967       0.958413745      -15.535967       0.267890815      73.3841533       
376.96           0.277859277      72.8126171       0.955506271      -16.1296572      0.955506271      -16.1296572      0.277859277      72.8126171       
391.42           0.287751212      72.2425359       0.952512055      -16.7205531      0.952512055      -16.7205531      0.287751212      72.2425359       
405.88           0.297564782      71.6741058       0.949433128      -17.308582       0.949433128      -17.308582       0.297564782      71.6741058       
420.34           0.307298239      71.1075049       0.946271561      -17.8936737      0.946271561      -17.8936737      0.307298239      71.1075049       
434.8            0.316949926      70.5428954       0.943029456      -18.4757609      0.943029456      -18.4757609      0.316949926      70.5428954       
449.26           0.326518278      69.9804259       0.939708943      -19.0547788      0.939708943      -19.0547788      0.326518278      69.9804259       
463.72           0.336001822      69.4202323       0.936312178      -19.6306655      0.936312178      -19.6306655      0.336001822      69.4202323       
478.18           0.345399174      68.8624401       0.932841335      -20.2033618      0.932841335      -20.2033618      0.345399174      68.8624401       
492.64           0.354709044      68.3071647       0.929298604      -20.7728112      0.929298604      -20.7728112      0.354709044      68.3071647       
507.1            0.363930228      67.7545126       0.925686186      -21.3389599      0.925686186      -21.3389599      0.363930228      67.7545126       
521.56           0.373061615      67.2045825       0.922006291      -21.9017571      0.922006291      -21.9017571      0.373061615      67.2045825       
536.02           0.382102179      66.6574653       0.918261132      -22.4611545      0.918261132      -22.4611545      0.382102179      66.6574653       
550.48           0.391050984      66.1132454       0.914452923      -23.0171064      0.914452923      -23.0171064      0.391050984      66.1132454       
564.94           0.399907177      65.5720008       0.910583876      -23.5695701      0.910583876      -23.5695701      0.399907177      65.5720008       
579.4            0.408669991      65.0338036       0.906656196      -24.1185053      0.906656196      -24.1185053      0.408669991      65.0338036       
593.86           0.417338742      64.4987205       0.902672079      -24.6638745      0.902672079      -24.6638745      0.417338742      64.4987205       
608.32           0.425912825      63.966813        0.898633712      -25.2056427      0.898633712      -25.2056427      0.425912825      63.966813        
622.78           0.434391716      63.4381379       0.894543265      -25.7437776      0.894543265      -25.7437776      0.434391716      63.4381379       
637.24           0.442774968      62.9127472       0.89040289       -26.2782491      0.89040289       -26.2782491      0.442774968      62.9127472       
651.7            0.451062209      62.390689        0.886214723      -26.8090301      0.886214723      -26.8090301      0.451062209      62.390689        
666.16           0.459253141      61.8720069       0.881980877      -27.3360953      0.881980877      -27.3360953      0.459253141      61.8720069       
680.62           0.467347537      61.3567409       0.877703439      -27.8594225      0.877703439      -27.8594225      0.467347537      61.3567409       
695.08           0.475345238      60.8449274       0.873384475      -28.3789911      0.873384475      -28.3789911      0.475345238      60.8449274       
709.54           0.483246155      60.3365991       0.869026018      -28.8947834      0.869026018      -28.8947834      0.483246155      60.3365991       
724              0.49105026       59.8317856       0.864630076      -29.4067836      0.864630076      -29.4067836      0.49105026       59.8317856       
738.46           0.49875759       59.330513        0.860198624      -29.9149781      0.860198624      -29.9149781      0.49875759       59.330513        
752.92           0.506368241      58.8328046       0.855733607      -30.4193556      0.855733607      -30.4193556      0.506368241      58.8328046       
767.38           0.513882366      58.3386809       0.851236934      -30.9199066      0.851236934      -30.9199066      0.513882366      58.3386809       
781.84           0.521300176      57.8481595       0.84671048       -31.4166238      0.84671048       -31.4166238      0.521300176      57.8481595       
796.3            0.528621934      57.3612553       0.842156087      -31.9095017      0.842156087      -31.9095017      0.528621934      57.3612553       
810.76           0.535847952      56.8779809       0.837575557      -32.3985368      0.837575557      -32.3985368      0.535847952      56.8779809       
825.22           0.542978593      56.3983461       0.832970656      -32.8837275      0.832970656      -32.8837275      0.542978593      56.3983461       
839.68           0.550014266      55.9223589       0.828343113      -33.3650737      0.828343113      -33.3650737      0.550014266      55.9223589       
854.14           0.556955424      55.4500248       0.823694616      -33.8425771      0.823694616      -33.8425771      0.556955424      55.4500248       
868.6            0.563802561      54.9813471       0.819026817      -34.3162412      0.819026817      -34.3162412      0.563802561      54.9813471       
883.06           0.570556211      54.5163274       0.814341326      -34.7860708      0.814341326      -34.7860708      0.570556211      54.5163274       
897.52           0.577216946      54.0549652       0.809639713      -35.2520726      0.809639713      -35.2520726      0.577216946      54.0549652       
911.98           0.583785374      53.5972582       0.804923511      -35.7142543      0.804923511      -35.7142543      0.583785374      53.5972582       
926.44           0.590262134      53.1432023       0.800194211      -36.1726253      0.800194211      -36.1726253      0.590262134      53.1432023       
940.9            0.596647899      52.6927919       0.795453262      -36.6271963      0.795453262      -36.6271963      0.596647899      52.6927919       
955.36           0.602943369      52.2460198       0.790702076      -37.0779792      0.790702076      -37.0779792      0.602943369      52.2460198       
969.82           0.609149274      51.802877        0.785942023      -37.5249872      0.785942023      -37.5249872      0.609149274      51.802877        
984.28           0.615266367      51.3633535       0.781174434      -37.9682347      0.781174434      -37.9682347      0.615266367      51.3633535       
998.74           0.621295426      50.9274376       0.7764006        -38.407737       0.7764006        -38.407737       0.621295426      50.9274376       
1013.2           0.62723725       50.4951166       0.771621774      -38.8435106      0.771621774      -38.8435106      0.62723725       50.4951166       
1027.66          0.63309266       50.0663765       0.766839166      -39.2755732      0.766839166      -39.2755732      0.63309266       50.0663765       
1042.12          0.638862493      49.6412019       0.762053953      -39.7039431      0.762053953      -39.7039431      0.638862493      49.6412019       
1056.58          0.644547604      49.2195767       0.757267269      -40.1286396      0.757267269      -40.1286396      0.644547604      49.2195767       
1071.04          0.650148865      48.8014835       0.752480212      -40.5496831      0.752480212      -40.5496831      0.650148865      48.8014835       
1085.5           0.655667159      48.3869041       0.747693843      -40.9670945      0.747693843      -40.9670945      0.655667159      48.3869041       
1099.96          0.661103383      47.9758192       0.742909187      -41.3808956      0.742909187      -41.3808956      0.661103383      47.9758192       
1114.42          0.666458445      47.5682088       0.73812723       -41.7911089      0.73812723       -41.7911089      0.666458445      47.5682088       
1128.88          0.671733263      47.1640521       0.733348924      -42.1977574      0.733348924      -42.1977574      0.671733263      47.1640521       
1143.34          0.676928762      46.7633275       0.728575188      -42.6008651      0.728575188      -42.6008651      0.676928762      46.7633275       
1157.8           0.682045876      46.3660126       0.723806903      -43.0004561      0.723806903      -43.0004561      0.682045876      46.3660126       
1172.26          0.687085543      45.9720845       0.71904492       -43.3965554      0.71904492       -43.3965554      0.687085543      45.9720845       
1186.72          0.692048708      45.5815196       0.714290053      -43.7891884      0.714290053      -43.7891884      0.692048708      45.5815196       
1201.18          0.696936318      45.1942939       0.709543087      -44.1783809      0.709543087      -44.1783809      0.696936318      45.1942939       
1215.64          0.701749325      44.8103826       0.704804774      -44.5641591      0.704804774      -44.5641591      0.701749325      44.8103826       
1230.1           0.706488681      44.4297606       0.700075834      -44.9465497      0.700075834      -44.9465497      0.706488681      44.4297606       
1244.56          0.71115534       44.0524023       0.695356959      -45.3255796      0.695356959      -45.3255796      0.71115534       44.0524023       
1259.02          0.715750256      43.6782818       0.690648811      -45.7012763      0.690648811      -45.7012763      0.715750256      43.6782818       
1273.48          0.720274381      43.3073727       0.685952021      -46.0736673      0.685952021      -46.0736673      0.720274381      43.3073727       
1287.94          0.724728668      42.9396482       0.681267194      -46.4427804      0.681267194      -46.4427804      0.724728668      42.9396482       
1302.4           0.729114066      42.5750815       0.676594908      -46.8086437      0.676594908      -46.8086437      0.729114066      42.5750815       
1316.86          0.733431522      42.2136452       0.671935712      -47.1712855      0.671935712      -47.1712855      0.733431522      42.2136452       
1331.32          0.737681978      41.8553118       0.667290132      -47.5307343      0.667290132      -47.5307343      0.737681978      41.8553118       
1345.78          0.741866374      41.5000537       0.662658667      -47.8870186      0.662658667      -47.8870186      0.741866374      41.5000537       
1360.24          0.745985643      41.1478429       0.658041791      -48.2401672      0.658041791      -48.2401672      0.745985643      41.1478429       
1374.7           0.750040715      40.7986513       0.653439956      -48.5902088      0.653439956      -48.5902088      0.750040715      40.7986513       
1389.16          0.754032513      40.4524509       0.64885359       -48.9371724      0.64885359       -48.9371724      0.754032513      40.4524509       
1403.62          0.757961954      40.1092132       0.644283099      -49.2810869      0.644283099      -49.2810869      0.757961954      40.1092132       
1418.08          0.761829949      39.7689099       0.639728865      -49.6219812      0.639728865      -49.6219812      0.761829949      39.7689099       
1432.54          0.7656374        39.4315125       0.635191252      -49.9598843      0.635191252      -49.9598843      0.7656374        39.4315125       
1447             0.769385205      39.0969927       0.630670603      -50.2948252      0.630670603      -50.2948252      0.769385205      39.0969927       
1461.46          0.77307425       38.7653217       0.626167239      -50.6268328      0.626167239      -50.6268328      0.77307425       38.7653217       
1475.92          0.776705418      38.4364713       0.621681465      -50.955936       0.621681465      -50.955936       0.776705418      38.4364713       
1490.38          0.780279578      38.1104127       0.617213565      -51.2821636      0.617213565      -51.2821636      0.780279578      38.1104127       
1504.84          0.783797595      37.7871177       0.612763806      -51.6055445      0.612763806      -51.6055445      0.783797595      37.7871177       
1519.3           0.787260324      37.4665577       0.608332438      -51.9261071      0.608332438      -51.9261071      0.787260324      37.4665577       
1533.76          0.790668609      37.1487044       0.603919694      -52.2438802      0.603919694      -52.2438802      0.790668609      37.1487044       
1548.22          0.794023286      36.8335294       0.599525791      -52.5588921      0.599525791      -52.5588921      0.794023286      36.8335294       
1562.68          0.797325184      36.5210047       0.595150931      -52.8711711      0.595150931      -52.8711711      0.797325184      36.5210047       
1577.14          0.800575118      36.2111021       0.5907953        -53.1807455      0.5907953        -53.1807455      0.800575118      36.2111021       
1591.6           0.803773897      35.9037936       0.58645907       -53.4876433      0.58645907       -53.4876433      0.803773897      35.9037936       
1606.06          0.806922319      35.5990514       0.582142398      -53.7918922      0.582142398      -53.7918922      0.806922319      35.5990514       
1620.52          0.81002117       35.2968477       0.577845431      -54.09352        0.577845431      -54.09352        0.81002117       35.2968477       
1634.98          0.813071229      34.997155        0.573568298      -54.3925542      0.573568298      -54.3925542      0.813071229      34.997155        
1649.44          0.816073264      34.6999458       0.569311121      -54.6890221      0.569311121      -54.6890221      0.816073264      34.6999458       
1663.9           0.819028032      34.405193        0.565074005      -54.9829508      0.565074005      -54.9829508      0.819028032      34.405193        
1678.36          0.821936281      34.1128693       0.560857046      -55.2743672      0.560857046      -55.2743672      0.821936281      34.1128693       
1692.82          0.824798749      33.8229478       0.55666033       -55.5632979      0.55666033       -55.5632979      0.824798749      33.8229478       
1707.28          0.827616161      33.535402        0.552483931      -55.8497696      0.552483931      -55.8497696      0.827616161      33.535402        
1721.74          0.830389237      33.2502051       0.548327912      -56.1338083      0.548327912      -56.1338083      0.830389237      33.2502051       
1736.2           0.833118681      32.967331        0.544192328      -56.4154402      0.544192328      -56.4154402      0.833118681      32.967331        
1750.66          0.835805191      32.6867534       0.540077224      -56.694691       0.540077224      -56.694691       0.835805191      32.6867534       
1765.12          0.838449453      32.4084464       0.535982635      -56.9715861      0.535982635      -56.9715861      0.838449453      32.4084464       
1779.58          0.841052144      32.1323843       0.531908588      -57.2461511      0.531908588      -57.2461511      0.841052144      32.1323843       
1794.04          0.843613929      31.8585417       0.527855103      -57.5184107      0.527855103      -57.5184107      0.843613929      31.8585417       
1808.5           0.846135465      31.5868932       0.52382219       -57.78839        0.52382219       -57.78839        0.846135465      31.5868932       
1822.96          0.848617398      31.3174138       0.519809854      -58.0561133      0.519809854      -58.0561133      0.848617398      31.3174138       
1837.42          0.851060365      31.0500786       0.515818089      -58.3216049      0.515818089      -58.3216049      0.851060365      31.0500786       
