! Coilcraft 0805HQ-48N Chip Inductor				
! 19 June 2002			
# MHZ S MA R 50
!Freq             MagS11           AngS11           MagS21           AngS21           MagS12           AngS12           MagS22           AngS22
1                0.00346055449    60.289093        0.998289391      -0.172504703     0.998289391      -0.172504703     0.00346055449    60.289093        
7.48             0.022687046      81.0720963       0.996731171      -1.2884432       0.996731171      -1.2884432       0.022687046      81.0720963       
13.96            0.0420775984     82.4597705       0.995352946      -2.40188379      0.995352946      -2.40188379      0.0420775984     82.4597705       
20.44            0.0614215089     82.4217656       0.993766615      -3.51253667      0.993766615      -3.51253667      0.0614215089     82.4217656       
26.92            0.0806899597     81.9344448       0.991901353      -4.61984059      0.991901353      -4.61984059      0.0806899597     81.9344448       
33.4             0.099861953      81.2438331       0.989731522      -5.7231662       0.989731522      -5.7231662       0.099861953      81.2438331       
39.88            0.118918243      80.4436985       0.987247041      -6.82186204      0.987247041      -6.82186204      0.118918243      80.4436985       
46.36            0.13784044       79.5784629       0.984445219      -7.91527374      0.984445219      -7.91527374      0.13784044       79.5784629       
52.84            0.156610862      78.6723027       0.981327622      -9.0027543       0.981327622      -9.0027543       0.156610862      78.6723027       
59.32            0.175212551      77.7397318       0.977898607      -10.0836708      0.977898607      -10.0836708      0.175212551      77.7397318       
65.8             0.193629325      76.7901328       0.974164533      -11.1574091      0.974164533      -11.1574091      0.193629325      76.7901328       
72.28            0.211845842      75.8299355       0.970133279      -12.2233775      0.970133279      -12.2233775      0.211845842      75.8299355       
78.76            0.22984765       74.8637583       0.965813923      -13.2810095      0.965813923      -13.2810095      0.22984765       74.8637583       
85.24            0.247621237      73.89505         0.961216508      -14.3297659      0.961216508      -14.3297659      0.247621237      73.89505         
91.72            0.265154067      72.9264692       0.956351859      -15.369137       0.956351859      -15.369137       0.265154067      72.9264692       
98.2             0.282434609      71.9601199       0.951231431      -16.3986434      0.951231431      -16.3986434      0.282434609      71.9601199       
104.68           0.29945235       70.9977038       0.945867178      -17.4178375      0.945867178      -17.4178375      0.29945235       70.9977038       
111.16           0.316197809      70.0406209       0.940271439      -18.426304       0.940271439      -18.426304       0.316197809      70.0406209       
117.64           0.332662531      69.090039        0.934456834      -19.4236604      0.934456834      -19.4236604      0.332662531      69.090039        
124.12           0.348839084      68.1469426       0.92843617       -20.4095569      0.92843617       -20.4095569      0.348839084      68.1469426       
130.6            0.364721037      67.2121675       0.922222355      -21.3836768      0.922222355      -21.3836768      0.364721037      67.2121675       
137.08           0.380302945      66.2864274       0.915828319      -22.3457357      0.915828319      -22.3457357      0.380302945      66.2864274       
143.56           0.395580314      65.3703327       0.909266947      -23.2954815      0.909266947      -23.2954815      0.395580314      65.3703327       
150.04           0.410549573      64.4644058       0.902551007      -24.2326934      0.902551007      -24.2326934      0.410549573      64.4644058       
156.52           0.425208033      63.5690932       0.895693101      -25.1571811      0.895693101      -25.1571811      0.425208033      63.5690932       
163              0.439553847      62.6847742       0.888705605      -26.068784       0.888705605      -26.068784       0.439553847      62.6847742       
169.48           0.453585966      61.8117693       0.881600631      -26.9673701      0.881600631      -26.9673701      0.453585966      61.8117693       
175.96           0.467304096      60.9503459       0.874389982      -27.8528348      0.874389982      -27.8528348      0.467304096      60.9503459       
182.44           0.480708646      60.1007243       0.86708512       -28.7250999      0.86708512       -28.7250999      0.480708646      60.1007243       
188.92           0.493800683      59.2630822       0.859697139      -29.5841117      0.859697139      -29.5841117      0.493800683      59.2630822       
195.4            0.506581881      58.4375585       0.852236738      -30.4298407      0.852236738      -30.4298407      0.506581881      58.4375585       
201.88           0.519054475      57.6242572       0.844714206      -31.2622792      0.844714206      -31.2622792      0.519054475      57.6242572       
208.36           0.531221214      56.8232503       0.837139405      -32.0814406      0.837139405      -32.0814406      0.531221214      56.8232503       
214.84           0.543085309      56.0345811       0.829521759      -32.8873578      0.829521759      -32.8873578      0.543085309      56.0345811       
221.32           0.554650392      55.2582664       0.821870251      -33.6800821      0.821870251      -33.6800821      0.554650392      55.2582664       
227.8            0.565920472      54.4942992       0.814193417      -34.4596813      0.814193417      -34.4596813      0.565920472      54.4942992       
234.28           0.576899889      53.7426508       0.806499347      -35.226239       0.806499347      -35.226239       0.576899889      53.7426508       
240.76           0.587593279      53.0032729       0.798795687      -35.979853       0.798795687      -35.979853       0.587593279      53.0032729       
247.24           0.598005531      52.2760993       0.791089643      -36.7206342      0.791089643      -36.7206342      0.598005531      52.2760993       
253.72           0.608141751      51.5610479       0.783387992      -37.4487052      0.783387992      -37.4487052      0.608141751      51.5610479       
260.2            0.618007231      50.8580223       0.775697085      -38.1641995      0.775697085      -38.1641995      0.618007231      50.8580223       
266.68           0.627607417      50.1669131       0.768022863      -38.86726        0.768022863      -38.86726        0.627607417      50.1669131       
273.16           0.636947876      49.4875994       0.760370866      -39.5580383      0.760370866      -39.5580383      0.636947876      49.4875994       
279.64           0.646034271      48.8199503       0.752746245      -40.2366935      0.752746245      -40.2366935      0.646034271      48.8199503       
286.12           0.654872335      48.1638259       0.745153777      -40.9033914      0.745153777      -40.9033914      0.654872335      48.1638259       
292.6            0.663467849      47.5190783       0.737597879      -41.5583035      0.737597879      -41.5583035      0.663467849      47.5190783       
299.08           0.67182662       46.8855528       0.730082623      -42.2016062      0.730082623      -42.2016062      0.67182662       46.8855528       
305.56           0.679954461      46.2630892       0.722611747      -42.8334802      0.722611747      -42.8334802      0.679954461      46.2630892       
312.04           0.687857174      45.6515219       0.715188677      -43.4541095      0.715188677      -43.4541095      0.687857174      45.6515219       
318.52           0.695540536      45.0506814       0.707816538      -44.063681       0.707816538      -44.063681       0.695540536      45.0506814       
325              0.703010283      44.4603946       0.700498166      -44.6623835      0.700498166      -44.6623835      0.703010283      44.4603946       
331.48           0.710272097      43.8804859       0.693236131      -45.2504076      0.693236131      -45.2504076      0.710272097      43.8804859       
337.96           0.717331597      43.3107774       0.686032744      -45.827945       0.686032744      -45.827945       0.717331597      43.3107774       
344.44           0.724194329      42.7510899       0.678890075      -46.3951878      0.678890075      -46.3951878      0.724194329      42.7510899       
350.92           0.730865757      42.2012429       0.671809966      -46.9523282      0.671809966      -46.9523282      0.730865757      42.2012429       
357.4            0.737351254      41.6610556       0.664794044      -47.4995583      0.664794044      -47.4995583      0.737351254      41.6610556       
363.88           0.7436561        41.1303471       0.657843738      -48.0370694      0.657843738      -48.0370694      0.7436561        41.1303471       
370.36           0.749785474      40.6089368       0.650960284      -48.565052       0.650960284      -48.565052       0.749785474      40.6089368       
376.84           0.755744448      40.0966445       0.644144744      -49.0836951      0.644144744      -49.0836951      0.755744448      40.0966445       
383.32           0.761537988      39.5932914       0.637398017      -49.5931862      0.637398017      -49.5931862      0.761537988      39.5932914       
389.8            0.767170948      39.0986996       0.630720845      -50.0937113      0.630720845      -50.0937113      0.767170948      39.0986996       
396.28           0.77264807       38.6126928       0.62411383       -50.585454       0.62411383       -50.585454       0.77264807       38.6126928       
402.76           0.777973979      38.1350964       0.617577439      -51.068596       0.617577439      -51.068596       0.777973979      38.1350964       
409.24           0.783153186      37.6657379       0.611112018      -51.5433166      0.611112018      -51.5433166      0.783153186      37.6657379       
415.72           0.788190086      37.2044466       0.604717796      -52.0097926      0.604717796      -52.0097926      0.788190086      37.2044466       
422.2            0.793088958      36.7510543       0.5983949        -52.4681981      0.5983949        -52.4681981      0.793088958      36.7510543       
428.68           0.797853966      36.305395        0.592143358      -52.9187047      0.592143358      -52.9187047      0.797853966      36.305395        
435.16           0.802489157      35.8673053       0.585963108      -53.361481       0.585963108      -53.361481       0.802489157      35.8673053       
441.64           0.806998467      35.4366243       0.579854008      -53.7966928      0.579854008      -53.7966928      0.806998467      35.4366243       
448.12           0.811385719      35.0131938       0.573815837      -54.2245029      0.573815837      -54.2245029      0.811385719      35.0131938       
454.6            0.815654622      34.5968582       0.567848309      -54.6450713      0.567848309      -54.6450713      0.815654622      34.5968582       
461.08           0.819808779      34.1874649       0.561951073      -55.0585548      0.561951073      -55.0585548      0.819808779      34.1874649       
467.56           0.823851685      33.7848639       0.556123719      -55.4651072      0.556123719      -55.4651072      0.823851685      33.7848639       
474.04           0.827786728      33.3889082       0.550365789      -55.8648793      0.550365789      -55.8648793      0.827786728      33.3889082       
480.52           0.831617193      32.9994536       0.544676775      -56.2580189      0.544676775      -56.2580189      0.831617193      32.9994536       
487              0.835346267      32.6163586       0.539056127      -56.6446705      0.539056127      -56.6446705      0.835346267      32.6163586       
493.48           0.838977033      32.239485        0.533503258      -57.0249757      0.533503258      -57.0249757      0.838977033      32.239485        
499.96           0.842512482      31.8686969       0.528017545      -57.3990732      0.528017545      -57.3990732      0.842512482      31.8686969       
506.44           0.845955509      31.5038618       0.522598337      -57.7670985      0.522598337      -57.7670985      0.845955509      31.5038618       
512.92           0.849308916      31.1448496       0.517244953      -58.1291841      0.517244953      -58.1291841      0.849308916      31.1448496       
519.4            0.852575418      30.7915334       0.511956691      -58.4854597      0.511956691      -58.4854597      0.852575418      30.7915334       
525.88           0.855757642      30.4437888       0.506732827      -58.8360518      0.506732827      -58.8360518      0.855757642      30.4437888       
532.36           0.858858131      30.1014943       0.50157262       -59.1810843      0.50157262       -59.1810843      0.858858131      30.1014943       
538.84           0.861879345      29.7645311       0.496475311      -59.5206781      0.496475311      -59.5206781      0.861879345      29.7645311       
545.32           0.864823665      29.4327831       0.491440132      -59.8549513      0.491440132      -59.8549513      0.864823665      29.4327831       
551.8            0.867693396      29.1061369       0.486466301      -60.1840193      0.486466301      -60.1840193      0.867693396      29.1061369       
558.28           0.870490766      28.7844817       0.481553028      -60.5079946      0.481553028      -60.5079946      0.870490766      28.7844817       
564.76           0.87321793       28.4677092       0.476699517      -60.8269873      0.476699517      -60.8269873      0.87321793       28.4677092       
571.24           0.875876976      28.1557137       0.471904966      -61.1411046      0.471904966      -61.1411046      0.875876976      28.1557137       
577.72           0.878469921      27.8483919       0.46716857       -61.4504513      0.46716857       -61.4504513      0.878469921      27.8483919       
584.2            0.880998715      27.5456432       0.46248952       -61.7551297      0.46248952       -61.7551297      0.880998715      27.5456432       
590.68           0.883465247      27.247369        0.457867008      -62.0552394      0.457867008      -62.0552394      0.883465247      27.247369        
597.16           0.885871343      26.9534734       0.453300226      -62.3508778      0.453300226      -62.3508778      0.885871343      26.9534734       
603.64           0.888218769      26.6638626       0.448788366      -62.6421399      0.448788366      -62.6421399      0.888218769      26.6638626       
610.12           0.890509233      26.378445        0.444330624      -62.9291183      0.444330624      -62.9291183      0.890509233      26.378445        
616.6            0.892744387      26.0971315       0.4399262        -63.2119033      0.4399262        -63.2119033      0.892744387      26.0971315       
623.08           0.89492583       25.8198349       0.435574296      -63.4905831      0.435574296      -63.4905831      0.89492583       25.8198349       
629.56           0.897055108      25.54647         0.431274119      -63.7652437      0.431274119      -63.7652437      0.897055108      25.54647         
636.04           0.899133716      25.276954        0.427024885      -64.0359689      0.427024885      -64.0359689      0.899133716      25.276954        
642.52           0.901163101      25.0112059       0.422825812      -64.3028404      0.422825812      -64.3028404      0.901163101      25.0112059       
649              0.903144663      24.7491467       0.418676126      -64.5659382      0.418676126      -64.5659382      0.903144663      24.7491467       
655.48           0.905079757      24.4906992       0.414575062      -64.8253398      0.414575062      -64.8253398      0.905079757      24.4906992       
661.96           0.906969692      24.2357884       0.410521862      -65.0811213      0.410521862      -65.0811213      0.906969692      24.2357884       
668.44           0.908815737      23.9843407       0.406515774      -65.3333565      0.406515774      -65.3333565      0.908815737      23.9843407       
674.92           0.910619118      23.7362846       0.402556056      -65.5821177      0.402556056      -65.5821177      0.910619118      23.7362846       
681.4            0.912381023      23.4915502       0.398641975      -65.8274752      0.398641975      -65.8274752      0.912381023      23.4915502       
687.88           0.914102601      23.2500694       0.394772807      -66.0694977      0.394772807      -66.0694977      0.914102601      23.2500694       
694.36           0.915784964      23.0117756       0.390947836      -66.308252       0.390947836      -66.308252       0.915784964      23.0117756       
700.84           0.917429189      22.776604        0.387166357      -66.5438034      0.387166357      -66.5438034      0.917429189      22.776604        
707.32           0.919036319      22.5444911       0.383427672      -66.7762156      0.383427672      -66.7762156      0.919036319      22.5444911       
713.8            0.920607361      22.3153753       0.379731095      -67.0055507      0.379731095      -67.0055507      0.920607361      22.3153753       
720.28           0.922143294      22.0891961       0.37607595       -67.2318692      0.37607595       -67.2318692      0.922143294      22.0891961       
726.76           0.923645063      21.8658948       0.372461568      -67.4552302      0.372461568      -67.4552302      0.923645063      21.8658948       
733.24           0.925113585      21.6454139       0.368887293      -67.6756913      0.368887293      -67.6756913      0.925113585      21.6454139       
739.72           0.926549747      21.4276973       0.365352477      -67.8933086      0.365352477      -67.8933086      0.926549747      21.4276973       
746.2            0.927954409      21.2126904       0.361856483      -68.108137       0.361856483      -68.108137       0.927954409      21.2126904       
752.68           0.929328403      21.0003397       0.358398683      -68.3202299      0.358398683      -68.3202299      0.929328403      21.0003397       
759.16           0.930672536      20.790593        0.354978459      -68.5296395      0.354978459      -68.5296395      0.930672536      20.790593        
765.64           0.93198759       20.5833996       0.351595203      -68.7364166      0.351595203      -68.7364166      0.93198759       20.5833996       
772.12           0.933274323      20.3787098       0.348248319      -68.9406109      0.348248319      -68.9406109      0.933274323      20.3787098       
778.6            0.934533467      20.1764749       0.344937216      -69.1422707      0.344937216      -69.1422707      0.934533467      20.1764749       
785.08           0.935765736      19.9766478       0.341661319      -69.3414433      0.341661319      -69.3414433      0.935765736      19.9766478       
791.56           0.936971818      19.7791821       0.338420056      -69.5381748      0.338420056      -69.5381748      0.936971818      19.7791821       
798.04           0.938152383      19.5840327       0.33521287       -69.7325101      0.33521287       -69.7325101      0.938152383      19.5840327       
804.52           0.939308078      19.3911555       0.332039211      -69.9244931      0.332039211      -69.9244931      0.939308078      19.3911555       
811              0.940439532      19.2005075       0.328898539      -70.1141666      0.328898539      -70.1141666      0.940439532      19.2005075       
817.48           0.941547356      19.0120466       0.325790322      -70.3015724      0.325790322      -70.3015724      0.941547356      19.0120466       
823.96           0.94263214       18.8257318       0.32271404       -70.4867511      0.32271404       -70.4867511      0.94263214       18.8257318       
