! Coilcraft 0805HQ-5N6 Chip Inductor				
! 19 June 2002			
# MHZ S MA R 50
!Freq             MagS11           AngS11           MagS21           AngS21           MagS12           AngS12           MagS22           AngS22
1                0.000593662945   37.8272315       0.999531154      -0.0208702111    0.999531154      -0.0208702111    0.000593662945   37.8272315       
28.43            0.0103965579     83.9787922       0.998962943      -0.593018183     0.998962943      -0.593018183     0.0103965579     83.9787922       
55.86            0.0203656456     85.3510697       0.998555698      -1.164789        0.998555698      -1.164789        0.0203656456     85.3510697       
83.29            0.0303314996     85.5549991       0.998107454      -1.73619074      0.998107454      -1.73619074      0.0303314996     85.5549991       
110.72           0.0402885924     85.4187932       0.997590754      -2.30717188      0.997590754      -2.30717188      0.0402885924     85.4187932       
138.15           0.0502339204     85.1327892       0.996995025      -2.87766627      0.996995025      -2.87766627      0.0502339204     85.1327892       
165.58           0.0601649223     84.76635         0.996315029      -3.44760147      0.996315029      -3.44760147      0.0601649223     84.76635         
193.01           0.0700791625     84.3513257       0.995547858      -4.01690178      0.995547858      -4.01690178      0.0700791625     84.3513257       
220.44           0.0799742555     83.9045916       0.994691835      -4.5854898       0.994691835      -4.5854898       0.0799742555     83.9045916       
247.87           0.0898478451     83.4360142       0.993746009      -5.15328718      0.993746009      -5.15328718      0.0898478451     83.4360142       
275.3            0.0996975994     82.9517973       0.992709906      -5.72021523      0.992709906      -5.72021523      0.0996975994     82.9517973       
302.73           0.109521211      82.4560665       0.991583385      -6.28619523      0.991583385      -6.28619523      0.109521211      82.4560665       
330.16           0.119316399      81.9516921       0.990366552      -6.85114871      0.990366552      -6.85114871      0.119316399      81.9516921       
357.59           0.129080912      81.4407459       0.989059706      -7.41499768      0.989059706      -7.41499768      0.129080912      81.4407459       
385.02           0.138812529      80.9247716       0.987663303      -7.97766477      0.987663303      -7.97766477      0.138812529      80.9247716       
412.45           0.148509067      80.4049501       0.986177927      -8.5390734       0.986177927      -8.5390734       0.148509067      80.4049501       
439.88           0.158168378      79.8822065       0.984604276      -9.09914786      0.984604276      -9.09914786      0.158168378      79.8822065       
467.31           0.167788356      79.3572806       0.982943145      -9.65781347      0.982943145      -9.65781347      0.167788356      79.3572806       
494.74           0.177366936      78.8307749       0.981195416      -10.2149966      0.981195416      -10.2149966      0.177366936      78.8307749       
522.17           0.186902098      78.3031884       0.979362048      -10.7706249      0.979362048      -10.7706249      0.186902098      78.3031884       
549.6            0.196391871      77.7749402       0.977444073      -11.3246272      0.977444073      -11.3246272      0.196391871      77.7749402       
577.03           0.205834331      77.2463876       0.975442586      -11.8769336      0.975442586      -11.8769336      0.205834331      77.2463876       
604.46           0.215227604      76.7178382       0.973358742      -12.4274758      0.973358742      -12.4274758      0.215227604      76.7178382       
631.89           0.22456987       76.1895603       0.971193749      -12.9761866      0.971193749      -12.9761866      0.22456987       76.1895603       
659.32           0.233859363      75.6617898       0.968948868      -13.5230008      0.968948868      -13.5230008      0.233859363      75.6617898       
686.75           0.243094371      75.1347361       0.966625404      -14.0678543      0.966625404      -14.0678543      0.243094371      75.1347361       
714.18           0.252273237      74.6085867       0.964224706      -14.6106848      0.964224706      -14.6106848      0.252273237      74.6085867       
741.61           0.261394364      74.0835103       0.961748161      -15.1514316      0.961748161      -15.1514316      0.261394364      74.0835103       
769.04           0.270456212      73.5596599       0.959197193      -15.6900358      0.959197193      -15.6900358      0.270456212      73.5596599       
796.47           0.279457299      73.0371751       0.956573257      -16.22644        0.956573257      -16.22644        0.279457299      73.0371751       
823.9            0.288396203      72.5161836       0.95387784       -16.7605886      0.95387784       -16.7605886      0.288396203      72.5161836       
851.33           0.297271564      71.9968029       0.951112455      -17.2924278      0.951112455      -17.2924278      0.297271564      71.9968029       
878.76           0.30608208       71.4791415       0.948278637      -17.8219056      0.948278637      -17.8219056      0.30608208       71.4791415       
906.19           0.31482651       70.9632998       0.945377944      -18.3489716      0.945377944      -18.3489716      0.31482651       70.9632998       
933.62           0.323503675      70.4493709       0.942411953      -18.8735776      0.942411953      -18.8735776      0.323503675      70.4493709       
961.05           0.332112455      69.9374418       0.939382257      -19.3956767      0.939382257      -19.3956767      0.332112455      69.9374418       
988.48           0.340651792      69.4275933       0.936290461      -19.9152242      0.936290461      -19.9152242      0.340651792      69.4275933       
1015.91          0.349120689      68.9199009       0.933138182      -20.4321771      0.933138182      -20.4321771      0.349120689      68.9199009       
1043.34          0.357518207      68.4144351       0.929927047      -20.9464942      0.929927047      -20.9464942      0.357518207      68.4144351       
1070.77          0.365843468      67.9112619       0.926658687      -21.4581363      0.926658687      -21.4581363      0.365843468      67.9112619       
1098.2           0.374095653      67.4104431       0.92333474       -21.9670656      0.92333474       -21.9670656      0.374095653      67.4104431       
1125.63          0.382274001      66.9120365       0.919956844      -22.4732466      0.919956844      -22.4732466      0.382274001      66.9120365       
1153.06          0.39037781       66.416096        0.91652664       -22.9766454      0.91652664       -22.9766454      0.39037781       66.416096        
1180.49          0.398406435      65.9226723       0.913045764      -23.4772297      0.913045764      -23.4772297      0.398406435      65.9226723       
1207.92          0.406359285      65.4318125       0.90951585       -23.9749693      0.90951585       -23.9749693      0.406359285      65.4318125       
1235.35          0.414235827      64.9435609       0.905938528      -24.4698354      0.905938528      -24.4698354      0.414235827      64.9435609       
1262.78          0.422035581      64.4579586       0.902315419      -24.9618014      0.902315419      -24.9618014      0.422035581      64.4579586       
1290.21          0.429758122      63.9750439       0.898648135      -25.4508419      0.898648135      -25.4508419      0.429758122      63.9750439       
1317.64          0.437403074      63.4948524       0.894938279      -25.9369336      0.894938279      -25.9369336      0.437403074      63.4948524       
1345.07          0.444970115      63.0174171       0.891187441      -26.4200547      0.891187441      -26.4200547      0.444970115      63.0174171       
1372.5           0.452458973      62.5427687       0.8873972        -26.900185       0.8873972        -26.900185       0.452458973      62.5427687       
1399.93          0.459869421      62.0709354       0.883569118      -27.377306       0.883569118      -27.377306       0.459869421      62.0709354       
1427.36          0.467201285      61.601943        0.879704741      -27.8514007      0.879704741      -27.8514007      0.467201285      61.601943        
1454.79          0.474454432      61.1358154       0.875805601      -28.3224538      0.875805601      -28.3224538      0.474454432      61.1358154       
1482.22          0.481628777      60.6725742       0.87187321       -28.7904513      0.87187321       -28.7904513      0.481628777      60.6725742       
1509.65          0.488724278      60.2122391       0.867909059      -29.255381       0.867909059      -29.255381       0.488724278      60.2122391       
1537.08          0.495740935      59.7548276       0.863914623      -29.7172319      0.863914623      -29.7172319      0.495740935      59.7548276       
1564.51          0.502678787      59.3003557       0.859891354      -30.1759945      0.859891354      -30.1759945      0.502678787      59.3003557       
1591.94          0.509537916      58.8488374       0.855840681      -30.6316608      0.855840681      -30.6316608      0.509537916      58.8488374       
1619.37          0.516318439      58.4002849       0.851764013      -31.084224       0.851764013      -31.084224       0.516318439      58.4002849       
1646.8           0.52302051       57.954709        0.847662735      -31.5336787      0.847662735      -31.5336787      0.52302051       57.954709        
1674.23          0.529644321      57.5121185       0.843538207      -31.9800208      0.843538207      -31.9800208      0.529644321      57.5121185       
1701.66          0.536190095      57.0725209       0.839391766      -32.4232474      0.839391766      -32.4232474      0.536190095      57.0725209       
1729.09          0.542658088      56.6359223       0.835224724      -32.8633569      0.835224724      -32.8633569      0.542658088      56.6359223       
1756.52          0.549048589      56.2023271       0.831038369      -33.3003488      0.831038369      -33.3003488      0.549048589      56.2023271       
1783.95          0.555361915      55.7717386       0.82683396       -33.7342238      0.82683396       -33.7342238      0.555361915      55.7717386       
1811.38          0.561598411      55.3441584       0.822612734      -34.1649836      0.822612734      -34.1649836      0.561598411      55.3441584       
1838.81          0.567758452      54.9195872       0.818375899      -34.5926312      0.818375899      -34.5926312      0.567758452      54.9195872       
1866.24          0.573842436      54.4980243       0.814124638      -35.0171704      0.814124638      -35.0171704      0.573842436      54.4980243       
1893.67          0.579850787      54.0794679       0.809860108      -35.438606       0.809860108      -35.438606       0.579850787      54.0794679       
1921.1           0.585783952      53.6639149       0.805583439      -35.8569439      0.805583439      -35.8569439      0.585783952      53.6639149       
1948.53          0.5916424        53.2513613       0.801295732      -36.2721909      0.801295732      -36.2721909      0.5916424        53.2513613       
1975.96          0.597426621      52.8418019       0.796998065      -36.6843547      0.796998065      -36.6843547      0.597426621      52.8418019       
2003.39          0.603137125      52.4352307       0.792691488      -37.0934438      0.792691488      -37.0934438      0.603137125      52.4352307       
2030.82          0.60877444       52.0316406       0.788377022      -37.4994674      0.788377022      -37.4994674      0.60877444       52.0316406       
2058.25          0.614339112      51.6310236       0.784055664      -37.9024358      0.784055664      -37.9024358      0.614339112      51.6310236       
2085.68          0.619831702      51.2333709       0.779728385      -38.3023598      0.779728385      -38.3023598      0.619831702      51.2333709       
2113.11          0.625252789      50.8386728       0.775396127      -38.6992511      0.775396127      -38.6992511      0.625252789      50.8386728       
2140.54          0.630602962      50.4469188       0.771059809      -39.0931219      0.771059809      -39.0931219      0.630602962      50.4469188       
2167.97          0.635882826      50.0580977       0.766720321      -39.4839852      0.766720321      -39.4839852      0.635882826      50.0580977       
2195.4           0.641092998      49.6721977       0.762378529      -39.8718546      0.762378529      -39.8718546      0.641092998      49.6721977       
2222.83          0.646234106      49.2892059       0.758035275      -40.2567442      0.758035275      -40.2567442      0.646234106      49.2892059       
2250.26          0.651306787      48.9091092       0.753691372      -40.6386688      0.753691372      -40.6386688      0.651306787      48.9091092       
2277.69          0.656311689      48.5318937       0.749347611      -41.0176438      0.749347611      -41.0176438      0.656311689      48.5318937       
2305.12          0.661249468      48.1575449       0.745004759      -41.3936849      0.745004759      -41.3936849      0.661249468      48.1575449       
2332.55          0.666120786      47.7860478       0.740663557      -41.7668084      0.740663557      -41.7668084      0.666120786      47.7860478       
2359.98          0.670926315      47.4173867       0.736324722      -42.137031       0.736324722      -42.137031       0.670926315      47.4173867       
2387.41          0.675666731      47.0515458       0.731988948      -42.5043699      0.731988948      -42.5043699      0.675666731      47.0515458       
2414.84          0.680342716      46.6885085       0.727656907      -42.8688426      0.727656907      -42.8688426      0.680342716      46.6885085       
2442.27          0.684954955      46.3282578       0.723329247      -43.2304672      0.723329247      -43.2304672      0.684954955      46.3282578       
2469.7           0.689504139      45.9707763       0.719006595      -43.5892619      0.719006595      -43.5892619      0.689504139      45.9707763       
2497.13          0.693990961      45.6160465       0.714689553      -43.9452454      0.714689553      -43.9452454      0.693990961      45.6160465       
2524.56          0.698416118      45.2640501       0.710378704      -44.2984366      0.710378704      -44.2984366      0.698416118      45.2640501       
2551.99          0.702780307      44.9147688       0.70607461       -44.6488547      0.70607461       -44.6488547      0.702780307      44.9147688       
2579.42          0.707084228      44.5681838       0.701777812      -44.9965192      0.701777812      -44.9965192      0.707084228      44.5681838       
2606.85          0.711328582      44.2242762       0.69748883       -45.3414499      0.69748883       -45.3414499      0.711328582      44.2242762       
2634.28          0.715514068      43.8830265       0.693208163      -45.6836666      0.693208163      -45.6836666      0.715514068      43.8830265       
2661.71          0.719641388      43.5444154       0.688936294      -46.0231897      0.688936294      -46.0231897      0.719641388      43.5444154       
2689.14          0.723711241      43.2084231       0.684673684      -46.3600393      0.684673684      -46.3600393      0.723711241      43.2084231       
2716.57          0.727724326      42.8750296       0.680420778      -46.6942361      0.680420778      -46.6942361      0.727724326      42.8750296       
2744             0.73168134       42.5442147       0.676177999      -47.0258007      0.676177999      -47.0258007      0.73168134       42.5442147       
2771.43          0.735582979      42.2159583       0.671945756      -47.3547538      0.671945756      -47.3547538      0.735582979      42.2159583       
2798.86          0.739429936      41.8902398       0.66772444       -47.6811165      0.66772444       -47.6811165      0.739429936      41.8902398       
2826.29          0.743222901      41.5670387       0.663514424      -48.0049096      0.663514424      -48.0049096      0.743222901      41.5670387       
2853.72          0.746962562      41.2463342       0.659316064      -48.3261544      0.659316064      -48.3261544      0.746962562      41.2463342       
2881.15          0.750649601      40.9281056       0.655129703      -48.6448719      0.655129703      -48.6448719      0.750649601      40.9281056       
2908.58          0.754284701      40.612332        0.650955666      -48.9610833      0.650955666      -48.9610833      0.754284701      40.612332        
2936.01          0.757868537      40.2989925       0.646794263      -49.27481        0.646794263      -49.27481        0.757868537      40.2989925       
2963.44          0.76140178       39.988066        0.642645789      -49.5860733      0.642645789      -49.5860733      0.76140178       39.988066        
2990.87          0.7648851        39.6795315       0.638510527      -49.8948944      0.638510527      -49.8948944      0.7648851        39.6795315       
3018.3           0.768319159      39.3733679       0.634388744      -50.2012947      0.634388744      -50.2012947      0.768319159      39.3733679       
3045.73          0.771704614      39.069554        0.630280693      -50.5052955      0.630280693      -50.5052955      0.771704614      39.069554        
3073.16          0.77504212       38.7680689       0.626186615      -50.8069181      0.626186615      -50.8069181      0.77504212       38.7680689       
3100.59          0.778332324      38.4688913       0.622106737      -51.1061838      0.622106737      -51.1061838      0.778332324      38.4688913       
3128.02          0.781575867      38.1720003       0.618041277      -51.4031138      0.618041277      -51.4031138      0.781575867      38.1720003       
3155.45          0.784773387      37.8773746       0.613990435      -51.6977293      0.613990435      -51.6977293      0.784773387      37.8773746       
3182.88          0.787925514      37.5849933       0.609954406      -51.9900515      0.609954406      -51.9900515      0.787925514      37.5849933       
3210.31          0.791032873      37.2948353       0.605933368      -52.2801014      0.605933368      -52.2801014      0.791032873      37.2948353       
3237.74          0.794096083      37.0068798       0.601927491      -52.5679001      0.601927491      -52.5679001      0.794096083      37.0068798       
3265.17          0.797115757      36.7211058       0.597936935      -52.8534685      0.597936935      -52.8534685      0.797115757      36.7211058       
3292.6           0.8000925        36.4374924       0.593961847      -53.1368274      0.593961847      -53.1368274      0.8000925        36.4374924       
3320.03          0.803026914      36.156019        0.590002367      -53.4179976      0.590002367      -53.4179976      0.803026914      36.156019        
3347.46          0.805919592      35.8766649       0.586058623      -53.6969997      0.586058623      -53.6969997      0.805919592      35.8766649       
3374.89          0.80877112       35.5994094       0.582130735      -53.9738544      0.582130735      -53.9738544      0.80877112       35.5994094       
3402.32          0.81158208       35.3242321       0.578218813      -54.248582       0.578218813      -54.248582       0.81158208       35.3242321       
3429.75          0.814353045      35.0511126       0.57432296       -54.5212029      0.57432296       -54.5212029      0.814353045      35.0511126       
3457.18          0.817084583      34.7800305       0.570443268      -54.7917373      0.570443268      -54.7917373      0.817084583      34.7800305       
3484.61          0.819777255      34.5109658       0.566579824      -55.0602052      0.566579824      -55.0602052      0.819777255      34.5109658       
