! Coilcraft 0805HQ-39N Chip Inductor				
! 19 June 2002			
# MHZ S MA R 50
!Freq             MagS11           AngS11           MagS21           AngS21           MagS12           AngS12           MagS22           AngS22
1                0.00299383305    54.6535501       0.998270997      -0.140157411     0.998270997      -0.140157411     0.00299383305    54.6535501       
8.23             0.0203123497     80.6525788       0.996902355      -1.15200426      0.996902355      -1.15200426      0.0203123497     80.6525788       
15.46            0.0378911252     82.4498294       0.995730075      -2.1619214       0.995730075      -2.1619214       0.0378911252     82.4498294       
22.69            0.0554439456     82.6166239       0.994396332      -3.1697341       0.994396332      -3.1697341       0.0554439456     82.6166239       
29.92            0.0729432903     82.2808244       0.992837123      -4.17504338      0.992837123      -4.17504338      0.0729432903     82.2808244       
37.15            0.0903720999     81.7199251       0.991028642      -5.17739279      0.991028642      -5.17739279      0.0903720999     81.7199251       
44.38            0.10771549       81.0380885       0.988960693      -6.17630507      0.988960693      -6.17630507      0.10771549       81.0380885       
51.61            0.124959425      80.2840582       0.986629436      -7.17129701      0.986629436      -7.17129701      0.124959425      80.2840582       
58.84            0.142090422      79.4840644       0.984034618      -8.16188728      0.984034618      -8.16188728      0.142090422      79.4840644       
66.07            0.159095487      78.6536796       0.981178295      -9.14760139      0.981178295      -9.14760139      0.159095487      78.6536796       
73.3             0.175962129      77.8028562       0.978064157      -10.1279751      0.978064157      -10.1279751      0.175962129      77.8028562       
80.53            0.192678385      76.938335        0.974697125      -11.1025571      0.974697125      -11.1025571      0.192678385      76.938335        
87.76            0.209232852      76.0649012       0.97108309       -12.0709109      0.97108309       -12.0709109      0.209232852      76.0649012       
94.99            0.22561472       75.1860867       0.967228733      -13.0326166      0.967228733      -13.0326166      0.22561472       75.1860867       
102.22           0.241813801      74.3045847       0.963141384      -13.9872723      0.963141384      -13.9872723      0.241813801      74.3045847       
109.45           0.25782055       73.4225059       0.958828914      -14.934495       0.958828914      -14.934495       0.25782055       73.4225059       
116.68           0.273626084      72.5415437       0.954299643      -15.8739218      0.954299643      -15.8739218      0.273626084      72.5415437       
123.91           0.289222194      71.6630825       0.949562257      -16.8052102      0.949562257      -16.8052102      0.289222194      71.6630825       
131.14           0.304601353      70.788273        0.944625738      -17.728039       0.944625738      -17.728039       0.304601353      70.788273        
138.37           0.319756721      69.918084        0.939499298      -18.6421083      0.939499298      -18.6421083      0.319756721      69.918084        
145.6            0.334682141      69.05334         0.934192322      -19.5471401      0.934192322      -19.5471401      0.334682141      69.05334         
152.83           0.349372135      68.1947481       0.928714312      -20.4428779      0.928714312      -20.4428779      0.349372135      68.1947481       
160.06           0.363821892      67.3429186       0.923074835      -21.3290871      0.923074835      -21.3290871      0.363821892      67.3429186       
167.29           0.378027259      66.4983807       0.917283478      -22.2055547      0.917283478      -22.2055547      0.378027259      66.4983807       
174.52           0.391984719      65.6615939       0.911349804      -23.0720888      0.911349804      -23.0720888      0.391984719      65.6615939       
181.75           0.405691378      64.8329577       0.905283315      -23.9285185      0.905283315      -23.9285185      0.405691378      64.8329577       
188.98           0.419144938      64.0128189       0.899093413      -24.7746933      0.899093413      -24.7746933      0.419144938      64.0128189       
196.21           0.432343677      63.2014779       0.892789368      -25.6104826      0.892789368      -25.6104826      0.432343677      63.2014779       
203.44           0.445286423      62.3991937       0.886380293      -26.4357753      0.886380293      -26.4357753      0.445286423      62.3991937       
210.67           0.457972524      61.6061878       0.879875111      -27.2504789      0.879875111      -27.2504789      0.457972524      61.6061878       
217.9            0.470401827      60.8226481       0.873282538      -28.0545187      0.873282538      -28.0545187      0.470401827      60.8226481       
225.13           0.482574641      60.0487319       0.86661106       -28.8478374      0.86661106       -28.8478374      0.482574641      60.0487319       
232.36           0.494491715      59.2845686       0.859868918      -29.6303944      0.859868918      -29.6303944      0.494491715      59.2845686       
239.59           0.506154206      58.5302621       0.853064093      -30.4021644      0.853064093      -30.4021644      0.506154206      58.5302621       
246.82           0.51756365       57.7858929       0.846204292      -31.1631373      0.846204292      -31.1631373      0.51756365       57.7858929       
254.05           0.528721934      57.0515201       0.839296943      -31.9133171      0.839296943      -31.9133171      0.528721934      57.0515201       
261.28           0.539631267      56.3271832       0.832349183      -32.6527209      0.832349183      -32.6527209      0.539631267      56.3271832       
268.51           0.550294153      55.6129033       0.82536786       -33.3813785      0.82536786       -33.3813785      0.550294153      55.6129033       
275.74           0.560713363      54.9086854       0.818359522      -34.0993311      0.818359522      -34.0993311      0.560713363      54.9086854       
282.97           0.57089191       54.2145189       0.811330421      -34.8066311      0.811330421      -34.8066311      0.57089191       54.2145189       
290.2            0.580833023      53.5303795       0.804286511      -35.5033408      0.804286511      -35.5033408      0.580833023      53.5303795       
297.43           0.590540124      52.85623         0.797233451      -36.189532       0.797233451      -36.189532       0.590540124      52.85623         
304.66           0.600016804      52.1920218       0.790176609      -36.8652849      0.790176609      -36.8652849      0.600016804      52.1920218       
311.89           0.609266802      51.5376953       0.783121063      -37.5306878      0.783121063      -37.5306878      0.609266802      51.5376953       
319.12           0.618293985      50.8931818       0.776071609      -38.1858363      0.776071609      -38.1858363      0.618293985      50.8931818       
326.35           0.627102328      50.2584034       0.769032765      -38.8308323      0.769032765      -38.8308323      0.627102328      50.2584034       
333.58           0.635695892      49.6332746       0.76200878       -39.4657838      0.76200878       -39.4657838      0.635695892      49.6332746       
340.81           0.644078815      49.0177028       0.755003638      -40.0908041      0.755003638      -40.0908041      0.644078815      49.0177028       
348.04           0.652255291      48.4115889       0.748021071      -40.7060112      0.748021071      -40.7060112      0.652255291      48.4115889       
355.27           0.660229552      47.8148283       0.741064562      -41.3115274      0.741064562      -41.3115274      0.660229552      47.8148283       
362.5            0.668005864      47.2273115       0.734137356      -41.9074786      0.734137356      -41.9074786      0.668005864      47.2273115       
369.73           0.675588506      46.6489243       0.727242469      -42.493994       0.727242469      -42.493994       0.675588506      46.6489243       
376.96           0.68298176       46.0795491       0.720382697      -43.0712055      0.720382697      -43.0712055      0.68298176       46.0795491       
384.19           0.690189906      45.5190646       0.713560624      -43.6392473      0.713560624      -43.6392473      0.690189906      45.5190646       
391.42           0.697217205      44.967347        0.70677863       -44.1982554      0.70677863       -44.1982554      0.697217205      44.967347        
398.65           0.704067896      44.4242699       0.700038905      -44.7483677      0.700038905      -44.7483677      0.704067896      44.4242699       
405.88           0.710746184      43.889705        0.693343452      -45.2897228      0.693343452      -45.2897228      0.710746184      43.889705        
413.11           0.717256236      43.3635226       0.6866941        -45.8224606      0.6866941        -45.8224606      0.717256236      43.3635226       
420.34           0.723602175      42.8455917       0.680092509      -46.3467213      0.680092509      -46.3467213      0.723602175      42.8455917       
427.57           0.729788072      42.3357803       0.673540183      -46.8626455      0.673540183      -46.8626455      0.729788072      42.3357803       
434.8            0.735817942      41.8339561       0.667038474      -47.3703736      0.667038474      -47.3703736      0.735817942      41.8339561       
442.03           0.741695741      41.3399862       0.660588594      -47.8700462      0.660588594      -47.8700462      0.741695741      41.3399862       
449.26           0.747425364      40.853738        0.65419162       -48.3618031      0.65419162       -48.3618031      0.747425364      40.853738        
456.49           0.753010634      40.3750787       0.647848501      -48.8457837      0.647848501      -48.8457837      0.753010634      40.3750787       
463.72           0.758455309      39.9038763       0.641560069      -49.3221264      0.641560069      -49.3221264      0.758455309      39.9038763       
470.95           0.763763076      39.4399991       0.635327043      -49.7909688      0.635327043      -49.7909688      0.763763076      39.4399991       
478.18           0.768937545      38.9833163       0.629150037      -50.2524473      0.629150037      -50.2524473      0.768937545      38.9833163       
485.41           0.773982256      38.533698        0.623029565      -50.7066971      0.623029565      -50.7066971      0.773982256      38.533698        
492.64           0.77890067       38.0910153       0.61696605       -51.1538519      0.61696605       -51.1538519      0.77890067       38.0910153       
499.87           0.783696173      37.6551407       0.610959827      -51.5940442      0.610959827      -51.5940442      0.783696173      37.6551407       
507.1            0.788372074      37.2259478       0.605011151      -52.0274046      0.605011151      -52.0274046      0.788372074      37.2259478       
514.33           0.792931605      36.8033115       0.599120201      -52.4540623      0.599120201      -52.4540623      0.792931605      36.8033115       
521.56           0.797377921      36.3871086       0.593287087      -52.8741446      0.593287087      -52.8741446      0.797377921      36.3871086       
528.79           0.801714101      35.9772171       0.587511852      -53.2877771      0.587511852      -53.2877771      0.801714101      35.9772171       
536.02           0.805943145      35.5735167       0.581794478      -53.6950836      0.581794478      -53.6950836      0.805943145      35.5735167       
543.25           0.810067981      35.1758889       0.576134892      -54.096186       0.576134892      -54.096186       0.810067981      35.1758889       
550.48           0.814091459      34.784217        0.570532969      -54.4912042      0.570532969      -54.4912042      0.814091459      34.784217        
557.71           0.818016355      34.3983858       0.564988534      -54.8802561      0.564988534      -54.8802561      0.818016355      34.3983858       
564.94           0.821845374      34.0182822       0.55950137       -55.2634578      0.55950137       -55.2634578      0.821845374      34.0182822       
572.17           0.825581146      33.6437947       0.554071217      -55.6409232      0.554071217      -55.6409232      0.825581146      33.6437947       
579.4            0.829226231      33.274814        0.548697778      -56.0127645      0.548697778      -56.0127645      0.829226231      33.274814        
586.63           0.832783121      32.9112324       0.543380723      -56.3790914      0.543380723      -56.3790914      0.832783121      32.9112324       
593.86           0.836254236      32.5529442       0.538119688      -56.7400121      0.538119688      -56.7400121      0.836254236      32.5529442       
601.09           0.839641931      32.1998455       0.532914282      -57.0956324      0.532914282      -57.0956324      0.839641931      32.1998455       
608.32           0.842948495      31.8518345       0.527764088      -57.4460562      0.527764088      -57.4460562      0.842948495      31.8518345       
615.55           0.846176152      31.508811        0.522668664      -57.7913855      0.522668664      -57.7913855      0.846176152      31.508811        
622.78           0.849327063      31.170677        0.517627548      -58.13172        0.517627548      -58.13172        0.849327063      31.170677        
630.01           0.852403328      30.8373363       0.512640259      -58.4671579      0.512640259      -58.4671579      0.852403328      30.8373363       
637.24           0.855406984      30.5086944       0.507706297      -58.7977949      0.507706297      -58.7977949      0.855406984      30.5086944       
644.47           0.858340014      30.1846588       0.502825148      -59.1237252      0.502825148      -59.1237252      0.858340014      30.1846588       
651.7            0.861204339      29.8651389       0.497996285      -59.4450407      0.497996285      -59.4450407      0.861204339      29.8651389       
658.93           0.864001828      29.5500458       0.493219167      -59.7618317      0.493219167      -59.7618317      0.864001828      29.5500458       
666.16           0.866734293      29.2392925       0.488493246      -60.0741864      0.488493246      -60.0741864      0.866734293      29.2392925       
673.39           0.869403495      28.9327937       0.483817961      -60.3821911      0.483817961      -60.3821911      0.869403495      28.9327937       
680.62           0.87201114       28.6304659       0.479192747      -60.6859306      0.479192747      -60.6859306      0.87201114       28.6304659       
687.85           0.874558889      28.3322273       0.47461703       -60.9854876      0.47461703       -60.9854876      0.874558889      28.3322273       
695.08           0.87704835       28.037998        0.470090232      -61.280943       0.470090232      -61.280943       0.87704835       28.037998        
702.31           0.879481084      27.7476995       0.46561177       -61.5723761      0.46561177       -61.5723761      0.879481084      27.7476995       
709.54           0.88185861       27.4612551       0.46118106       -61.8598645      0.46118106       -61.8598645      0.88185861       27.4612551       
716.77           0.884182396      27.1785898       0.456797514      -62.1434839      0.456797514      -62.1434839      0.884182396      27.1785898       
724              0.886453871      26.89963         0.452460541      -62.4233086      0.452460541      -62.4233086      0.886453871      26.89963         
731.23           0.888674422      26.624304        0.448169553      -62.6994109      0.448169553      -62.6994109      0.888674422      26.624304        
738.46           0.890845391      26.3525412       0.443923959      -62.971862       0.443923959      -62.971862       0.890845391      26.3525412       
745.69           0.892968084      26.0842731       0.439723171      -63.2407311      0.439723171      -63.2407311      0.892968084      26.0842731       
752.92           0.895043768      25.8194321       0.4355666        -63.506086       0.4355666        -63.506086       0.895043768      25.8194321       
760.15           0.897073671      25.5579524       0.431453662      -63.7679931      0.431453662      -63.7679931      0.897073671      25.5579524       
767.38           0.899058985      25.2997696       0.427383773      -64.0265171      0.427383773      -64.0265171      0.899058985      25.2997696       
774.61           0.901000869      25.0448206       0.423356352      -64.2817215      0.423356352      -64.2817215      0.901000869      25.0448206       
781.84           0.902900444      24.7930439       0.419370824      -64.5336681      0.419370824      -64.5336681      0.902900444      24.7930439       
789.07           0.904758802      24.544379        0.415426613      -64.7824176      0.415426613      -64.7824176      0.904758802      24.544379        
796.3            0.906577001      24.298767        0.411523152      -65.0280291      0.411523152      -65.0280291      0.906577001      24.298767        
803.53           0.908356066      24.0561502       0.407659875      -65.2705604      0.407659875      -65.2705604      0.908356066      24.0561502       
810.76           0.910096996      23.8164722       0.403836222      -65.5100682      0.403836222      -65.5100682      0.910096996      23.8164722       
817.99           0.911800757      23.5796778       0.400051639      -65.7466076      0.400051639      -65.7466076      0.911800757      23.5796778       
825.22           0.91346829       23.3457129       0.396305575      -65.9802327      0.396305575      -65.9802327      0.91346829       23.3457129       
832.45           0.915100506      23.1145249       0.392597487      -66.2109964      0.392597487      -66.2109964      0.915100506      23.1145249       
839.68           0.91669829       22.8860619       0.388926835      -66.4389501      0.388926835      -66.4389501      0.91669829       22.8860619       
846.91           0.918262502      22.6602737       0.385293086      -66.6641443      0.385293086      -66.6641443      0.918262502      22.6602737       
854.14           0.919793977      22.4371106       0.381695714      -66.8866284      0.381695714      -66.8866284      0.919793977      22.4371106       
861.37           0.921293525      22.2165245       0.378134196      -67.1064504      0.378134196      -67.1064504      0.921293525      22.2165245       
868.6            0.922761933      21.998468        0.374608019      -67.3236574      0.374608019      -67.3236574      0.922761933      21.998468        
875.83           0.924199966      21.7828949       0.371116673      -67.5382955      0.371116673      -67.5382955      0.924199966      21.7828949       
883.06           0.925608366      21.56976         0.367659657      -67.7504096      0.367659657      -67.7504096      0.925608366      21.56976         
890.29           0.926987854      21.3590191       0.364236474      -67.9600436      0.364236474      -67.9600436      0.926987854      21.3590191       
897.52           0.928339132      21.1506288       0.360846634      -68.1672405      0.360846634      -68.1672405      0.928339132      21.1506288       
904.75           0.929662879      20.9445469       0.357489656      -68.3720423      0.357489656      -68.3720423      0.929662879      20.9445469       
911.98           0.930959756      20.7407319       0.354165061      -68.5744899      0.354165061      -68.5744899      0.930959756      20.7407319       
919.21           0.932230407      20.5391433       0.350872381      -68.7746234      0.350872381      -68.7746234      0.932230407      20.5391433       
