! Coilcraft 0805HQ-27N Chip Inductor				
! 19 June 2002			
# MHZ S MA R 50
!Freq             MagS11           AngS11           MagS21           AngS21           MagS12           AngS12           MagS22           AngS22
1                0.00203825751    56.1421329       0.99886585       -0.0970898161    0.99886585       -0.0970898161    0.00203825751    56.1421329       
10.72            0.0182677629     82.3081378       0.997719198      -1.03967627      0.997719198      -1.03967627      0.0182677629     82.3081378       
20.44            0.0346660496     83.6289913       0.996748827      -1.98078497      0.996748827      -1.98078497      0.0346660496     83.6289913       
30.16            0.051038716      83.6308282       0.995630991      -2.92027086      0.995630991      -2.92027086      0.051038716      83.6308282       
39.88            0.067367569      83.2305199       0.994312064      -3.85780864      0.994312064      -3.85780864      0.067367569      83.2305199       
49.6             0.0836398369     82.6503594       0.992772154      -4.79302798      0.992772154      -4.79302798      0.0836398369     82.6503594       
59.32            0.0998438272     81.9734879       0.991002594      -5.72554183      0.991002594      -5.72554183      0.0998438272     81.9734879       
69.04            0.115968284      81.2387894       0.988999906      -6.65495779      0.988999906      -6.65495779      0.115968284      81.2387894       
78.76            0.132002269      80.4672014       0.986763515      -7.58088398      0.986763515      -7.58088398      0.132002269      80.4672014       
88.48            0.147935147      79.6711698       0.984294708      -8.50293275      0.984294708      -8.50293275      0.147935147      79.6711698       
98.2             0.163756617      78.8586616       0.981596086      -9.42072321      0.981596086      -9.42072321      0.163756617      78.8586616       
107.92           0.179456735      78.0350839       0.978671241      -10.3338832      0.978671241      -10.3338832      0.179456735      78.0350839       
117.64           0.195025945      77.2042838       0.97552455       -11.2420509      0.97552455       -11.2420509      0.195025945      77.2042838       
127.36           0.210455107      76.3691088       0.972161035      -12.1448758      0.972161035      -12.1448758      0.210455107      76.3691088       
137.08           0.225735522      75.5317375       0.968586257      -13.0420202      0.968586257      -13.0420202      0.225735522      75.5317375       
146.8            0.240858951      74.6938839       0.964806231      -13.9331599      0.964806231      -13.9331599      0.240858951      74.6938839       
156.52           0.255817632      73.856929        0.960827361      -14.8179845      0.960827361      -14.8179845      0.255817632      73.856929        
166.24           0.270604293      73.0220081       0.956656375      -15.6961989      0.956656375      -15.6961989      0.270604293      73.0220081       
175.96           0.285212165      72.1900702       0.952300276      -16.567523       0.952300276      -16.567523       0.285212165      72.1900702       
185.68           0.299634985      71.3619201       0.947766294      -17.4316922      0.947766294      -17.4316922      0.299634985      71.3619201       
195.4            0.313867001      70.5382477       0.943061839      -18.2884581      0.943061839      -18.2884581      0.313867001      70.5382477       
205.12           0.327902972      69.7196501       0.938194465      -19.1375884      0.938194465      -19.1375884      0.327902972      69.7196501       
214.84           0.341738167      68.9066476       0.933171827      -19.9788667      0.933171827      -19.9788667      0.341738167      68.9066476       
224.56           0.355368358      68.0996962       0.928001649      -20.8120932      0.928001649      -20.8120932      0.355368358      68.0996962       
234.28           0.368789812      67.2991968       0.922691689      -21.6370837      0.922691689      -21.6370837      0.368789812      67.2991968       
244              0.381999285      66.5055028       0.917249708      -22.4536705      0.917249708      -22.4536705      0.381999285      66.5055028       
253.72           0.394994005      65.7189257       0.911683443      -23.2617015      0.911683443      -23.2617015      0.394994005      65.7189257       
263.44           0.407771663      64.9397402       0.906000578      -24.0610399      0.906000578      -24.0610399      0.407771663      64.9397402       
273.16           0.420330397      64.1681876       0.900208722      -24.8515643      0.900208722      -24.8515643      0.420330397      64.1681876       
282.88           0.432668772      63.4044794       0.894315386      -25.6331682      0.894315386      -25.6331682      0.432668772      63.4044794       
292.6            0.444785767      62.6488001       0.888327962      -26.4057594      0.888327962      -26.4057594      0.444785767      62.6488001       
302.32           0.456680757      61.9013093       0.882253705      -27.1692597      0.882253705      -27.1692597      0.456680757      61.9013093       
312.04           0.468353488      61.1621436       0.876099718      -27.9236044      0.876099718      -27.9236044      0.468353488      61.1621436       
321.76           0.479804065      60.4314191       0.869872936      -28.6687419      0.869872936      -28.6687419      0.479804065      60.4314191       
331.48           0.491032926      59.7092321       0.863580115      -29.4046331      0.863580115      -29.4046331      0.491032926      59.7092321       
341.2            0.502040826      58.9956613       0.857227821      -30.1312506      0.857227821      -30.1312506      0.502040826      58.9956613       
350.92           0.512828814      58.2907685       0.850822421      -30.8485788      0.850822421      -30.8485788      0.512828814      58.2907685       
360.64           0.523398216      57.5946003       0.844370074      -31.5566127      0.844370074      -31.5566127      0.523398216      57.5946003       
370.36           0.533750612      56.9071889       0.837876729      -32.2553578      0.837876729      -32.2553578      0.533750612      56.9071889       
380.08           0.543887817      56.2285534       0.831348115      -32.944829       0.831348115      -32.944829       0.543887817      56.2285534       
389.8            0.553811864      55.5587004       0.824789744      -33.6250508      0.824789744      -33.6250508      0.553811864      55.5587004       
399.52           0.563524985      54.8976253       0.818206905      -34.2960561      0.818206905      -34.2960561      0.563524985      54.8976253       
409.24           0.573029591      54.2453128       0.811604664      -34.9578859      0.811604664      -34.9578859      0.573029591      54.2453128       
418.96           0.582328255      53.6017378       0.804987864      -35.6105887      0.804987864      -35.6105887      0.582328255      53.6017378       
428.68           0.591423699      52.9668665       0.798361126      -36.2542203      0.798361126      -36.2542203      0.591423699      52.9668665       
438.4            0.600318772      52.3406565       0.791728855      -36.8888427      0.791728855      -36.8888427      0.600318772      52.3406565       
448.12           0.609016439      51.723058        0.785095236      -37.5145242      0.785095236      -37.5145242      0.609016439      51.723058        
457.84           0.617519765      51.1140141       0.778464242      -38.1313384      0.778464242      -38.1313384      0.617519765      51.1140141       
467.56           0.625831904      50.5134615       0.771839635      -38.7393641      0.771839635      -38.7393641      0.625831904      50.5134615       
477.28           0.633956079      49.9213312       0.765224974      -39.3386848      0.765224974      -39.3386848      0.633956079      49.9213312       
487              0.641895579      49.3375488       0.758623617      -39.9293881      0.758623617      -39.9293881      0.641895579      49.3375488       
496.72           0.649653739      48.7620353       0.752038728      -40.5115656      0.752038728      -40.5115656      0.649653739      48.7620353       
506.44           0.657233936      48.1947072       0.745473281      -41.0853121      0.745473281      -41.0853121      0.657233936      48.1947072       
516.16           0.664639574      47.6354773       0.738930066      -41.6507254      0.738930066      -41.6507254      0.664639574      47.6354773       
525.88           0.67187408       47.0842548       0.732411697      -42.2079064      0.732411697      -42.2079064      0.67187408       47.0842548       
535.6            0.678940889      46.5409461       0.725920615      -42.7569579      0.725920615      -42.7569579      0.678940889      46.5409461       
545.32           0.685843441      46.0054546       0.719459096      -43.297985       0.719459096      -43.297985       0.685843441      46.0054546       
555.04           0.692585172      45.4776817       0.71302926       -43.8310945      0.71302926       -43.8310945      0.692585172      45.4776817       
564.76           0.699169507      44.9575267       0.706633069      -44.3563946      0.706633069      -44.3563946      0.699169507      44.9575267       
574.48           0.705599856      44.4448871       0.700272344      -44.8739948      0.700272344      -44.8739948      0.705599856      44.4448871       
584.2            0.711879604      43.9396592       0.693948763      -45.3840055      0.693948763      -45.3840055      0.711879604      43.9396592       
593.92           0.718012112      43.4417378       0.687663869      -45.886538       0.687663869      -45.886538       0.718012112      43.4417378       
603.64           0.724000708      42.9510173       0.681419081      -46.3817038      0.681419081      -46.3817038      0.724000708      42.9510173       
613.36           0.729848682      42.4673909       0.675215692      -46.8696149      0.675215692      -46.8696149      0.729848682      42.4673909       
623.08           0.735559289      41.9907517       0.669054881      -47.3503835      0.669054881      -47.3503835      0.735559289      41.9907517       
632.8            0.741135738      41.5209925       0.662937716      -47.8241216      0.662937716      -47.8241216      0.741135738      41.5209925       
642.52           0.746581194      41.0580058       0.656865161      -48.2909412      0.656865161      -48.2909412      0.746581194      41.0580058       
652.24           0.751898775      40.6016844       0.65083808       -48.7509537      0.65083808       -48.7509537      0.751898775      40.6016844       
661.96           0.757091548      40.1519212       0.644857243      -49.2042703      0.644857243      -49.2042703      0.757091548      40.1519212       
671.68           0.762162529      39.7086094       0.63892333       -49.6510013      0.63892333       -49.6510013      0.762162529      39.7086094       
681.4            0.76711468       39.271643        0.633036938      -50.0912565      0.633036938      -50.0912565      0.76711468       39.271643        
691.12           0.771950909      38.8409162       0.627198585      -50.5251449      0.627198585      -50.5251449      0.771950909      38.8409162       
700.84           0.77667407       38.4163243       0.621408711      -50.9527744      0.621408711      -50.9527744      0.77667407       38.4163243       
710.56           0.781286959      37.9977631       0.61566769       -51.3742521      0.61566769       -51.3742521      0.781286959      37.9977631       
720.28           0.785792315      37.5851296       0.609975826      -51.7896839      0.609975826      -51.7896839      0.785792315      37.5851296       
730              0.790192821      37.1783214       0.604333363      -52.1991746      0.604333363      -52.1991746      0.790192821      37.1783214       
739.72           0.794491102      36.7772376       0.598740484      -52.6028279      0.598740484      -52.6028279      0.794491102      36.7772376       
749.44           0.798689727      36.381778        0.59319732       -53.000746       0.59319732       -53.000746       0.798689727      36.381778        
759.16           0.802791205      35.9918437       0.587703949      -53.3930301      0.587703949      -53.3930301      0.802791205      35.9918437       
768.88           0.80679799       35.6073372       0.582260401      -53.7797799      0.582260401      -53.7797799      0.80679799       35.6073372       
778.6            0.810712479      35.228162        0.576866663      -54.1610937      0.576866663      -54.1610937      0.810712479      35.228162        
788.32           0.814537011      34.8542231       0.571522677      -54.5370684      0.571522677      -54.5370684      0.814537011      34.8542231       
798.04           0.818273871      34.4854265       0.566228349      -54.9077997      0.566228349      -54.9077997      0.818273871      34.4854265       
807.76           0.821925287      34.12168         0.560983549      -55.2733814      0.560983549      -55.2733814      0.821925287      34.12168         
817.48           0.825493435      33.7628923       0.555788111      -55.6339063      0.555788111      -55.6339063      0.825493435      33.7628923       
827.2            0.828980434      33.408974        0.550641841      -55.9894654      0.550641841      -55.9894654      0.828980434      33.408974        
836.92           0.832388351      33.0598365       0.545544513      -56.3401483      0.545544513      -56.3401483      0.832388351      33.0598365       
846.64           0.835719202      32.7153932       0.540495877      -56.6860432      0.540495877      -56.6860432      0.835719202      32.7153932       
856.36           0.838974951      32.3755585       0.535495658      -57.0272366      0.535495658      -57.0272366      0.838974951      32.3755585       
866.08           0.84215751       32.0402485       0.530543559      -57.3638137      0.530543559      -57.3638137      0.84215751       32.0402485       
875.8            0.845268743      31.7093806       0.52563926       -57.6958581      0.52563926       -57.6958581      0.845268743      31.7093806       
885.52           0.848310465      31.3828735       0.520782426      -58.0234518      0.520782426      -58.0234518      0.848310465      31.3828735       
895.24           0.851284443      31.0606475       0.515972701      -58.3466756      0.515972701      -58.3466756      0.851284443      31.0606475       
904.96           0.854192398      30.7426243       0.511209717      -58.6656086      0.511209717      -58.6656086      0.854192398      30.7426243       
914.68           0.857036004      30.4287271       0.506493089      -58.9803284      0.506493089      -58.9803284      0.857036004      30.4287271       
924.4            0.859816892      30.1188802       0.50182242       -59.2909112      0.50182242       -59.2909112      0.859816892      30.1188802       
934.12           0.862536649      29.8130095       0.497197302      -59.5974319      0.497197302      -59.5974319      0.862536649      29.8130095       
943.84           0.865196818      29.5110423       0.492617318      -59.8999637      0.492617318      -59.8999637      0.865196818      29.5110423       
953.56           0.867798901      29.2129071       0.488082039      -60.1985785      0.488082039      -60.1985785      0.867798901      29.2129071       
963.28           0.870344361      28.9185341       0.48359103       -60.4933469      0.48359103       -60.4933469      0.870344361      28.9185341       
973              0.872834619      28.6278544       0.479143848      -60.784338       0.479143848      -60.784338       0.872834619      28.6278544       
982.72           0.875271059      28.3408006       0.474740045      -61.0716195      0.474740045      -61.0716195      0.875271059      28.3408006       
992.44           0.877655026      28.0573068       0.470379167      -61.3552578      0.470379167      -61.3552578      0.877655026      28.0573068       
1002.16          0.879987829      27.777308        0.466060755      -61.635318       0.466060755      -61.635318       0.879987829      27.777308        
1011.88          0.882270741      27.5007408       0.461784349      -61.9118638      0.461784349      -61.9118638      0.882270741      27.5007408       
1021.6           0.884505         27.2275429       0.457549483      -62.1849578      0.457549483      -62.1849578      0.884505         27.2275429       
1031.32          0.88669181       26.9576533       0.45335569       -62.454661       0.45335569       -62.454661       0.88669181       26.9576533       
1041.04          0.888832343      26.691012        0.449202501      -62.7210335      0.449202501      -62.7210335      0.888832343      26.691012        
1050.76          0.890927737      26.4275606       0.445089448      -62.9841338      0.445089448      -62.9841338      0.890927737      26.4275606       
1060.48          0.8929791        26.1672414       0.44101606       -63.2440196      0.44101606       -63.2440196      0.8929791        26.1672414       
1070.2           0.89498751       25.9099983       0.436981867      -63.5007471      0.436981867      -63.5007471      0.89498751       25.9099983       
1079.92          0.896954015      25.6557759       0.432986399      -63.7543714      0.432986399      -63.7543714      0.896954015      25.6557759       
1089.64          0.898879632      25.4045203       0.429029187      -64.0049465      0.429029187      -64.0049465      0.898879632      25.4045203       
1099.36          0.900765354      25.1561784       0.425109765      -64.2525253      0.425109765      -64.2525253      0.900765354      25.1561784       
1109.08          0.902612143      24.9106984       0.421227667      -64.4971595      0.421227667      -64.4971595      0.902612143      24.9106984       
1118.8           0.904420938      24.6680294       0.417382428      -64.7388997      0.417382428      -64.7388997      0.904420938      24.6680294       
1128.52          0.906192649      24.4281215       0.413573587      -64.9777955      0.413573587      -64.9777955      0.906192649      24.4281215       
1138.24          0.907928164      24.190926        0.409800685      -65.2138955      0.409800685      -65.2138955      0.907928164      24.190926        
1147.96          0.909628344      23.9563951       0.406063267      -65.4472471      0.406063267      -65.4472471      0.909628344      23.9563951       
1157.68          0.91129403       23.7244818       0.402360879      -65.6778969      0.402360879      -65.6778969      0.91129403       23.7244818       
1167.4           0.912926035      23.4951404       0.398693072      -65.9058903      0.398693072      -65.9058903      0.912926035      23.4951404       
1177.12          0.914525156      23.2683259       0.395059399      -66.1312719      0.395059399      -66.1312719      0.914525156      23.2683259       
1186.84          0.916092162      23.0439942       0.391459418      -66.3540852      0.391459418      -66.3540852      0.916092162      23.0439942       
1196.56          0.917627806      22.8221022       0.38789269       -66.574373       0.38789269       -66.574373       0.917627806      22.8221022       
1206.28          0.919132819      22.6026076       0.384358781      -66.7921769      0.384358781      -66.7921769      0.919132819      22.6026076       
1216             0.920607911      22.3854691       0.380857261      -67.0075378      0.380857261      -67.0075378      0.920607911      22.3854691       
1225.72          0.922053774      22.1706462       0.377387702      -67.2204957      0.377387702      -67.2204957      0.922053774      22.1706462       
1235.44          0.923471082      21.958099        0.373949683      -67.4310897      0.373949683      -67.4310897      0.923471082      21.958099        
