! Coilcraft 0805HQ-18N Chip Inductor				
! 19 June 2002			
# MHZ S MA R 50
!Freq             MagS11           AngS11           MagS21           AngS21           MagS12           AngS12           MagS22           AngS22
1                0.00146345403    52.8599319       0.999117098      -0.0669008997    0.999117098      -0.0669008997    0.00146345403    52.8599319       
13.47            0.0157993974     83.1568179       0.998240728      -0.900410919     0.998240728      -0.900410919     0.0157993974     83.1568179       
25.94            0.0303094286     84.414664        0.99750626       -1.7329426       0.99750626       -1.7329426       0.0303094286     84.414664        
38.41            0.0448037356     84.4336953       0.996652229      -2.5643985       0.996652229      -2.5643985       0.0448037356     84.4336953       
50.88            0.0592689411     84.0836197       0.995637629      -3.39455694      0.995637629      -3.39455694      0.0592689411     84.0836197       
63.35            0.0736960706     83.570102        0.994447101      -4.22316538      0.994447101      -4.22316538      0.0736960706     83.570102        
75.82            0.0880769844     82.9690516       0.993073688      -5.04995928      0.993073688      -5.04995928      0.0880769844     82.9690516       
88.29            0.102403843      82.3156363       0.991514264      -5.87466946      0.991514264      -5.87466946      0.102403843      82.3156363       
100.76           0.116668995      81.6286438       0.989767821      -6.6970259       0.989767821      -6.6970259       0.116668995      81.6286438       
113.23           0.130864959      80.91916         0.987834685      -7.51676005      0.987834685      -7.51676005      0.130864959      80.91916         
125.7            0.144984431      80.1942309       0.985716115      -8.33360644      0.985716115      -8.33360644      0.144984431      80.1942309       
138.17           0.159020299      79.4586035       0.983414072      -9.14730382      0.983414072      -9.14730382      0.159020299      79.4586035       
150.64           0.17296566       78.7156309       0.980931067      -9.95759617      0.980931067      -9.95759617      0.17296566       78.7156309       
163.11           0.186813836      77.9677769       0.978270067      -10.7642334      0.978270067      -10.7642334      0.186813836      77.9677769       
175.58           0.200558393      77.2169136       0.975434425      -11.5669722      0.975434425      -11.5669722      0.200558393      77.2169136       
188.05           0.214193147      76.4645043       0.972427822      -12.3655763      0.972427822      -12.3655763      0.214193147      76.4645043       
200.52           0.227712185      75.7117218       0.969254227      -13.1598171      0.969254227      -13.1598171      0.227712185      75.7117218       
212.99           0.241109868      74.9595259       0.96591786       -13.9494744      0.96591786       -13.9494744      0.241109868      74.9595259       
225.46           0.254380845      74.2087166       0.962423157      -14.7343362      0.962423157      -14.7343362      0.254380845      74.2087166       
237.93           0.267520057      73.4599716       0.958774747      -15.5141994      0.958774747      -15.5141994      0.267520057      73.4599716       
250.4            0.280522745      72.7138721       0.954977421      -16.2888698      0.954977421      -16.2888698      0.280522745      72.7138721       
262.87           0.293384451      71.9709224       0.951036112      -17.0581627      0.951036112      -17.0581627      0.293384451      71.9709224       
275.34           0.306101025      71.2315642       0.946955869      -17.8219026      0.946955869      -17.8219026      0.306101025      71.2315642       
287.81           0.31866862       70.4961873       0.942741836      -18.5799236      0.942741836      -18.5799236      0.31866862       70.4961873       
300.28           0.331083698      69.7651376       0.938399235      -19.3320692      0.938399235      -19.3320692      0.331083698      69.7651376       
312.75           0.343343025      69.0387237       0.933933345      -20.0781929      0.933933345      -20.0781929      0.343343025      69.0387237       
325.22           0.355443668      68.3172218       0.929349482      -20.8181574      0.929349482      -20.8181574      0.355443668      68.3172218       
337.69           0.367382994      67.6008795       0.924652984      -21.5518354      0.924652984      -21.5518354      0.367382994      67.6008795       
350.16           0.379158661      66.8899195       0.919849196      -22.2791089      0.919849196      -22.2791089      0.379158661      66.8899195       
362.63           0.390768617      66.1845415       0.914943452      -22.9998692      0.914943452      -22.9998692      0.390768617      66.1845415       
375.1            0.402211089      65.4849251       0.909941063      -23.7140173      0.909941063      -23.7140173      0.402211089      65.4849251       
387.57           0.413484578      64.7912311       0.904847302      -24.4214629      0.904847302      -24.4214629      0.413484578      64.7912311       
400.04           0.424587849      64.1036032       0.899667393      -25.122125       0.899667393      -25.122125       0.424587849      64.1036032       
412.51           0.435519926      63.4221697       0.8944065        -25.8159314      0.8944065        -25.8159314      0.435519926      63.4221697       
424.98           0.446280078      62.7470438       0.889069713      -26.5028181      0.889069713      -26.5028181      0.446280078      62.7470438       
437.45           0.456867814      62.0783257       0.883662044      -27.1827299      0.883662044      -27.1827299      0.456867814      62.0783257       
449.92           0.467282869      61.4161025       0.878188415      -27.8556195      0.878188415      -27.8556195      0.467282869      61.4161025       
462.39           0.477525196      60.7604499       0.872653648      -28.5214473      0.872653648      -28.5214473      0.477525196      60.7604499       
474.86           0.487594956      60.1114323       0.867062464      -29.1801816      0.867062464      -29.1801816      0.487594956      60.1114323       
487.33           0.497492507      59.4691038       0.861419472      -29.8317978      0.861419472      -29.8317978      0.497492507      59.4691038       
499.8            0.50721839       58.8335087       0.855729165      -30.4762784      0.855729165      -30.4762784      0.50721839       58.8335087       
512.27           0.516773327      58.2046823       0.849995917      -31.1136125      0.849995917      -31.1136125      0.516773327      58.2046823       
524.74           0.5261582        57.5826512       0.844223976      -31.7437959      0.844223976      -31.7437959      0.5261582        57.5826512       
537.21           0.535374048      56.967434        0.838417464      -32.3668304      0.838417464      -32.3668304      0.535374048      56.967434        
549.68           0.544422054      56.3590417       0.832580374      -32.9827237      0.832580374      -32.9827237      0.544422054      56.3590417       
562.15           0.553303535      55.7574781       0.826716566      -33.591489       0.826716566      -33.591489       0.553303535      55.7574781       
574.62           0.562019934      55.1627404       0.820829767      -34.193145       0.820829767      -34.193145       0.562019934      55.1627404       
587.09           0.570572805      54.5748197       0.814923572      -34.7877152      0.814923572      -34.7877152      0.570572805      54.5748197       
599.56           0.578963812      53.993701        0.809001441      -35.3752279      0.809001441      -35.3752279      0.578963812      53.993701        
612.03           0.587194711      53.419364        0.803066699      -35.9557159      0.803066699      -35.9557159      0.587194711      53.419364        
624.5            0.595267349      52.8517833       0.797122542      -36.5292161      0.797122542      -36.5292161      0.595267349      52.8517833       
636.97           0.60318365       52.2909287       0.791172029      -37.0957694      0.791172029      -37.0957694      0.60318365       52.2909287       
649.44           0.610945609      51.7367655       0.785218091      -37.6554202      0.785218091      -37.6554202      0.610945609      51.7367655       
661.91           0.618555286      51.1892551       0.779263531      -38.2082164      0.779263531      -38.2082164      0.618555286      51.1892551       
674.38           0.626014795      50.648355        0.773311022      -38.7542091      0.773311022      -38.7542091      0.626014795      50.648355        
686.85           0.6333263        50.1140192       0.767363114      -39.2934522      0.767363114      -39.2934522      0.6333263        50.1140192       
699.32           0.640492007      49.5861985       0.761422234      -39.8260024      0.761422234      -39.8260024      0.640492007      49.5861985       
711.79           0.647514158      49.0648406       0.755490689      -40.3519189      0.755490689      -40.3519189      0.647514158      49.0648406       
724.26           0.654395023      48.5498907       0.74957067       -40.8712629      0.74957067       -40.8712629      0.654395023      48.5498907       
736.73           0.661136898      48.0412914       0.743664253      -41.3840979      0.743664253      -41.3840979      0.661136898      48.0412914       
749.2            0.667742099      47.5389831       0.737773402      -41.8904892      0.737773402      -41.8904892      0.667742099      47.5389831       
761.67           0.674212953      47.0429041       0.731899975      -42.3905038      0.731899975      -42.3905038      0.674212953      47.0429041       
774.14           0.680551798      46.5529909       0.726045722      -42.8842102      0.726045722      -42.8842102      0.680551798      46.5529909       
786.61           0.686760976      46.0691785       0.720212295      -43.3716782      0.720212295      -43.3716782      0.686760976      46.0691785       
799.08           0.692842831      45.5914001       0.714401246      -43.8529786      0.714401246      -43.8529786      0.692842831      45.5914001       
811.55           0.698799704      45.1195881       0.708614031      -44.3281835      0.708614031      -44.3281835      0.698799704      45.1195881       
824.02           0.704633928      44.6536734       0.702852015      -44.7973658      0.702852015      -44.7973658      0.704633928      44.6536734       
836.49           0.710347828      44.1935861       0.697116476      -45.2605989      0.697116476      -45.2605989      0.710347828      44.1935861       
848.96           0.715943716      43.7392553       0.691408604      -45.7179572      0.691408604      -45.7179572      0.715943716      43.7392553       
861.43           0.721423889      43.2906098       0.68572951       -46.1695152      0.68572951       -46.1695152      0.721423889      43.2906098       
873.9            0.726790626      42.8475775       0.680080225      -46.6153479      0.680080225      -46.6153479      0.726790626      42.8475775       
886.37           0.732046186      42.4100859       0.674461704      -47.0555307      0.674461704      -47.0555307      0.732046186      42.4100859       
898.84           0.737192806      41.9780623       0.668874829      -47.490139       0.668874829      -47.490139       0.737192806      41.9780623       
911.31           0.7422327        41.5514338       0.663320416      -47.9192483      0.663320416      -47.9192483      0.7422327        41.5514338       
923.78           0.747168054      41.1301272       0.657799212      -48.342934       0.657799212      -48.342934       0.747168054      41.1301272       
936.25           0.752001031      40.7140695       0.652311899      -48.7612716      0.652311899      -48.7612716      0.752001031      40.7140695       
948.72           0.756733763      40.3031876       0.646859103      -49.1743361      0.646859103      -49.1743361      0.756733763      40.3031876       
961.19           0.761368353      39.8974085       0.641441389      -49.5822026      0.641441389      -49.5822026      0.761368353      39.8974085       
973.66           0.765906873      39.4966596       0.636059266      -49.9849456      0.636059266      -49.9849456      0.765906873      39.4966596       
986.13           0.770351366      39.1008684       0.630713195      -50.3826392      0.630713195      -50.3826392      0.770351366      39.1008684       
998.6            0.77470384       38.7099627       0.625403583      -50.7753574      0.625403583      -50.7753574      0.77470384       38.7099627       
1011.07          0.778966273      38.323871        0.62013079       -51.1631733      0.62013079       -51.1631733      0.778966273      38.323871        
1023.54          0.783140609      37.942522        0.614895134      -51.5461596      0.614895134      -51.5461596      0.783140609      37.942522        
1036.01          0.787228757      37.5658448       0.609696886      -51.9243886      0.609696886      -51.9243886      0.787228757      37.5658448       
1048.48          0.791232593      37.1937693       0.604536281      -52.2979317      0.604536281      -52.2979317      0.791232593      37.1937693       
1060.95          0.79515396       36.8262258       0.599413512      -52.6668597      0.599413512      -52.6668597      0.79515396       36.8262258       
1073.42          0.798994665      36.4631454       0.594328737      -53.0312429      0.594328737      -53.0312429      0.798994665      36.4631454       
1085.89          0.802756483      36.1044597       0.58928208       -53.3911506      0.58928208       -53.3911506      0.802756483      36.1044597       
1098.36          0.806441152      35.7501009       0.584273633      -53.7466515      0.584273633      -53.7466515      0.806441152      35.7501009       
1110.83          0.810050377      35.4000022       0.579303455      -54.0978135      0.579303455      -54.0978135      0.810050377      35.4000022       
1123.3           0.813585829      35.0540973       0.57437158       -54.4447037      0.57437158       -54.4447037      0.813585829      35.0540973       
1135.77          0.817049145      34.7123207       0.569478011      -54.7873885      0.569478011      -54.7873885      0.817049145      34.7123207       
1148.24          0.820441928      34.3746078       0.564622728      -55.1259332      0.564622728      -55.1259332      0.820441928      34.3746078       
1160.71          0.823765748      34.0408945       0.559805686      -55.4604024      0.559805686      -55.4604024      0.823765748      34.0408945       
1173.18          0.82702214       33.7111178       0.555026818      -55.79086        0.555026818      -55.79086        0.82702214       33.7111178       
1185.65          0.830212609      33.3852154       0.550286035      -56.1173687      0.550286035      -56.1173687      0.830212609      33.3852154       
1198.12          0.833338625      33.0631259       0.54558323       -56.4399907      0.54558323       -56.4399907      0.833338625      33.0631259       
1210.59          0.836401627      32.7447885       0.540918274      -56.758787       0.540918274      -56.758787       0.836401627      32.7447885       
1223.06          0.839403022      32.4301436       0.536291024      -57.0738178      0.536291024      -57.0738178      0.839403022      32.4301436       
1235.53          0.842344187      32.1191321       0.53170132       -57.3851425      0.53170132       -57.3851425      0.842344187      32.1191321       
1248             0.845226466      31.811696        0.527148987      -57.6928196      0.527148987      -57.6928196      0.845226466      31.811696        
1260.47          0.848051174      31.5077779       0.522633835      -57.9969067      0.522633835      -57.9969067      0.848051174      31.5077779       
1272.94          0.850819596      31.2073216       0.518155663      -58.2974603      0.518155663      -58.2974603      0.850819596      31.2073216       
1285.41          0.853532988      30.9102714       0.513714255      -58.5945362      0.513714255      -58.5945362      0.853532988      30.9102714       
1297.88          0.856192575      30.6165727       0.509309388      -58.8881895      0.509309388      -58.8881895      0.856192575      30.6165727       
1310.35          0.858799557      30.3261716       0.504940824      -59.178474       0.504940824      -59.178474       0.858799557      30.3261716       
1322.82          0.861355104      30.0390151       0.500608321      -59.4654428      0.500608321      -59.4654428      0.861355104      30.0390151       
1335.29          0.86386036       29.7550511       0.496311623      -59.7491483      0.496311623      -59.7491483      0.86386036       29.7550511       
1347.76          0.86631644       29.4742282       0.492050469      -60.0296418      0.492050469      -60.0296418      0.86631644       29.4742282       
1360.23          0.868724434      29.196496        0.487824591      -60.3069738      0.487824591      -60.3069738      0.868724434      29.196496        
1372.7           0.871085408      28.9218047       0.483633714      -60.581194       0.483633714      -60.581194       0.871085408      28.9218047       
1385.17          0.873400401      28.6501056       0.479477555      -60.8523512      0.479477555      -60.8523512      0.873400401      28.6501056       
1397.64          0.875670426      28.3813505       0.475355829      -61.1204932      0.475355829      -61.1204932      0.875670426      28.3813505       
1410.11          0.877896475      28.1154922       0.471268244      -61.3856674      0.471268244      -61.3856674      0.877896475      28.1154922       
1422.58          0.880079514      27.8524844       0.467214504      -61.6479199      0.467214504      -61.6479199      0.880079514      27.8524844       
1435.05          0.882220488      27.5922812       0.46319431       -61.9072962      0.46319431       -61.9072962      0.882220488      27.5922812       
1447.52          0.884320316      27.3348379       0.459207359      -62.1638411      0.459207359      -62.1638411      0.884320316      27.3348379       
1459.99          0.886379899      27.0801104       0.455253345      -62.4175983      0.455253345      -62.4175983      0.886379899      27.0801104       
1472.46          0.888400113      26.8280552       0.451331961      -62.6686111      0.451331961      -62.6686111      0.888400113      26.8280552       
1484.93          0.890381815      26.5786297       0.447442896      -62.9169217      0.447442896      -62.9169217      0.890381815      26.5786297       
1497.4           0.89232584       26.3317922       0.443585837      -63.1625716      0.443585837      -63.1625716      0.89232584       26.3317922       
1509.87          0.894233005      26.0875015       0.439760473      -63.4056017      0.439760473      -63.4056017      0.894233005      26.0875015       
1522.34          0.896104104      25.8457171       0.435966488      -63.646052       0.435966488      -63.646052       0.896104104      25.8457171       
1534.81          0.897939914      25.6063993       0.432203568      -63.8839617      0.432203568      -63.8839617      0.897939914      25.6063993       
1547.28          0.899741194      25.3695091       0.428471397      -64.1193696      0.428471397      -64.1193696      0.899741194      25.3695091       
1559.75          0.901508683      25.1350083       0.424769659      -64.3523134      0.424769659      -64.3523134      0.901508683      25.1350083       
1572.22          0.903243103      24.9028591       0.421098039      -64.5828302      0.421098039      -64.5828302      0.903243103      24.9028591       
1584.69          0.904945158      24.6730245       0.417456222      -64.8109567      0.417456222      -64.8109567      0.904945158      24.6730245       
