! Coilcraft 0805HQ-20N Chip Inductor				
! 19 June 2002			
# MHZ S MA R 50
!Freq             MagS11           AngS11           MagS21           AngS21           MagS12           AngS12           MagS22           AngS22
1                0.00156309939    55.3433958       0.99911196       -0.0737344901    0.99911196       -0.0737344901    0.00156309939    55.3433958       
10.47            0.0135623426     82.2795893       0.998268515      -0.77138011      0.998268515      -0.77138011      0.0135623426     82.2795893       
19.94            0.0257058625     83.9474835       0.997617131      -1.4682864       0.997617131      -1.4682864       0.0257058625     83.9474835       
29.41            0.0378426436     84.2358209       0.996910562      -2.16446072      0.996910562      -2.16446072      0.0378426436     84.2358209       
38.88            0.0499625401     84.1022557       0.996106729      -2.859807        0.996106729      -2.859807        0.0499625401     84.1022557       
48.35            0.0620599541     83.7790549       0.995189158      -3.55420173      0.995189158      -3.55420173      0.0620599541     83.7790549       
57.82            0.0741301436     83.3529423       0.994149741      -4.24750956      0.994149741      -4.24750956      0.0741301436     83.3529423       
67.29            0.0861686292     82.8643347       0.992984111      -4.93958936      0.992984111      -4.93958936      0.0861686292     82.8643347       
76.76            0.0981710505     82.3348727       0.991689899      -5.6302971       0.991689899      -5.6302971       0.0981710505     82.3348727       
86.23            0.110133127      81.7773159       0.99026595       -6.31948759      0.99026595       -6.31948759      0.110133127      81.7773159       
95.7             0.122050648      81.1997452       0.988711913      -7.0070156       0.988711913      -7.0070156       0.122050648      81.1997452       
105.17           0.133919479      80.607571        0.987028008      -7.69273658      0.987028008      -7.69273658      0.133919479      80.607571        
114.64           0.145735561      80.0045813       0.985214888      -8.37650731      0.985214888      -8.37650731      0.145735561      80.0045813       
124.11           0.157494923      79.3935288       0.98327355       -9.05818629      0.98327355       -9.05818629      0.157494923      79.3935288       
133.58           0.169193686      78.7764773       0.981205268      -9.7376342       0.981205268      -9.7376342       0.169193686      78.7764773       
143.05           0.180828068      78.1550165       0.979011553      -10.4147141      0.979011553      -10.4147141      0.180828068      78.1550165       
152.52           0.192394395      77.5304001       0.976694118      -11.0892919      0.976694118      -11.0892919      0.192394395      77.5304001       
161.99           0.203889102      76.903637        0.974254851      -11.7612363      0.974254851      -11.7612363      0.203889102      76.903637        
171.46           0.21530874       76.2755545       0.971695796      -12.4304194      0.971695796      -12.4304194      0.21530874       76.2755545       
180.93           0.226649982      75.6468419       0.969019136      -13.0967164      0.969019136      -13.0967164      0.226649982      75.6468419       
190.4            0.237909624      75.0180815       0.966227176      -13.7600061      0.966227176      -13.7600061      0.237909624      75.0180815       
199.87           0.249084592      74.389772        0.963322332      -14.4201712      0.963322332      -14.4201712      0.249084592      74.389772        
209.34           0.260171943      73.7623446       0.960307117      -15.0770979      0.960307117      -15.0770979      0.260171943      73.7623446       
218.81           0.271168866      73.1361767       0.957184131      -15.7306764      0.957184131      -15.7306764      0.271168866      73.1361767       
228.28           0.282072689      72.5116006       0.953956055      -16.3808008      0.953956055      -16.3808008      0.282072689      72.5116006       
237.75           0.292880876      71.8889119       0.950625632      -17.0273695      0.950625632      -17.0273695      0.292880876      71.8889119       
247.22           0.303591029      71.2683747       0.947195669      -17.6702849      0.947195669      -17.6702849      0.303591029      71.2683747       
256.69           0.314200892      70.6502265       0.943669022      -18.3094534      0.943669022      -18.3094534      0.314200892      70.6502265       
266.16           0.324708345      70.0346817       0.94004859       -18.944786       0.94004859       -18.944786       0.324708345      70.0346817       
275.63           0.335111411      69.4219349       0.936337307      -19.5761975      0.936337307      -19.5761975      0.335111411      69.4219349       
285.1            0.345408249      68.8121631       0.932538134      -20.2036075      0.932538134      -20.2036075      0.345408249      68.8121631       
294.57           0.355597159      68.2055278       0.928654055      -20.8269393      0.928654055      -20.8269393      0.355597159      68.2055278       
304.04           0.365676574      67.6021763       0.924688067      -21.4461209      0.924688067      -21.4461209      0.365676574      67.6021763       
313.51           0.375645066      67.0022438       0.920643176      -22.0610842      0.920643176      -22.0610842      0.375645066      67.0022438       
322.98           0.385501338      66.4058537       0.916522389      -22.6717657      0.916522389      -22.6717657      0.385501338      66.4058537       
332.45           0.395244224      65.8131192       0.912328711      -23.2781056      0.912328711      -23.2781056      0.395244224      65.8131192       
341.92           0.404872688      65.2241439       0.908065135      -23.8800487      0.908065135      -23.8800487      0.404872688      65.2241439       
351.39           0.414385818      64.6390226       0.903734644      -24.4775435      0.903734644      -24.4775435      0.414385818      64.6390226       
360.86           0.423782826      64.0578418       0.899340199      -25.0705428      0.899340199      -25.0705428      0.423782826      64.0578418       
370.33           0.433063045      63.4806807       0.894884738      -25.6590032      0.894884738      -25.6590032      0.433063045      63.4806807       
379.8            0.442225923      62.9076108       0.890371172      -26.2428852      0.890371172      -26.2428852      0.442225923      62.9076108       
389.27           0.451271021      62.3386975       0.885802379      -26.8221533      0.885802379      -26.8221533      0.451271021      62.3386975       
398.74           0.460198012      61.7739995       0.881181205      -27.3967753      0.881181205      -27.3967753      0.460198012      61.7739995       
408.21           0.469006673      61.2135697       0.876510452      -27.9667232      0.876510452      -27.9667232      0.469006673      61.2135697       
417.68           0.477696884      60.6574555       0.871792885      -28.5319721      0.871792885      -28.5319721      0.477696884      60.6574555       
427.15           0.486268624      60.1056989       0.867031222      -29.0925007      0.867031222      -29.0925007      0.486268624      60.1056989       
436.62           0.494721964      59.5583368       0.862228134      -29.6482912      0.862228134      -29.6482912      0.494721964      59.5583368       
446.09           0.50305707       59.0154015       0.857386241      -30.1993289      0.857386241      -30.1993289      0.50305707       59.0154015       
455.56           0.511274191      58.4769207       0.852508114      -30.7456022      0.852508114      -30.7456022      0.511274191      58.4769207       
465.03           0.519373661      57.9429179       0.847596268      -31.2871029      0.847596268      -31.2871029      0.519373661      57.9429179       
474.5            0.527355892      57.4134124       0.842653165      -31.8238253      0.842653165      -31.8238253      0.527355892      57.4134124       
483.97           0.535221371      56.8884197       0.837681207      -32.3557669      0.837681207      -32.3557669      0.535221371      56.8884197       
493.44           0.542970657      56.3679517       0.832682742      -32.8829279      0.832682742      -32.8829279      0.542970657      56.3679517       
502.91           0.550604376      55.8520168       0.827660057      -33.4053109      0.827660057      -33.4053109      0.550604376      55.8520168       
512.38           0.558123216      55.3406199       0.82261538       -33.9229212      0.82261538       -33.9229212      0.558123216      55.3406199       
521.85           0.565527927      54.8337631       0.817550877      -34.4357666      0.817550877      -34.4357666      0.565527927      54.8337631       
531.32           0.572819313      54.3314453       0.812468655      -34.9438572      0.812468655      -34.9438572      0.572819313      54.3314453       
540.79           0.579998232      53.8336626       0.807370761      -35.4472052      0.807370761      -35.4472052      0.579998232      53.8336626       
550.26           0.587065592      53.3404085       0.802259178      -35.945825       0.802259178      -35.945825       0.587065592      53.3404085       
559.73           0.594022343      52.851674        0.79713583       -36.4397331      0.79713583       -36.4397331      0.594022343      52.851674        
569.2            0.600869481      52.3674475       0.79200258       -36.9289476      0.79200258       -36.9289476      0.600869481      52.3674475       
578.67           0.607608039      51.8877153       0.786861229      -37.4134889      0.786861229      -37.4134889      0.607608039      51.8877153       
588.14           0.614239087      51.4124618       0.781713517      -37.8933788      0.781713517      -37.8933788      0.614239087      51.4124618       
597.61           0.620763728      50.9416689       0.776561127      -38.3686408      0.776561127      -38.3686408      0.620763728      50.9416689       
607.08           0.627183094      50.475317        0.771405681      -38.8392999      0.771405681      -38.8392999      0.627183094      50.475317        
616.55           0.633498345      50.0133846       0.766248742      -39.3053826      0.766248742      -39.3053826      0.633498345      50.0133846       
626.02           0.639710666      49.5558486       0.761091815      -39.7669169      0.761091815      -39.7669169      0.639710666      49.5558486       
635.49           0.645821262      49.1026842       0.755936349      -40.2239318      0.755936349      -40.2239318      0.645821262      49.1026842       
644.96           0.65183136       48.6538653       0.750783737      -40.6764576      0.750783737      -40.6764576      0.65183136       48.6538653       
654.43           0.657742203      48.2093643       0.745635316      -41.1245259      0.745635316      -41.1245259      0.657742203      48.2093643       
663.9            0.663555049      47.7691525       0.740492369      -41.568169       0.740492369      -41.568169       0.663555049      47.7691525       
673.37           0.669271166      47.3331999       0.735356125      -42.0074205      0.735356125      -42.0074205      0.669271166      47.3331999       
682.84           0.674891838      46.9014754       0.730227763      -42.4423147      0.730227763      -42.4423147      0.674891838      46.9014754       
692.31           0.680418353      46.4739469       0.725108409      -42.8728866      0.725108409      -42.8728866      0.680418353      46.4739469       
701.78           0.685852007      46.0505815       0.719999141      -43.2991723      0.719999141      -43.2991723      0.685852007      46.0505815       
711.25           0.691194102      45.6313454       0.714900987      -43.7212083      0.714900987      -43.7212083      0.691194102      45.6313454       
720.72           0.696445943      45.2162038       0.709814929      -44.1390317      0.709814929      -44.1390317      0.696445943      45.2162038       
730.19           0.701608836      44.8051215       0.704741902      -44.5526805      0.704741902      -44.5526805      0.701608836      44.8051215       
739.66           0.706684087      44.3980625       0.699682795      -44.9621928      0.699682795      -44.9621928      0.706684087      44.3980625       
749.13           0.711673002      43.9949902       0.694638455      -45.3676073      0.694638455      -45.3676073      0.711673002      43.9949902       
758.6            0.716576885      43.5958675       0.689609685      -45.7689633      0.689609685      -45.7689633      0.716576885      43.5958675       
768.07           0.721397034      43.2006569       0.684597249      -46.1663001      0.684597249      -46.1663001      0.721397034      43.2006569       
777.54           0.726134744      42.8093204       0.679601868      -46.5596575      0.679601868      -46.5596575      0.726134744      42.8093204       
787.01           0.730791304      42.4218197       0.674624227      -46.9490755      0.674624227      -46.9490755      0.730791304      42.4218197       
796.48           0.735367996      42.0381162       0.669664971      -47.3345943      0.669664971      -47.3345943      0.735367996      42.0381162       
805.95           0.739866093      41.6581709       0.66472471       -47.7162544      0.66472471       -47.7162544      0.739866093      41.6581709       
815.42           0.744286862      41.2819447       0.659804019      -48.0940962      0.659804019      -48.0940962      0.744286862      41.2819447       
824.89           0.748631557      40.9093985       0.654903436      -48.4681602      0.654903436      -48.4681602      0.748631557      40.9093985       
834.36           0.752901426      40.5404927       0.650023471      -48.8384873      0.650023471      -48.8384873      0.752901426      40.5404927       
843.83           0.757097701      40.1751878       0.645164598      -49.2051179      0.645164598      -49.2051179      0.757097701      40.1751878       
853.3            0.761221608      39.8134443       0.640327262      -49.5680928      0.640327262      -49.5680928      0.761221608      39.8134443       
862.77           0.765274356      39.4552226       0.635511878      -49.9274526      0.635511878      -49.9274526      0.765274356      39.4552226       
872.24           0.769257145      39.100483        0.630718834      -50.2832377      0.630718834      -50.2832377      0.769257145      39.100483        
881.71           0.77317116       38.749186        0.625948489      -50.6354886      0.625948489      -50.6354886      0.77317116       38.749186        
891.18           0.777017574      38.4012921       0.621201175      -50.9842456      0.621201175      -50.9842456      0.777017574      38.4012921       
900.65           0.780797544      38.0567618       0.616477201      -51.3295489      0.616477201      -51.3295489      0.780797544      38.0567618       
910.12           0.784512216      37.7155559       0.61177685       -51.6714383      0.61177685       -51.6714383      0.784512216      37.7155559       
919.59           0.788162719      37.3776351       0.60710038       -52.0099537      0.60710038       -52.0099537      0.788162719      37.3776351       
929.06           0.791750168      37.0429606       0.60244803       -52.3451346      0.60244803       -52.3451346      0.791750168      37.0429606       
938.53           0.795275663      36.7114934       0.597820015      -52.6770203      0.597820015      -52.6770203      0.795275663      36.7114934       
948              0.79874029       36.3831949       0.593216529      -53.0056499      0.593216529      -53.0056499      0.79874029       36.3831949       
957.47           0.802145119      36.0580267       0.588637748      -53.3310623      0.588637748      -53.3310623      0.802145119      36.0580267       
966.94           0.805491203      35.7359507       0.584083828      -53.6532958      0.584083828      -53.6532958      0.805491203      35.7359507       
976.41           0.808779583      35.4169288       0.579554906      -53.9723889      0.579554906      -53.9723889      0.808779583      35.4169288       
985.88           0.812011281      35.1009235       0.575051103      -54.2883793      0.575051103      -54.2883793      0.812011281      35.1009235       
995.35           0.815187306      34.7878973       0.570572522      -54.6013046      0.570572522      -54.6013046      0.815187306      34.7878973       
1004.82          0.818308651      34.4778131       0.566119251      -54.9112022      0.566119251      -54.9112022      0.818308651      34.4778131       
1014.29          0.821376291      34.1706341       0.561691363      -55.2181089      0.561691363      -55.2181089      0.821376291      34.1706341       
1023.76          0.824391188      33.8663238       0.557288915      -55.5220614      0.557288915      -55.5220614      0.824391188      33.8663238       
1033.23          0.827354287      33.564846        0.552911951      -55.8230957      0.552911951      -55.8230957      0.827354287      33.564846        
1042.7           0.830266519      33.2661649       0.548560502      -56.1212479      0.548560502      -56.1212479      0.830266519      33.2661649       
1052.17          0.833128799      32.9702449       0.544234587      -56.4165532      0.544234587      -56.4165532      0.833128799      32.9702449       
1061.64          0.835942025      32.6770508       0.539934212      -56.7090469      0.539934212      -56.7090469      0.835942025      32.6770508       
1071.11          0.838707081      32.3865479       0.535659372      -56.9987636      0.535659372      -56.9987636      0.838707081      32.3865479       
1080.58          0.841424837      32.0987016       0.531410051      -57.2857377      0.531410051      -57.2857377      0.841424837      32.0987016       
1090.05          0.844096146      31.8134778       0.527186223      -57.570003       0.527186223      -57.570003       0.844096146      31.8134778       
1099.52          0.846721846      31.5308428       0.522987851      -57.8515931      0.522987851      -57.8515931      0.846721846      31.5308428       
1108.99          0.849302763      31.250763        0.518814891      -58.1305411      0.518814891      -58.1305411      0.849302763      31.250763        
1118.46          0.851839704      30.9732056       0.514667288      -58.4068798      0.514667288      -58.4068798      0.851839704      30.9732056       
1127.93          0.854333466      30.6981378       0.51054498       -58.6806413      0.51054498       -58.6806413      0.854333466      30.6981378       
1137.4           0.856784828      30.4255274       0.506447897      -58.9518577      0.506447897      -58.9518577      0.856784828      30.4255274       
1146.87          0.859194557      30.1553424       0.502375961      -59.2205604      0.502375961      -59.2205604      0.859194557      30.1553424       
1156.34          0.861563405      29.8875513       0.498329088      -59.4867805      0.498329088      -59.4867805      0.861563405      29.8875513       
1165.81          0.86389211       29.6221229       0.494307186      -59.7505487      0.494307186      -59.7505487      0.86389211       29.6221229       
1175.28          0.866181398      29.3590265       0.490310157      -60.0118952      0.490310157      -60.0118952      0.866181398      29.3590265       
1184.75          0.86843198       29.0982317       0.486337898      -60.2708498      0.486337898      -60.2708498      0.86843198       29.0982317       
1194.22          0.870644553      28.8397083       0.4823903        -60.527442       0.4823903        -60.527442       0.870644553      28.8397083       
1203.69          0.872819802      28.5834268       0.478467249      -60.7817009      0.478467249      -60.7817009      0.872819802      28.5834268       
