! Coilcraft 0805HQ-6N2 Chip Inductor				
! 19 June 2002			
# MHZ S MA R 50
!Freq             MagS11           AngS11           MagS21           AngS21           MagS12           AngS12           MagS22           AngS22
1                0.000614473202   40.829647        0.999535135      -0.0230292904    0.999535135      -0.0230292904    0.000614473202   40.829647        
26.18            0.0105589533     84.3035912       0.999007199      -0.60260529      0.999007199      -0.60260529      0.0105589533     84.3035912       
51.36            0.0206585444     85.5642817       0.998614684      -1.18182295      0.998614684      -1.18182295      0.0206585444     85.5642817       
76.54            0.030754716      85.7163951       0.998174086      -1.76068449      0.998174086      -1.76068449      0.030754716      85.7163951       
101.72           0.0408420972     85.5467555       0.997660094      -2.33913673      0.997660094      -2.33913673      0.0408420972     85.5467555       
126.9            0.0509176883     85.2357477       0.997062968      -2.91711282      0.997062968      -2.91711282      0.0509176883     85.2357477       
152.08           0.060978905      84.8489798       0.996377894      -3.49454001      0.996377894      -3.49454001      0.060978905      84.8489798       
177.26           0.0710232817     84.416532        0.995602221      -4.07134256      0.995602221      -4.07134256      0.0710232817     84.416532        
202.44           0.081048401      83.9543215       0.994734435      -4.64744312      0.994734435      -4.64744312      0.081048401      83.9543215       
227.62           0.0910518741     83.4716461       0.993773706      -5.22276352      0.993773706      -5.22276352      0.0910518741     83.4716461       
252.8            0.101031337      82.9743475       0.992719646      -5.79722526      0.992719646      -5.79722526      0.101031337      82.9743475       
277.98           0.110984449      82.4663085       0.991572181      -6.37074988      0.991572181      -6.37074988      0.110984449      82.4663085       
303.16           0.120908898      81.9502295       0.990331474      -6.94325919      0.990331474      -6.94325919      0.120908898      81.9502295       
328.34           0.130802401      81.4280599       0.98899787       -7.51467549      0.98899787       -7.51467549      0.130802401      81.4280599       
353.52           0.140662707      80.9012517       0.987571862      -8.08492171      0.987571862      -8.08492171      0.140662707      80.9012517       
378.7            0.1504876        80.3709167       0.986054071      -8.65392155      0.986054071      -8.65392155      0.1504876        80.3709167       
403.88           0.160274902      79.8379258       0.984445227      -9.22159962      0.984445227      -9.22159962      0.160274902      79.8379258       
429.06           0.170022478      79.3029762       0.982746154      -9.78788152      0.982746154      -9.78788152      0.170022478      79.3029762       
454.24           0.179728232      78.7666362       0.98095776       -10.3526939      0.98095776       -10.3526939      0.179728232      78.7666362       
479.42           0.189390115      78.2293769       0.979081033      -10.9159647      0.979081033      -10.9159647      0.189390115      78.2293769       
504.6            0.199006127      77.6915946       0.977117028      -11.477623       0.977117028      -11.477623       0.199006127      77.6915946       
529.78           0.208574314      77.1536274       0.975066865      -12.0375992      0.975066865      -12.0375992      0.208574314      77.1536274       
554.96           0.218092776      76.6157669       0.972931724      -12.595825       0.972931724      -12.595825       0.218092776      76.6157669       
580.14           0.227559664      76.0782679       0.970712837      -13.1522339      0.970712837      -13.1522339      0.227559664      76.0782679       
605.32           0.236973182      75.5413546       0.96841149       -13.7067604      0.96841149       -13.7067604      0.236973182      75.5413546       
630.5            0.246331593      75.0052267       0.966029011      -14.2593408      0.966029011      -14.2593408      0.246331593      75.0052267       
655.68           0.255633213      74.4700628       0.963566773      -14.809913       0.963566773      -14.809913       0.255633213      74.4700628       
680.86           0.264876418      73.9360242       0.961026189      -15.3584164      0.961026189      -15.3584164      0.264876418      73.9360242       
706.04           0.274059642      73.4032576       0.958408707      -15.9047921      0.958408707      -15.9047921      0.274059642      73.4032576       
731.22           0.283181378      72.8718965       0.955715807      -16.448983       0.955715807      -16.448983       0.283181378      72.8718965       
756.4            0.292240178      72.3420636       0.952949002      -16.9909336      0.952949002      -16.9909336      0.292240178      72.3420636       
781.58           0.301234658      71.8138721       0.95010983       -17.53059        0.95010983       -17.53059        0.301234658      71.8138721       
806.76           0.310163491      71.2874263       0.947199853      -18.0679003      0.947199853      -18.0679003      0.310163491      71.2874263       
831.94           0.319025414      70.7628231       0.944220655      -18.6028142      0.944220655      -18.6028142      0.319025414      70.7628231       
857.12           0.327819222      70.2401525       0.94117384       -19.1352833      0.94117384       -19.1352833      0.327819222      70.2401525       
882.3            0.336543775      69.7194986       0.938061028      -19.665261       0.938061028      -19.665261       0.336543775      69.7194986       
907.48           0.345197992      69.2009397       0.934883852      -20.1927023      0.934883852      -20.1927023      0.345197992      69.2009397       
932.66           0.353780853      68.6845488       0.931643958      -20.7175642      0.931643958      -20.7175642      0.353780853      68.6845488       
957.84           0.362291399      68.1703946       0.928342999      -21.2398056      0.928342999      -21.2398056      0.362291399      68.1703946       
983.02           0.370728732      67.6585412       0.924982636      -21.7593869      0.924982636      -21.7593869      0.370728732      67.6585412       
1008.2           0.379092012      67.1490485       0.921564536      -22.2762705      0.921564536      -22.2762705      0.379092012      67.1490485       
1033.38          0.38738046       66.6419729       0.918090367      -22.7904205      0.918090367      -22.7904205      0.38738046       66.6419729       
1058.56          0.395593354      66.1373671       0.914561798      -23.3018029      0.914561798      -23.3018029      0.395593354      66.1373671       
1083.74          0.40373003       65.6352804       0.910980496      -23.8103854      0.910980496      -23.8103854      0.40373003       65.6352804       
1108.92          0.411789882      65.1357588       0.907348127      -24.3161374      0.907348127      -24.3161374      0.411789882      65.1357588       
1134.1           0.419772358      64.6388457       0.903666348      -24.8190302      0.903666348      -24.8190302      0.419772358      64.6388457       
1159.28          0.427676962      64.1445811       0.899936811      -25.3190365      0.899936811      -25.3190365      0.427676962      64.1445811       
1184.46          0.435503253      63.6530026       0.896161162      -25.8161312      0.896161162      -25.8161312      0.435503253      63.6530026       
1209.64          0.44325084       63.1641452       0.892341032      -26.3102903      0.892341032      -26.3102903      0.44325084       63.1641452       
1234.82          0.450919387      62.6780412       0.888478045      -26.8014919      0.888478045      -26.8014919      0.450919387      62.6780412       
1260             0.458508606      62.1947205       0.884573808      -27.2897156      0.884573808      -27.2897156      0.458508606      62.1947205       
1285.18          0.46601826       61.714211        0.880629916      -27.7749425      0.880629916      -27.7749425      0.46601826       61.714211        
1310.36          0.473448158      61.2365381       0.876647949      -28.2571554      0.876647949      -28.2571554      0.473448158      61.2365381       
1335.54          0.480798159      60.7617251       0.872629466      -28.7363385      0.872629466      -28.7363385      0.480798159      60.7617251       
1360.72          0.488068164      60.2897934       0.868576013      -29.2124776      0.868576013      -29.2124776      0.488068164      60.2897934       
1385.9           0.495258121      59.8207623       0.864489114      -29.6855601      0.864489114      -29.6855601      0.495258121      59.8207623       
1411.08          0.502368018      59.3546491       0.860370274      -30.1555746      0.860370274      -30.1555746      0.502368018      59.3546491       
1436.26          0.509397887      58.8914697       0.856220977      -30.6225114      0.856220977      -30.6225114      0.509397887      58.8914697       
1461.44          0.516347799      58.4312377       0.852042684      -31.0863619      0.852042684      -31.0863619      0.516347799      58.4312377       
1486.62          0.523217863      57.9739653       0.847836835      -31.5471191      0.847836835      -31.5471191      0.523217863      57.9739653       
1511.8           0.530008226      57.519663        0.843604847      -32.0047771      0.843604847      -32.0047771      0.530008226      57.519663        
1536.98          0.53671907       57.0683398       0.839348112      -32.4593314      0.839348112      -32.4593314      0.53671907       57.0683398       
1562.16          0.543350614      56.620003        0.835067998      -32.9107788      0.835067998      -32.9107788      0.543350614      56.620003        
1587.34          0.549903106      56.1746586       0.830765848      -33.3591171      0.830765848      -33.3591171      0.549903106      56.1746586       
1612.52          0.55637683       55.7323112       0.82644298       -33.8043454      0.82644298       -33.8043454      0.55637683       55.7323112       
1637.7           0.562772097      55.2929638       0.822100686      -34.2464641      0.822100686      -34.2464641      0.562772097      55.2929638       
1662.88          0.569089249      54.8566184       0.817740232      -34.6854743      0.817740232      -34.6854743      0.569089249      54.8566184       
1688.06          0.575328655      54.4232755       0.813362858      -35.1213787      0.813362858      -35.1213787      0.575328655      54.4232755       
1713.24          0.581490711      53.9929345       0.808969776      -35.5541804      0.808969776      -35.5541804      0.581490711      53.9929345       
1738.42          0.587575837      53.5655937       0.804562175      -35.9838841      0.804562175      -35.9838841      0.587575837      53.5655937       
1763.6           0.593584477      53.1412502       0.800141212      -36.410495       0.800141212      -36.410495       0.593584477      53.1412502       
1788.78          0.599517099      52.7198999       0.79570802       -36.8340195      0.79570802       -36.8340195      0.599517099      52.7198999       
1813.96          0.605374191      52.301538        0.791263706      -37.2544648      0.791263706      -37.2544648      0.605374191      52.301538        
1839.14          0.611156262      51.8861585       0.786809347      -37.6718389      0.786809347      -37.6718389      0.611156262      51.8861585       
1864.32          0.616863838      51.4737543       0.782345996      -38.0861506      0.782345996      -38.0861506      0.616863838      51.4737543       
1889.5           0.622497466      51.0643178       0.777874678      -38.4974097      0.777874678      -38.4974097      0.622497466      51.0643178       
1914.68          0.628057707      50.6578403       0.773396389      -38.9056265      0.773396389      -38.9056265      0.628057707      50.6578403       
1939.86          0.633545139      50.2543121       0.768912103      -39.3108121      0.768912103      -39.3108121      0.633545139      50.2543121       
1965.04          0.638960354      49.8537232       0.764422763      -39.7129784      0.764422763      -39.7129784      0.638960354      49.8537232       
1990.22          0.644303957      49.4560623       0.759929288      -40.1121378      0.759929288      -40.1121378      0.644303957      49.4560623       
2015.4           0.649576567      49.0613178       0.755432572      -40.5083035      0.755432572      -40.5083035      0.649576567      49.0613178       
2040.58          0.654778814      48.6694772       0.750933482      -40.901489       0.750933482      -40.901489       0.654778814      48.6694772       
2065.76          0.659911338      48.2805275       0.746432857      -41.2917088      0.746432857      -41.2917088      0.659911338      48.2805275       
2090.94          0.664974789      47.8944549       0.741931516      -41.6789775      0.741931516      -41.6789775      0.664974789      47.8944549       
2116.12          0.669969825      47.5112453       0.737430248      -42.0633105      0.737430248      -42.0633105      0.669969825      47.5112453       
2141.3           0.674897115      47.1308837       0.732929822      -42.4447236      0.732929822      -42.4447236      0.674897115      47.1308837       
2166.48          0.679757331      46.7533549       0.728430979      -42.823233       0.728430979      -42.823233       0.679757331      46.7533549       
2191.66          0.684551154      46.378643        0.723934438      -43.1988553      0.723934438      -43.1988553      0.684551154      46.378643        
2216.84          0.689279269      46.0067317       0.719440893      -43.5716077      0.719440893      -43.5716077      0.689279269      46.0067317       
2242.02          0.693942368      45.6376043       0.714951018      -43.9415076      0.714951018      -43.9415076      0.693942368      45.6376043       
2267.2           0.698541146      45.2712437       0.710465461      -44.3085728      0.710465461      -44.3085728      0.698541146      45.2712437       
2292.38          0.703076301      44.9076324       0.70598485       -44.6728214      0.70598485       -44.6728214      0.703076301      44.9076324       
2317.56          0.707548533      44.5467525       0.701509788      -45.0342719      0.701509788      -45.0342719      0.707548533      44.5467525       
2342.74          0.711958548      44.1885858       0.697040861      -45.392943       0.697040861      -45.392943       0.711958548      44.1885858       
2367.92          0.716307049      43.8331138       0.692578629      -45.7488538      0.692578629      -45.7488538      0.716307049      43.8331138       
2393.1           0.720594743      43.4803177       0.688123636      -46.1020233      0.688123636      -46.1020233      0.720594743      43.4803177       
2418.28          0.724822336      43.1301784       0.683676402      -46.4524712      0.683676402      -46.4524712      0.724822336      43.1301784       
2443.46          0.728990536      42.7826767       0.679237429      -46.8002169      0.679237429      -46.8002169      0.728990536      42.7826767       
2468.64          0.733100049      42.4377929       0.6748072        -47.1452805      0.6748072        -47.1452805      0.733100049      42.4377929       
2493.82          0.737151579      42.0955075       0.670386178      -47.4876819      0.670386178      -47.4876819      0.737151579      42.0955075       
2519             0.741145831      41.7558003       0.665974807      -47.8274412      0.665974807      -47.8274412      0.741145831      41.7558003       
2544.18          0.745083508      41.4186515       0.661573516      -48.1645788      0.661573516      -48.1645788      0.745083508      41.4186515       
2569.36          0.748965308      41.0840407       0.657182713      -48.4991151      0.657182713      -48.4991151      0.748965308      41.0840407       
2594.54          0.75279193       40.7519475       0.65280279       -48.8310705      0.65280279       -48.8310705      0.75279193       40.7519475       
2619.72          0.756564068      40.4223515       0.648434122      -49.1604657      0.648434122      -49.1604657      0.756564068      40.4223515       
2644.9           0.760282413      40.0952321       0.644077068      -49.4873213      0.644077068      -49.4873213      0.760282413      40.0952321       
2670.08          0.763947652      39.7705685       0.639731972      -49.811658       0.639731972      -49.811658       0.763947652      39.7705685       
2695.26          0.767560471      39.4483402       0.635399161      -50.1334966      0.635399161      -50.1334966      0.767560471      39.4483402       
2720.44          0.771121549      39.1285261       0.631078947      -50.4528579      0.631078947      -50.4528579      0.771121549      39.1285261       
2745.62          0.77463156       38.8111056       0.626771628      -50.7697627      0.626771628      -50.7697627      0.77463156       38.8111056       
2770.8           0.778091176      38.4960576       0.622477487      -51.0842318      0.622477487      -51.0842318      0.778091176      38.4960576       
2795.98          0.781501062      38.1833614       0.618196794      -51.396286       0.618196794      -51.396286       0.781501062      38.1833614       
2821.16          0.78486188       37.8729958       0.613929805      -51.7059461      0.613929805      -51.7059461      0.78486188       37.8729958       
2846.34          0.788174285      37.5649402       0.609676763      -52.0132329      0.609676763      -52.0132329      0.788174285      37.5649402       
2871.52          0.791438927      37.2591734       0.605437898      -52.3181671      0.605437898      -52.3181671      0.791438927      37.2591734       
2896.7           0.79465645       36.9556747       0.601213428      -52.6207693      0.601213428      -52.6207693      0.79465645       36.9556747       
2921.88          0.797827495      36.6544231       0.597003559      -52.9210602      0.597003559      -52.9210602      0.797827495      36.6544231       
2947.06          0.800952692      36.3553979       0.592808484      -53.2190603      0.592808484      -53.2190603      0.800952692      36.3553979       
2972.24          0.80403267       36.0585782       0.588628388      -53.5147902      0.588628388      -53.5147902      0.80403267       36.0585782       
2997.42          0.807068048      35.7639434       0.584463442      -53.8082702      0.584463442      -53.8082702      0.807068048      35.7639434       
3022.6           0.810059442      35.4714727       0.580313807      -54.0995207      0.580313807      -54.0995207      0.810059442      35.4714727       
3047.78          0.81300746       35.1811456       0.576179635      -54.3885618      0.576179635      -54.3885618      0.81300746       35.1811456       
3072.96          0.815912703      34.8929417       0.572061067      -54.6754137      0.572061067      -54.6754137      0.815912703      34.8929417       
3098.14          0.818775767      34.6068403       0.567958236      -54.9600965      0.567958236      -54.9600965      0.818775767      34.6068403       
3123.32          0.821597241      34.3228213       0.563871262      -55.2426299      0.563871262      -55.2426299      0.821597241      34.3228213       
3148.5           0.824377706      34.0408643       0.559800261      -55.5230338      0.559800261      -55.5230338      0.824377706      34.0408643       
3173.68          0.827117738      33.7609493       0.555745336      -55.8013278      0.555745336      -55.8013278      0.827117738      33.7609493       
3198.86          0.829817906      33.4830562       0.551706584      -56.0775315      0.551706584      -56.0775315      0.829817906      33.4830562       
