! Coilcraft 0805HQ-30N Chip Inductor				
! 19 June 2002			
# MHZ S MA R 50
!Freq             MagS11           AngS11           MagS21           AngS21           MagS12           AngS12           MagS22           AngS22
1                0.00234945703    53.1336283       0.99859221       -0.107848039     0.99859221       -0.107848039     0.00234945703    53.1336283       
8.48             0.016108086      80.9553972       0.997594598      -0.913686347     0.997594598      -0.913686347     0.016108086      80.9553972       
15.96            0.0301159798     83.0024142       0.996779345      -1.718457        0.996779345      -1.718457        0.0301159798     83.0024142       
23.44            0.0441180222     83.3773466       0.995876572      -2.5221201       0.995876572      -2.5221201       0.0441180222     83.3773466       
30.92            0.0580952191     83.241844        0.994837629      -3.32450054      0.994837629      -3.32450054      0.0580952191     83.241844        
38.4             0.0720378648     82.8784124       0.993643605      -4.12538695      0.993643605      -4.12538695      0.0720378648     82.8784124       
45.88            0.0859380998     82.3922196       0.992285492      -4.92455296      0.992285492      -4.92455296      0.0859380998     82.3922196       
53.36            0.0997886723     81.8321029       0.99075878       -5.7217655       0.99075878       -5.7217655       0.0997886723     81.8321029       
60.84            0.113582625      81.2241294       0.98906142       -6.51678903      0.98906142       -6.51678903      0.113582625      81.2241294       
68.32            0.127313205      80.5836325       0.987192883      -7.30938808      0.987192883      -7.30938808      0.127313205      80.5836325       
75.8             0.140973835      79.9203084       0.98515368       -8.09932888      0.98515368       -8.09932888      0.140973835      79.9203084       
83.28            0.154558114      79.2406454       0.982945076      -8.88638061      0.982945076      -8.88638061      0.154558114      79.2406454       
90.76            0.168059826      78.5491881       0.980568923      -9.67031635      0.980568923      -9.67031635      0.168059826      78.5491881       
98.24            0.181472948      77.8492428       0.978027546      -10.4509138      0.978027546      -10.4509138      0.181472948      77.8492428       
105.72           0.19479166       77.1432932       0.975323658      -11.227956       0.975323658      -11.227956       0.19479166       77.1432932       
113.2            0.20801036       76.4332577       0.972460305      -12.0012317      0.972460305      -12.0012317      0.20801036       76.4332577       
120.68           0.221123672      75.720653        0.96944082       -12.7705361      0.96944082       -12.7705361      0.221123672      75.720653        
128.16           0.234126452      75.0067044       0.966268778      -13.5356709      0.966268778      -13.5356709      0.234126452      75.0067044       
135.64           0.247013802      74.292419        0.962947975      -14.296445       0.962947975      -14.296445       0.247013802      74.292419        
143.12           0.259781068      73.5786385       0.95948239       -15.0526743      0.95948239       -15.0526743      0.259781068      73.5786385       
150.6            0.272423853      72.8660754       0.955876167      -15.8041826      0.955876167      -15.8041826      0.272423853      72.8660754       
158.08           0.284938019      72.1553409       0.95213359       -16.5508013      0.95213359       -16.5508013      0.284938019      72.1553409       
165.56           0.297319687      71.4469637       0.948259061      -17.2923696      0.948259061      -17.2923696      0.297319687      71.4469637       
173.04           0.30956524       70.7414059       0.944257083      -18.0287348      0.944257083      -18.0287348      0.30956524       70.7414059       
180.52           0.321671326      70.0390742       0.940132241      -18.7597525      0.940132241      -18.7597525      0.321671326      70.0390742       
188              0.333634855      69.3403281       0.935889183      -19.4852862      0.935889183      -19.4852862      0.333634855      69.3403281       
195.48           0.345452998      68.6454879       0.931532607      -20.2052078      0.931532607      -20.2052078      0.345452998      68.6454879       
202.96           0.357123185      67.9548392       0.927067244      -20.9193974      0.927067244      -20.9193974      0.357123185      67.9548392       
210.44           0.3686431        67.2686379       0.922497843      -21.6277431      0.922497843      -21.6277431      0.3686431        67.2686379       
217.92           0.38001068       66.5871135       0.91782916       -22.3301413      0.91782916       -22.3301413      0.38001068       66.5871135       
225.4            0.391224108      65.9104721       0.913065941      -23.0264964      0.913065941      -23.0264964      0.391224108      65.9104721       
232.88           0.402281807      65.2388987       0.908212915      -23.7167207      0.908212915      -23.7167207      0.402281807      65.2388987       
240.36           0.413182437      64.5725593       0.903274779      -24.4007343      0.903274779      -24.4007343      0.413182437      64.5725593       
247.84           0.423924884      63.911603        0.89825619       -25.078465       0.89825619       -25.078465       0.423924884      63.911603        
255.32           0.434508254      63.2561627       0.893161753      -25.7498481      0.893161753      -25.7498481      0.434508254      63.2561627       
262.8            0.44493187       62.606357        0.887996016      -26.4148263      0.887996016      -26.4148263      0.44493187       62.606357        
270.28           0.455195257      61.9622911       0.882763458      -27.0733493      0.882763458      -27.0733493      0.455195257      61.9622911       
277.76           0.465298139      61.3240577       0.877468483      -27.725374       0.877468483      -27.725374       0.465298139      61.3240577       
285.24           0.475240429      60.6917381       0.872115414      -28.3708638      0.872115414      -28.3708638      0.475240429      60.6917381       
292.72           0.485022218      60.0654028       0.866708486      -29.0097887      0.866708486      -29.0097887      0.485022218      60.0654028       
300.2            0.494643773      59.4451122       0.861251842      -29.6421253      0.861251842      -29.6421253      0.494643773      59.4451122       
307.68           0.504105521      58.8309173       0.855749527      -30.2678558      0.855749527      -30.2678558      0.504105521      58.8309173       
315.16           0.513408042      58.2228606       0.850205486      -30.8869686      0.850205486      -30.8869686      0.513408042      58.2228606       
322.64           0.522552066      57.6209759       0.844623556      -31.4994577      0.844623556      -31.4994577      0.522552066      57.6209759       
330.12           0.531538456      57.0252898       0.839007469      -32.1053222      0.839007469      -32.1053222      0.531538456      57.0252898       
337.6            0.540368204      56.4358212       0.833360847      -32.7045666      0.833360847      -32.7045666      0.540368204      56.4358212       
345.08           0.549042423      55.8525826       0.827687198      -33.2972002      0.827687198      -33.2972002      0.549042423      55.8525826       
352.56           0.557562337      55.2755799       0.821989919      -33.883237       0.821989919      -33.883237       0.557562337      55.2755799       
360.04           0.565929274      54.7048131       0.816272291      -34.4626954      0.816272291      -34.4626954      0.565929274      54.7048131       
367.52           0.574144657      54.1402767       0.810537482      -35.0355979      0.810537482      -35.0355979      0.574144657      54.1402767       
375              0.582209996      53.5819598       0.804788544      -35.6019711      0.804788544      -35.6019711      0.582209996      53.5819598       
382.48           0.590126885      53.0298468       0.799028414      -36.1618453      0.799028414      -36.1618453      0.590126885      53.0298468       
389.96           0.597896989      52.4839175       0.793259918      -36.7152542      0.793259918      -36.7152542      0.597896989      52.4839175       
397.44           0.605522038      51.9441475       0.787485767      -37.2622349      0.787485767      -37.2622349      0.605522038      51.9441475       
404.92           0.613003825      51.4105082       0.781708559      -37.8028276      0.781708559      -37.8028276      0.613003825      51.4105082       
412.4            0.620344196      50.8829677       0.775930784      -38.3370753      0.775930784      -38.3370753      0.620344196      50.8829677       
419.88           0.627545043      50.3614904       0.770154822      -38.8650236      0.770154822      -38.8650236      0.627545043      50.3614904       
427.36           0.6346083        49.8460377       0.764382945      -39.3867208      0.764382945      -39.3867208      0.6346083        49.8460377       
434.84           0.641535938      49.336568        0.758617323      -39.9022173      0.758617323      -39.9022173      0.641535938      49.336568        
442.32           0.648329958      48.8330371       0.752860019      -40.4115657      0.752860019      -40.4115657      0.648329958      48.8330371       
449.8            0.654992388      48.3353983       0.747113         -40.9148205      0.747113         -40.9148205      0.654992388      48.3353983       
457.28           0.661525277      47.8436026       0.741378131      -41.412038       0.741378131      -41.412038       0.661525277      47.8436026       
464.76           0.667930689      47.357599        0.735657183      -41.9032761      0.735657183      -41.9032761      0.667930689      47.357599        
472.24           0.674210704      46.8773346       0.729951834      -42.3885941      0.729951834      -42.3885941      0.674210704      46.8773346       
479.72           0.680367408      46.4027547       0.724263671      -42.8680527      0.724263671      -42.8680527      0.680367408      46.4027547       
487.2            0.686402893      45.9338033       0.718594193      -43.3417137      0.718594193      -43.3417137      0.686402893      45.9338033       
494.68           0.692319253      45.4704229       0.712944814      -43.80964        0.712944814      -43.80964        0.692319253      45.4704229       
502.16           0.69811858       45.0125548       0.707316866      -44.2718952      0.707316866      -44.2718952      0.69811858       45.0125548       
509.64           0.703802964      44.5601391       0.7017116        -44.728544       0.7017116        -44.728544       0.703802964      44.5601391       
517.12           0.709374483      44.1131152       0.696130191      -45.1796515      0.696130191      -45.1796515      0.709374483      44.1131152       
524.6            0.71483521       43.6714215       0.690573741      -45.6252835      0.690573741      -45.6252835      0.71483521       43.6714215       
532.08           0.720187204      43.2349957       0.685043277      -46.0655063      0.685043277      -46.0655063      0.720187204      43.2349957       
539.56           0.72543251       42.803775        0.679539759      -46.5003863      0.679539759      -46.5003863      0.72543251       42.803775        
547.04           0.730573156      42.3776962       0.674064082      -46.9299905      0.674064082      -46.9299905      0.730573156      42.3776962       
554.52           0.735611155      41.9566956       0.668617074      -47.3543858      0.668617074      -47.3543858      0.735611155      41.9566956       
562              0.740548498      41.5407091       0.663199506      -47.7736394      0.663199506      -47.7736394      0.740548498      41.5407091       
569.48           0.745387155      41.1296726       0.657812087      -48.1878184      0.657812087      -48.1878184      0.745387155      41.1296726       
576.96           0.750129076      40.7235219       0.65245547       -48.5969899      0.65245547       -48.5969899      0.750129076      40.7235219       
584.44           0.754776184      40.3221926       0.647130257      -49.0012209      0.647130257      -49.0012209      0.754776184      40.3221926       
591.92           0.759330382      39.9256204       0.641836995      -49.4005783      0.641836995      -49.4005783      0.759330382      39.9256204       
599.4            0.763793543      39.5337411       0.636576184      -49.7951284      0.636576184      -49.7951284      0.763793543      39.5337411       
606.88           0.768167517      39.1464907       0.631348278      -50.1849377      0.631348278      -50.1849377      0.768167517      39.1464907       
614.36           0.772454126      38.7638053       0.626153683      -50.5700721      0.626153683      -50.5700721      0.772454126      38.7638053       
621.84           0.776655164      38.3856215       0.620992764      -50.950597       0.620992764      -50.950597       0.776655164      38.3856215       
629.32           0.780772397      38.0118759       0.615865848      -51.3265777      0.615865848      -51.3265777      0.780772397      38.0118759       
636.8            0.784807564      37.6425057       0.610773218      -51.6980788      0.610773218      -51.6980788      0.784807564      37.6425057       
644.28           0.788762373      37.2774484       0.605715124      -52.0651644      0.605715124      -52.0651644      0.788762373      37.2774484       
651.76           0.792638505      36.9166419       0.60069178       -52.4278982      0.60069178       -52.4278982      0.792638505      36.9166419       
659.24           0.796437609      36.5600247       0.595703367      -52.7863431      0.595703367      -52.7863431      0.796437609      36.5600247       
666.72           0.800161309      36.2075358       0.590750035      -53.1405617      0.590750035      -53.1405617      0.800161309      36.2075358       
674.2            0.803811194      35.8591145       0.585831903      -53.4906157      0.585831903      -53.4906157      0.803811194      35.8591145       
681.68           0.807388828      35.514701        0.580949062      -53.8365664      0.580949062      -53.8365664      0.807388828      35.514701        
689.16           0.810895743      35.1742359       0.576101577      -54.1784743      0.576101577      -54.1784743      0.810895743      35.1742359       
696.64           0.814333444      34.8376603       0.571289488      -54.5163992      0.571289488      -54.5163992      0.814333444      34.8376603       
704.12           0.817703403      34.5049162       0.566512809      -54.8504003      0.566512809      -54.8504003      0.817703403      34.5049162       
711.6            0.821007067      34.1759461       0.561771535      -55.180536       0.561771535      -55.180536       0.821007067      34.1759461       
719.08           0.824245851      33.850693        0.557065637      -55.506864       0.557065637      -55.506864       0.824245851      33.850693        
726.56           0.827421144      33.5291008       0.552395068      -55.8294413      0.552395068      -55.8294413      0.827421144      33.5291008       
734.04           0.830534304      33.2111141       0.547759759      -56.1483241      0.547759759      -56.1483241      0.830534304      33.2111141       
741.52           0.833586663      32.896678        0.543159628      -56.463568       0.543159628      -56.463568       0.833586663      32.896678        
749              0.836579524      32.5857385       0.538594572      -56.7752276      0.538594572      -56.7752276      0.836579524      32.5857385       
756.48           0.839514162      32.278242        0.534064475      -57.083357       0.534064475      -57.083357       0.839514162      32.278242        
763.96           0.842391827      31.974136        0.529569207      -57.3880093      0.529569207      -57.3880093      0.842391827      31.974136        
771.44           0.845213741      31.6733684       0.525108623      -57.6892371      0.525108623      -57.6892371      0.845213741      31.6733684       
778.92           0.847981099      31.3758881       0.520682565      -57.9870919      0.520682565      -57.9870919      0.847981099      31.3758881       
786.4            0.850695071      31.0816444       0.516290865      -58.2816246      0.516290865      -58.2816246      0.850695071      31.0816444       
793.88           0.853356801      30.7905876       0.511933342      -58.5728855      0.511933342      -58.5728855      0.853356801      30.7905876       
801.36           0.855967408      30.5026686       0.507609806      -58.8609239      0.507609806      -58.8609239      0.855967408      30.5026686       
808.84           0.858527987      30.217839        0.503320058      -59.1457884      0.503320058      -59.1457884      0.858527987      30.217839        
816.32           0.861039606      29.9360511       0.499063888      -59.4275269      0.499063888      -59.4275269      0.861039606      29.9360511       
823.8            0.863503312      29.657258        0.49484108       -59.7061864      0.49484108       -59.7061864      0.863503312      29.657258        
831.28           0.865920128      29.3814135       0.490651411      -59.9818132      0.490651411      -59.9818132      0.865920128      29.3814135       
838.76           0.868291052      29.1084721       0.486494649      -60.2544531      0.486494649      -60.2544531      0.868291052      29.1084721       
846.24           0.870617063      28.8383889       0.482370557      -60.5241507      0.482370557      -60.5241507      0.870617063      28.8383889       
853.72           0.872899114      28.5711199       0.478278892      -60.7909502      0.478278892      -60.7909502      0.872899114      28.5711199       
861.2            0.875138139      28.3066216       0.474219406      -61.0548951      0.474219406      -61.0548951      0.875138139      28.3066216       
868.68           0.877335048      28.0448514       0.470191846      -61.3160278      0.470191846      -61.3160278      0.877335048      28.0448514       
876.16           0.879490734      27.7857671       0.466195956      -61.5743904      0.466195956      -61.5743904      0.879490734      27.7857671       
883.64           0.881606067      27.5293274       0.462231473      -61.8300241      0.462231473      -61.8300241      0.881606067      27.5293274       
891.12           0.883681896      27.2754917       0.458298134      -62.0829693      0.458298134      -62.0829693      0.883681896      27.2754917       
898.6            0.885719054      27.0242198       0.454395672      -62.3332659      0.454395672      -62.3332659      0.885719054      27.0242198       
906.08           0.887718351      26.7754724       0.450523816      -62.5809529      0.450523816      -62.5809529      0.887718351      26.7754724       
913.56           0.88968058       26.5292108       0.446682294      -62.8260689      0.446682294      -62.8260689      0.88968058       26.5292108       
921.04           0.891606516      26.2853969       0.442870832      -63.0686516      0.442870832      -63.0686516      0.891606516      26.2853969       
928.52           0.893496916      26.0439933       0.439089155      -63.308738       0.439089155      -63.308738       0.893496916      26.0439933       
936              0.895352519      25.8049631       0.435336984      -63.5463646      0.435336984      -63.5463646      0.895352519      25.8049631       
943.48           0.897174047      25.56827         0.431614042      -63.7815672      0.431614042      -63.7815672      0.897174047      25.56827         
950.96           0.898962205      25.3338786       0.42792005       -64.0143809      0.42792005       -64.0143809      0.898962205      25.3338786       
