! Coilcraft 0805HQ-2N5 Chip Inductor				
! 19 June 2002			
# MHZ S MA R 50
!Freq             MagS11           AngS11           MagS21           AngS21           MagS12           AngS12           MagS22           AngS22
1                0.000317940831   32.2280389       0.999731058      -0.00971738596   0.999731058      -0.00971738595   0.000317940831   32.2280389       
50.37            0.00856670449    84.8961733       0.99927433       -0.489250884     0.99927433       -0.489250884     0.00856670449    84.8961733       
99.74            0.0169268852     86.0235081       0.998968896      -0.968549034     0.998968896      -0.968549034     0.0169268852     86.0235081       
149.11           0.0252846861     86.1921767       0.998639573      -1.44763085      0.998639573      -1.44763085      0.0252846861     86.1921767       
198.48           0.0336373565     86.0797147       0.998264494      -1.92647474      0.998264494      -1.92647474      0.0336373565     86.0797147       
247.85           0.0419833396     85.8424861       0.997835222      -2.40504929      0.997835222      -2.40504929      0.0419833396     85.8424861       
297.22           0.0503212748     85.537777        0.997347513      -2.88331881      0.997347513      -2.88331881      0.0503212748     85.537777        
346.59           0.05864985       85.1920126       0.996798939      -3.36124532      0.996798939      -3.36124532      0.05864985       85.1920126       
395.96           0.0669677691     84.819244        0.996188014      -3.83878951      0.996188014      -3.83878951      0.0669677691     84.819244        
445.33           0.0752737423     84.4277087       0.995513805      -4.31591125      0.995513805      -4.31591125      0.0752737423     84.4277087       
494.7            0.0835664857     84.0225943       0.99477573       -4.79256994      0.99477573       -4.79256994      0.0835664857     84.0225943       
544.07           0.0918447208     83.6073534       0.993973448      -5.26872472      0.993973448      -5.26872472      0.0918447208     83.6073534       
593.44           0.100107177      83.1843867       0.993106791      -5.7443346       0.993106791      -5.7443346       0.100107177      83.1843867       
642.81           0.10835259       82.7554253       0.992175725      -6.21935861      0.992175725      -6.21935861      0.10835259       82.7554253       
692.18           0.116579709      82.3217555       0.991180318      -6.69375586      0.991180318      -6.69375586      0.116579709      82.3217555       
741.55           0.124787291      81.884358        0.990120724      -7.16748561      0.990120724      -7.16748561      0.124787291      81.884358        
790.92           0.132974108      81.443998        0.988997167      -7.64050736      0.988997167      -7.64050736      0.132974108      81.443998        
840.29           0.141138943      81.001284        0.987809931      -8.11278088      0.987809931      -8.11278088      0.141138943      81.001284        
889.66           0.149280597      80.5567087       0.986559354      -8.58426626      0.986559354      -8.58426626      0.149280597      80.5567087       
939.03           0.157397885      80.1106772       0.985245823      -9.05492394      0.985245823      -9.05492394      0.157397885      80.1106772       
988.4            0.165489638      79.6635276       0.983869763      -9.52471478      0.983869763      -9.52471478      0.165489638      79.6635276       
1037.77          0.173554706      79.2155456       0.982431642      -9.99360005      0.982431642      -9.99360005      0.173554706      79.2155456       
1087.14          0.181591958      78.7669754       0.98093196       -10.4615415      0.98093196       -10.4615415      0.181591958      78.7669754       
1136.51          0.18960028       78.3180284       0.979371254      -10.9285013      0.979371254      -10.9285013      0.18960028       78.3180284       
1185.88          0.197578581      77.8688888       0.977750086      -11.3944422      0.977750086      -11.3944422      0.197578581      77.8688888       
1235.25          0.205525789      77.4197192       0.976069052      -11.8593274      0.976069052      -11.8593274      0.205525789      77.4197192       
1284.62          0.213440855      76.9706639       0.974328771      -12.3231209      0.974328771      -12.3231209      0.213440855      76.9706639       
1333.99          0.221322749      76.521852        0.972529888      -12.7857869      0.972529888      -12.7857869      0.221322749      76.521852        
1383.36          0.229170468      76.0734001       0.970673072      -13.2472905      0.970673072      -13.2472905      0.229170468      76.0734001       
1432.73          0.236983028      75.6254137       0.968759014      -13.7075974      0.968759014      -13.7075974      0.236983028      75.6254137       
1482.1           0.244759472      75.1779893       0.966788424      -14.1666737      0.966788424      -14.1666737      0.244759472      75.1779893       
1531.47          0.252498866      74.7312152       0.964762033      -14.6244863      0.964762033      -14.6244863      0.252498866      74.7312152       
1580.84          0.2602003        74.285173        0.962680592      -15.0810028      0.962680592      -15.0810028      0.2602003        74.285173        
1630.21          0.267862889      73.8399381       0.960544865      -15.5361915      0.960544865      -15.5361915      0.267862889      73.8399381       
1679.58          0.275485774      73.3955806       0.958355635      -15.9900212      0.958355635      -15.9900212      0.275485774      73.3955806       
1728.95          0.283068121      72.9521658       0.956113699      -16.4424615      0.956113699      -16.4424615      0.283068121      72.9521658       
1778.32          0.290609121      72.5097548       0.953819869      -16.8934829      0.953819869      -16.8934829      0.290609121      72.5097548       
1827.69          0.298107994      72.068405        0.951474967      -17.3430562      0.951474967      -17.3430562      0.298107994      72.068405        
1877.06          0.305563981      71.6281702       0.94907983       -17.7911533      0.94907983       -17.7911533      0.305563981      71.6281702       
1926.43          0.312976355      71.1891012       0.946635305      -18.2377467      0.946635305      -18.2377467      0.312976355      71.1891012       
1975.8           0.320344411      70.7512459       0.944142248      -18.6828095      0.944142248      -18.6828095      0.320344411      70.7512459       
2025.17          0.327667474      70.3146497       0.941601524      -19.1263158      0.941601524      -19.1263158      0.327667474      70.3146497       
2074.54          0.334944892      69.8793554       0.939014007      -19.5682403      0.939014007      -19.5682403      0.334944892      69.8793554       
2123.91          0.342176042      69.4454037       0.936380579      -20.0085584      0.936380579      -20.0085584      0.342176042      69.4454037       
2173.28          0.349360326      69.0128332       0.933702127      -20.4472463      0.933702127      -20.4472463      0.349360326      69.0128332       
2222.65          0.356497175      68.5816805       0.930979544      -20.8842811      0.930979544      -20.8842811      0.356497175      68.5816805       
2272.02          0.363586043      68.1519803       0.928213726      -21.3196403      0.928213726      -21.3196403      0.363586043      68.1519803       
2321.39          0.370626412      67.7237658       0.925405577      -21.7533026      0.925405577      -21.7533026      0.370626412      67.7237658       
2370.76          0.37761779       67.2970684       0.922556         -22.1852472      0.922556         -22.1852472      0.37761779       67.2970684       
2420.13          0.38455971       66.8719179       0.919665902      -22.6154539      0.919665902      -22.6154539      0.38455971       66.8719179       
2469.5           0.391451733      66.4483429       0.916736192      -23.0439036      0.916736192      -23.0439036      0.391451733      66.4483429       
2518.87          0.398293443      66.0263702       0.91376778       -23.4705777      0.91376778       -23.4705777      0.398293443      66.0263702       
2568.24          0.405084451      65.6060256       0.910761574      -23.8954585      0.910761574      -23.8954585      0.405084451      65.6060256       
2617.61          0.411824391      65.1873334       0.907718484      -24.3185289      0.907718484      -24.3185289      0.411824391      65.1873334       
2666.98          0.418512923      64.7703168       0.904639418      -24.7397725      0.904639418      -24.7397725      0.418512923      64.7703168       
2716.35          0.425149733      64.3549978       0.901525281      -25.1591739      0.901525281      -25.1591739      0.425149733      64.3549978       
2765.72          0.431734527      63.9413972       0.898376978      -25.5767181      0.898376978      -25.5767181      0.431734527      63.9413972       
2815.09          0.438267039      63.5295346       0.895195409      -25.9923911      0.895195409      -25.9923911      0.438267039      63.5295346       
2864.46          0.444747024      63.1194287       0.891981471      -26.4061794      0.891981471      -26.4061794      0.444747024      63.1194287       
2913.83          0.45117426       62.7110972       0.888736056      -26.8180702      0.888736056      -26.8180702      0.45117426       62.7110972       
2963.2           0.457548547      62.3045565       0.885460052      -27.2280516      0.885460052      -27.2280516      0.457548547      62.3045565       
3012.57          0.463869711      61.8998225       0.882154342      -27.6361121      0.882154342      -27.6361121      0.463869711      61.8998225       
3061.94          0.470137594      61.4969097       0.878819803      -28.0422412      0.878819803      -28.0422412      0.470137594      61.4969097       
3111.31          0.476352065      61.095832        0.875457306      -28.4464288      0.875457306      -28.4464288      0.476352065      61.095832        
3160.68          0.48251301       60.6966023       0.872067715      -28.8486656      0.872067715      -28.8486656      0.48251301       60.6966023       
3210.05          0.488620336      60.2992326       0.868651887      -29.2489429      0.868651887      -29.2489429      0.488620336      60.2992326       
3259.42          0.494673972      59.9037341       0.865210672      -29.6472526      0.865210672      -29.6472526      0.494673972      59.9037341       
3308.79          0.500673866      59.5101173       0.861744911      -30.0435873      0.861744911      -30.0435873      0.500673866      59.5101173       
3358.16          0.506619983      59.1183918       0.858255437      -30.4379402      0.858255437      -30.4379402      0.506619983      59.1183918       
3407.53          0.512512309      58.7285663       0.854743077      -30.8303052      0.854743077      -30.8303052      0.512512309      58.7285663       
3456.9           0.518350846      58.3406491       0.851208645      -31.2206765      0.851208645      -31.2206765      0.518350846      58.3406491       
3506.27          0.524135617      57.9546474       0.847652948      -31.6090493      0.847652948      -31.6090493      0.524135617      57.9546474       
3555.64          0.529866659      57.570568        0.844076785      -31.995419       0.844076785      -31.995419       0.529866659      57.570568        
3605.01          0.535544027      57.1884169       0.840480941      -32.3797817      0.840480941      -32.3797817      0.535544027      57.1884169       
3654.38          0.541167793      56.8081994       0.836866196      -32.7621342      0.836866196      -32.7621342      0.541167793      56.8081994       
3703.75          0.546738042      56.4299202       0.833233316      -33.1424737      0.833233316      -33.1424737      0.546738042      56.4299202       
3753.12          0.552254878      56.0535832       0.829583058      -33.5207978      0.829583058      -33.5207978      0.552254878      56.0535832       
3802.49          0.557718417      55.679192        0.825916169      -33.8971048      0.825916169      -33.8971048      0.557718417      55.679192        
3851.86          0.563128792      55.3067495       0.822233384      -34.2713936      0.822233384      -34.2713936      0.563128792      55.3067495       
3901.23          0.568486145      54.9362578       0.818535427      -34.6436633      0.818535427      -34.6436633      0.568486145      54.9362578       
3950.6           0.573790638      54.5677186       0.814823012      -35.0139136      0.814823012      -35.0139136      0.573790638      54.5677186       
3999.97          0.57904244       54.2011333       0.811096842      -35.3821448      0.811096842      -35.3821448      0.57904244       54.2011333       
4049.34          0.584241736      53.8365023       0.807357607      -35.7483575      0.807357607      -35.7483575      0.584241736      53.8365023       
4098.71          0.589388721      53.4738258       0.803605986      -36.1125528      0.803605986      -36.1125528      0.589388721      53.4738258       
4148.08          0.594483603      53.1131035       0.799842648      -36.4747321      0.799842648      -36.4747321      0.594483603      53.1131035       
4197.45          0.599526601      52.7543345       0.79606825       -36.8348975      0.79606825       -36.8348975      0.599526601      52.7543345       
4246.82          0.604517943      52.3975175       0.792283435      -37.1930513      0.792283435      -37.1930513      0.604517943      52.3975175       
4296.19          0.609457869      52.0426507       0.788488836      -37.5491961      0.788488836      -37.5491961      0.609457869      52.0426507       
4345.56          0.614346627      51.6897319       0.784685077      -37.9033353      0.784685077      -37.9033353      0.614346627      51.6897319       
4394.93          0.619184477      51.3387585       0.780872765      -38.2554721      0.780872765      -38.2554721      0.619184477      51.3387585       
4444.3           0.623971684      50.9897275       0.777052499      -38.6056105      0.777052499      -38.6056105      0.623971684      50.9897275       
4493.67          0.628708525      50.6426355       0.773224866      -38.9537547      0.773224866      -38.9537547      0.628708525      50.6426355       
4543.04          0.633395284      50.2974786       0.769390439      -39.2999092      0.769390439      -39.2999092      0.633395284      50.2974786       
4592.41          0.638032251      49.9542527       0.765549783      -39.6440788      0.765549783      -39.6440788      0.638032251      49.9542527       
4641.78          0.642619727      49.6129532       0.761703447      -39.9862689      0.761703447      -39.9862689      0.642619727      49.6129532       
4691.15          0.647158016      49.2735753       0.757851972      -40.3264847      0.757851972      -40.3264847      0.647158016      49.2735753       
4740.52          0.651647431      48.9361138       0.753995886      -40.6647321      0.753995886      -40.6647321      0.651647431      48.9361138       
4789.89          0.65608829       48.6005632       0.750135706      -41.0010172      0.750135706      -41.0010172      0.65608829       48.6005632       
4839.26          0.660480918      48.2669176       0.746271937      -41.3353463      0.746271937      -41.3353463      0.660480918      48.2669176       
4888.63          0.664825643      47.935171        0.742405073      -41.6677259      0.742405073      -41.6677259      0.664825643      47.935171        
4938             0.669122802      47.6053168       0.738535596      -41.9981629      0.738535596      -41.9981629      0.669122802      47.6053168       
4987.37          0.673372733      47.2773486       0.734663979      -42.3266644      0.734663979      -42.3266644      0.673372733      47.2773486       
5036.74          0.677575781      46.9512593       0.730790681      -42.6532377      0.730790681      -42.6532377      0.677575781      46.9512593       
5086.11          0.681732295      46.6270418       0.726916153      -42.9778902      0.726916153      -42.9778902      0.681732295      46.6270418       
5135.48          0.685842625      46.3046886       0.723040834      -43.3006298      0.723040834      -43.3006298      0.685842625      46.3046886       
5184.85          0.689907129      45.9841921       0.71916515       -43.6214644      0.71916515       -43.6214644      0.689907129      45.9841921       
5234.22          0.693926164      45.6655444       0.71528952       -43.9404021      0.71528952       -43.9404021      0.693926164      45.6655444       
5283.59          0.697900094      45.3487376       0.71141435       -44.2574513      0.71141435       -44.2574513      0.697900094      45.3487376       
5332.96          0.701829282      45.0337632       0.707540038      -44.5726204      0.707540038      -44.5726204      0.701829282      45.0337632       
5382.33          0.705714097      44.7206128       0.703666968      -44.8859181      0.703666968      -44.8859181      0.705714097      44.7206128       
5431.7           0.709554907      44.4092779       0.699795519      -45.1973531      0.699795519      -45.1973531      0.709554907      44.4092779       
5481.07          0.713352084      44.0997495       0.695926055      -45.5069346      0.695926055      -45.5069346      0.713352084      44.0997495       
5530.44          0.717106001      43.7920188       0.692058933      -45.8146716      0.692058933      -45.8146716      0.717106001      43.7920188       
5579.81          0.720817032      43.4860765       0.6881945        -46.1205732      0.6881945        -46.1205732      0.720817032      43.4860765       
5629.18          0.724485554      43.1819134       0.684333092      -46.424649       0.684333092      -46.424649       0.724485554      43.1819134       
5678.55          0.728111943      42.8795202       0.680475039      -46.7269084      0.680475039      -46.7269084      0.728111943      42.8795202       
5727.92          0.731696576      42.5788871       0.676620657      -47.0273609      0.676620657      -47.0273609      0.731696576      42.5788871       
5777.29          0.735239834      42.2800046       0.672770258      -47.3260163      0.672770258      -47.3260163      0.735239834      42.2800046       
5826.66          0.738742093      41.9828629       0.668924139      -47.6228844      0.668924139      -47.6228844      0.738742093      41.9828629       
5876.03          0.742203733      41.6874521       0.665082595      -47.9179751      0.665082595      -47.9179751      0.742203733      41.6874521       
5925.4           0.745625134      41.3937622       0.661245906      -48.2112983      0.661245906      -48.2112983      0.745625134      41.3937622       
5974.77          0.749006675      41.1017831       0.657414348      -48.5028642      0.657414348      -48.5028642      0.749006675      41.1017831       
6024.14          0.752348734      40.8115047       0.653588187      -48.7926827      0.653588187      -48.7926827      0.752348734      40.8115047       
6073.51          0.755651689      40.5229166       0.64976768       -49.0807642      0.64976768       -49.0807642      0.755651689      40.5229166       
6122.88          0.758915919      40.2360085       0.645953077      -49.3671188      0.645953077      -49.3671188      0.758915919      40.2360085       
6172.25          0.762141801      39.95077         0.642144619      -49.6517569      0.642144619      -49.6517569      0.762141801      39.95077         
6221.62          0.76532971       39.6671907       0.638342542      -49.9346888      0.638342542      -49.9346888      0.76532971       39.6671907       
6270.99          0.768480023      39.3852601       0.634547071      -50.2159248      0.634547071      -50.2159248      0.768480023      39.3852601       
