! Coilcraft 0805HQ-16N Chip Inductor				
! 19 June 2002			
# MHZ S MA R 50
!Freq             MagS11           AngS11           MagS21           AngS21           MagS12           AngS12           MagS22           AngS22
1                0.00134711253    50.1983479       0.999138206      -0.0593488224    0.999138206      -0.0593488224    0.00134711253    50.1983479       
15.71            0.0163403965     83.3238121       0.998232241      -0.931574963     0.998232241      -0.931574963     0.0163403965     83.3238121       
30.42            0.0315245322     84.48703         0.997465089      -1.80273436      0.997465089      -1.80273436      0.0315245322     84.48703         
45.13            0.0466897197     84.4394735       0.996559944      -2.67269588      0.996559944      -2.67269588      0.0466897197     84.4394735       
59.84            0.0618215108     84.034095        0.995475193      -3.5411944       0.995475193      -3.5411944       0.0618215108     84.034095        
74.55            0.076909765      83.4709366       0.994195517      -4.40793248      0.994195517      -4.40793248      0.076909765      83.4709366       
89.26            0.091945164      82.8236013       0.992714207      -5.2726006       0.992714207      -5.2726006       0.091945164      82.8236013       
103.97           0.106918706      82.1261472       0.991028499      -6.13488514      0.991028499      -6.13488514      0.106918706      82.1261472       
118.68           0.121821607      81.3967695       0.989137831      -6.99447253      0.989137831      -6.99447253      0.121821607      81.3967695       
133.39           0.136645292      80.6462152       0.987043049      -7.8510518       0.987043049      -7.8510518       0.136645292      80.6462152       
148.1            0.151381409      79.8813277       0.984745993      -8.70431641      0.984745993      -8.70431641      0.151381409      79.8813277       
162.81           0.166021848      79.1067303       0.982249258      -9.55396559      0.982249258      -9.55396559      0.166021848      79.1067303       
177.52           0.180558764      78.3256998       0.979556042      -10.3997054      0.979556042      -10.3997054      0.180558764      78.3256998       
192.23           0.194984598      77.540654        0.976670044      -11.2412499      0.976670044      -11.2412499      0.194984598      77.540654        
206.94           0.209292093      76.7534381       0.973595383      -12.0783213      0.973595383      -12.0783213      0.209292093      76.7534381       
221.65           0.223474311      75.9655014       0.970336544      -12.9106514      0.970336544      -12.9106514      0.223474311      75.9655014       
236.36           0.237524646      75.178011        0.966898326      -13.7379816      0.966898326      -13.7379816      0.237524646      75.178011        
251.07           0.251436841      74.3919266       0.963285803      -14.5600635      0.963285803      -14.5600635      0.251436841      74.3919266       
265.78           0.26520499       73.6080517       0.959504282      -15.3766595      0.959504282      -15.3766595      0.26520499       73.6080517       
280.49           0.27882355       72.8270692       0.955559276      -16.187543       0.955559276      -16.187543       0.27882355       72.8270692       
295.2            0.292287347      72.0495668       0.951456469      -16.9924985      0.951456469      -16.9924985      0.292287347      72.0495668       
309.91           0.305591575      71.2760557       0.947201687      -17.791322       0.947201687      -17.791322       0.305591575      71.2760557       
324.62           0.318731803      70.5069843       0.942800874      -18.5838214      0.942800874      -18.5838214      0.318731803      70.5069843       
339.33           0.331703971      69.7427482       0.938260063      -19.3698159      0.938260063      -19.3698159      0.331703971      69.7427482       
354.04           0.344504389      68.9836987       0.933585352      -20.1491367      0.933585352      -20.1491367      0.344504389      68.9836987       
368.75           0.357129732      68.2301484       0.928782886      -20.9216268      0.928782886      -20.9216268      0.357129732      68.2301484       
383.46           0.369577038      67.4823765       0.923858827      -21.6871407      0.923858827      -21.6871407      0.369577038      67.4823765       
398.17           0.381843698      66.7406323       0.918819343      -22.4455446      0.918819343      -22.4455446      0.381843698      66.7406323       
412.88           0.393927452      66.0051387       0.913670581      -23.1967162      0.913670581      -23.1967162      0.393927452      66.0051387       
427.59           0.405826374      65.2760945       0.908418656      -23.9405445      0.908418656      -23.9405445      0.405826374      65.2760945       
442.3            0.417538869      64.5536768       0.903069628      -24.6769295      0.903069628      -24.6769295      0.417538869      64.5536768       
457.01           0.42906366       63.8380427       0.897629492      -25.4057821      0.897629492      -25.4057821      0.42906366       63.8380427       
471.72           0.440399774      63.1293309       0.892104163      -26.1270239      0.892104163      -26.1270239      0.440399774      63.1293309       
486.43           0.451546532      62.4276633       0.88649946       -26.8405865      0.88649946       -26.8405865      0.451546532      62.4276633       
501.14           0.462503539      61.7331459       0.8808211        -27.5464119      0.8808211        -27.5464119      0.462503539      61.7331459       
515.85           0.473270665      61.04587         0.875074682      -28.2444516      0.875074682      -28.2444516      0.473270665      61.04587         
530.56           0.483848037      60.3659131       0.869265682      -28.9346663      0.869265682      -28.9346663      0.483848037      60.3659131       
545.27           0.494236025      59.6933403       0.863399443      -29.617026       0.863399443      -29.617026       0.494236025      59.6933403       
559.98           0.504435225      59.0282042       0.857481168      -30.2915092      0.857481168      -30.2915092      0.504435225      59.0282042       
574.69           0.51444645       58.3705466       0.851515916      -30.9581025      0.851515916      -30.9581025      0.51444645       58.3705466       
589.4            0.524270712      57.7203986       0.845508594      -31.6168007      0.845508594      -31.6168007      0.524270712      57.7203986       
604.11           0.533909215      57.0777815       0.839463954      -32.267606       0.839463954      -32.267606       0.533909215      57.0777815       
618.82           0.543363334      56.4427073       0.833386594      -32.9105277      0.833386594      -32.9105277      0.543363334      56.4427073       
633.53           0.552634608      55.8151797       0.827280948      -33.545582       0.827280948      -33.545582       0.552634608      55.8151797       
648.24           0.561724725      55.1951939       0.82115129       -34.1727914      0.82115129       -34.1727914      0.561724725      55.1951939       
662.95           0.570635512      54.5827379       0.815001733      -34.7921846      0.815001733      -34.7921846      0.570635512      54.5827379       
677.66           0.579368918      53.9777925       0.808836224      -35.4037957      0.808836224      -35.4037957      0.579368918      53.9777925       
692.37           0.58792701       53.3803322       0.802658552      -36.0076646      0.802658552      -36.0076646      0.58792701       53.3803322       
707.08           0.596311954      52.7903253       0.796472342      -36.6038357      0.796472342      -36.6038357      0.596311954      52.7903253       
721.79           0.604526012      52.2077343       0.790281059      -37.1923584      0.790281059      -37.1923584      0.604526012      52.2077343       
736.5            0.612571524      51.6325169       0.784088013      -37.7732863      0.784088013      -37.7732863      0.612571524      51.6325169       
751.21           0.620450906      51.0646255       0.777896356      -38.3466769      0.777896356      -38.3466769      0.620450906      51.0646255       
765.92           0.628166636      50.5040085       0.771709087      -38.9125916      0.771709087      -38.9125916      0.628166636      50.5040085       
780.63           0.635721246      49.95061         0.765529057      -39.471095       0.765529057      -39.471095       0.635721246      49.95061         
795.34           0.643117314      49.4043705       0.759358969      -40.0222551      0.759358969      -40.0222551      0.643117314      49.4043705       
810.05           0.650357457      48.8652269       0.753201382      -40.5661423      0.753201382      -40.5661423      0.650357457      48.8652269       
824.76           0.657444324      48.3331132       0.747058718      -41.10283        0.747058718      -41.10283        0.657444324      48.3331132       
839.47           0.664380587      47.8079606       0.740933262      -41.6323937      0.740933262      -41.6323937      0.664380587      47.8079606       
854.18           0.671168936      47.2896976       0.734827166      -42.154911       0.734827166      -42.154911       0.671168936      47.2896976       
868.89           0.677812072      46.7782507       0.728742456      -42.6704613      0.728742456      -42.6704613      0.677812072      46.7782507       
883.6            0.684312704      46.2735443       0.722681034      -43.1791259      0.722681034      -43.1791259      0.684312704      46.2735443       
898.31           0.690673541      45.7755008       0.716644684      -43.6809871      0.716644684      -43.6809871      0.690673541      45.7755008       
913.02           0.696897288      45.2840414       0.710635071      -44.1761289      0.710635071      -44.1761289      0.696897288      45.2840414       
927.73           0.702986642      44.7990857       0.704653753      -44.6646359      0.704653753      -44.6646359      0.702986642      44.7990857       
942.44           0.708944289      44.3205524       0.69870218       -45.146594       0.69870218       -45.146594       0.708944289      44.3205524       
957.15           0.714772898      43.848359        0.6927817        -45.6220894      0.6927817        -45.6220894      0.714772898      43.848359        
971.86           0.720475117      43.3824224       0.686893561      -46.0912091      0.686893561      -46.0912091      0.720475117      43.3824224       
986.57           0.726053575      42.9226586       0.681038918      -46.5540404      0.681038918      -46.5540404      0.726053575      42.9226586       
1001.28          0.731510874      42.4689835       0.675218835      -47.0106711      0.675218835      -47.0106711      0.731510874      42.4689835       
1015.99          0.736849589      42.0213122       0.669434292      -47.4611888      0.669434292      -47.4611888      0.736849589      42.0213122       
1030.7           0.742072263      41.5795601       0.663686184      -47.9056813      0.663686184      -47.9056813      0.742072263      41.5795601       
1045.41          0.747181411      41.1436422       0.657975327      -48.3442363      0.657975327      -48.3442363      0.747181411      41.1436422       
1060.12          0.75217951       40.7134735       0.652302466      -48.7769415      0.652302466      -48.7769415      0.75217951       40.7134735       
1074.83          0.757069005      40.2889693       0.646668269      -49.203884       0.646668269      -49.203884       0.757069005      40.2889693       
1089.54          0.761852303      39.870045        0.641073341      -49.6251506      0.641073341      -49.6251506      0.761852303      39.870045        
1104.25          0.766531774      39.4566163       0.63551822       -50.0408279      0.63551822       -50.0408279      0.766531774      39.4566163       
1118.96          0.771109748      39.0485995       0.630003383      -50.4510018      0.630003383      -50.4510018      0.771109748      39.0485995       
1133.67          0.775588517      38.6459111       0.624529251      -50.8557575      0.624529251      -50.8557575      0.775588517      38.6459111       
1148.38          0.779970332      38.2484684       0.619096187      -51.2551797      0.619096187      -51.2551797      0.779970332      38.2484684       
1163.09          0.784257403      37.856189        0.613704503      -51.6493524      0.613704503      -51.6493524      0.784257403      37.856189        
1177.8           0.7884519        37.4689914       0.608354464      -52.0383588      0.608354464      -52.0383588      0.7884519        37.4689914       
1192.51          0.792555949      37.0867949       0.603046286      -52.4222812      0.603046286      -52.4222812      0.792555949      37.0867949       
1207.22          0.796571638      36.7095191       0.597780142      -52.8012013      0.597780142      -52.8012013      0.796571638      36.7095191       
1221.93          0.800501011      36.337085        0.592556164      -53.1751996      0.592556164      -53.1751996      0.800501011      36.337085        
1236.64          0.804346069      35.969414        0.587374444      -53.5443559      0.587374444      -53.5443559      0.804346069      35.969414        
1251.35          0.808108775      35.6064285       0.58223504       -53.908749       0.58223504       -53.908749       0.808108775      35.6064285       
1266.06          0.811791047      35.2480519       0.577137972      -54.2684567      0.577137972      -54.2684567      0.811791047      35.2480519       
1280.77          0.815394765      34.8942085       0.572083231      -54.6235557      0.572083231      -54.6235557      0.815394765      34.8942085       
1295.48          0.818921765      34.5448233       0.567070776      -54.974122       0.567070776      -54.974122       0.818921765      34.5448233       
1310.19          0.822373845      34.1998227       0.562100539      -55.3202302      0.562100539      -55.3202302      0.822373845      34.1998227       
1324.9           0.825752761      33.8591337       0.557172424      -55.661954       0.557172424      -55.661954       0.825752761      33.8591337       
1339.61          0.829060231      33.5226846       0.552286311      -55.9993661      0.552286311      -55.9993661      0.829060231      33.5226846       
1354.32          0.832297932      33.1904046       0.547442057      -56.3325381      0.547442057      -56.3325381      0.832297932      33.1904046       
1369.03          0.835467503      32.8622237       0.542639498      -56.6615404      0.542639498      -56.6615404      0.835467503      32.8622237       
1383.74          0.838570546      32.5380734       0.53787845       -56.9864425      0.53787845       -56.9864425      0.838570546      32.5380734       
1398.45          0.841608623      32.2178858       0.533158709      -57.3073127      0.533158709      -57.3073127      0.841608623      32.2178858       
1413.16          0.844583261      31.9015942       0.528480055      -57.6242182      0.528480055      -57.6242182      0.844583261      31.9015942       
1427.87          0.847495951      31.5891331       0.523842254      -57.9372252      0.523842254      -57.9372252      0.847495951      31.5891331       
1442.58          0.850348145      31.2804378       0.519245053      -58.2463988      0.519245053      -58.2463988      0.850348145      31.2804378       
1457.29          0.853141264      30.9754447       0.51468819       -58.5518029      0.51468819       -58.5518029      0.853141264      30.9754447       
1472             0.855876692      30.6740913       0.510171388      -58.8535005      0.510171388      -58.8535005      0.855876692      30.6740913       
1486.71          0.85855578       30.3763161       0.50569436       -59.1515535      0.50569436       -59.1515535      0.85855578       30.3763161       
1501.42          0.861179846      30.0820587       0.501256806      -59.4460226      0.501256806      -59.4460226      0.861179846      30.0820587       
1516.13          0.863750174      29.7912596       0.496858421      -59.7369675      0.496858421      -59.7369675      0.863750174      29.7912596       
1530.84          0.86626802       29.5038602       0.492498887      -60.0244469      0.492498887      -60.0244469      0.86626802       29.5038602       
1545.55          0.868734604      29.2198033       0.488177882      -60.3085184      0.488177882      -60.3085184      0.868734604      29.2198033       
1560.26          0.87115112       28.9390323       0.483895074      -60.5892387      0.483895074      -60.5892387      0.87115112       28.9390323       
1574.97          0.873518729      28.6614917       0.479650127      -60.8666634      0.479650127      -60.8666634      0.873518729      28.6614917       
1589.68          0.875838565      28.3871272       0.475442699      -61.140847       0.475442699      -61.140847       0.875838565      28.3871272       
1604.39          0.878111733      28.1158852       0.471272441      -61.4118431      0.471272441      -61.4118431      0.878111733      28.1158852       
1619.1           0.880339308      27.8477131       0.467139004      -61.6797043      0.467139004      -61.6797043      0.880339308      27.8477131       
1633.81          0.882522342      27.5825593       0.46304203       -61.9444822      0.46304203       -61.9444822      0.882522342      27.5825593       
1648.52          0.884661858      27.3203731       0.458981164      -62.2062275      0.458981164      -62.2062275      0.884661858      27.3203731       
1663.23          0.886758853      27.0611047       0.454956043      -62.4649899      0.454956043      -62.4649899      0.886758853      27.0611047       
1677.94          0.888814299      26.8047053       0.450966304      -62.7208182      0.450966304      -62.7208182      0.888814299      26.8047053       
1692.65          0.890829144      26.5511269       0.447011583      -62.9737603      0.447011583      -62.9737603      0.890829144      26.5511269       
1707.36          0.892804312      26.3003224       0.443091514      -63.223863       0.443091514      -63.223863       0.892804312      26.3003224       
1722.07          0.894740703      26.0522456       0.43920573       -63.4711725      0.43920573       -63.4711725      0.894740703      26.0522456       
1736.78          0.896639195      25.8068511       0.435353864      -63.715734       0.435353864      -63.715734       0.896639195      25.8068511       
1751.49          0.898500642      25.5640944       0.431535548      -63.9575917      0.431535548      -63.9575917      0.898500642      25.5640944       
1766.2           0.900325878      25.3239317       0.427750415      -64.1967891      0.427750415      -64.1967891      0.900325878      25.3239317       
1780.91          0.902115716      25.0863203       0.423998098      -64.4333688      0.423998098      -64.4333688      0.902115716      25.0863203       
1795.62          0.903870947      24.8512179       0.420278231      -64.6673726      0.420278231      -64.6673726      0.903870947      24.8512179       
1810.33          0.905592342      24.6185833       0.416590449      -64.8988415      0.416590449      -64.8988415      0.905592342      24.6185833       
1825.04          0.907280655      24.388376        0.412934386      -65.1278157      0.412934386      -65.1278157      0.907280655      24.388376        
1839.75          0.908936617      24.1605562       0.409309682      -65.3543345      0.409309682      -65.3543345      0.908936617      24.1605562       
1854.46          0.910560944      23.9350849       0.405715975      -65.5784365      0.405715975      -65.5784365      0.910560944      23.9350849       
1869.17          0.912154332      23.7119237       0.402152906      -65.8001597      0.402152906      -65.8001597      0.912154332      23.7119237       
