! Coilcraft 0805HQ-51N Chip Inductor				
! 19 June 2002			
# MHZ S MA R 50
!Freq             MagS11           AngS11           MagS21           AngS21           MagS12           AngS12           MagS22           AngS22
1                0.00381235737    56.8290786       0.997919215      -0.18321832      0.997919215      -0.18321832      0.00381235737    56.8290786       
7.23             0.0233516149     79.9267298       0.996180986      -1.32249194      0.996180986      -1.32249194      0.0233516149     79.9267298       
13.46            0.0431292047     81.6786313       0.994673997      -2.45895228      0.994673997      -2.45895228      0.0431292047     81.6786313       
19.69            0.0628616873     81.7818703       0.992965471      -3.59233054      0.992965471      -3.59233054      0.0628616873     81.7818703       
25.92            0.0825143111     81.3653363       0.990975421      -4.72204652      0.990975421      -4.72204652      0.0825143111     81.3653363       
32.15            0.102063797      80.7137884       0.988674718      -5.84744116      0.988674718      -5.84744116      0.102063797      80.7137884       
38.38            0.12148941       79.9356322       0.986051749      -6.96782946      0.986051749      -6.96782946      0.12148941       79.9356322       
44.61            0.140771557      79.0821327       0.983103199      -8.08252235      0.983103199      -8.08252235      0.140771557      79.0821327       
50.84            0.159891511      78.1811297       0.979830516      -9.19083859      0.979830516      -9.19083859      0.159891511      78.1811297       
57.07            0.178831382      77.2492941       0.976238245      -10.2921122      0.976238245      -10.2921122      0.178831382      77.2492941       
63.3             0.197574159      76.2973713       0.972333142      -11.3856979      0.972333142      -11.3856979      0.197574159      76.2973713       
69.53            0.216103769      75.3327          0.968123627      -12.4709751      0.968123627      -12.4709751      0.216103769      75.3327          
75.76            0.234405124      74.3605326       0.96361942       -13.5473507      0.96361942       -13.5473507      0.234405124      74.3605326       
81.99            0.252464174      73.3847745       0.95883128       -14.614262       0.95883128       -14.614262       0.252464174      73.3847745       
88.22            0.270267941      72.4084233       0.953770797      -15.6711783      0.953770797      -15.6711783      0.270267941      72.4084233       
94.45            0.287804547      71.4338404       0.948450222      -16.7176024      0.948450222      -16.7176024      0.287804547      71.4338404       
100.68           0.305063224      70.4629262       0.942882324      -17.7530717      0.942882324      -17.7530717      0.305063224      70.4629262       
106.91           0.322034328      69.4972365       0.93708026       -18.7771589      0.93708026       -18.7771589      0.322034328      69.4972365       
113.14           0.338709325      68.5380623       0.931057463      -19.7894723      0.931057463      -19.7894723      0.338709325      68.5380623       
119.37           0.355080786      67.5864861       0.924827537      -20.789656       0.924827537      -20.789656       0.355080786      67.5864861       
125.6            0.371142364      66.6434224       0.918404164      -21.7773896      0.918404164      -21.7773896      0.371142364      66.6434224       
131.83           0.386888765      65.7096473       0.91180102       -22.7523877      0.91180102       -22.7523877      0.386888765      65.7096473       
138.06           0.402315712      64.7858213       0.905031699      -23.7143996      0.905031699      -23.7143996      0.402315712      64.7858213       
144.29           0.417419911      63.872506        0.898109643      -24.6632083      0.898109643      -24.6632083      0.417419911      63.872506        
150.52           0.432199004      62.9701786       0.89104808       -25.5986294      0.89104808       -25.5986294      0.432199004      62.9701786       
156.75           0.446651519      62.0792415       0.883859974      -26.52051        0.883859974      -26.52051        0.446651519      62.0792415       
162.98           0.460776827      61.2000323       0.876557974      -27.4287279      0.876557974      -27.4287279      0.460776827      61.2000323       
169.21           0.474575084      60.3328304       0.869154373      -28.3231895      0.869154373      -28.3231895      0.474575084      60.3328304       
175.44           0.488047179      59.4778634       0.861661079      -29.2038292      0.861661079      -29.2038292      0.488047179      59.4778634       
181.67           0.501194682      58.6353125       0.854089581      -30.0706074      0.854089581      -30.0706074      0.501194682      58.6353125       
187.9            0.514019788      57.8053171       0.846450928      -30.9235094      0.846450928      -30.9235094      0.514019788      57.8053171       
194.13           0.526525267      56.9879787       0.838755712      -31.7625434      0.838755712      -31.7625434      0.526525267      56.9879787       
200.36           0.538714407      56.1833647       0.831014057      -32.5877395      0.831014057      -32.5877395      0.538714407      56.1833647       
206.59           0.550590966      55.3915117       0.823235605      -33.399148       0.823235605      -33.399148       0.550590966      55.3915117       
212.82           0.562159122      54.6124283       0.815429517      -34.1968376      0.815429517      -34.1968376      0.562159122      54.6124283       
219.05           0.573423425      53.8460978       0.80760447       -34.9808947      0.80760447       -34.9808947      0.573423425      53.8460978       
225.28           0.584388754      53.0924807       0.799768658      -35.751421       0.799768658      -35.751421       0.584388754      53.0924807       
231.51           0.59506027       52.3515171       0.791929799      -36.508533       0.791929799      -36.508533       0.59506027       52.3515171       
237.74           0.605443378      51.6231285       0.784095142      -37.25236        0.784095142      -37.25236        0.605443378      51.6231285       
243.97           0.615543689      50.9072199       0.776271475      -37.9830432      0.776271475      -37.9830432      0.615543689      50.9072199       
250.2            0.625366984      50.2036817       0.768465138      -38.7007344      0.768465138      -38.7007344      0.625366984      50.2036817       
256.43           0.63491918       49.5123908       0.760682035      -39.4055949      0.760682035      -39.4055949      0.63491918       49.5123908       
262.66           0.644206301      48.8332128       0.752927651      -40.0977941      0.752927651      -40.0977941      0.644206301      48.8332128       
268.89           0.653234446      48.1660031       0.745207059      -40.7775088      0.745207059      -40.7775088      0.653234446      48.1660031       
275.12           0.66200977       47.5106079       0.737524946      -41.444922       0.737524946      -41.444922       0.66200977       47.5106079       
281.35           0.670538453      46.866866        0.729885621      -42.100222       0.729885621      -42.100222       0.670538453      46.866866        
287.58           0.678826685      46.2346092       0.722293036      -42.7436019      0.722293036      -42.7436019      0.678826685      46.2346092       
293.81           0.68688064       45.6136639       0.714750801      -43.3752583      0.714750801      -43.3752583      0.68688064       45.6136639       
300.04           0.694706465      45.0038519       0.7072622        -43.9953906      0.7072622        -43.9953906      0.694706465      45.0038519       
306.27           0.702310262      44.4049909       0.699830211      -44.6042007      0.699830211      -44.6042007      0.702310262      44.4049909       
312.5            0.709698074      43.8168955       0.692457517      -45.2018922      0.692457517      -45.2018922      0.709698074      43.8168955       
318.73           0.716875873      43.2393782       0.68514653       -45.7886696      0.68514653       -45.7886696      0.716875873      43.2393782       
324.96           0.723849548      42.6722496       0.677899396      -46.364738       0.677899396      -46.364738       0.723849548      42.6722496       
331.19           0.7306249        42.1153192       0.670718023      -46.9303026      0.670718023      -46.9303026      0.7306249        42.1153192       
337.42           0.737207632      41.5683958       0.663604084      -47.4855681      0.663604084      -47.4855681      0.737207632      41.5683958       
343.65           0.743603339      41.0312881       0.656559041      -48.0307384      0.656559041      -48.0307384      0.743603339      41.0312881       
349.88           0.749817508      40.5038054       0.649584152      -48.5660165      0.649584152      -48.5660165      0.749817508      40.5038054       
356.11           0.755855511      39.9857572       0.642680489      -49.0916037      0.642680489      -49.0916037      0.755855511      39.9857572       
362.34           0.7617226        39.4769545       0.635848947      -49.6076996      0.635848947      -49.6076996      0.7617226        39.4769545       
368.57           0.767423907      38.9772094       0.629090261      -50.1145017      0.629090261      -50.1145017      0.767423907      38.9772094       
374.8            0.772964438      38.4863357       0.622405011      -50.6122055      0.622405011      -50.6122055      0.772964438      38.4863357       
381.03           0.778349077      38.0041492       0.615793641      -51.1010038      0.615793641      -51.1010038      0.778349077      38.0041492       
387.26           0.78358258       37.5304676       0.609256461      -51.581087       0.609256461      -51.581087       0.78358258       37.5304676       
393.49           0.788669578      37.0651109       0.602793664      -52.0526426      0.602793664      -52.0526426      0.788669578      37.0651109       
399.72           0.793614575      36.6079018       0.596405331      -52.5158551      0.596405331      -52.5158551      0.793614575      36.6079018       
405.95           0.798421951      36.1586653       0.590091444      -52.9709064      0.590091444      -52.9709064      0.798421951      36.1586653       
412.18           0.80309596       35.7172292       0.583851887      -53.4179748      0.583851887      -53.4179748      0.80309596       35.7172292       
418.41           0.807640735      35.2834242       0.577686463      -53.8572359      0.577686463      -53.8572359      0.807640735      35.2834242       
424.64           0.812060286      34.8570837       0.571594895      -54.2888618      0.571594895      -54.2888618      0.812060286      34.8570837       
430.87           0.816358503      34.4380443       0.565576833      -54.7130213      0.565576833      -54.7130213      0.816358503      34.4380443       
437.1            0.820539159      34.0261453       0.559631866      -55.1298801      0.559631866      -55.1298801      0.820539159      34.0261453       
443.33           0.824605911      33.6212294       0.553759521      -55.5396004      0.553759521      -55.5396004      0.824605911      33.6212294       
449.56           0.828562302      33.2231421       0.547959274      -55.9423412      0.547959274      -55.9423412      0.828562302      33.2231421       
455.79           0.832411765      32.8317321       0.542230552      -56.3382581      0.542230552      -56.3382581      0.832411765      32.8317321       
462.02           0.836157624      32.4468511       0.536572738      -56.7275034      0.536572738      -56.7275034      0.836157624      32.4468511       
468.25           0.839803099      32.0683541       0.530985179      -57.110226       0.530985179      -57.110226       0.839803099      32.0683541       
474.48           0.843351303      31.6960991       0.525467187      -57.4865717      0.525467187      -57.4865717      0.843351303      31.6960991       
480.71           0.846805252      31.329947        0.520018042      -57.8566827      0.520018042      -57.8566827      0.846805252      31.329947        
486.94           0.850167862      30.9697621       0.514637         -58.2206984      0.514637         -58.2206984      0.850167862      30.9697621       
493.17           0.853441955      30.6154114       0.509323292      -58.5787546      0.509323292      -58.5787546      0.853441955      30.6154114       
499.4            0.85663026       30.2667651       0.504076131      -58.9309843      0.504076131      -58.9309843      0.85663026       30.2667651       
505.63           0.859735417      29.9236963       0.498894709      -59.277517       0.498894709      -59.277517       0.859735417      29.9236963       
511.86           0.862759976      29.586081        0.493778208      -59.6184794      0.493778208      -59.6184794      0.862759976      29.586081        
518.09           0.865706406      29.2537982       0.488725795      -59.9539952      0.488725795      -59.9539952      0.865706406      29.2537982       
524.32           0.868577093      28.9267296       0.483736627      -60.2841849      0.483736627      -60.2841849      0.868577093      28.9267296       
530.55           0.871374343      28.6047599       0.478809857      -60.6091663      0.478809857      -60.6091663      0.871374343      28.6047599       
536.78           0.874100384      28.2877762       0.473944627      -60.9290543      0.473944627      -60.9290543      0.874100384      28.2877762       
543.01           0.876757373      27.9756686       0.469140079      -61.2439608      0.469140079      -61.2439608      0.876757373      27.9756686       
549.24           0.879347392      27.6683299       0.464395351      -61.5539952      0.464395351      -61.5539952      0.879347392      27.6683299       
555.47           0.881872454      27.3656551       0.459709581      -61.859264       0.459709581      -61.859264       0.881872454      27.3656551       
561.7            0.884334507      27.0675423       0.455081905      -62.1598713      0.455081905      -62.1598713      0.884334507      27.0675423       
567.93           0.88673543       26.7738915       0.450511464      -62.4559184      0.450511464      -62.4559184      0.88673543       26.7738915       
574.16           0.889077042      26.4846056       0.445997398      -62.7475042      0.445997398      -62.7475042      0.889077042      26.4846056       
580.39           0.8913611        26.1995898       0.441538855      -63.0347249      0.441538855      -63.0347249      0.8913611        26.1995898       
586.62           0.893589304      25.9187514       0.437134984      -63.3176746      0.437134984      -63.3176746      0.893589304      25.9187514       
592.85           0.895763295      25.6420002       0.432784942      -63.5964449      0.432784942      -63.5964449      0.895763295      25.6420002       
599.08           0.897884661      25.3692482       0.428487891      -63.8711251      0.428487891      -63.8711251      0.897884661      25.3692482       
605.31           0.899954935      25.1004095       0.424242999      -64.1418023      0.424242999      -64.1418023      0.899954935      25.1004095       
611.54           0.901975603      24.8354003       0.420049443      -64.4085612      0.420049443      -64.4085612      0.901975603      24.8354003       
617.77           0.903948098      24.5741392       0.415906409      -64.6714847      0.415906409      -64.6714847      0.903948098      24.5741392       
624              0.905873806      24.3165463       0.411813088      -64.9306534      0.411813088      -64.9306534      0.905873806      24.3165463       
630.23           0.90775407       24.0625441       0.407768683      -65.1861459      0.407768683      -65.1861459      0.90775407       24.0625441       
636.46           0.909590185      23.8120568       0.403772406      -65.4380388      0.403772406      -65.4380388      0.909590185      23.8120568       
642.69           0.911383407      23.5650105       0.399823476      -65.6864069      0.399823476      -65.6864069      0.911383407      23.5650105       
648.92           0.913134947      23.3213332       0.395921125      -65.9313229      0.395921125      -65.9313229      0.913134947      23.3213332       
655.15           0.91484598       23.0809548       0.392064593      -66.1728578      0.392064593      -66.1728578      0.91484598       23.0809548       
661.38           0.916517639      22.8438066       0.388253131      -66.4110809      0.388253131      -66.4110809      0.916517639      22.8438066       
667.61           0.918151024      22.6098218       0.384486001      -66.6460595      0.384486001      -66.6460595      0.918151024      22.6098218       
673.84           0.919747196      22.3789353       0.380762475      -66.8778595      0.380762475      -66.8778595      0.919747196      22.3789353       
680.07           0.921307183      22.1510835       0.377081836      -67.106545       0.377081836      -67.106545       0.921307183      22.1510835       
686.3            0.92283198       21.9262044       0.373443376      -67.3321785      0.373443376      -67.3321785      0.92283198       21.9262044       
692.53           0.92432255       21.7042376       0.3698464        -67.5548208      0.3698464        -67.5548208      0.92432255       21.7042376       
698.76           0.925779825      21.485124        0.366290223      -67.7745315      0.366290223      -67.7745315      0.925779825      21.485124        
704.99           0.927204706      21.268806        0.362774171      -67.9913685      0.362774171      -67.9913685      0.927204706      21.268806        
711.22           0.928598066      21.0552275       0.35929758       -68.2053883      0.35929758       -68.2053883      0.928598066      21.0552275       
717.45           0.929960752      20.8443338       0.355859798      -68.4166459      0.355859798      -68.4166459      0.929960752      20.8443338       
723.68           0.931293582      20.6360714       0.352460184      -68.625195       0.352460184      -68.625195       0.931293582      20.6360714       
729.91           0.932597349      20.430388        0.349098106      -68.8310881      0.349098106      -68.8310881      0.932597349      20.430388        
736.14           0.933872821      20.2272329       0.345772943      -69.0343763      0.345772943      -69.0343763      0.933872821      20.2272329       
742.37           0.935120742      20.0265564       0.342484086      -69.2351093      0.342484086      -69.2351093      0.935120742      20.0265564       
748.6            0.936341833      19.8283099       0.339230936      -69.4333358      0.339230936      -69.4333358      0.936341833      19.8283099       
754.83           0.937536791      19.6324462       0.336012903      -69.6291032      0.336012903      -69.6291032      0.937536791      19.6324462       
761.06           0.938706294      19.438919        0.332829409      -69.8224576      0.332829409      -69.8224576      0.938706294      19.438919        
767.29           0.939850997      19.2476834       0.329679885      -70.0134443      0.329679885      -70.0134443      0.939850997      19.2476834       
773.52           0.940971536      19.0586952       0.326563773      -70.2021072      0.326563773      -70.2021072      0.940971536      19.0586952       
779.75           0.942068527      18.8719116       0.323480525      -70.3884891      0.323480525      -70.3884891      0.942068527      18.8719116       
785.98           0.943142568      18.6872905       0.320429601      -70.5726321      0.320429601      -70.5726321      0.943142568      18.6872905       
792.21           0.944194237      18.504791        0.317410472      -70.754577       0.317410472      -70.754577       0.944194237      18.504791        
