! Coilcraft 1008CT-900 Chip Inductor				
! 17 July 2002			
# MHZ S MA R 50
!Freq             MagS11           AngS11           MagS21           AngS21           MagS12           AngS12           MagS22           AngS22
1                0.00905106379    38.0184448       0.992885109      -0.321696555     0.992885109      -0.321696555     0.00905106379    38.0184448       
6.73             0.0386980742     74.7856994       0.990548569      -2.1604509       0.990548569      -2.1604509       0.0386980742     74.7856994       
12.46            0.0702801504     78.0851804       0.987886432      -3.99154265      0.987886432      -3.99154265      0.0702801504     78.0851804       
18.19            0.101805655      78.3160894       0.984444308      -5.81239736      0.984444308      -5.81239736      0.101805655      78.3160894       
23.92            0.133058571      77.6318809       0.980155325      -7.61997438      0.980155325      -7.61997438      0.133058571      77.6318809       
29.65            0.163924642      76.5571812       0.975015171      -9.41121078      0.975015171      -9.41121078      0.163924642      76.5571812       
35.38            0.194314642      75.2858054       0.969044522      -11.1831438      0.969044522      -11.1831438      0.194314642      75.2858054       
41.11            0.224151775      73.9074548       0.962277983      -12.932973       0.962277983      -12.932973       0.224151775      73.9074548       
46.84            0.253368704      72.4701675       0.954759241      -14.6581001      0.954759241      -14.6581001      0.253368704      72.4701675       
52.57            0.281906778      71.0024729       0.946538273      -16.3561549      0.946538273      -16.3561549      0.281906778      71.0024729       
58.3             0.309715801      69.5226637       0.937669387      -18.0250128      0.937669387      -18.0250128      0.309715801      69.5226637       
64.03            0.336753893      68.0431635       0.928209694      -19.662805       0.928209694      -19.662805       0.336753893      68.0431635       
69.76            0.362987294      66.5727783       0.91821783       -21.2679219      0.91821783       -21.2679219      0.362987294      66.5727783       
75.49            0.388390062      65.1179434       0.907752861      -22.8390114      0.907752861      -22.8390114      0.388390062      65.1179434       
81.22            0.412943673      63.6834574       0.896873365      -24.374973       0.896873365      -24.374973       0.412943673      63.6834574       
86.95            0.436636532      62.2729369       0.885636641      -25.8749479      0.885636641      -25.8749479      0.436636532      62.2729369       
92.68            0.459463415      60.8891126       0.874098069      -27.338306       0.874098069      -27.338306       0.459463415      60.8891126       
98.41            0.481424862      59.5340306       0.862310594      -28.7646311      0.862310594      -28.7646311      0.481424862      59.5340306       
104.14           0.502526553      58.209195        0.85032433       -30.153704       0.85032433       -30.153704       0.502526553      58.209195        
109.87           0.522778666      56.9156725       0.838186275      -31.5054857      0.838186275      -31.5054857      0.522778666      56.9156725       
115.6            0.542195258      55.6541728       0.825940123      -32.8200984      0.825940123      -32.8200984      0.542195258      55.6541728       
121.33           0.560793664      54.4251109       0.813626164      -34.0978085      0.813626164      -34.0978085      0.560793664      54.4251109       
127.06           0.578593926      53.228658        0.801281254      -35.3390086      0.801281254      -35.3390086      0.578593926      53.228658        
132.79           0.595618269      52.0647824       0.788938851      -36.5442008      0.788938851      -36.5442008      0.595618269      52.0647824       
138.52           0.61189062       50.9332845       0.776629094      -37.7139808      0.776629094      -37.7139808      0.61189062       50.9332845       
144.25           0.627436175      49.8338262       0.764378929      -38.8490227      0.764378929      -38.8490227      0.627436175      49.8338262       
149.98           0.642281011      48.7659551       0.752212256      -39.9500656      0.752212256      -39.9500656      0.642281011      48.7659551       
155.71           0.656451751      47.7291268       0.740150105      -41.0179008      0.740150105      -41.0179008      0.656451751      47.7291268       
161.44           0.669975272      46.722722        0.728210817      -42.0533606      0.728210817      -42.0533606      0.669975272      46.722722        
167.17           0.682878451      45.7460634       0.716410238      -43.0573077      0.716410238      -43.0573077      0.682878451      45.7460634       
172.9            0.695187958      44.7984282       0.704761916      -44.0306267      0.704761916      -44.0306267      0.695187958      44.7984282       
178.63           0.706930081      43.8790604       0.693277293      -44.9742159      0.693277293      -44.9742159      0.706930081      43.8790604       
184.36           0.718130581      42.9871803       0.68196589       -45.8889803      0.68196589       -45.8889803      0.718130581      42.9871803       
190.09           0.728814583      42.1219931       0.670835496      -46.7758257      0.670835496      -46.7758257      0.728814583      42.1219931       
195.82           0.739006482      41.2826958       0.659892331      -47.6356536      0.659892331      -47.6356536      0.739006482      41.2826958       
201.55           0.748729879      40.4684835       0.649141217      -48.4693567      0.649141217      -48.4693567      0.748729879      40.4684835       
207.28           0.758007533      39.6785546       0.638585724      -49.2778154      0.638585724      -49.2778154      0.758007533      39.6785546       
213.01           0.766861329      38.9121145       0.628228314      -50.0618951      0.628228314      -50.0618951      0.766861329      38.9121145       
218.74           0.77531226       38.1683793       0.618070469      -50.8224431      0.618070469      -50.8224431      0.77531226       38.1683793       
224.47           0.78338042       37.4465788       0.608112812      -51.5602872      0.608112812      -51.5602872      0.78338042       37.4465788       
230.2            0.791085003      36.7459584       0.598355212      -52.2762338      0.598355212      -52.2762338      0.791085003      36.7459584       
235.93           0.798444319      36.0657812       0.588796885      -52.9710673      0.588796885      -52.9710673      0.798444319      36.0657812       
241.66           0.805475807      35.405329        0.579436484      -53.6455485      0.579436484      -53.6455485      0.805475807      35.405329        
247.39           0.812196053      34.7639038       0.570272175      -54.3004149      0.570272175      -54.3004149      0.812196053      34.7639038       
253.12           0.818620821      34.1408281       0.561301713      -54.9363797      0.561301713      -54.9363797      0.818620821      34.1408281       
258.85           0.824765073      33.5354453       0.552522504      -55.5541323      0.552522504      -55.5541323      0.824765073      33.5354453       
264.58           0.830643004      32.9471205       0.543931662      -56.1543377      0.543931662      -56.1543377      0.830643004      32.9471205       
270.31           0.836268069      32.3752398       0.535526061      -56.7376373      0.535526061      -56.7376373      0.836268069      32.3752398       
276.04           0.841653015      31.8192111       0.52730238       -57.3046491      0.52730238       -57.3046491      0.841653015      31.8192111       
281.77           0.846809916      31.2784628       0.519257141      -57.8559677      0.519257141      -57.8559677      0.846809916      31.2784628       
287.5            0.851750197      30.7524447       0.511386744      -58.3921655      0.511386744      -58.3921655      0.851750197      30.7524447       
293.23           0.856484673      30.2406266       0.503687502      -58.9137925      0.503687502      -58.9137925      0.856484673      30.2406266       
298.96           0.861023575      29.7424985       0.49615566       -59.4213775      0.49615566       -59.4213775      0.861023575      29.7424985       
304.69           0.865376578      29.2575699       0.488787426      -59.9154284      0.488787426      -59.9154284      0.865376578      29.2575699       
310.42           0.869552837      28.7853689       0.481578987      -60.396433       0.481578987      -60.396433       0.869552837      28.7853689       
316.15           0.873561008      28.3254424       0.474526525      -60.8648594      0.474526525      -60.8648594      0.873561008      28.3254424       
321.88           0.877409278      27.8773549       0.467626238      -61.3211572      0.467626238      -61.3211572      0.877409278      27.8773549       
327.61           0.881105387      27.4406881       0.460874346      -61.7657577      0.460874346      -61.7657577      0.881105387      27.4406881       
333.34           0.88465666       27.0150402       0.454267106      -62.1990747      0.454267106      -62.1990747      0.88465666       27.0150402       
339.07           0.888070022      26.6000257       0.44780082       -62.6215053      0.44780082       -62.6215053      0.888070022      26.6000257       
344.8            0.891352024      26.1952742       0.441471844      -63.0334303      0.441471844      -63.0334303      0.891352024      26.1952742       
350.53           0.894508868      25.8004302       0.435276592      -63.4352154      0.435276592      -63.4352154      0.894508868      25.8004302       
356.26           0.897546417      25.4151527       0.429211542      -63.8272109      0.429211542      -63.8272109      0.897546417      25.4151527       
361.99           0.900470225      25.0391139       0.423273242      -64.2097533      0.423273242      -64.2097533      0.900470225      25.0391139       
367.72           0.903285548      24.6719996       0.417458311      -64.5831652      0.417458311      -64.5831652      0.903285548      24.6719996       
373.45           0.905997361      24.3135079       0.411763443      -64.9477562      0.411763443      -64.9477562      0.905997361      24.3135079       
379.18           0.908610379      23.9633491       0.406185408      -65.3038234      0.406185408      -65.3038234      0.908610379      23.9633491       
384.91           0.911129067      23.621245        0.400721054      -65.6516518      0.400721054      -65.6516518      0.911129067      23.621245        
390.64           0.913557657      23.2869284       0.395367307      -65.9915151      0.395367307      -65.9915151      0.913557657      23.2869284       
396.37           0.915900159      22.9601429       0.390121173      -66.3236758      0.390121173      -66.3236758      0.915900159      22.9601429       
402.1            0.918160376      22.6406422       0.384979734      -66.6483861      0.384979734      -66.6483861      0.918160376      22.6406422       
407.83           0.920341915      22.3281895       0.379940153      -66.965888       0.379940153      -66.965888       0.920341915      22.3281895       
413.56           0.922448198      22.0225576       0.37499967       -67.2764142      0.37499967       -67.2764142      0.922448198      22.0225576       
419.29           0.924482472      21.7235281       0.370155601      -67.5801878      0.370155601      -67.5801878      0.924482472      21.7235281       
425.02           0.926447821      21.4308911       0.365405338      -67.8774233      0.365405338      -67.8774233      0.926447821      21.4308911       
430.75           0.928347171      21.1444448       0.360746348      -68.168327       0.360746348      -68.168327       0.928347171      21.1444448       
436.48           0.930183305      20.8639952       0.356176172      -68.4530969      0.356176172      -68.4530969      0.930183305      20.8639952       
442.21           0.931958863      20.5893559       0.351692422      -68.7319234      0.351692422      -68.7319234      0.931958863      20.5893559       
447.94           0.933676359      20.3203475       0.34729278       -69.0049896      0.34729278       -69.0049896      0.933676359      20.3203475       
453.67           0.935338181      20.0567975       0.342974996      -69.2724715      0.342974996      -69.2724715      0.935338181      20.0567975       
459.4            0.936946601      19.7985399       0.33873689       -69.5345386      0.33873689       -69.5345386      0.936946601      19.7985399       
465.13           0.93850378       19.5454148       0.334576343      -69.7913537      0.334576343      -69.7913537      0.93850378       19.5454148       
470.86           0.940011778      19.2972687       0.330491305      -70.0430735      0.330491305      -70.0430735      0.940011778      19.2972687       
476.59           0.941472552      19.0539534       0.326479782      -70.2898491      0.326479782      -70.2898491      0.941472552      19.0539534       
482.32           0.94288797       18.8153264       0.322539846      -70.5318255      0.322539846      -70.5318255      0.94288797       18.8153264       
488.05           0.944259809      18.5812504       0.318669623      -70.7691428      0.318669623      -70.7691428      0.944259809      18.5812504       
493.78           0.945589764      18.3515931       0.314867299      -71.0019357      0.314867299      -71.0019357      0.945589764      18.3515931       
499.51           0.946879451      18.126227        0.311131112      -71.2303339      0.311131112      -71.2303339      0.946879451      18.126227        
505.24           0.948130411      17.9050294       0.307459358      -71.4544624      0.307459358      -71.4544624      0.948130411      17.9050294       
510.97           0.949344115      17.6878817       0.30385038       -71.6744419      0.30385038       -71.6744419      0.949344115      17.6878817       
516.7            0.950521967      17.4746698       0.300302575      -71.8903886      0.300302575      -71.8903886      0.950521967      17.4746698       
522.43           0.951665305      17.2652834       0.296814387      -72.1024143      0.296814387      -72.1024143      0.951665305      17.2652834       
528.16           0.952775409      17.0596165       0.293384307      -72.3106274      0.293384307      -72.3106274      0.952775409      17.0596165       
533.89           0.953853502      16.8575663       0.290010873      -72.5151318      0.290010873      -72.5151318      0.953853502      16.8575663       
539.62           0.954900753      16.659034        0.286692666      -72.7160284      0.286692666      -72.7160284      0.954900753      16.659034        
545.35           0.955918277      16.4639241       0.28342831       -72.9134141      0.28342831       -72.9134141      0.955918277      16.4639241       
551.08           0.956907143      16.2721441       0.280216472      -73.1073826      0.280216472      -73.1073826      0.956907143      16.2721441       
556.81           0.957868372      16.0836052       0.277055857      -73.2980244      0.277055857      -73.2980244      0.957868372      16.0836052       
562.54           0.958802941      15.8982211       0.273945209      -73.4854269      0.273945209      -73.4854269      0.958802941      15.8982211       
568.27           0.959711787      15.7159087       0.270883311      -73.6696746      0.270883311      -73.6696746      0.959711787      15.7159087       
574              0.960595805      15.5365877       0.267868982      -73.8508489      0.267868982      -73.8508489      0.960595805      15.5365877       
579.73           0.961455853      15.3601804       0.264901075      -74.0290286      0.264901075      -74.0290286      0.961455853      15.3601804       
585.46           0.962292753      15.1866115       0.261978476      -74.20429        0.261978476      -74.20429        0.962292753      15.1866115       
591.19           0.963107293      15.0158085       0.259100108      -74.3767067      0.259100108      -74.3767067      0.963107293      15.0158085       
596.92           0.963900227      14.8477011       0.256264921      -74.5463499      0.256264921      -74.5463499      0.963900227      14.8477011       
602.65           0.96467228       14.6822212       0.253471898      -74.7132885      0.253471898      -74.7132885      0.96467228       14.6822212       
608.38           0.965424147      14.5193031       0.250720052      -74.8775891      0.250720052      -74.8775891      0.965424147      14.5193031       
614.11           0.966156493      14.3588831       0.248008424      -75.0393162      0.248008424      -75.0393162      0.966156493      14.3588831       
619.84           0.966869959      14.2008995       0.245336083      -75.1985321      0.245336083      -75.1985321      0.966869959      14.2008995       
625.57           0.967565157      14.0452925       0.242702124      -75.3552974      0.242702124      -75.3552974      0.967565157      14.0452925       
631.3            0.968242679      13.8920044       0.240105669      -75.5096704      0.240105669      -75.5096704      0.968242679      13.8920044       
637.03           0.96890309       13.740979        0.237545864      -75.6617078      0.237545864      -75.6617078      0.96890309       13.740979        
642.76           0.969546935      13.5921622       0.235021882      -75.8114644      0.235021882      -75.8114644      0.969546935      13.5921622       
648.49           0.970174735      13.4455012       0.232532916      -75.9589934      0.232532916      -75.9589934      0.970174735      13.4455012       
654.22           0.970786995      13.3009451       0.230078184      -76.1043461      0.230078184      -76.1043461      0.970786995      13.3009451       
659.95           0.971384198      13.1584444       0.227656924      -76.2475726      0.227656924      -76.2475726      0.971384198      13.1584444       
665.68           0.971966808      13.0179511       0.225268398      -76.388721       0.225268398      -76.388721       0.971966808      13.0179511       
671.41           0.972535273      12.8794188       0.222911886      -76.5278384      0.222911886      -76.5278384      0.972535273      12.8794188       
677.14           0.973090023      12.7428022       0.220586689      -76.6649701      0.220586689      -76.6649701      0.973090023      12.7428022       
682.87           0.973631474      12.6080576       0.218292128      -76.8001602      0.218292128      -76.8001602      0.973631474      12.6080576       
688.6            0.974160023      12.4751426       0.216027541      -76.9334514      0.216027541      -76.9334514      0.974160023      12.4751426       
694.33           0.974676056      12.3440158       0.213792286      -77.0648852      0.213792286      -77.0648852      0.974676056      12.3440158       
700.06           0.975179943      12.2146371       0.211585737      -77.1945018      0.211585737      -77.1945018      0.975179943      12.2146371       
705.79           0.97567204       12.0869678       0.209407284      -77.3223402      0.209407284      -77.3223402      0.97567204       12.0869678       
711.52           0.976152691      11.96097         0.207256337      -77.4484383      0.207256337      -77.4484383      0.976152691      11.96097         
717.25           0.976622228      11.836607        0.205132318      -77.5728328      0.205132318      -77.5728328      0.976622228      11.836607        
722.98           0.97708097       11.7138432       0.203034666      -77.6955596      0.203034666      -77.6955596      0.97708097       11.7138432       
728.71           0.977529225      11.592644        0.200962835      -77.8166531      0.200962835      -77.8166531      0.977529225      11.592644        
