! Coilcraft 1008CT-150 Chip Inductor				
! 17 July 2002			
# MHZ S MA R 50
!Freq             MagS11           AngS11           MagS21           AngS21           MagS12           AngS12           MagS22           AngS22
1                0.0026130401     21.0342286       0.997561518      -0.0538683321    0.997561518      -0.0538683321    0.0026130401     21.0342286       
15.21            0.0146299831     76.781997        0.996756513      -0.81871223      0.996756513      -0.81871223      0.0146299831     76.781997        
29.42            0.0278429669     81.175335        0.99610862       -1.58275983      0.99610862       -1.58275983      0.0278429669     81.175335        
43.63            0.0411087552     82.3581444       0.995367574      -2.34595932      0.995367574      -2.34595932      0.0411087552     82.3581444       
57.84            0.0543707218     82.6370128       0.994495058      -3.10815135      0.994495058      -3.10815135      0.0543707218     82.6370128       
72.05            0.067611433      82.5318159       0.993476536      -3.86914972      0.993476536      -3.86914972      0.067611433      82.5318159       
86.26            0.0808208911     82.2267871       0.992305187      -4.62875735      0.992305187      -4.62875735      0.0808208911     82.2267871       
100.47           0.0939913954     81.8043473       0.990977656      -5.38677237      0.990977656      -5.38677237      0.0939913954     81.8043473       
114.68           0.107116188      81.307156        0.989492477      -6.14299124      0.989492477      -6.14299124      0.107116188      81.307156        
128.89           0.120188998      80.7596414       0.987849353      -6.89721056      0.987849353      -6.89721056      0.120188998      80.7596414       
143.1            0.133203857      80.1768786       0.986048786      -7.64922833      0.986048786      -7.64922833      0.133203857      80.1768786       
157.31           0.146155027      79.5687263       0.98409187       -8.39884483      0.98409187       -8.39884483      0.146155027      79.5687263       
171.52           0.15903697       78.9419397       0.981980155      -9.14586335      0.981980155      -9.14586335      0.15903697       78.9419397       
185.73           0.171844329      78.3013293       0.979715565      -9.89009073      0.979715565      -9.89009073      0.171844329      78.3013293       
199.94           0.184571928      77.6504333       0.977300338      -10.6313379      0.977300338      -10.6313379      0.184571928      77.6504333       
214.15           0.197214775      76.9919283       0.974736982      -11.3694203      0.974736982      -11.3694203      0.197214775      76.9919283       
228.36           0.209768063      76.3278884       0.972028235      -12.104158       0.972028235      -12.104158       0.209768063      76.3278884       
242.57           0.222227175      75.6599551       0.969177047      -12.8353766      0.969177047      -12.8353766      0.222227175      75.6599551       
256.78           0.23458769       74.9894527       0.966186544      -13.5629067      0.966186544      -13.5629067      0.23458769       74.9894527       
270.99           0.246845383      74.3174667       0.963060017      -14.2865849      0.963060017      -14.2865849      0.246845383      74.3174667       
285.2            0.258996237      73.6449009       0.959800898      -15.0062536      0.959800898      -15.0062536      0.258996237      73.6449009       
299.41           0.271036438      72.9725168       0.956412747      -15.7217611      0.956412747      -15.7217611      0.271036438      72.9725168       
313.62           0.282962383      72.3009641       0.95289923       -16.4329622      0.95289923       -16.4329622      0.282962383      72.3009641       
327.83           0.294770679      71.6308023       0.949264111      -17.1397178      0.949264111      -17.1397178      0.294770679      71.6308023       
342.04           0.306458147      70.9625177       0.945511234      -17.8418952      0.945511234      -17.8418952      0.306458147      70.9625177       
356.25           0.31802182       70.2965362       0.941644509      -18.5393685      0.941644509      -18.5393685      0.31802182       70.2965362       
370.46           0.329458943      69.6332331       0.937667903      -19.232018       0.937667903      -19.232018       0.329458943      69.6332331       
384.67           0.340766975      68.9729411       0.933585425      -19.9197309      0.933585425      -19.9197309      0.340766975      68.9729411       
398.88           0.351943583      68.3159565       0.929401116      -20.6024008      0.929401116      -20.6024008      0.351943583      68.3159565       
413.09           0.362986642      67.6625439       0.925119035      -21.2799279      0.925119035      -21.2799279      0.362986642      67.6625439       
427.3            0.373894233      67.0129407       0.920743255      -21.9522189      0.920743255      -21.9522189      0.373894233      67.0129407       
441.51           0.384664639      66.3673598       0.916277844      -22.6191872      0.916277844      -22.6191872      0.384664639      66.3673598       
455.72           0.39529634       65.7259931       0.911726866      -23.2807525      0.911726866      -23.2807525      0.39529634       65.7259931       
469.93           0.40578801       65.089013        0.907094364      -23.9368407      0.907094364      -23.9368407      0.40578801       65.089013        
484.14           0.416138512      64.4565746       0.902384354      -24.5873843      0.902384354      -24.5873843      0.416138512      64.4565746       
498.35           0.426346891      63.8288176       0.89760082       -25.2323216      0.89760082       -25.2323216      0.426346891      63.8288176       
512.56           0.436412372      63.2058672       0.892747705      -25.8715971      0.892747705      -25.8715971      0.436412372      63.2058672       
526.77           0.446334351      62.5878357       0.887828902      -26.5051613      0.887828902      -26.5051613      0.446334351      62.5878357       
540.98           0.456112393      61.9748233       0.882848251      -27.1329702      0.882848251      -27.1329702      0.456112393      61.9748233       
555.19           0.46574622       61.3669191       0.877809533      -27.7549855      0.877809533      -27.7549855      0.46574622       61.3669191       
569.4            0.475235709      60.764202        0.872716463      -28.3711746      0.872716463      -28.3711746      0.475235709      60.764202        
583.61           0.484580885      60.1667413       0.867572689      -28.9815097      0.867572689      -28.9815097      0.484580885      60.1667413       
597.82           0.493781913      59.5745973       0.862381782      -29.5859687      0.862381782      -29.5859687      0.493781913      59.5745973       
612.03           0.502839092      58.9878221       0.857147238      -30.1845339      0.857147238      -30.1845339      0.502839092      58.9878221       
626.24           0.51175285       58.40646         0.851872473      -30.7771928      0.851872473      -30.7771928      0.51175285       58.40646         
640.45           0.520523733      57.830548        0.846560817      -31.3639373      0.846560817      -31.3639373      0.520523733      57.830548        
654.66           0.529152404      57.2601164       0.841215518      -31.9447636      0.841215518      -31.9447636      0.529152404      57.2601164       
668.87           0.537639633      56.6951889       0.835839733      -32.5196725      0.835839733      -32.5196725      0.537639633      56.6951889       
683.08           0.54598629       56.1357834       0.830436531      -33.0886685      0.830436531      -33.0886685      0.54598629       56.1357834       
697.29           0.55419334       55.5819121       0.825008892      -33.6517601      0.825008892      -33.6517601      0.55419334       55.5819121       
711.5            0.562261837      55.0335818       0.819559701      -34.2089595      0.819559701      -34.2089595      0.562261837      55.0335818       
725.71           0.570192918      54.4907946       0.814091755      -34.7602825      0.814091755      -34.7602825      0.570192918      54.4907946       
739.92           0.577987796      53.9535478       0.808607754      -35.3057481      0.808607754      -35.3057481      0.577987796      53.9535478       
754.13           0.585647755      53.4218344       0.80311031       -35.8453785      0.80311031       -35.8453785      0.585647755      53.4218344       
768.34           0.593174141      52.8956433       0.79760194       -36.3791989      0.79760194       -36.3791989      0.593174141      52.8956433       
782.55           0.600568364      52.3749595       0.792085069      -36.9072375      0.792085069      -36.9072375      0.600568364      52.3749595       
796.76           0.607831886      51.8597646       0.786562032      -37.4295248      0.786562032      -37.4295248      0.607831886      51.8597646       
810.97           0.614966218      51.3500367       0.781035073      -37.946094       0.781035073      -37.946094       0.614966218      51.3500367       
825.18           0.621972915      50.8457511       0.775506347      -38.4569808      0.775506347      -38.4569808      0.621972915      50.8457511       
839.39           0.628853573      50.3468798       0.76997792       -38.9622228      0.76997792       -38.9622228      0.628853573      50.3468798       
853.6            0.635609822      49.8533924       0.764451774      -39.4618599      0.764451774      -39.4618599      0.635609822      49.8533924       
867.81           0.642243324      49.3652559       0.758929801      -39.9559335      0.758929801      -39.9559335      0.642243324      49.3652559       
882.02           0.648755766      48.8824351       0.753413814      -40.4444873      0.753413814      -40.4444873      0.648755766      48.8824351       
896.23           0.65514886       48.4048925       0.747905541      -40.9275662      0.747905541      -40.9275662      0.65514886       48.4048925       
910.44           0.661424334      47.9325888       0.74240663       -41.4052167      0.74240663       -41.4052167      0.661424334      47.9325888       
924.65           0.667583936      47.4654827       0.736918652      -41.8774869      0.736918652      -41.8774869      0.667583936      47.4654827       
938.86           0.673629424      47.0035315       0.7314431        -42.3444257      0.7314431        -42.3444257      0.673629424      47.0035315       
953.07           0.679562564      46.5466907       0.725981394      -42.8060836      0.725981394      -42.8060836      0.679562564      46.5466907       
967.28           0.685385132      46.0949148       0.720534879      -43.2625118      0.720534879      -43.2625118      0.685385132      46.0949148       
981.49           0.691098906      45.6481566       0.715104833      -43.7137626      0.715104833      -43.7137626      0.691098906      45.6481566       
995.7            0.696705663      45.2063682       0.709692462      -44.1598889      0.709692462      -44.1598889      0.696705663      45.2063682       
1009.91          0.702207182      44.7695003       0.704298907      -44.6009447      0.704298907      -44.6009447      0.702207182      44.7695003       
1024.12          0.707605236      44.3375031       0.698925246      -45.0369842      0.698925246      -45.0369842      0.707605236      44.3375031       
1038.33          0.712901596      43.9103258       0.693572492      -45.4680624      0.693572492      -45.4680624      0.712901596      43.9103258       
1052.54          0.71809802       43.4879168       0.688241601      -45.8942347      0.688241601      -45.8942347      0.71809802       43.4879168       
1066.75          0.723196262      43.0702242       0.682933468      -46.3155569      0.682933468      -46.3155569      0.723196262      43.0702242       
1080.96          0.728198061      42.6571952       0.677648933      -46.732085       0.677648933      -46.732085       0.728198061      42.6571952       
1095.17          0.733105147      42.248777        0.672388783      -47.1438754      0.672388783      -47.1438754      0.733105147      42.248777        
1109.38          0.737919233      41.8449161       0.667153752      -47.5509846      0.667153752      -47.5509846      0.737919233      41.8449161       
1123.59          0.742642019      41.4455589       0.661944522      -47.9534691      0.661944522      -47.9534691      0.742642019      41.4455589       
1137.8           0.747275188      41.0506516       0.656761731      -48.3513856      0.656761731      -48.3513856      0.747275188      41.0506516       
1152.01          0.751820404      40.6601401       0.651605966      -48.7447906      0.651605966      -48.7447906      0.751820404      40.6601401       
1166.22          0.756279316      40.2739704       0.646477773      -49.1337409      0.646477773      -49.1337409      0.756279316      40.2739704       
1180.43          0.760653551      39.8920884       0.641377654      -49.5182927      0.641377654      -49.5182927      0.760653551      39.8920884       
1194.64          0.764944718      39.51444         0.63630607       -49.8985025      0.63630607       -49.8985025      0.764944718      39.51444         
1208.85          0.769154403      39.1409712       0.631263442      -50.2744262      0.631263442      -50.2744262      0.769154403      39.1409712       
1223.06          0.773284173      38.7716281       0.626250157      -50.6461198      0.626250157      -50.6461198      0.773284173      38.7716281       
1237.27          0.777335572      38.4063571       0.621266561      -51.0136388      0.621266561      -51.0136388      0.777335572      38.4063571       
1251.48          0.781310124      38.0451046       0.61631297       -51.3770385      0.61631297       -51.3770385      0.781310124      38.0451046       
1265.69          0.785209326      37.6878174       0.611389665      -51.7363738      0.611389665      -51.7363738      0.785209326      37.6878174       
1279.9           0.789034657      37.3344424       0.606496897      -52.0916992      0.606496897      -52.0916992      0.789034657      37.3344424       
1294.11          0.79278757       36.9849271       0.601634886      -52.4430689      0.601634886      -52.4430689      0.79278757       36.9849271       
1308.32          0.796469495      36.6392191       0.596803824      -52.7905367      0.596803824      -52.7905367      0.796469495      36.6392191       
1322.53          0.800081839      36.2972664       0.592003877      -53.1341557      0.592003877      -53.1341557      0.800081839      36.2972664       
1336.74          0.803625985      35.9590176       0.587235184      -53.4739787      0.587235184      -53.4739787      0.803625985      35.9590176       
1350.95          0.807103293      35.6244213       0.58249786       -53.8100581      0.58249786       -53.8100581      0.807103293      35.6244213       
1365.16          0.810515098      35.2934269       0.577791998      -54.1424457      0.577791998      -54.1424457      0.810515098      35.2934269       
1379.37          0.813862714      34.9659842       0.573117666      -54.4711927      0.573117666      -54.4711927      0.813862714      34.9659842       
1393.58          0.817147428      34.6420434       0.568474914      -54.7963498      0.568474914      -54.7963498      0.817147428      34.6420434       
1407.79          0.820370505      34.3215551       0.563863771      -55.1179673      0.563863771      -55.1179673      0.820370505      34.3215551       
1422             0.823533186      34.0044705       0.559284247      -55.4360947      0.559284247      -55.4360947      0.823533186      34.0044705       
1436.21          0.826636691      33.6907414       0.554736334      -55.7507812      0.554736334      -55.7507812      0.826636691      33.6907414       
1450.42          0.829682214      33.38032         0.550220009      -56.0620751      0.550220009      -56.0620751      0.829682214      33.38032         
1464.63          0.832670927      33.073159        0.545735231      -56.3700243      0.545735231      -56.3700243      0.832670927      33.073159        
1478.84          0.83560398       32.7692119       0.541281946      -56.6746762      0.541281946      -56.6746762      0.83560398       32.7692119       
1493.05          0.838482499      32.4684323       0.536860083      -56.9760774      0.536860083      -56.9760774      0.838482499      32.4684323       
1507.26          0.841307589      32.1707748       0.53246956       -57.2742739      0.53246956       -57.2742739      0.841307589      32.1707748       
1521.47          0.844080332      31.8761943       0.528110283      -57.5693112      0.528110283      -57.5693112      0.844080332      31.8761943       
1535.68          0.84680179       31.5846464       0.523782145      -57.8612342      0.523782145      -57.8612342      0.84680179       31.5846464       
1549.89          0.849473001      31.2960872       0.519485027      -58.1500872      0.519485027      -58.1500872      0.849473001      31.2960872       
1564.1           0.852094983      31.0104733       0.515218802      -58.4359136      0.515218802      -58.4359136      0.852094983      31.0104733       
1578.31          0.854668734      30.7277621       0.510983332      -58.7187566      0.510983332      -58.7187566      0.854668734      30.7277621       
1592.52          0.857195229      30.4479113       0.50677847       -58.9986585      0.50677847       -58.9986585      0.857195229      30.4479113       
1606.73          0.859675426      30.1708793       0.502604061      -59.2756611      0.502604061      -59.2756611      0.859675426      30.1708793       
1620.94          0.862110261      29.8966252       0.498459941      -59.5498056      0.498459941      -59.5498056      0.862110261      29.8966252       
1635.15          0.864500649      29.6251084       0.494345941      -59.8211324      0.494345941      -59.8211324      0.864500649      29.6251084       
1649.36          0.866847488      29.3562891       0.490261882      -60.0896817      0.490261882      -60.0896817      0.866847488      29.3562891       
1663.57          0.869151657      29.0901279       0.486207581      -60.3554925      0.486207581      -60.3554925      0.869151657      29.0901279       
1677.78          0.871414015      28.8265862       0.482182849      -60.6186038      0.482182849      -60.6186038      0.871414015      28.8265862       
1691.99          0.873635402      28.5656257       0.478187491      -60.8790537      0.478187491      -60.8790537      0.873635402      28.5656257       
1706.2           0.875816643      28.3072089       0.474221306      -61.1368796      0.474221306      -61.1368796      0.875816643      28.3072089       
1720.41          0.877958543      28.0512985       0.470284092      -61.3921185      0.470284092      -61.3921185      0.877958543      28.0512985       
1734.62          0.88006189       27.7978582       0.466375638      -61.6448067      0.466375638      -61.6448067      0.88006189       27.7978582       
1748.83          0.882127454      27.546852        0.462495733      -61.8949801      0.462495733      -61.8949801      0.882127454      27.546852        
1763.04          0.884155991      27.2982445       0.458644162      -62.1426738      0.458644162      -62.1426738      0.884155991      27.2982445       
1777.25          0.886148238      27.0520007       0.454820705      -62.3879225      0.454820705      -62.3879225      0.886148238      27.0520007       
1791.46          0.888104917      26.8080863       0.45102514       -62.6307602      0.45102514       -62.6307602      0.888104917      26.8080863       
1805.67          0.890026735      26.5664675       0.447257245      -62.8712203      0.447257245      -62.8712203      0.890026735      26.5664675       
