! Coilcraft 1008CT-600 Chip Inductor				
! 17 July 2002			
# MHZ S MA R 50
!Freq             MagS11           AngS11           MagS21           AngS21           MagS12           AngS12           MagS22           AngS22
1                0.00701039087    32.1000876       0.99406833       -0.214719304     0.99406833       -0.214719304     0.00701039087    32.1000876       
7.73             0.0298147593     74.2555271       0.992324842      -1.65711626      0.992324842      -1.65711626      0.0298147593     74.2555271       
14.46            0.0545902413     78.4633097       0.990527385      -3.0954121       0.990527385      -3.0954121       0.0545902413     78.4633097       
21.19            0.0794222195     79.2572211       0.988280958      -4.52853273      0.988280958      -4.52853273      0.0794222195     79.2572211       
27.92            0.104145347      79.0412039       0.985519946      -5.95506425      0.985519946      -5.95506425      0.104145347      79.0412039       
34.65            0.12868887       78.3912054       0.982226626      -7.37353036      0.982226626      -7.37353036      0.12868887       78.3912054       
41.38            0.153002263      77.517253        0.978400815      -8.78245978      0.978400815      -8.78245978      0.153002263      77.517253        
48.11            0.177042693      76.5152444       0.974051402      -10.1804174      0.974051402      -10.1804174      0.177042693      76.5152444       
54.84            0.200771816      75.4357621       0.96919298       -11.5660233      0.96919298       -11.5660233      0.200771816      75.4357621       
61.57            0.224154795      74.3083578       0.963844154      -12.9379654      0.963844154      -12.9379654      0.224154795      74.3083578       
68.3             0.247159993      73.1516763       0.958026513      -14.2950097      0.958026513      -14.2950097      0.247159993      73.1516763       
75.03            0.269758884      71.9782095       0.951763922      -15.6360067      0.951763922      -15.6360067      0.269758884      71.9782095       
81.76            0.291926036      70.7967362       0.94508197       -16.9598975      0.94508197       -16.9598975      0.291926036      70.7967362       
88.49            0.3136391        69.6136664       0.938007506      -18.2657165      0.938007506      -18.2657165      0.3136391        69.6136664       
95.22            0.334878783      68.4338253       0.930568252      -19.5525939      0.930568252      -19.5525939      0.334878783      68.4338253       
101.95           0.355628795      67.260932        0.92279244       -20.8197564      0.92279244       -20.8197564      0.355628795      67.260932        
108.68           0.375875771      66.0979057       0.914708511      -22.0665263      0.914708511      -22.0665263      0.375875771      66.0979057       
115.41           0.395609164      64.9470665       0.906344828      -23.2923209      0.906344828      -23.2923209      0.395609164      64.9470665       
122.14           0.41482112       63.8102739       0.897729438      -24.4966492      0.897729438      -24.4966492      0.41482112       63.8102739       
128.87           0.433506327      62.6890232       0.888889854      -25.6791091      0.888889854      -25.6791091      0.433506327      62.6890232       
135.6            0.451661854      61.5845157       0.879852873      -26.8393839      0.879852873      -26.8393839      0.451661854      61.5845157       
142.33           0.469286979      60.4977113       0.870644421      -27.9772377      0.870644421      -27.9772377      0.469286979      60.4977113       
149.06           0.486383006      59.4293681       0.861289429      -29.0925106      0.861289429      -29.0925106      0.486383006      59.4293681       
155.79           0.502953082      58.3800736       0.851811727      -30.1851142      0.851811727      -30.1851142      0.502953082      58.3800736       
162.52           0.51900201       57.3502703       0.842233972      -31.2550262      0.842233972      -31.2550262      0.51900201       57.3502703       
169.25           0.534536073      56.3402753       0.832577589      -32.3022852      0.832577589      -32.3022852      0.534536073      56.3402753       
175.98           0.549562851      55.350298        0.822862739      -33.3269856      0.822862739      -33.3269856      0.549562851      55.350298        
182.71           0.564091056      54.3804545       0.813108299      -34.3292724      0.813108299      -34.3292724      0.564091056      54.3804545       
189.44           0.578130368      53.4307797       0.803331862      -35.3093362      0.803331862      -35.3093362      0.578130368      53.4307797       
196.17           0.591691283      52.5012382       0.793549748      -36.2674084      0.793549748      -36.2674084      0.591691283      52.5012382       
202.9            0.604784971      51.5917338       0.783777024      -37.2037562      0.783777024      -37.2037562      0.604784971      51.5917338       
209.63           0.617423148      50.7021174       0.77402754       -38.1186789      0.77402754       -38.1186789      0.617423148      50.7021174       
216.36           0.629617954      49.8321948       0.764313967      -39.0125029      0.764313967      -39.0125029      0.629617954      49.8321948       
223.09           0.641381841      48.9817332       0.75464784       -39.8855784      0.75464784       -39.8855784      0.641381841      48.9817332       
229.82           0.652727481      48.1504663       0.745039613      -40.7382754      0.745039613      -40.7382754      0.652727481      48.1504663       
236.55           0.663667673      47.3381004       0.735498708      -41.5709804      0.735498708      -41.5709804      0.663667673      47.3381004       
243.28           0.674215266      46.5443183       0.726033573      -42.3840936      0.726033573      -42.3840936      0.674215266      46.5443183       
250.01           0.684383094      45.7687839       0.716651739      -43.1780255      0.716651739      -43.1780255      0.684383094      45.7687839       
256.74           0.694183909      45.0111455       0.707359873      -43.9531948      0.707359873      -43.9531948      0.694183909      45.0111455       
263.47           0.703630336      44.2710391       0.698163839      -44.710026       0.698163839      -44.710026       0.703630336      44.2710391       
270.2            0.712734824      43.5480915       0.689068751      -45.4489471      0.689068751      -45.4489471      0.712734824      43.5480915       
276.93           0.721509611      42.8419227       0.68007903       -46.1703877      0.68007903       -46.1703877      0.721509611      42.8419227       
283.66           0.729966692      42.152148        0.67119845       -46.8747777      0.67119845       -46.8747777      0.729966692      42.152148        
290.39           0.738117794      41.4783804       0.662430197      -47.5625455      0.662430197      -47.5625455      0.738117794      41.4783804       
297.12           0.745974354      40.8202317       0.653776909      -48.2341166      0.653776909      -48.2341166      0.745974354      40.8202317       
303.85           0.753547504      40.1773146       0.645240729      -48.8899128      0.645240729      -48.8899128      0.753547504      40.1773146       
310.58           0.760848058      39.549244        0.636823339      -49.5303512      0.636823339      -49.5303512      0.760848058      39.549244        
317.31           0.767886506      38.9356375       0.628526012      -50.1558429      0.628526012      -50.1558429      0.767886506      38.9356375       
324.04           0.774673003      38.3361171       0.620349639      -50.7667929      0.620349639      -50.7667929      0.774673003      38.3361171       
330.77           0.781217373      37.7503096       0.612294774      -51.3635989      0.612294774      -51.3635989      0.781217373      37.7503096       
337.5            0.787529101      37.1778476       0.60436166       -51.9466513      0.60436166       -51.9466513      0.787529101      37.1778476       
344.23           0.793617341      36.6183696       0.596550264      -52.5163325      0.596550264      -52.5163325      0.793617341      36.6183696       
350.96           0.799490915      36.0715211       0.588860307      -53.0730167      0.588860307      -53.0730167      0.799490915      36.0715211       
357.69           0.805158317      35.5369545       0.581291283      -53.6170697      0.581291283      -53.6170697      0.805158317      35.5369545       
364.42           0.810627723      35.0143298       0.573842494      -54.1488482      0.573842494      -54.1488482      0.810627723      35.0143298       
371.15           0.815906991      34.5033145       0.566513063      -54.6687006      0.566513063      -54.6687006      0.815906991      34.5033145       
377.88           0.821003673      34.0035839       0.559301961      -55.1769661      0.559301961      -55.1769661      0.821003673      34.0035839       
384.61           0.825925023      33.5148213       0.552208022      -55.6739751      0.552208022      -55.6739751      0.825925023      33.5148213       
391.34           0.830678003      33.036718        0.545229962      -56.1600491      0.545229962      -56.1600491      0.830678003      33.036718        
398.07           0.835269292      32.5689734       0.538366397      -56.6355005      0.538366397      -56.6355005      0.835269292      32.5689734       
404.8            0.839705295      32.1112948       0.53161585       -57.1006332      0.53161585       -57.1006332      0.839705295      32.1112948       
411.53           0.843992156      31.6633977       0.524976774      -57.5557421      0.524976774      -57.5557421      0.843992156      31.6633977       
418.26           0.84813576       31.2250055       0.518447555      -58.0011138      0.518447555      -58.0011138      0.84813576       31.2250055       
424.99           0.852141748      30.7958492       0.512026529      -58.4370262      0.512026529      -58.4370262      0.852141748      30.7958492       
431.72           0.856015525      30.375668        0.505711988      -58.8637491      0.505711988      -58.8637491      0.856015525      30.375668        
438.45           0.859762265      29.9642083       0.499502191      -59.2815439      0.499502191      -59.2815439      0.859762265      29.9642083       
445.18           0.863386927      29.5612244       0.49339537       -59.6906641      0.49339537       -59.6906641      0.863386927      29.5612244       
451.91           0.866894256      29.1664776       0.487389738      -60.0913556      0.487389738      -60.0913556      0.866894256      29.1664776       
458.64           0.870288799      28.7797366       0.481483495      -60.4838565      0.481483495      -60.4838565      0.870288799      28.7797366       
465.37           0.873574906      28.4007771       0.475674835      -60.8683975      0.475674835      -60.8683975      0.873574906      28.4007771       
472.1            0.876756745      28.0293817       0.469961949      -61.245202       0.469961949      -61.245202       0.876756745      28.0293817       
478.83           0.879838302      27.6653395       0.464343032      -61.6144865      0.464343032      -61.6144865      0.879838302      27.6653395       
485.56           0.882823399      27.3084465       0.458816283      -61.9764607      0.458816283      -61.9764607      0.882823399      27.3084465       
492.29           0.88571569       26.9585047       0.453379913      -62.3313275      0.453379913      -62.3313275      0.88571569       26.9585047       
499.02           0.888518676      26.6153224       0.448032146      -62.6792835      0.448032146      -62.6792835      0.888518676      26.6153224       
505.75           0.89123571       26.2787139       0.442771221      -63.0205188      0.442771221      -63.0205188      0.89123571       26.2787139       
512.48           0.893869999      25.9484993       0.437595395      -63.3552177      0.437595395      -63.3552177      0.893869999      25.9484993       
519.21           0.896424619      25.6245045       0.432502948      -63.6835586      0.432502948      -63.6835586      0.896424619      25.6245045       
525.94           0.898902513      25.3065607       0.427492177      -64.005714       0.427492177      -64.005714       0.898902513      25.3065607       
532.67           0.9013065        24.9945043       0.422561408      -64.3218511      0.422561408      -64.3218511      0.9013065        24.9945043       
539.4            0.903639282      24.6881772       0.417708988      -64.6321317      0.417708988      -64.6321317      0.903639282      24.6881772       
546.13           0.905903445      24.387426        0.412933292      -64.9367123      0.412933292      -64.9367123      0.905903445      24.387426        
552.86           0.90810147       24.0921022       0.40823272       -65.2357447      0.40823272       -65.2357447      0.90810147       24.0921022       
559.59           0.910235732      23.802062        0.4036057        -65.5293757      0.4036057        -65.5293757      0.910235732      23.802062        
566.32           0.912308509      23.517166        0.39905069       -65.8177473      0.39905069       -65.8177473      0.912308509      23.517166        
573.05           0.914321985      23.2372794       0.394566174      -66.1009973      0.394566174      -66.1009973      0.914321985      23.2372794       
579.78           0.916278251      22.9622714       0.390150666      -66.3792588      0.390150666      -66.3792588      0.916278251      22.9622714       
586.51           0.918179316      22.6920153       0.385802709      -66.652661       0.385802709      -66.652661       0.918179316      22.6920153       
593.24           0.920027105      22.4263885       0.381520874      -66.9213289      0.381520874      -66.9213289      0.920027105      22.4263885       
599.97           0.921823464      22.1652721       0.377303762      -67.1853836      0.377303762      -67.1853836      0.921823464      22.1652721       
606.7            0.923570165      21.9085508       0.373150003      -67.4449422      0.373150003      -67.4449422      0.923570165      21.9085508       
613.43           0.925268908      21.6561131       0.369058256      -67.7001185      0.369058256      -67.7001185      0.925268908      21.6561131       
620.16           0.926921325      21.4078508       0.365027208      -67.9510225      0.365027208      -67.9510225      0.926921325      21.4078508       
626.89           0.928528982      21.1636589       0.361055575      -68.1977608      0.361055575      -68.1977608      0.928528982      21.1636589       
633.62           0.930093384      20.9234358       0.357142101      -68.4404367      0.357142101      -68.4404367      0.930093384      20.9234358       
640.35           0.931615974      20.6870831       0.353285558      -68.6791506      0.353285558      -68.6791506      0.931615974      20.6870831       
647.08           0.933098141      20.454505        0.349484745      -68.9139993      0.349484745      -68.9139993      0.933098141      20.454505        
653.81           0.934541217      20.225609        0.345738489      -69.1450771      0.345738489      -69.1450771      0.934541217      20.225609        
660.54           0.935946483      20.0003051       0.342045642      -69.372475       0.342045642      -69.372475       0.935946483      20.0003051       
667.27           0.93731517       19.7785063       0.338405085      -69.5962817      0.338405085      -69.5962817      0.93731517       19.7785063       
674              0.938648461      19.5601279       0.334815723      -69.8165829      0.334815723      -69.8165829      0.938648461      19.5601279       
680.73           0.939947495      19.345088        0.331276486      -70.0334617      0.331276486      -70.0334617      0.939947495      19.345088        
687.46           0.941213365      19.133307        0.32778633       -70.2469989      0.32778633       -70.2469989      0.941213365      19.133307        
694.19           0.942447124      18.9247075       0.324344234      -70.4572727      0.324344234      -70.4572727      0.942447124      18.9247075       
700.92           0.943649784      18.7192147       0.320949203      -70.664359       0.320949203      -70.664359       0.943649784      18.7192147       
707.65           0.944822321      18.5167558       0.317600264      -70.8683315      0.317600264      -70.8683315      0.944822321      18.5167558       
714.38           0.945965671      18.3172601       0.314296467      -71.0692618      0.314296467      -71.0692618      0.945965671      18.3172601       
721.11           0.947080738      18.120659        0.311036885      -71.2672192      0.311036885      -71.2672192      0.947080738      18.120659        
727.84           0.948168391      17.926886        0.307820613      -71.462271       0.307820613      -71.462271       0.948168391      17.926886        
734.57           0.949229467      17.7358764       0.304646766      -71.6544827      0.304646766      -71.6544827      0.949229467      17.7358764       
741.3            0.950264773      17.5475673       0.301514482      -71.8439178      0.301514482      -71.8439178      0.950264773      17.5475673       
748.03           0.951275086      17.3618977       0.298422918      -72.0306379      0.298422918      -72.0306379      0.951275086      17.3618977       
754.76           0.952261155      17.1788082       0.295371252      -72.2147028      0.295371252      -72.2147028      0.952261155      17.1788082       
761.49           0.953223702      16.9982413       0.292358682      -72.3961708      0.292358682      -72.3961708      0.953223702      16.9982413       
768.22           0.954163421      16.820141        0.289384422      -72.5750983      0.289384422      -72.5750983      0.954163421      16.820141        
774.95           0.955080985      16.6444528       0.28644771       -72.7515402      0.28644771       -72.7515402      0.955080985      16.6444528       
781.68           0.95597704       16.4711237       0.283547796      -72.9255498      0.283547796      -72.9255498      0.95597704       16.4711237       
788.41           0.956852211      16.3001023       0.280683953      -73.097179       0.280683953      -73.097179       0.956852211      16.3001023       
795.14           0.9577071        16.1313387       0.277855468      -73.266478       0.277855468      -73.266478       0.9577071        16.1313387       
801.87           0.958542287      15.964784        0.275061647      -73.4334959      0.275061647      -73.4334959      0.958542287      15.964784        
808.6            0.959358335      15.800391        0.27230181       -73.5982802      0.27230181       -73.5982802      0.959358335      15.800391        
815.33           0.960155784      15.6381136       0.269575296      -73.7608773      0.269575296      -73.7608773      0.960155784      15.6381136       
822.06           0.960935158      15.4779071       0.266881456      -73.921332       0.266881456      -73.921332       0.960935158      15.4779071       
828.79           0.961696961      15.3197277       0.264219661      -74.0796881      0.264219661      -74.0796881      0.961696961      15.3197277       
835.52           0.962441682      15.1635332       0.261589291      -74.2359882      0.261589291      -74.2359882      0.962441682      15.1635332       
842.25           0.963169791      15.0092821       0.258989746      -74.3902736      0.258989746      -74.3902736      0.963169791      15.0092821       
848.98           0.963881745      14.8569343       0.256420437      -74.5425846      0.256420437      -74.5425846      0.963881745      14.8569343       
855.71           0.964577983      14.7064506       0.25388079       -74.6929603      0.25388079       -74.6929603      0.964577983      14.7064506       
