! Coilcraft 1008CT-400 Chip Inductor				
! 17 July 2002			
# MHZ S MA R 50
!Freq             MagS11           AngS11           MagS21           AngS21           MagS12           AngS12           MagS22           AngS22
1                0.00540235121    26.6938349       0.995176392      -0.139722925     0.995176392      -0.139722925     0.00540235121    26.6938349       
8.73             0.0220579467     73.3446796       0.993902582      -1.21832489      0.993902582      -1.21832489      0.0220579467     73.3446796       
16.46            0.0405608214     78.5407452       0.992737962      -2.2949134       0.992737962      -2.2949134       0.0405608214     78.5407452       
24.19            0.0591747603     79.9193195       0.991355826      -3.36917115      0.991355826      -3.36917115      0.0591747603     79.9193195       
31.92            0.0777681745     80.1743197       0.989699668      -4.44056617      0.989699668      -4.44056617      0.0777681745     80.1743197       
39.65            0.0962966272     79.9454211       0.987749419      -5.50851439      0.987749419      -5.50851439      0.0962966272     79.9454211       
47.38            0.1147333        79.4640731       0.985497487      -6.57241558      0.985497487      -6.57241558      0.1147333        79.4640731       
55.11            0.133057148      78.835062        0.982942228      -7.63166831      0.982942228      -7.63166831      0.133057148      78.835062        
62.84            0.151249742      78.1130999       0.980085457      -8.68567815      0.980085457      -8.68567815      0.151249742      78.1130999       
70.57            0.169294199      77.329761        0.976931283      -9.73386303      0.976931283      -9.73386303      0.169294199      77.329761        
78.3             0.187174782      76.5046841       0.973485484      -10.775657       0.973485484      -10.775657       0.187174782      76.5046841       
86.03            0.20487674       75.6508215       0.969755127      -11.8105135      0.969755127      -11.8105135      0.20487674       75.6508215       
93.76            0.222386246      74.7771303       0.965748309      -12.8379071      0.965748309      -12.8379071      0.222386246      74.7771303       
101.49           0.239690381      73.8900518       0.961473973      -13.8573363      0.961473973      -13.8573363      0.239690381      73.8900518       
109.22           0.256777133      72.9943728       0.956941757      -14.8683244      0.956941757      -14.8683244      0.256777133      72.9943728       
116.95           0.273635399      72.093751        0.952161873      -15.870421       0.952161873      -15.870421       0.273635399      72.093751        
124.68           0.290254995      71.1910476       0.947144996      -16.863203       0.947144996      -16.863203       0.290254995      71.1910476       
132.41           0.306626654      70.2885459       0.941902174      -17.8462752      0.941902174      -17.8462752      0.306626654      70.2885459       
140.14           0.322742027      69.3880987       0.936444735      -18.8192709      0.936444735      -18.8192709      0.322742027      69.3880987       
147.87           0.338593673      68.4912305       0.930784212      -19.7818521      0.930784212      -19.7818521      0.338593673      68.4912305       
155.6            0.354175049      67.59921         0.924932266      -20.7337093      0.924932266      -20.7337093      0.354175049      67.59921         
163.33           0.369480492      66.7131024       0.918900621      -21.674562       0.918900621      -21.674562       0.369480492      66.7131024       
171.06           0.384505199      65.8338082       0.912701         -22.6041578      0.912701         -22.6041578      0.384505199      65.8338082       
178.79           0.399245197      64.9620922       0.906345068      -23.522272       0.906345068      -23.522272       0.399245197      64.9620922       
186.52           0.413697318      64.098606        0.899844379      -24.4287076      0.899844379      -24.4287076      0.413697318      64.098606        
194.25           0.427859163      63.2439052       0.893210331      -25.323294       0.893210331      -25.323294       0.427859163      63.2439052       
201.98           0.441729071      62.3984629       0.886454124      -26.2058861      0.886454124      -26.2058861      0.441729071      62.3984629       
209.71           0.455306074      61.5626811       0.879586719      -27.0763642      0.879586719      -27.0763642      0.455306074      61.5626811       
217.44           0.468589868      60.7368993       0.872618809      -27.9346322      0.872618809      -27.9346322      0.468589868      60.7368993       
225.17           0.481580762      59.9214022       0.86556079       -28.7806169      0.86556079       -28.7806169      0.481580762      59.9214022       
232.9            0.494279648      59.1164258       0.858422735      -29.614267       0.858422735      -29.614267       0.494279648      59.1164258       
240.63           0.506687951      58.3221625       0.851214376      -30.4355521      0.851214376      -30.4355521      0.506687951      58.3221625       
248.36           0.518807593      57.538766        0.843945088      -31.2444609      0.843945088      -31.2444609      0.518807593      57.538766        
256.09           0.530640951      56.7663551       0.836623875      -32.0410011      0.836623875      -32.0410011      0.530640951      56.7663551       
263.82           0.542190817      56.005017        0.829259362      -32.8251972      0.829259362      -32.8251972      0.542190817      56.005017        
271.55           0.55346036       55.2548108       0.821859787      -33.5970903      0.821859787      -33.5970903      0.55346036       55.2548108       
279.28           0.56445309       54.5157697       0.814433002      -34.3567362      0.814433002      -34.3567362      0.56445309       54.5157697       
287.01           0.575172816      53.787904        0.806986468      -35.1042048      0.806986468      -35.1042048      0.575172816      53.787904        
294.74           0.58562362       53.0712032       0.799527256      -35.8395788      0.799527256      -35.8395788      0.58562362       53.0712032       
302.47           0.595809815      52.3656379       0.792062056      -36.5629525      0.792062056      -36.5629525      0.595809815      52.3656379       
310.2            0.605735922      51.6711616       0.784597175      -37.2744313      0.784597175      -37.2744313      0.605735922      51.6711616       
317.93           0.615406634      50.9877127       0.77713855       -37.9741302      0.77713855       -37.9741302      0.615406634      50.9877127       
325.66           0.624826791      50.3152159       0.769691752      -38.662173       0.769691752      -38.662173       0.624826791      50.3152159       
333.39           0.634001357      49.6535836       0.762261999      -39.3386915      0.762261999      -39.3386915      0.634001357      49.6535836       
341.12           0.64293539       49.0027173       0.754854162      -40.0038247      0.754854162      -40.0038247      0.64293539       49.0027173       
348.85           0.651634023      48.3625089       0.74747278       -40.6577177      0.74747278       -40.6577177      0.651634023      48.3625089       
356.58           0.660102444      47.7328416       0.740122069      -41.3005213      0.740122069      -41.3005213      0.660102444      47.7328416       
364.31           0.668345874      47.1135911       0.732805934      -41.9323908      0.732805934      -41.9323908      0.668345874      47.1135911       
372.04           0.676369555      46.5046265       0.725527984      -42.5534859      0.725527984      -42.5534859      0.676369555      46.5046265       
379.77           0.684178728      45.9058113       0.718291542      -43.1639696      0.718291542      -43.1639696      0.684178728      45.9058113       
387.5            0.691778623      45.3170039       0.711099659      -43.7640079      0.711099659      -43.7640079      0.691778623      45.3170039       
395.23           0.699174445      44.7380586       0.703955125      -44.3537689      0.703955125      -44.3537689      0.699174445      44.7380586       
402.96           0.70637136       44.1688266       0.696860484      -44.9334228      0.696860484      -44.9334228      0.70637136       44.1688266       
410.69           0.713374489      43.6091556       0.689818046      -45.5031408      0.689818046      -45.5031408      0.713374489      43.6091556       
418.42           0.720188896      43.0588917       0.682829898      -46.0630953      0.682829898      -46.0630953      0.720188896      43.0588917       
426.15           0.726819581      42.5178787       0.675897915      -46.613459       0.675897915      -46.613459       0.726819581      42.5178787       
433.88           0.733271472      41.9859596       0.669023776      -47.1544048      0.669023776      -47.1544048      0.733271472      41.9859596       
441.61           0.739549419      41.4629762       0.662208972      -47.6861053      0.662208972      -47.6861053      0.739549419      41.4629762       
449.34           0.74565819       40.94877         0.655454816      -48.2087326      0.655454816      -48.2087326      0.74565819       40.94877         
457.07           0.751602465      40.4431825       0.648762458      -48.722458       0.648762458      -48.722458       0.751602465      40.4431825       
464.8            0.757386835      39.9460553       0.642132891      -49.2274517      0.642132891      -49.2274517      0.757386835      39.9460553       
472.53           0.763015795      39.4572307       0.635566965      -49.7238827      0.635566965      -49.7238827      0.763015795      39.4572307       
480.26           0.768493745      38.9765517       0.629065391      -50.2119185      0.629065391      -50.2119185      0.768493745      38.9765517       
487.99           0.773824984      38.5038624       0.622628755      -50.6917246      0.622628755      -50.6917246      0.773824984      38.5038624       
495.72           0.779013716      38.039008        0.616257524      -51.1634651      0.616257524      -51.1634651      0.779013716      38.039008        
503.45           0.784064042      37.5818353       0.609952056      -51.6273019      0.609952056      -51.6273019      0.784064042      37.5818353       
511.18           0.78897996       37.1321926       0.603712606      -52.0833947      0.603712606      -52.0833947      0.78897996       37.1321926       
518.91           0.793765372      36.6899301       0.597539333      -52.5319012      0.597539333      -52.5319012      0.793765372      36.6899301       
526.64           0.798424074      36.2548996       0.591432312      -52.9729765      0.591432312      -52.9729765      0.798424074      36.2548996       
534.37           0.802959766      35.8269552       0.585391532      -53.4067737      0.585391532      -53.4067737      0.802959766      35.8269552       
542.1            0.807376045      35.4059527       0.579416911      -53.833443       0.579416911      -53.833443       0.807376045      35.4059527       
549.83           0.811676412      34.9917506       0.573508295      -54.2531323      0.573508295      -54.2531323      0.811676412      34.9917506       
557.56           0.815864268      34.584209        0.567665471      -54.665987       0.567665471      -54.665987       0.815864268      34.584209        
565.29           0.81994292       34.1831908       0.561888163      -55.0721497      0.561888163      -55.0721497      0.81994292       34.1831908       
573.02           0.82391558       33.7885609       0.556176045      -55.4717605      0.556176045      -55.4717605      0.82391558       33.7885609       
580.75           0.827785367      33.4001868       0.550528741      -55.864957       0.550528741      -55.864957       0.827785367      33.4001868       
588.48           0.831555308      33.0179382       0.544945832      -56.2518737      0.544945832      -56.2518737      0.831555308      33.0179382       
596.21           0.83522834       32.6416873       0.539426859      -56.632643       0.539426859      -56.632643       0.83522834       32.6416873       
603.94           0.838807315      32.2713088       0.533971325      -57.0073942      0.533971325      -57.0073942      0.838807315      32.2713088       
611.67           0.842294998      31.9066797       0.528578702      -57.3762541      0.528578702      -57.3762541      0.842294998      31.9066797       
619.4            0.845694068      31.5476796       0.523248432      -57.7393471      0.523248432      -57.7393471      0.845694068      31.5476796       
627.13           0.849007127      31.1941902       0.517979932      -58.0967945      0.517979932      -58.0967945      0.849007127      31.1941902       
634.86           0.852236692      30.846096        0.512772593      -58.4487155      0.512772593      -58.4487155      0.852236692      30.846096        
642.59           0.855385208      30.5032836       0.507625787      -58.7952264      0.507625787      -58.7952264      0.855385208      30.5032836       
650.32           0.85845504       30.1656421       0.502538869      -59.1364411      0.502538869      -59.1364411      0.85845504       30.1656421       
658.05           0.861448481      29.8330631       0.497511176      -59.472471       0.497511176      -59.472471       0.861448481      29.8330631       
665.78           0.864367753      29.5054403       0.492542033      -59.8034249      0.492542033      -59.8034249      0.864367753      29.5054403       
673.51           0.867215009      29.1826698       0.487630752      -60.1294092      0.487630752      -60.1294092      0.867215009      29.1826698       
681.24           0.869992332      28.8646499       0.482776636      -60.450528       0.482776636      -60.450528       0.869992332      28.8646499       
688.97           0.872701742      28.5512814       0.47797898       -60.766883       0.47797898       -60.766883       0.872701742      28.5512814       
696.7            0.875345195      28.2424669       0.473237073      -61.0785734      0.473237073      -61.0785734      0.875345195      28.2424669       
704.43           0.877924584      27.9381116       0.468550198      -61.3856964      0.468550198      -61.3856964      0.877924584      27.9381116       
712.16           0.880441743      27.6381226       0.463917635      -61.6883466      0.463917635      -61.6883466      0.880441743      27.6381226       
719.89           0.882898449      27.3424091       0.45933866       -61.9866167      0.45933866       -61.9866167      0.882898449      27.3424091       
727.62           0.88529642       27.0508824       0.454812551      -62.2805971      0.454812551      -62.2805971      0.88529642       27.0508824       
735.35           0.887637324      26.7634559       0.450338583      -62.5703762      0.450338583      -62.5703762      0.887637324      26.7634559       
743.08           0.889922772      26.4800449       0.445916032      -62.85604        0.445916032      -62.85604        0.889922772      26.4800449       
750.81           0.892154326      26.2005666       0.441544177      -63.1376728      0.441544177      -63.1376728      0.892154326      26.2005666       
758.54           0.894333498      25.9249404       0.437222299      -63.4153569      0.437222299      -63.4153569      0.894333498      25.9249404       
766.27           0.896461753      25.6530872       0.432949681      -63.6891723      0.432949681      -63.6891723      0.896461753      25.6530872       
774              0.898540509      25.38493         0.428725612      -63.9591976      0.428725612      -63.9591976      0.898540509      25.38493         
781.73           0.900571139      25.1203934       0.424549383      -64.2255091      0.424549383      -64.2255091      0.900571139      25.1203934       
789.46           0.902554974      24.8594039       0.420420291      -64.4881814      0.420420291      -64.4881814      0.902554974      24.8594039       
797.19           0.904493302      24.6018897       0.416337639      -64.7472876      0.416337639      -64.7472876      0.904493302      24.6018897       
804.92           0.90638737       24.3477806       0.412300736      -65.0028985      0.412300736      -65.0028985      0.90638737       24.3477806       
812.65           0.908238387      24.097008        0.408308897      -65.2550838      0.408308897      -65.2550838      0.908238387      24.097008        
820.38           0.910047524      23.849505        0.404361442      -65.5039111      0.404361442      -65.5039111      0.910047524      23.849505        
828.11           0.911815914      23.6052064       0.400457701      -65.7494465      0.400457701      -65.7494465      0.911815914      23.6052064       
835.84           0.913544657      23.3640482       0.39659701       -65.9917547      0.39659701       -65.9917547      0.913544657      23.3640482       
843.57           0.915234817      23.1259682       0.392778711      -66.2308986      0.392778711      -66.2308986      0.915234817      23.1259682       
851.3            0.916887425      22.8909054       0.389002156      -66.4669397      0.389002156      -66.4669397      0.916887425      22.8909054       
859.03           0.918503481      22.6588004       0.385266704      -66.699938       0.385266704      -66.699938       0.918503481      22.6588004       
866.76           0.920083952      22.4295952       0.381571722      -66.9299522      0.381571722      -66.9299522      0.920083952      22.4295952       
874.49           0.921629778      22.203233        0.377916585      -67.1570393      0.377916585      -67.1570393      0.921629778      22.203233        
882.22           0.923141869      21.9796584       0.374300677      -67.3812553      0.374300677      -67.3812553      0.923141869      21.9796584       
889.95           0.924621105      21.7588173       0.37072339       -67.6026545      0.37072339       -67.6026545      0.924621105      21.7588173       
897.68           0.926068342      21.540657        0.367184124      -67.8212902      0.367184124      -67.8212902      0.926068342      21.540657        
905.41           0.927484409      21.3251256       0.363682288      -68.0372142      0.363682288      -68.0372142      0.927484409      21.3251256       
913.14           0.928870108      21.112173        0.3602173        -68.2504773      0.3602173        -68.2504773      0.928870108      21.112173        
920.87           0.93022622       20.9017497       0.356788586      -68.4611288      0.356788586      -68.4611288      0.93022622       20.9017497       
928.6            0.931553499      20.6938077       0.353395581      -68.6692172      0.353395581      -68.6692172      0.931553499      20.6938077       
936.33           0.932852679      20.4882999       0.350037727      -68.8747894      0.350037727      -68.8747894      0.932852679      20.4882999       
944.06           0.934124469      20.2851804       0.346714477      -69.0778915      0.346714477      -69.0778915      0.934124469      20.2851804       
951.79           0.93536956       20.0844044       0.343425291      -69.2785685      0.343425291      -69.2785685      0.93536956       20.0844044       
959.52           0.936588621      19.8859279       0.340169638      -69.4768642      0.340169638      -69.4768642      0.936588621      19.8859279       
967.25           0.9377823        19.6897082       0.336946996      -69.6728214      0.336946996      -69.6728214      0.9377823        19.6897082       
974.98           0.938951227      19.4957034       0.333756849      -69.8664819      0.333756849      -69.8664819      0.938951227      19.4957034       
982.71           0.940096014      19.3038725       0.330598692      -70.0578865      0.330598692      -70.0578865      0.940096014      19.3038725       
