! Coilcraft 1008CT-700 Chip Inductor				
! 17 July 2002			
# MHZ S MA R 50
!Freq             MagS11           AngS11           MagS21           AngS21           MagS12           AngS12           MagS22           AngS22
1                0.00783825699    33.6304311       0.993483138      -0.250358598     0.993483138      -0.250358598     0.00783825699    33.6304311       
7.48             0.0336478731     73.8544107       0.99117034       -1.86867007      0.99117034       -1.86867007      0.0336478731     73.8544107       
13.96            0.0614272976     77.7938564       0.988836799      -3.48093526      0.988836799      -3.48093526      0.0614272976     77.7938564       
20.44            0.0892194953     78.4116306       0.985959157      -5.08568889      0.985959157      -5.08568889      0.0892194953     78.4116306       
26.92            0.116837064      78.0362108       0.982451923      -6.68096523      0.982451923      -6.68096523      0.116837064      78.0362108       
33.4             0.144191854      77.2325557       0.978294492      -8.26471707      0.978294492      -8.26471707      0.144191854      77.2325557       
39.88            0.171218081      76.2086542       0.973490308      -9.83491959      0.973490308      -9.83491959      0.171218081      76.2086542       
46.36            0.197859407      75.0603067       0.968055349      -11.3896189      0.968055349      -11.3896189      0.197859407      75.0603067       
52.84            0.224065731      73.8384877       0.962013442      -12.9269612      0.962013442      -12.9269612      0.224065731      73.8384877       
59.32            0.249792265      72.5732409       0.955393841      -14.4452129      0.955393841      -14.4452129      0.249792265      72.5732409       
65.8             0.274999266      71.2836838       0.948229705      -15.9427741      0.948229705      -15.9427741      0.274999266      71.2836838       
72.28            0.299651955      69.982722        0.940556999      -17.4181885      0.940556999      -17.4181885      0.299651955      69.982722        
78.76            0.323720473      68.6794774       0.932413629      -18.8701494      0.932413629      -18.8701494      0.323720473      68.6794774       
85.24            0.3471798        67.380631        0.923838718      -20.2975024      0.923838718      -20.2975024      0.3471798        67.380631        
91.72            0.37000963       66.0912091       0.914871984      -21.699246       0.914871984      -21.699246       0.37000963       66.0912091       
98.2             0.392194196      64.815067        0.905553203      -23.0745297      0.905553203      -23.0745297      0.392194196      64.815067        
104.68           0.413722046      63.5551992       0.895921743      -24.4226499      0.895921743      -24.4226499      0.413722046      63.5551992       
111.16           0.434585783      62.3139469       0.886016169      -25.7430447      0.886016169      -25.7430447      0.434585783      62.3139469       
117.64           0.454781771      61.0931413       0.875873909      -27.0352872      0.875873909      -27.0352872      0.454781771      61.0931413       
124.12           0.474309825      59.894206        0.865530981      -28.2990774      0.865530981      -28.2990774      0.474309825      59.894206        
130.6            0.493172882      58.718233        0.855021778      -29.5342343      0.855021778      -29.5342343      0.493172882      58.718233        
137.08           0.511376676      57.5660406       0.8443789        -30.7406862      0.8443789        -30.7406862      0.511376676      57.5660406       
143.56           0.528929405      56.4382176       0.833633039      -31.9184621      0.833633039      -31.9184621      0.528929405      56.4382176       
150.04           0.545841414      55.3351606       0.822812899      -33.067682       0.822812899      -33.067682       0.545841414      55.3351606       
156.52           0.562124889      54.2571026       0.811945161      -34.1885478      0.811945161      -34.1885478      0.562124889      54.2571026       
163              0.577793565      53.204138        0.801054475      -35.2813344      0.801054475      -35.2813344      0.577793565      53.204138        
169.48           0.592862457      52.1762434       0.790163478      -36.3463807      0.790163478      -36.3463807      0.592862457      52.1762434       
175.96           0.607347609      51.1732955       0.779292838      -37.3840814      0.779292838      -37.3840814      0.607347609      51.1732955       
182.44           0.621265863      50.1950861       0.768461316      -38.3948796      0.768461316      -38.3948796      0.621265863      50.1950861       
188.92           0.634634655      49.2413358       0.757685838      -39.3792589      0.757685838      -39.3792589      0.634634655      49.2413358       
195.4            0.647471828      48.3117054       0.746981582      -40.3377372      0.746981582      -40.3377372      0.647471828      48.3117054       
201.88           0.659795472      47.4058063       0.736362074      -41.2708599      0.736362074      -41.2708599      0.659795472      47.4058063       
208.36           0.671623776      46.5232091       0.72583928       -42.1791948      0.72583928       -42.1791948      0.671623776      46.5232091       
214.84           0.682974903      45.6634516       0.715423711      -43.0633267      0.715423711      -43.0633267      0.682974903      45.6634516       
221.32           0.693866889      44.8260457       0.705124524      -43.9238528      0.705124524      -43.9238528      0.693866889      44.8260457       
227.8            0.704317545      44.0104831       0.694949618      -44.7613785      0.694949618      -44.7613785      0.704317545      44.0104831       
234.28           0.714344388      43.2162409       0.68490574       -45.5765141      0.68490574       -45.5765141      0.714344388      43.2162409       
240.76           0.723964571      42.4427857       0.674998574      -46.369871       0.674998574      -46.369871       0.723964571      42.4427857       
247.24           0.733194838      41.6895778       0.665232834      -47.1420596      0.665232834      -47.1420596      0.733194838      41.6895778       
253.72           0.742051484      40.9560745       0.655612352      -47.8936861      0.655612352      -47.8936861      0.742051484      40.9560745       
260.2            0.750550319      40.2417331       0.646140158      -48.6253511      0.646140158      -48.6253511      0.750550319      40.2417331       
266.68           0.758706652      39.5460131       0.636818562      -49.3376474      0.636818562      -49.3376474      0.758706652      39.5460131       
273.16           0.766535271      38.8683788       0.62764922       -50.0311584      0.62764922       -50.0311584      0.766535271      38.8683788       
279.64           0.774050435      38.2083007       0.618633208      -50.7064574      0.618633208      -50.7064574      0.774050435      38.2083007       
286.12           0.78126587       37.5652569       0.609771076      -51.3641058      0.609771076      -51.3641058      0.78126587       37.5652569       
292.6            0.788194771      36.9387347       0.601062916      -52.004653       0.601062916      -52.004653       0.788194771      36.9387347       
299.08           0.794849803      36.3282314       0.592508406      -52.6286352      0.592508406      -52.6286352      0.794849803      36.3282314       
305.56           0.801243107      35.7332549       0.584106863      -53.2365752      0.584106863      -53.2365752      0.801243107      35.7332549       
312.04           0.807386315      35.1533248       0.575857286      -53.828982       0.575857286      -53.828982       0.807386315      35.1533248       
318.52           0.813290555      34.5879724       0.567758395      -54.4063504      0.567758395      -54.4063504      0.813290555      34.5879724       
325              0.818966468      34.0367413       0.559808672      -54.9691611      0.559808672      -54.9691611      0.818966468      34.0367413       
331.48           0.824424223      33.4991876       0.55200639       -55.5178804      0.55200639       -55.5178804      0.824424223      33.4991876       
337.96           0.829673526      32.9748801       0.544349644      -56.0529605      0.544349644      -56.0529605      0.829673526      32.9748801       
344.44           0.834723643      32.4634001       0.536836379      -56.5748394      0.536836379      -56.5748394      0.834723643      32.4634001       
350.92           0.839583413      31.9643415       0.529464413      -57.0839411      0.529464413      -57.0839411      0.839583413      31.9643415       
357.4            0.844261263      31.477311        0.522231462      -57.5806757      0.522231462      -57.5806757      0.844261263      31.477311        
363.88           0.848765227      31.0019275       0.515135154      -58.0654399      0.515135154      -58.0654399      0.848765227      31.0019275       
370.36           0.853102961      30.5378224       0.508173053      -58.5386172      0.508173053      -58.5386172      0.853102961      30.5378224       
376.84           0.857281758      30.0846388       0.501342667      -59.0005777      0.501342667      -59.0005777      0.857281758      30.0846388       
383.32           0.861308566      29.6420319       0.49464147       -59.4516793      0.49464147       -59.4516793      0.861308566      29.6420319       
389.8            0.865190004      29.2096685       0.488066908      -59.892267       0.488066908      -59.892267       0.865190004      29.2096685       
396.28           0.868932373      28.7872263       0.481616412      -60.3226744      0.481616412      -60.3226744      0.868932373      28.7872263       
402.76           0.872541675      28.3743945       0.475287408      -60.7432228      0.475287408      -60.7432228      0.872541675      28.3743945       
409.24           0.876023625      27.9708726       0.469077326      -61.1542225      0.469077326      -61.1542225      0.876023625      27.9708726       
415.72           0.879383665      27.5763708       0.462983604      -61.5559729      0.462983604      -61.5559729      0.879383665      27.5763708       
422.2            0.882626978      27.190609        0.457003697      -61.9487625      0.457003697      -61.9487625      0.882626978      27.190609        
428.68           0.885758499      26.8133173       0.451135082      -62.3328697      0.451135082      -62.3328697      0.885758499      26.8133173       
435.16           0.888782928      26.444235        0.445375264      -62.7085629      0.445375264      -62.7085629      0.888782928      26.444235        
441.64           0.891704743      26.0831105       0.439721777      -63.076101       0.439721777      -63.076101       0.891704743      26.0831105       
448.12           0.894528208      25.7297014       0.43417219       -63.4357335      0.43417219       -63.4357335      0.894528208      25.7297014       
454.6            0.897257385      25.3837734       0.428724108      -63.7877009      0.428724108      -63.7877009      0.897257385      25.3837734       
461.08           0.899896147      25.0451007       0.423375177      -64.1322355      0.423375177      -64.1322355      0.899896147      25.0451007       
467.56           0.902448182      24.7134656       0.418123083      -64.4695609      0.418123083      -64.4695609      0.902448182      24.7134656       
474.04           0.904917007      24.3886576       0.412965556      -64.7998929      0.412965556      -64.7998929      0.904917007      24.3886576       
480.52           0.907305974      24.0704741       0.407900369      -65.1234395      0.407900369      -65.1234395      0.907305974      24.0704741       
487              0.909618279      23.7587194       0.402925341      -65.4404014      0.402925341      -65.4404014      0.909618279      23.7587194       
493.48           0.91185697       23.4532046       0.398038337      -65.7509721      0.398038337      -65.7509721      0.91185697       23.4532046       
499.96           0.914024955      23.1537476       0.393237269      -66.0553383      0.393237269      -66.0553383      0.914024955      23.1537476       
506.44           0.916125008      22.8601725       0.388520092      -66.3536801      0.388520092      -66.3536801      0.916125008      22.8601725       
512.92           0.918159776      22.5723097       0.383884813      -66.6461712      0.383884813      -66.6461712      0.918159776      22.5723097       
519.4            0.920131786      22.2899953       0.37932948       -66.9329792      0.37932948       -66.9329792      0.920131786      22.2899953       
525.88           0.922043449      22.0130712       0.374852192      -67.2142659      0.374852192      -67.2142659      0.922043449      22.0130712       
532.36           0.92389707       21.7413848       0.37045109       -67.4901875      0.37045109       -67.4901875      0.92389707       21.7413848       
538.84           0.92569485       21.4747886       0.366124363      -67.7608947      0.366124363      -67.7608947      0.92569485       21.4747886       
545.32           0.927438889      21.2131404       0.361870244      -68.0265328      0.361870244      -68.0265328      0.927438889      21.2131404       
551.8            0.929131197      20.9563025       0.35768701       -68.2872425      0.35768701       -68.2872425      0.929131197      20.9563025       
558.28           0.930773695      20.7041423       0.353572982      -68.5431593      0.353572982      -68.5431593      0.930773695      20.7041423       
564.76           0.932368219      20.4565314       0.349526524      -68.7944142      0.349526524      -68.7944142      0.932368219      20.4565314       
571.24           0.933916524      20.2133458       0.345546041      -69.0411339      0.345546041      -69.0411339      0.933916524      20.2133458       
577.72           0.935420291      19.9744657       0.341629982      -69.2834406      0.341629982      -69.2834406      0.935420291      19.9744657       
584.2            0.936881126      19.7397753       0.337776833      -69.5214524      0.337776833      -69.5214524      0.936881126      19.7397753       
590.68           0.938300568      19.5091626       0.333985122      -69.7552834      0.333985122      -69.7552834      0.938300568      19.5091626       
597.16           0.93968009       19.2825195       0.330253415      -69.9850442      0.330253415      -69.9850442      0.93968009       19.2825195       
603.64           0.941021102      19.0597412       0.326580315      -70.2108413      0.326580315      -70.2108413      0.941021102      19.0597412       
610.12           0.942324955      18.8407265       0.322964464      -70.4327779      0.322964464      -70.4327779      0.942324955      18.8407265       
616.6            0.943592943      18.6253774       0.319404539      -70.6509538      0.319404539      -70.6509538      0.943592943      18.6253774       
623.08           0.944826306      18.4135992       0.315899251      -70.8654655      0.315899251      -70.8654655      0.944826306      18.4135992       
629.56           0.946026234      18.2053002       0.312447348      -71.0764064      0.312447348      -71.0764064      0.946026234      18.2053002       
636.04           0.947193867      18.0003917       0.309047609      -71.2838667      0.309047609      -71.2838667      0.947193867      18.0003917       
642.52           0.948330297      17.7987877       0.305698847      -71.4879339      0.305698847      -71.4879339      0.948330297      17.7987877       
649              0.949436574      17.600405        0.302399905      -71.6886927      0.302399905      -71.6886927      0.949436574      17.600405        
655.48           0.950513704      17.4051632       0.29914966       -71.8862249      0.29914966       -71.8862249      0.950513704      17.4051632       
661.96           0.951562654      17.2129841       0.295947016      -72.0806098      0.295947016      -72.0806098      0.951562654      17.2129841       
668.44           0.95258435       17.0237923       0.292790907      -72.2719242      0.292790907      -72.2719242      0.95258435       17.0237923       
674.92           0.953579685      16.8375144       0.289680297      -72.4602425      0.289680297      -72.4602425      0.953579685      16.8375144       
681.4            0.954549512      16.6540796       0.286614176      -72.6456369      0.286614176      -72.6456369      0.954549512      16.6540796       
687.88           0.955494655      16.4734191       0.283591562      -72.828177       0.283591562      -72.828177       0.955494655      16.4734191       
694.36           0.956415902      16.2954661       0.280611497      -73.0079307      0.280611497      -73.0079307      0.956415902      16.2954661       
700.84           0.957314015      16.1201561       0.27767305       -73.1849634      0.27767305       -73.1849634      0.957314015      16.1201561       
707.32           0.958189722      15.9474264       0.274775316      -73.3593387      0.274775316      -73.3593387      0.958189722      15.9474264       
713.8            0.959043726      15.7772162       0.271917411      -73.5311183      0.271917411      -73.5311183      0.959043726      15.7772162       
720.28           0.959876703      15.6094665       0.269098476      -73.7003619      0.269098476      -73.7003619      0.959876703      15.6094665       
726.76           0.960689302      15.4441201       0.266317674      -73.8671275      0.266317674      -73.8671275      0.960689302      15.4441201       
733.24           0.96148215       15.2811215       0.263574191      -74.0314713      0.263574191      -74.0314713      0.96148215       15.2811215       
739.72           0.962255848      15.1204167       0.260867233      -74.193448       0.260867233      -74.193448       0.962255848      15.1204167       
746.2            0.963010976      14.9619535       0.258196027      -74.3531103      0.258196027      -74.3531103      0.963010976      14.9619535       
752.68           0.963748093      14.8056811       0.255559821      -74.5105098      0.255559821      -74.5105098      0.963748093      14.8056811       
759.16           0.964467736      14.6515501       0.252957881      -74.6656962      0.252957881      -74.6656962      0.964467736      14.6515501       
765.64           0.965170425      14.4995126       0.250389494      -74.8187179      0.250389494      -74.8187179      0.965170425      14.4995126       
772.12           0.965856659      14.3495221       0.247853963      -74.969622       0.247853963      -74.969622       0.965856659      14.3495221       
778.6            0.96652692       14.2015334       0.245350611      -75.1184541      0.245350611      -75.1184541      0.96652692       14.2015334       
785.08           0.967181671      14.0555026       0.242878777      -75.2652585      0.242878777      -75.2652585      0.967181671      14.0555026       
791.56           0.967821361      13.9113869       0.240437817      -75.4100783      0.240437817      -75.4100783      0.967821361      13.9113869       
798.04           0.968446423      13.7691448       0.238027104      -75.5529552      0.238027104      -75.5529552      0.968446423      13.7691448       
804.52           0.969057272      13.6287361       0.235646026      -75.69393        0.235646026      -75.69393        0.969057272      13.6287361       
811              0.969654311      13.4901214       0.233293988      -75.833042       0.233293988      -75.833042       0.969654311      13.4901214       
817.48           0.970237929      13.3532627       0.230970409      -75.9703298      0.230970409      -75.9703298      0.970237929      13.3532627       
823.96           0.970808501      13.2181227       0.228674721      -76.1058305      0.228674721      -76.1058305      0.970808501      13.2181227       
