! Coilcraft 1008CT-800 Chip Inductor				
! 17 July 2002			
# MHZ S MA R 50
!Freq             MagS11           AngS11           MagS21           AngS21           MagS12           AngS12           MagS22           AngS22
1                0.00827297716    36.8400031       0.993391414      -0.286097997     0.993391414      -0.286097997     0.00827297716    36.8400031       
6.73             0.0345259018     74.2962391       0.991212503      -1.92159361      0.991212503      -1.92159361      0.0345259018     74.2962391       
12.46            0.0626140619     78.0287594       0.988911329      -3.55112463      0.988911329      -3.55112463      0.0626140619     78.0287594       
18.19            0.0907059579     78.5633512       0.986030645      -5.17307012      0.986030645      -5.17307012      0.0907059579     78.5633512       
23.92            0.118616055      78.135595        0.98249465       -6.78536376      0.98249465       -6.78536376      0.118616055      78.135595        
29.65            0.146254975      77.292391        0.978286983      -8.38587357      0.978286983      -8.38587357      0.146254975      77.292391        
35.38            0.17355539       76.2357743       0.973413801      -9.97249988      0.973413801      -9.97249988      0.17355539       76.2357743       
41.11            0.200459488      75.0589896       0.967893228      -11.5432222      0.967893228      -11.5432222      0.200459488      75.0589896       
46.84            0.226915861      73.8117267       0.961751004      -13.0961281      0.961751004      -13.0961281      0.226915861      73.8117267       
52.57            0.252878613      72.5233117       0.955018181      -14.6294328      0.955018181      -14.6294328      0.252878613      72.5233117       
58.3             0.278307109      71.2124297       0.947729651      -16.1414931      0.947729651      -16.1414931      0.278307109      71.2124297       
64.03            0.303165898      69.891709        0.939923065      -17.6308169      0.939923065      -17.6308169      0.303165898      69.891709        
69.76            0.327424662      68.5700848       0.931637961      -19.0960691      0.931637961      -19.0960691      0.327424662      68.5700848       
75.49            0.351058125      67.2541053       0.922915029      -20.536074       0.922915029      -20.536074       0.351058125      67.2541053       
81.22            0.374045916      65.948698        0.913795483      -21.9498158      0.913795483      -21.9498158      0.374045916      65.948698        
86.95            0.396372377      64.6576404       0.904320506      -23.3364358      0.904320506      -23.3364358      0.396372377      64.6576404       
92.68            0.418026319      63.3838633       0.894530777      -24.6952282      0.894530777      -24.6952282      0.418026319      63.3838633       
98.41            0.439000741      62.1296528       0.884466064      -26.0256343      0.884466064      -26.0256343      0.439000741      62.1296528       
104.14           0.459292519      60.8967907       0.874164892      -27.3272348      0.874164892      -27.3272348      0.459292519      60.8967907       
109.87           0.478902071      59.6866552       0.863664258      -28.5997417      0.863664258      -28.5997417      0.478902071      59.6866552       
115.6            0.497833013      58.5002952       0.852999421      -29.8429894      0.852999421      -29.8429894      0.497833013      58.5002952       
121.33           0.51609181       57.3384874       0.842203737      -31.0569248      0.842203737      -31.0569248      0.51609181       57.3384874       
127.06           0.533687431      56.2017811       0.831308541      -32.2415975      0.831308541      -32.2415975      0.533687431      56.2017811       
132.79           0.550631018      55.0905335       0.82034308       -33.3971505      0.82034308       -33.3971505      0.550631018      55.0905335       
138.52           0.56693556       54.0049398       0.809334477      -34.5238097      0.809334477      -34.5238097      0.56693556       54.0049398       
144.25           0.582615595      52.9450573       0.798307736      -35.6218753      0.798307736      -35.6218753      0.582615595      52.9450573       
149.98           0.59768693       51.9108266       0.787285765      -36.6917119      0.787285765      -36.6917119      0.59768693       51.9108266       
155.71           0.612166379      50.9020893       0.776289426      -37.7337406      0.776289426      -37.7337406      0.612166379      50.9020893       
161.44           0.62607153       49.9186033       0.765337608      -38.7484305      0.765337608      -38.7484305      0.62607153       49.9186033       
167.17           0.639420535      48.9600565       0.754447308      -39.7362912      0.754447308      -39.7362912      0.639420535      48.9600565       
172.9            0.652231917      48.0260781       0.743633721      -40.6978659      0.743633721      -40.6978659      0.652231917      48.0260781       
178.63           0.664524407      47.1162493       0.732910344      -41.6337251      0.732910344      -41.6337251      0.664524407      47.1162493       
184.36           0.6763168        46.2301119       0.722289079      -42.5444607      0.722289079      -42.5444607      0.6763168        46.2301119       
190.09           0.687627824      45.367176        0.711780339      -43.4306806      0.711780339      -43.4306806      0.687627824      45.367176        
195.82           0.698476038      44.5269275       0.701393156      -44.2930044      0.701393156      -44.2930044      0.698476038      44.5269275       
201.55           0.708879742      43.7088333       0.691135286      -45.1320591      0.691135286      -45.1320591      0.708879742      43.7088333       
207.28           0.718856897      42.9123469       0.681013313      -45.9484749      0.681013313      -45.9484749      0.718856897      42.9123469       
213.01           0.72842507       42.1369128       0.671032746      -46.7428829      0.671032746      -46.7428829      0.72842507       42.1369128       
218.74           0.73760138       41.3819707       0.661198114      -47.5159115      0.661198114      -47.5159115      0.73760138       41.3819707       
224.47           0.746402464      40.6469581       0.651513061      -48.2681843      0.651513061      -48.2681843      0.746402464      40.6469581       
230.2            0.754844443      39.9313141       0.641980421      -49.0003178      0.641980421      -49.0003178      0.754844443      39.9313141       
235.93           0.762942906      39.2344812       0.632602308      -49.7129202      0.632602308      -49.7129202      0.762942906      39.2344812       
241.66           0.770712895      38.5559074       0.623380183      -50.4065891      0.623380183      -50.4065891      0.770712895      38.5559074       
247.39           0.778168896      37.8950484       0.614314928      -51.0819109      0.614314928      -51.0819109      0.778168896      37.8950484       
253.12           0.785324839      37.2513684       0.605406905      -51.7394596      0.605406905      -51.7394596      0.785324839      37.2513684       
258.85           0.792194099      36.6243418       0.596656017      -52.379796       0.596656017      -52.379796       0.792194099      36.6243418       
264.58           0.798789502      36.0134537       0.588061761      -53.003467       0.588061761      -53.003467       0.798789502      36.0134537       
270.31           0.805123333      35.418201        0.57962328       -53.6110054      0.57962328       -53.6110054      0.805123333      35.418201        
276.04           0.811207348      34.8380928       0.571339404      -54.2029294      0.571339404      -54.2029294      0.811207348      34.8380928       
281.77           0.817052785      34.272651        0.56320869       -54.7797423      0.56320869       -54.7797423      0.817052785      34.272651        
287.5            0.822670381      33.7214102       0.555229463      -55.3419326      0.555229463      -55.3419326      0.822670381      33.7214102       
293.23           0.828070387      33.1839184       0.547399848      -55.889974       0.547399848      -55.889974       0.828070387      33.1839184       
298.96           0.833262582      32.6597367       0.539717797      -56.4243253      0.539717797      -56.4243253      0.833262582      32.6597367       
304.69           0.838256293      32.1484394       0.53218112       -56.9454307      0.53218112       -56.9454307      0.838256293      32.1484394       
310.42           0.843060409      31.6496141       0.524787508      -57.4537198      0.524787508      -57.4537198      0.843060409      31.6496141       
316.15           0.847683401      31.1628615       0.517534552      -57.9496081      0.517534552      -57.9496081      0.847683401      31.1628615       
321.88           0.852133338      30.687795        0.510419768      -58.433497       0.510419768      -58.433497       0.852133338      30.687795        
327.61           0.856417906      30.2240409       0.503440607      -58.9057742      0.503440607      -58.9057742      0.856417906      30.2240409       
333.34           0.860544419      29.7712378       0.496594477      -59.366814       0.496594477      -59.366814       0.860544419      29.7712378       
339.07           0.864519845      29.3290367       0.489878754      -59.8169778      0.489878754      -59.8169778      0.864519845      29.3290367       
344.8            0.868350813      28.8971002       0.483290793      -60.2566142      0.483290793      -60.2566142      0.868350813      28.8971002       
350.53           0.872043633      28.4751028       0.476827938      -60.6860596      0.476827938      -60.6860596      0.872043633      28.4751028       
356.26           0.875604313      28.0627302       0.470487535      -61.1056381      0.470487535      -61.1056381      0.875604313      28.0627302       
361.99           0.879038567      27.659679        0.464266936      -61.5156627      0.464266936      -61.5156627      0.879038567      27.659679        
367.72           0.882351838      27.2656565       0.45816351       -61.9164349      0.45816351       -61.9164349      0.882351838      27.2656565       
373.45           0.885549302      26.8803803       0.452174644      -62.3082453      0.452174644      -62.3082453      0.885549302      26.8803803       
379.18           0.88863589       26.503578        0.446297753      -62.6913741      0.446297753      -62.6913741      0.88863589       26.503578        
384.91           0.891616293      26.134987        0.440530283      -63.0660915      0.440530283      -63.0660915      0.891616293      26.134987        
390.64           0.894494979      25.7743537       0.434869712      -63.4326578      0.434869712      -63.4326578      0.894494979      25.7743537       
396.37           0.8972762        25.4214339       0.429313558      -63.791324       0.429313558      -63.791324       0.8972762        25.4214339       
402.1            0.899964008      25.0759919       0.423859379      -64.1423318      0.423859379      -64.1423318      0.899964008      25.0759919       
407.83           0.902562259      24.7378004       0.418504775      -64.4859143      0.418504775      -64.4859143      0.902562259      24.7378004       
413.56           0.90507463       24.4066403       0.413247391      -64.8222964      0.413247391      -64.8222964      0.90507463       24.4066403       
419.29           0.907504622      24.0823001       0.408084917      -65.1516944      0.408084917      -65.1516944      0.907504622      24.0823001       
425.02           0.90985557       23.764576        0.40301509       -65.4743174      0.40301509       -65.4743174      0.90985557       23.764576        
430.75           0.912130655      23.4532715       0.398035694      -65.7903664      0.398035694      -65.7903664      0.912130655      23.4532715       
436.48           0.91433291       23.1481967       0.393144564      -66.1000356      0.393144564      -66.1000356      0.91433291       23.1481967       
442.21           0.916465225      22.8491688       0.38833958       -66.4035122      0.38833958       -66.4035122      0.916465225      22.8491688       
447.94           0.918530357      22.5560113       0.383618673      -66.7009767      0.383618673      -66.7009767      0.918530357      22.5560113       
453.67           0.920530937      22.2685538       0.37897982       -66.992603       0.37897982       -66.992603       0.920530937      22.2685538       
459.4            0.922469474      21.9866321       0.37442105       -67.2785591      0.37442105       -67.2785591      0.922469474      21.9866321       
465.13           0.924348365      21.7100875       0.369940435      -67.5590069      0.369940435      -67.5590069      0.924348365      21.7100875       
470.86           0.926169896      21.4387669       0.365536099      -67.8341027      0.365536099      -67.8341027      0.926169896      21.4387669       
476.59           0.92793625       21.1725227       0.36120621       -68.1039974      0.36120621       -68.1039974      0.92793625       21.1725227       
482.32           0.929649514      20.911212        0.356948983      -68.3688364      0.356948983      -68.3688364      0.929649514      20.911212        
488.05           0.931311681      20.6546973       0.352762681      -68.6287603      0.352762681      -68.6287603      0.931311681      20.6546973       
493.78           0.932924654      20.4028454       0.348645607      -68.8839047      0.348645607      -68.8839047      0.932924654      20.4028454       
499.51           0.934490255      20.1555278       0.344596113      -69.1344005      0.344596113      -69.1344005      0.934490255      20.1555278       
505.24           0.936010223      19.9126205       0.34061259       -69.3803742      0.34061259       -69.3803742      0.936010223      19.9126205       
510.97           0.937486222      19.6740035       0.336693474      -69.6219479      0.336693474      -69.6219479      0.937486222      19.6740035       
516.7            0.938919847      19.4395609       0.332837242      -69.8592397      0.332837242      -69.8592397      0.938919847      19.4395609       
522.43           0.940312619      19.2091806       0.32904241       -70.0923635      0.32904241       -70.0923635      0.940312619      19.2091806       
528.16           0.941665997      18.9827545       0.325307535      -70.3214295      0.325307535      -70.3214295      0.941665997      18.9827545       
533.89           0.942981378      18.7601777       0.321631213      -70.5465443      0.321631213      -70.5465443      0.942981378      18.7601777       
539.62           0.944260099      18.5413491       0.318012075      -70.7678106      0.318012075      -70.7678106      0.944260099      18.5413491       
545.35           0.94550344       18.3261708       0.314448792      -70.9853282      0.314448792      -70.9853282      0.94550344       18.3261708       
551.08           0.946712629      18.114548        0.310940069      -71.1991931      0.310940069      -71.1991931      0.946712629      18.114548        
556.81           0.947888841      17.9063891       0.307484646      -71.4094986      0.307484646      -71.4094986      0.947888841      17.9063891       
562.54           0.949033205      17.7016053       0.304081298      -71.6163345      0.304081298      -71.6163345      0.949033205      17.7016053       
568.27           0.950146801      17.500111        0.300728832      -71.8197881      0.300728832      -71.8197881      0.950146801      17.500111        
574              0.951230666      17.3018229       0.297426088      -72.0199436      0.297426088      -72.0199436      0.951230666      17.3018229       
579.73           0.952285796      17.1066606       0.294171937      -72.2168826      0.294171937      -72.2168826      0.952285796      17.1066606       
585.46           0.953313145      16.9145463       0.290965279      -72.4106842      0.290965279      -72.4106842      0.953313145      16.9145463       
591.19           0.95431363       16.7254045       0.287805046      -72.6014247      0.287805046      -72.6014247      0.95431363       16.7254045       
596.92           0.955288131      16.539162        0.284690197      -72.7891782      0.284690197      -72.7891782      0.955288131      16.539162        
602.65           0.956237492      16.355748        0.281619721      -72.9740164      0.281619721      -72.9740164      0.956237492      16.355748        
608.38           0.957162526      16.175094        0.278592632      -73.1560088      0.278592632      -73.1560088      0.957162526      16.175094        
614.11           0.958064013      15.9971333       0.275607972      -73.3352227      0.275607972      -73.3352227      0.958064013      15.9971333       
619.84           0.958942703      15.8218015       0.272664806      -73.5117233      0.272664806      -73.5117233      0.958942703      15.8218015       
625.57           0.959799316      15.6490361       0.269762228      -73.6855737      0.269762228      -73.6855737      0.959799316      15.6490361       
631.3            0.960634545      15.4787765       0.266899353      -73.8568353      0.266899353      -73.8568353      0.960634545      15.4787765       
637.03           0.961449059      15.3109637       0.26407532       -74.0255673      0.26407532       -74.0255673      0.961449059      15.3109637       
642.76           0.962243497      15.1455407       0.261289292      -74.1918275      0.261289292      -74.1918275      0.962243497      15.1455407       
648.49           0.963018477      14.9824522       0.258540453      -74.3556716      0.258540453      -74.3556716      0.963018477      14.9824522       
654.22           0.963774593      14.8216445       0.255828008      -74.5171537      0.255828008      -74.5171537      0.963774593      14.8216445       
659.95           0.964512417      14.6630653       0.253151186      -74.6763265      0.253151186      -74.6763265      0.964512417      14.6630653       
665.68           0.965232501      14.5066641       0.250509232      -74.8332408      0.250509232      -74.8332408      0.965232501      14.5066641       
671.41           0.965935374      14.3523916       0.247901413      -74.9879462      0.247901413      -74.9879462      0.965935374      14.3523916       
677.14           0.966621548      14.2002002       0.245327016      -75.1404905      0.245327016      -75.1404905      0.966621548      14.2002002       
682.87           0.967291516      14.0500435       0.242785343      -75.2909205      0.242785343      -75.2909205      0.967291516      14.0500435       
688.6            0.967945752      13.9018764       0.240275718      -75.4392813      0.240275718      -75.4392813      0.967945752      13.9018764       
694.33           0.968584714      13.7556552       0.23779748       -75.5856167      0.23779748       -75.5856167      0.968584714      13.7556552       
700.06           0.969208844      13.6113373       0.235349986      -75.7299695      0.235349986      -75.7299695      0.969208844      13.6113373       
705.79           0.969818567      13.4688813       0.232932608      -75.872381       0.232932608      -75.872381       0.969818567      13.4688813       
711.52           0.970414294      13.3282472       0.230544736      -76.0128915      0.230544736      -76.0128915      0.970414294      13.3282472       
717.25           0.970996422      13.1893958       0.228185774      -76.1515399      0.228185774      -76.1515399      0.970996422      13.1893958       
722.98           0.971565333      13.0522891       0.225855142      -76.2883643      0.225855142      -76.2883643      0.971565333      13.0522891       
728.71           0.972121397      12.9168902       0.223552273      -76.4234014      0.223552273      -76.4234014      0.972121397      12.9168902       
