! Coilcraft 1008CT-300 Chip Inductor				
! 17 July 2002			
# MHZ S MA R 50
!Freq             MagS11           AngS11           MagS21           AngS21           MagS12           AngS12           MagS22           AngS22
1                0.00470757652    23.3881235       0.995680966      -0.107533614     0.995680966      -0.107533614     0.00470757652    23.3881235       
11.22            0.0217505053     73.9761004       0.994215842      -1.20484995      0.994215842      -1.20484995      0.0217505053     73.9761004       
21.44            0.0406119466     78.8648152       0.992956698      -2.29989976      0.992956698      -2.29989976      0.0406119466     78.8648152       
31.66            0.0595584815     80.092012        0.991489375      -3.39239035      0.991489375      -3.39239035      0.0595584815     80.092012        
41.88            0.0784723479     80.2574898       0.989747252      -4.48176446      0.989747252      -4.48176446      0.0784723479     80.2574898       
52.1             0.0973120178     79.9674519       0.98770676       -5.5674024       0.98770676       -5.5674024       0.0973120178     79.9674519       
62.32            0.116051136      79.4400995       0.985358828      -6.64866495      0.985358828      -6.64866495      0.116051136      79.4400995       
72.54            0.134668355      78.7740954       0.982701214      -7.72491087      0.982701214      -7.72491087      0.134668355      78.7740954       
82.76            0.153144667      78.0209802       0.979735609      -8.79550644      0.979735609      -8.79550644      0.153144667      78.0209802       
92.98            0.171462517      77.2105436       0.976466286      -9.85983159      0.976466286      -9.85983159      0.171462517      77.2105436       
103.2            0.189605488      76.3613555       0.972899376      -10.9172843      0.972899376      -10.9172843      0.189605488      76.3613555       
113.42           0.207558179      75.4856968       0.969042433      -11.9672838      0.969042433      -11.9672838      0.207558179      75.4856968       
123.64           0.225306168      74.5920859       0.964904141      -13.0092737      0.964904141      -13.0092737      0.225306168      74.5920859       
133.86           0.242836007      73.6866694       0.960494096      -14.0427235      0.960494096      -14.0427235      0.242836007      73.6866694       
144.08           0.26013523       72.7740303       0.955822641      -15.0671307      0.955822641      -15.0671307      0.26013523       72.7740303       
154.3            0.277192362      71.8576822       0.950900724      -16.082022       0.950900724      -16.082022       0.277192362      71.8576822       
164.52           0.293996927      70.9403823       0.945739781      -17.0869543      0.945739781      -17.0869543      0.293996927      70.9403823       
174.74           0.310539446      70.0243372       0.940351624      -18.0815157      0.940351624      -18.0815157      0.310539446      70.0243372       
184.96           0.32681144       69.1113415       0.934748348      -19.0653255      0.934748348      -19.0653255      0.32681144       69.1113415       
195.18           0.342805414      68.2028748       0.928942239      -20.0380345      0.928942239      -20.0380345      0.342805414      68.2028748       
205.4            0.358514848      67.3001693       0.922945697      -20.9993254      0.922945697      -20.9993254      0.358514848      67.3001693       
215.62           0.373934169      66.4042605       0.916771159      -21.9489121      0.916771159      -21.9489121      0.373934169      66.4042605       
225.84           0.389058729      65.5160229       0.910431033      -22.8865395      0.910431033      -22.8865395      0.389058729      65.5160229       
236.06           0.403884771      64.6361985       0.903937633      -23.8119829      0.903937633      -23.8119829      0.403884771      64.6361985       
246.28           0.418409397      63.7654177       0.897303129      -24.725047       0.897303129      -24.725047       0.418409397      63.7654177       
256.5            0.43263053       62.904216        0.890539492      -25.6255656      0.890539492      -25.6255656      0.43263053       62.904216        
266.72           0.44654687       62.0530472       0.883658449      -26.5134002      0.883658449      -26.5134002      0.44654687       62.0530472       
276.94           0.460157852      61.2122939       0.876671451      -27.388439       0.876671451      -27.388439       0.460157852      61.2122939       
287.16           0.473463602      60.3822766       0.869589631      -28.2505958      0.869589631      -28.2505958      0.473463602      60.3822766       
297.38           0.486464894      59.5632607       0.862423782      -29.099809       0.862423782      -29.099809       0.486464894      59.5632607       
307.6            0.499163099      58.7554626       0.85518433       -29.93604        0.85518433       -29.93604        0.499163099      58.7554626       
317.82           0.511560142      57.9590552       0.847881315      -30.7592722      0.847881315      -30.7592722      0.511560142      57.9590552       
328.04           0.523658457      57.1741722       0.840524376      -31.5695095      0.840524376      -31.5695095      0.523658457      57.1741722       
338.26           0.535460941      56.4009122       0.833122741      -32.3667754      0.833122741      -32.3667754      0.535460941      56.4009122       
348.48           0.546970912      55.6393422       0.825685217      -33.1511111      0.825685217      -33.1511111      0.546970912      55.6393422       
358.7            0.558192063      54.8895006       0.818220191      -33.9225748      0.818220191      -33.9225748      0.558192063      54.8895006       
368.92           0.569128426      54.1514005       0.810735621      -34.6812401      0.810735621      -34.6812401      0.569128426      54.1514005       
379.14           0.57978433       53.4250316       0.803239043      -35.427195       0.803239043      -35.427195       0.57978433       53.4250316       
389.36           0.590164364      52.7103626       0.795737573      -36.1605404      0.795737573      -36.1605404      0.590164364      52.7103626       
399.58           0.600273343      52.007344        0.788237914      -36.8813893      0.788237914      -36.8813893      0.600273343      52.007344        
409.8            0.610116274      51.3159091       0.780746361      -37.5898655      0.780746361      -37.5898655      0.610116274      51.3159091       
420.02           0.619698326      50.6359763       0.773268812      -38.2861025      0.773268812      -38.2861025      0.619698326      50.6359763       
430.24           0.629024798      49.9674506       0.765810779      -38.9702426      0.765810779      -38.9702426      0.629024798      49.9674506       
440.46           0.638101097      49.310225        0.758377396      -39.6424359      0.758377396      -39.6424359      0.638101097      49.310225        
450.68           0.646932709      48.664182        0.750973437      -40.3028392      0.750973437      -40.3028392      0.646932709      48.664182        
460.9            0.655525176      48.0291948       0.743603324      -40.9516156      0.743603324      -40.9516156      0.655525176      48.0291948       
471.12           0.663884076      47.4051284       0.736271143      -41.588933       0.736271143      -41.588933       0.663884076      47.4051284       
481.34           0.672015008      46.7918407       0.728980657      -42.2149641      0.728980657      -42.2149641      0.672015008      46.7918407       
491.56           0.679923565      46.1891836       0.721735322      -42.8298851      0.721735322      -42.8298851      0.679923565      46.1891836       
501.78           0.687615328      45.5970036       0.714538299      -43.4338754      0.714538299      -43.4338754      0.687615328      45.5970036       
512              0.695095844      45.0151429       0.707392467      -44.0271165      0.707392467      -44.0271165      0.695095844      45.0151429       
522.22           0.702370621      44.4434403       0.700300441      -44.6097922      0.700300441      -44.6097922      0.702370621      44.4434403       
532.44           0.709445109      43.8817311       0.693264585      -45.1820873      0.693264585      -45.1820873      0.709445109      43.8817311       
542.66           0.716324696      43.3298489       0.686287022      -45.7441876      0.686287022      -45.7441876      0.716324696      43.3298489       
552.88           0.723014696      42.7876251       0.679369652      -46.2962793      0.679369652      -46.2962793      0.723014696      42.7876251       
563.1            0.729520342      42.25489         0.672514161      -46.8385486      0.672514161      -46.8385486      0.729520342      42.25489         
573.32           0.735846783      41.7314734       0.665722038      -47.3711813      0.665722038      -47.3711813      0.735846783      41.7314734       
583.54           0.741999072      41.2172045       0.658994584      -47.8943624      0.658994584      -47.8943624      0.741999072      41.2172045       
593.76           0.747982166      40.7119126       0.652332923      -48.408276       0.652332923      -48.408276       0.747982166      40.7119126       
603.98           0.753800922      40.2154275       0.645738016      -48.9131049      0.645738016      -48.9131049      0.753800922      40.2154275       
614.2            0.759460092      39.7275798       0.639210673      -49.4090304      0.639210673      -49.4090304      0.759460092      39.7275798       
624.42           0.764964321      39.2482009       0.632751556      -49.8962319      0.632751556      -49.8962319      0.764964321      39.2482009       
634.64           0.770318148      38.7771238       0.626361199      -50.3748869      0.626361199      -50.3748869      0.770318148      38.7771238       
644.86           0.775526         38.3141827       0.620040008      -50.8451709      0.620040008      -50.8451709      0.775526         38.3141827       
655.08           0.780592195      37.8592135       0.613788278      -51.3072571      0.613788278      -51.3072571      0.780592195      37.8592135       
665.3            0.785520941      37.4120543       0.607606196      -51.7613161      0.607606196      -51.7613161      0.785520941      37.4120543       
675.52           0.790316333      36.9725448       0.601493851      -52.2075162      0.601493851      -52.2075162      0.790316333      36.9725448       
685.74           0.79498236       36.540527        0.59545124       -52.646023       0.59545124       -52.646023       0.79498236       36.540527        
695.96           0.799522899      36.1158453       0.589478279      -53.0769995      0.589478279      -53.0769995      0.799522899      36.1158453       
706.18           0.803941718      35.6983463       0.583574807      -53.5006056      0.583574807      -53.5006056      0.803941718      35.6983463       
716.4            0.808242482      35.2878791       0.577740589      -53.9169989      0.577740589      -53.9169989      0.808242482      35.2878791       
726.62           0.812428745      34.8842953       0.571975331      -54.3263338      0.571975331      -54.3263338      0.812428745      34.8842953       
736.84           0.816503961      34.4874489       0.566278677      -54.7287618      0.566278677      -54.7287618      0.816503961      34.4874489       
747.06           0.820471482      34.0971969       0.560650217      -55.1244316      0.560650217      -55.1244316      0.820471482      34.0971969       
757.28           0.824334557      33.7133985       0.555089494      -55.5134891      0.555089494      -55.5134891      0.824334557      33.7133985       
767.5            0.828096339      33.3359157       0.549596008      -55.896077       0.549596008      -55.896077       0.828096339      33.3359157       
777.72           0.831759883      32.9646135       0.544169216      -56.2723352      0.544169216      -56.2723352      0.831759883      32.9646135       
787.94           0.835328153      32.599359        0.538808541      -56.6424007      0.538808541      -56.6424007      0.835328153      32.599359        
798.16           0.838804019      32.2400225       0.533513376      -57.0064076      0.533513376      -57.0064076      0.838804019      32.2400225       
808.38           0.842190262      31.8864767       0.528283083      -57.364487       0.528283083      -57.364487       0.842190262      31.8864767       
818.6            0.845489575      31.5385969       0.523116999      -57.7167673      0.523116999      -57.7167673      0.845489575      31.5385969       
828.82           0.848704568      31.1962613       0.51801444       -58.063374       0.51801444       -58.063374       0.848704568      31.1962613       
839.04           0.851837765      30.8593506       0.512974702      -58.4044298      0.512974702      -58.4044298      0.851837765      30.8593506       
849.26           0.854891614      30.527748        0.507997065      -58.7400546      0.507997065      -58.7400546      0.854891614      30.527748        
859.48           0.857868482      30.2013394       0.503080792      -59.0703656      0.503080792      -59.0703656      0.857868482      30.2013394       
869.7            0.86077066       29.8800132       0.498225138      -59.3954773      0.498225138      -59.3954773      0.86077066       29.8800132       
879.92           0.863600366      29.5636604       0.493429344      -59.7155016      0.493429344      -59.7155016      0.863600366      29.5636604       
890.14           0.866359748      29.2521742       0.488692644      -60.0305478      0.488692644      -60.0305478      0.866359748      29.2521742       
900.36           0.869050882      28.9454506       0.484014268      -60.3407224      0.484014268      -60.3407224      0.869050882      28.9454506       
910.58           0.87167578       28.6433877       0.479393438      -60.6461298      0.479393438      -60.6461298      0.87167578       28.6433877       
920.8            0.874236385      28.3458861       0.474829374      -60.9468716      0.474829374      -60.9468716      0.874236385      28.3458861       
931.02           0.876734582      28.0528487       0.470321293      -61.2430471      0.470321293      -61.2430471      0.876734582      28.0528487       
941.24           0.879172189      27.7641806       0.465868412      -61.5347533      0.465868412      -61.5347533      0.879172189      27.7641806       
951.46           0.881550971      27.4797891       0.46146995       -61.8220848      0.46146995       -61.8220848      0.881550971      27.4797891       
961.68           0.883872632      27.1995838       0.457125124      -62.1051339      0.457125124      -62.1051339      0.883872632      27.1995838       
971.9            0.886138822      26.9234764       0.452833155      -62.3839906      0.452833155      -62.3839906      0.886138822      26.9234764       
982.12           0.888351137      26.6513807       0.448593269      -62.6587431      0.448593269      -62.6587431      0.888351137      26.6513807       
992.34           0.890511122      26.3832125       0.444404693      -62.9294769      0.444404693      -62.9294769      0.890511122      26.3832125       
1002.56          0.892620272      26.1188896       0.440266661      -63.1962759      0.440266661      -63.1962759      0.892620272      26.1188896       
1012.78          0.894680033      25.8583317       0.436178411      -63.4592217      0.436178411      -63.4592217      0.894680033      25.8583317       
1023             0.896691804      25.6014607       0.432139187      -63.7183941      0.432139187      -63.7183941      0.896691804      25.6014607       
1033.22          0.898656942      25.3482001       0.428148241      -63.9738707      0.428148241      -63.9738707      0.898656942      25.3482001       
1043.44          0.900576756      25.0984752       0.42420483       -64.2257275      0.42420483       -64.2257275      0.900576756      25.0984752       
1053.66          0.902452515      24.8522132       0.420308219      -64.4740385      0.420308219      -64.4740385      0.902452515      24.8522132       
1063.88          0.904285448      24.6093432       0.416457681      -64.7188759      0.416457681      -64.7188759      0.904285448      24.6093432       
1074.1           0.906076744      24.3697957       0.412652497      -64.9603102      0.412652497      -64.9603102      0.906076744      24.3697957       
1084.32          0.907827553      24.133503        0.408891956      -65.19841        0.408891956      -65.19841        0.907827553      24.133503        
1094.54          0.90953899       23.9003991       0.405175356      -65.4332424      0.405175356      -65.4332424      0.90953899       23.9003991       
1104.76          0.911212133      23.6704193       0.401502004      -65.664873       0.401502004      -65.664873       0.911212133      23.6704193       
1114.98          0.912848028      23.4435009       0.397871215      -65.8933655      0.397871215      -65.8933655      0.912848028      23.4435009       
1125.2           0.914447686      23.2195823       0.394282313      -66.1187821      0.394282313      -66.1187821      0.914447686      23.2195823       
1135.42          0.916012086      22.9986035       0.390734633      -66.3411838      0.390734633      -66.3411838      0.916012086      22.9986035       
1145.64          0.917542178      22.780506        0.387227517      -66.5606297      0.387227517      -66.5606297      0.917542178      22.780506        
1155.86          0.91903888       22.5652327       0.383760319      -66.7771778      0.383760319      -66.7771778      0.91903888       22.5652327       
1166.08          0.920503083      22.3527276       0.3803324        -66.9908846      0.3803324        -66.9908846      0.920503083      22.3527276       
1176.3           0.921935649      22.1429364       0.376943131      -67.201805       0.376943131      -67.201805       0.921935649      22.1429364       
1186.52          0.923337415      21.9358058       0.373591894      -67.409993       0.373591894      -67.409993       0.923337415      21.9358058       
1196.74          0.92470919       21.7312839       0.370278079      -67.6155009      0.370278079      -67.6155009      0.92470919       21.7312839       
1206.96          0.926051759      21.5293201       0.367001087      -67.81838        0.367001087      -67.81838        0.926051759      21.5293201       
1217.18          0.927365882      21.3298647       0.363760326      -68.0186803      0.363760326      -68.0186803      0.927365882      21.3298647       
1227.4           0.928652298      21.1328695       0.360555216      -68.2164505      0.360555216      -68.2164505      0.928652298      21.1328695       
1237.62          0.92991172       20.9382872       0.357385186      -68.4117384      0.357385186      -68.4117384      0.92991172       20.9382872       
1247.84          0.931144842      20.7460717       0.354249673      -68.6045903      0.354249673      -68.6045903      0.931144842      20.7460717       
1258.06          0.932352336      20.5561781       0.351148123      -68.7950517      0.351148123      -68.7950517      0.932352336      20.5561781       
1268.28          0.933534854      20.3685622       0.348079994      -68.9831669      0.348079994      -68.9831669      0.933534854      20.3685622       
1278.5           0.934693026      20.1831811       0.345044751      -69.1689791      0.345044751      -69.1689791      0.934693026      20.1831811       
1288.72          0.935827468      19.999993        0.342041868      -69.3525305      0.342041868      -69.3525305      0.935827468      19.999993        
1298.94          0.936938772      19.8189566       0.339070828      -69.5338624      0.339070828      -69.5338624      0.936938772      19.8189566       
