! Coilcraft 1008CT-200 Chip Inductor				
! 17 July 2002			
# MHZ S MA R 50
!Freq             MagS11           AngS11           MagS21           AngS21           MagS12           AngS12           MagS22           AngS22
1                0.00372447135    19.5747761       0.996491566      -0.071747418     0.996491566      -0.071747418     0.00372447135    19.5747761       
10.97            0.0143031012     72.9228409       0.99589362       -0.786630198     0.99589362       -0.786630198     0.0143031012     72.9228409       
20.94            0.0265417079     79.2042585       0.99537003       -1.50093289      0.99537003       -1.50093289      0.0265417079     79.2042585       
30.91            0.0389034204     81.143641        0.994753489      -2.21459372      0.994753489      -2.21459372      0.0389034204     81.143641        
40.88            0.0512858127     81.8380388       0.994016075      -2.92747987      0.994016075      -2.92747987      0.0512858127     81.8380388       
50.85            0.0636614674     82.0037474       0.993147069      -3.63944003      0.993147069      -3.63944003      0.0636614674     82.0037474       
60.82            0.0760175284     81.8953685       0.992141407      -4.35031535      0.992141407      -4.35031535      0.0760175284     81.8953685       
70.79            0.0883456247     81.6265081       0.990996584      -5.05994357      0.990996584      -5.05994357      0.0883456247     81.6265081       
80.76            0.100639174      81.2556884       0.989711499      -5.76816124      0.989711499      -5.76816124      0.100639174      81.2556884       
90.73            0.112892451      80.816224        0.98828592       -6.47480489      0.98828592       -6.47480489      0.112892451      80.816224        
100.7            0.125100209      80.3285367       0.986720217      -7.17971198      0.986720217      -7.17971198      0.125100209      80.3285367       
110.67           0.137257508      79.8058837       0.985015202      -7.88272149      0.985015202      -7.88272149      0.137257508      79.8058837       
120.64           0.149359636      79.2572762       0.983172033      -8.5836744       0.983172033      -8.5836744       0.149359636      79.2572762       
130.61           0.161402061      78.6890751       0.981192155      -9.28241413      0.981192155      -9.28241413      0.161402061      78.6890751       
140.58           0.173380414      78.1059156       0.979077253      -9.97878687      0.979077253      -9.97878687      0.173380414      78.1059156       
150.55           0.185290479      77.511269        0.976829218      -10.6726419      0.976829218      -10.6726419      0.185290479      77.511269        
160.52           0.197128184      76.9077966       0.974450129      -11.3638317      0.974450129      -11.3638317      0.197128184      76.9077966       
170.49           0.208889607      76.297582        0.971942223      -12.0522126      0.971942223      -12.0522126      0.208889607      76.297582        
180.46           0.220570971      75.6822867       0.969307886      -12.7376445      0.969307886      -12.7376445      0.220570971      75.6822867       
190.43           0.232168647      75.0632571       0.966549637      -13.4199911      0.966549637      -13.4199911      0.232168647      75.0632571       
200.4            0.243679157      74.4416011       0.963670109      -14.0991206      0.963670109      -14.0991206      0.243679157      74.4416011       
210.37           0.255099176      73.8182417       0.960672046      -14.7749053      0.960672046      -14.7749053      0.255099176      73.8182417       
220.34           0.266425531      73.1939576       0.957558285      -15.4472217      0.957558285      -15.4472217      0.266425531      73.1939576       
230.31           0.277655207      72.5694124       0.954331747      -16.1159511      0.954331747      -16.1159511      0.277655207      72.5694124       
240.28           0.288785345      71.9451773       0.950995429      -16.7809793      0.950995429      -16.7809793      0.288785345      71.9451773       
250.25           0.299813245      71.3217477       0.947552394      -17.4421966      0.947552394      -17.4421966      0.299813245      71.3217477       
260.22           0.310736365      70.6995572       0.944005759      -18.0994984      0.944005759      -18.0994984      0.310736365      70.6995572       
270.19           0.32155232       70.0789871       0.940358692      -18.7527844      0.940358692      -18.7527844      0.32155232       70.0789871       
280.16           0.332258886      69.4603753       0.936614398      -19.4019595      0.936614398      -19.4019595      0.332258886      69.4603753       
290.13           0.342853996      68.8440224       0.932776113      -20.0469333      0.932776113      -20.0469333      0.342853996      68.8440224       
300.1            0.353335739      68.2301968       0.928847097      -20.6876202      0.928847097      -20.6876202      0.353335739      68.2301968       
310.07           0.363702358      67.6191397       0.924830626      -21.3239394      0.924830626      -21.3239394      0.363702358      67.6191397       
320.04           0.373952251      67.0110677       0.920729986      -21.955815       0.920729986      -21.955815       0.373952251      67.0110677       
330.01           0.384083966      66.4061764       0.916548464      -22.5831758      0.916548464      -22.5831758      0.384083966      66.4061764       
339.98           0.3940962        65.8046423       0.912289344      -23.2059553      0.912289344      -23.2059553      0.3940962        65.8046423       
349.95           0.403987794      65.2066253       0.907955896      -23.824092       0.907955896      -23.824092       0.403987794      65.2066253       
359.92           0.413757732      64.6122699       0.90355138       -24.4375285      0.90355138       -24.4375285      0.413757732      64.6122699       
369.89           0.423405137      64.021707        0.899079028      -25.0462123      0.899079028      -25.0462123      0.423405137      64.021707        
379.86           0.432929268      63.435055        0.894542049      -25.6500954      0.894542049      -25.6500954      0.432929268      63.435055        
389.83           0.442329515      62.852421        0.889943619      -26.249134       0.889943619      -26.249134       0.442329515      62.852421        
399.8            0.451605395      62.2739015       0.88528688       -26.8432888      0.88528688       -26.8432888      0.451605395      62.2739015       
409.77           0.460756549      61.6995837       0.88057493       -27.4325246      0.88057493       -27.4325246      0.460756549      61.6995837       
419.74           0.469782737      61.1295454       0.875810826      -28.0168104      0.875810826      -28.0168104      0.469782737      61.1295454       
429.71           0.478683833      60.5638567       0.870997575      -28.5961191      0.870997575      -28.5961191      0.478683833      60.5638567       
439.68           0.487459824      60.0025797       0.866138136      -29.1704276      0.866138136      -29.1704276      0.487459824      60.0025797       
449.65           0.4961108        59.4457693       0.861235411      -29.7397165      0.861235411      -29.7397165      0.4961108        59.4457693       
459.62           0.504636954      58.893474        0.856292248      -30.3039702      0.856292248      -30.3039702      0.504636954      58.893474        
469.59           0.513038574      58.3457358       0.851311435      -30.8631764      0.851311435      -30.8631764      0.513038574      58.3457358       
479.56           0.521316043      57.802591        0.8462957        -31.4173265      0.8462957        -31.4173265      0.521316043      57.802591        
489.53           0.529469829      57.2640702       0.841247707      -31.9664152      0.841247707      -31.9664152      0.529469829      57.2640702       
499.5            0.537500483      56.7301991       0.836170056      -32.5104401      0.836170056      -32.5104401      0.537500483      56.7301991       
509.47           0.545408638      56.2009983       0.831065285      -33.0494023      0.831065285      -33.0494023      0.545408638      56.2009983       
519.44           0.553194998      55.6764839       0.82593586       -33.5833054      0.82593586       -33.5833054      0.553194998      55.6764839       
529.41           0.560860337      55.1566679       0.820784184      -34.1121562      0.820784184      -34.1121562      0.560860337      55.1566679       
539.38           0.568405496      54.641558        0.815612589      -34.635964       0.815612589      -34.635964       0.568405496      54.641558        
549.35           0.575831377      54.1311582       0.810423341      -35.1547406      0.810423341      -35.1547406      0.575831377      54.1311582       
559.32           0.583138938      53.625469        0.805218637      -35.6685006      0.805218637      -35.6685006      0.583138938      53.625469        
569.29           0.590329192      53.1244873       0.800000602      -36.1772605      0.800000602      -36.1772605      0.590329192      53.1244873       
579.26           0.5974032        52.6282072       0.794771298      -36.6810393      0.794771298      -36.6810393      0.5974032        52.6282072       
589.23           0.604362069      52.1366194       0.789532713      -37.1798581      0.789532713      -37.1798581      0.604362069      52.1366194       
599.2            0.611206948      51.6497122       0.784286772      -37.67374        0.784286772      -37.67374        0.611206948      51.6497122       
609.17           0.617939025      51.1674711       0.779035328      -38.1627098      0.779035328      -38.1627098      0.617939025      51.1674711       
619.14           0.624559522      50.6898791       0.77378017       -38.6467943      0.77378017       -38.6467943      0.624559522      50.6898791       
629.11           0.631069693      50.2169169       0.768523021      -39.1260218      0.768523021      -39.1260218      0.631069693      50.2169169       
639.08           0.63747082       49.7485633       0.763265537      -39.6004224      0.763265537      -39.6004224      0.63747082       49.7485633       
649.05           0.643764211      49.2847948       0.758009311      -40.0700275      0.758009311      -40.0700275      0.643764211      49.2847948       
659.02           0.649951196      48.8255861       0.752755873      -40.5348699      0.752755873      -40.5348699      0.649951196      48.8255861       
668.99           0.656033126      48.3709103       0.747506689      -40.9949836      0.747506689      -40.9949836      0.656033126      48.3709103       
678.96           0.662011368      47.9207387       0.742263167      -41.450404       0.742263167      -41.450404       0.662011368      47.9207387       
688.93           0.667887304      47.4750413       0.737026651      -41.9011674      0.737026651      -41.9011674      0.667887304      47.4750413       
698.9            0.673662327      47.0337864       0.731798431      -42.3473113      0.731798431      -42.3473113      0.673662327      47.0337864       
708.87           0.679337842      46.5969415       0.726579737      -42.788874       0.726579737      -42.788874       0.679337842      46.5969415       
718.84           0.68491526       46.1644723       0.721371742      -43.2258946      0.721371742      -43.2258946      0.68491526       46.1644723       
728.81           0.690395999      45.7363441       0.716175569      -43.6584131      0.716175569      -43.6584131      0.690395999      45.7363441       
738.78           0.695781479      45.3125206       0.710992282      -44.0864703      0.710992282      -44.0864703      0.695781479      45.3125206       
748.75           0.701073124      44.892965        0.705822897      -44.5101075      0.705822897      -44.5101075      0.701073124      44.892965        
758.72           0.706272357      44.4776394       0.70066838       -44.9293664      0.70066838       -44.9293664      0.706272357      44.4776394       
768.69           0.7113806        44.0665055       0.695529645      -45.3442896      0.695529645      -45.3442896      0.7113806        44.0665055       
778.66           0.716399271      43.659524        0.690407561      -45.7549199      0.690407561      -45.7549199      0.716399271      43.659524        
788.63           0.721329785      43.2566552       0.68530295       -46.1613004      0.68530295       -46.1613004      0.721329785      43.2566552       
798.6            0.726173551      42.8578588       0.680216589      -46.5634748      0.680216589      -46.5634748      0.726173551      42.8578588       
808.57           0.730931971      42.463094        0.675149212      -46.9614869      0.675149212      -46.9614869      0.730931971      42.463094        
818.54           0.735606439      42.0723198       0.670101512      -47.3553807      0.670101512      -47.3553807      0.735606439      42.0723198       
828.51           0.740198341      41.6854946       0.665074139      -47.7452004      0.665074139      -47.7452004      0.740198341      41.6854946       
838.48           0.744709051      41.3025766       0.660067708      -48.1309905      0.660067708      -48.1309905      0.744709051      41.3025766       
848.45           0.749139934      40.9235239       0.655082791      -48.5127955      0.655082791      -48.5127955      0.749139934      40.9235239       
858.42           0.753492341      40.5482943       0.650119928      -48.8906597      0.650119928      -48.8906597      0.753492341      40.5482943       
868.39           0.757767614      40.1768454       0.645179621      -49.2646277      0.645179621      -49.2646277      0.757767614      40.1768454       
878.36           0.761967078      39.8091348       0.64026234       -49.6347441      0.64026234       -49.6347441      0.761967078      39.8091348       
888.33           0.766092047      39.4451201       0.635368521      -50.0010531      0.635368521      -50.0010531      0.766092047      39.4451201       
898.3            0.770143819      39.0847586       0.630498569      -50.3635993      0.630498569      -50.3635993      0.770143819      39.0847586       
908.27           0.774123678      38.7280079       0.62565286       -50.7224267      0.62565286       -50.7224267      0.774123678      38.7280079       
918.24           0.778032892      38.3748256       0.620831738      -51.0775794      0.620831738      -51.0775794      0.778032892      38.3748256       
928.21           0.781872714      38.0251693       0.616035523      -51.4291013      0.616035523      -51.4291013      0.781872714      38.0251693       
938.18           0.785644381      37.6789968       0.611264505      -51.7770361      0.611264505      -51.7770361      0.785644381      37.6789968       
948.15           0.789349113      37.3362659       0.60651895       -52.1214271      0.60651895       -52.1214271      0.789349113      37.3362659       
958.12           0.792988114      36.9969348       0.601799099      -52.4623176      0.601799099      -52.4623176      0.792988114      36.9969348       
968.09           0.796562569      36.6609616       0.597105169      -52.7997505      0.597105169      -52.7997505      0.796562569      36.6609616       
978.06           0.800073649      36.3283049       0.592437357      -53.1337683      0.592437357      -53.1337683      0.800073649      36.3283049       
988.03           0.803522507      35.9989233       0.587795834      -53.4644135      0.587795834      -53.4644135      0.803522507      35.9989233       
998              0.806910277      35.6727759       0.583180754      -53.7917279      0.583180754      -53.7917279      0.806910277      35.6727759       
1007.97          0.810238076      35.3498217       0.57859225       -54.1157532      0.57859225       -54.1157532      0.810238076      35.3498217       
1017.94          0.813507006      35.0300204       0.574030435      -54.4365307      0.574030435      -54.4365307      0.813507006      35.0300204       
1027.91          0.816718148      34.7133316       0.569495407      -54.7541014      0.569495407      -54.7541014      0.816718148      34.7133316       
1037.88          0.819872568      34.3997157       0.564987244      -55.0685057      0.564987244      -55.0685057      0.819872568      34.3997157       
1047.85          0.822971313      34.089133        0.560506009      -55.3797838      0.560506009      -55.3797838      0.822971313      34.089133        
1057.82          0.826015413      33.7815443       0.556051749      -55.6879754      0.556051749      -55.6879754      0.826015413      33.7815443       
1067.79          0.829005882      33.4769108       0.551624496      -55.9931199      0.551624496      -55.9931199      0.829005882      33.4769108       
1077.76          0.831943714      33.1751939       0.547224269      -56.2952562      0.547224269      -56.2952562      0.831943714      33.1751939       
1087.73          0.834829888      32.8763556       0.542851073      -56.5944229      0.542851073      -56.5944229      0.834829888      32.8763556       
1097.7           0.837665364      32.5803582       0.538504899      -56.8906579      0.538504899      -56.8906579      0.837665364      32.5803582       
1107.67          0.840451086      32.2871642       0.534185728      -57.1839989      0.534185728      -57.1839989      0.840451086      32.2871642       
1117.64          0.843187982      31.9967367       0.529893529      -57.4744831      0.529893529      -57.4744831      0.843187982      31.9967367       
1127.61          0.845876961      31.7090391       0.525628258      -57.7621472      0.525628258      -57.7621472      0.845876961      31.7090391       
1137.58          0.848518918      31.4240354       0.521389865      -58.0470276      0.521389865      -58.0470276      0.848518918      31.4240354       
1147.55          0.851114729      31.1416896       0.517178285      -58.3291601      0.517178285      -58.3291601      0.851114729      31.1416896       
1157.52          0.853665256      30.8619664       0.512993448      -58.6085801      0.512993448      -58.6085801      0.853665256      30.8619664       
1167.49          0.856171344      30.584831        0.508835274      -58.8853225      0.508835274      -58.8853225      0.856171344      30.584831        
1177.46          0.858633821      30.3102487       0.504703674      -59.1594218      0.504703674      -59.1594218      0.858633821      30.3102487       
1187.43          0.861053502      30.0381855       0.500598553      -59.430912       0.500598553      -59.430912       0.861053502      30.0381855       
1197.4           0.863431184      29.7686076       0.496519806      -59.6998268      0.496519806      -59.6998268      0.863431184      29.7686076       
1207.37          0.86576765       29.5014818       0.492467324      -59.9661991      0.492467324      -59.9661991      0.86576765       29.5014818       
1217.34          0.868063667      29.2367753       0.48844099       -60.2300617      0.48844099       -60.2300617      0.868063667      29.2367753       
1227.31          0.87031999       28.9744554       0.484440682      -60.4914468      0.484440682      -60.4914468      0.87031999       28.9744554       
1237.28          0.872537355      28.7144903       0.480466271      -60.7503861      0.480466271      -60.7503861      0.872537355      28.7144903       
1247.25          0.874716486      28.4568483       0.476517623      -61.0069108      0.476517623      -61.0069108      0.874716486      28.4568483       
1257.22          0.876858095      28.2014982       0.4725946        -61.2610518      0.4725946        -61.2610518      0.876858095      28.2014982       
1267.19          0.878962875      27.9484092       0.46869706       -61.5128396      0.46869706       -61.5128396      0.878962875      27.9484092       
