! Coilcraft 1008CT-080 Chip Inductor				
! 17 July 2002			
# MHZ S MA R 50
!Freq             MagS11           AngS11           MagS21           AngS21           MagS12           AngS12           MagS22           AngS22
1                0.00235703253    12.4114391       0.997698181      -0.0290928806    0.997698181      -0.0290928806    0.00235703253    12.4114391       
23.19            0.0120770525     76.3694939       0.997222999      -0.674363661     0.997222999      -0.674363661     0.0120770525     76.3694939       
45.38            0.0232063413     81.4731905       0.996823367      -1.31923544      0.996823367      -1.31923544      0.0232063413     81.4731905       
67.57            0.0344027378     82.9192698       0.996344345      -1.9636602       0.996344345      -1.9636602       0.0344027378     82.9192698       
89.76            0.0456068277     83.3685296       0.995764218      -2.60753706      0.995764218      -2.60753706      0.0456068277     83.3685296       
111.95           0.0568027777     83.4024083       0.995074771      -3.25075228      0.995074771      -3.25075228      0.0568027777     83.4024083       
134.14           0.0679827451     83.2230122       0.994272109      -3.89318682      0.994272109      -3.89318682      0.0679827451     83.2230122       
156.33           0.0791412903     82.9194459       0.993354263      -4.53471924      0.993354263      -4.53471924      0.0791412903     82.9194459       
178.52           0.09027392       82.5372684       0.99232031       -5.17522712      0.99232031       -5.17522712      0.09027392       82.5372684       
200.71           0.101376593      82.1022838       0.991169965      -5.8145879       0.991169965      -5.8145879       0.101376593      82.1022838       
222.9            0.112445521      81.6302529       0.989903383      -6.45267946      0.989903383      -6.45267946      0.112445521      81.6302529       
245.09           0.123477082      81.1313798       0.988521039      -7.08938053      0.988521039      -7.08938053      0.123477082      81.1313798       
267.28           0.134467777      80.6125862       0.987023662      -7.724571        0.987023662      -7.724571        0.134467777      80.6125862       
289.47           0.145414209      80.0787506       0.985412185      -8.3581322       0.985412185      -8.3581322       0.145414209      80.0787506       
311.66           0.156313076      79.5334239       0.983687712      -8.98994712      0.983687712      -8.98994712      0.156313076      79.5334239       
333.85           0.167161163      78.9792629       0.981851503      -9.61990061      0.981851503      -9.61990061      0.167161163      78.9792629       
356.04           0.177955345      78.4183039       0.979904947      -10.2478795      0.979904947      -10.2478795      0.177955345      78.4183039       
378.23           0.188692584      77.8521405       0.977849556      -10.8737729      0.977849556      -10.8737729      0.188692584      77.8521405       
400.42           0.199369933      77.2820436       0.975686948      -11.4974722      0.975686948      -11.4974722      0.199369933      77.2820436       
422.61           0.209984536      76.7090438       0.973418843      -12.1188713      0.973418843      -12.1188713      0.209984536      76.7090438       
444.8            0.22053363       76.1339897       0.971047048      -12.7378665      0.971047048      -12.7378665      0.22053363       76.1339897       
466.99           0.231014549      75.5575893       0.968573454      -13.3543569      0.968573454      -13.3543569      0.231014549      75.5575893       
489.18           0.241424724      74.9804406       0.966000029      -13.9682445      0.966000029      -13.9682445      0.241424724      74.9804406       
511.37           0.251761685      74.4030548       0.963328806      -14.5794339      0.963328806      -14.5794339      0.251761685      74.4030548       
533.56           0.262023065      73.8258725       0.960561885      -15.1878328      0.960561885      -15.1878328      0.262023065      73.8258725       
555.75           0.272206597      73.2492776       0.957701419      -15.7933519      0.957701419      -15.7933519      0.272206597      73.2492776       
577.94           0.282310118      72.673607        0.954749614      -16.3959049      0.954749614      -16.3959049      0.282310118      72.673607        
600.13           0.292331571      72.0991585       0.951708722      -16.9954086      0.951708722      -16.9954086      0.292331571      72.0991585       
622.32           0.302269002      71.5261971       0.948581031      -17.591783       0.948581031      -17.591783       0.302269002      71.5261971       
644.51           0.312120563      70.95496         0.945368869      -18.1849512      0.945368869      -18.1849512      0.312120563      70.95496         
666.7            0.321884512      70.3856602       0.942074589      -18.7748396      0.942074589      -18.7748396      0.321884512      70.3856602       
688.89           0.331559211      69.8184906       0.938700573      -19.3613778      0.938700573      -19.3613778      0.331559211      69.8184906       
711.08           0.341143129      69.2536256       0.935249219      -19.9444986      0.935249219      -19.9444986      0.341143129      69.2536256       
733.27           0.350634836      68.6912241       0.931722944      -20.524138       0.931722944      -20.524138       0.350634836      68.6912241       
755.46           0.360033009      68.1314308       0.928124174      -21.1002352      0.928124174      -21.1002352      0.360033009      68.1314308       
777.65           0.369336425      67.5743779       0.924455342      -21.6727328      0.924455342      -21.6727328      0.369336425      67.5743779       
799.84           0.378543963      67.0201867       0.920718886      -22.2415765      0.920718886      -22.2415765      0.378543963      67.0201867       
822.03           0.387654602      66.4689678       0.916917239      -22.8067151      0.916917239      -22.8067151      0.387654602      66.4689678       
844.22           0.396667418      65.920823        0.913052832      -23.3681006      0.913052832      -23.3681006      0.396667418      65.920823        
866.41           0.405581583      65.3758455       0.909128086      -23.9256883      0.909128086      -23.9256883      0.405581583      65.3758455       
888.6            0.414396366      64.8341207       0.905145412      -24.4794362      0.905145412      -24.4794362      0.414396366      64.8341207       
910.79           0.423111126      64.295727        0.901107203      -25.0293058      0.901107203      -25.0293058      0.423111126      64.295727        
932.98           0.431725312      63.7607359       0.897015837      -25.5752612      0.897015837      -25.5752612      0.431725312      63.7607359       
955.17           0.440238464      63.229213        0.892873668      -26.1172697      0.892873668      -26.1172697      0.440238464      63.229213        
977.36           0.448650203      62.7012179       0.888683027      -26.6553013      0.888683027      -26.6553013      0.448650203      62.7012179       
999.55           0.456960236      62.1768049       0.884446219      -27.1893291      0.884446219      -27.1893291      0.456960236      62.1768049       
1021.74          0.46516835       61.6560234       0.880165521      -27.7193287      0.880165521      -27.7193287      0.46516835       61.6560234       
1043.93          0.473274409      61.1389177       0.875843177      -28.2452784      0.875843177      -28.2452784      0.473274409      61.1389177       
1066.12          0.481278355      60.6255279       0.871481401      -28.7671595      0.871481401      -28.7671595      0.481278355      60.6255279       
1088.31          0.489180198      60.1158896       0.867082368      -29.2849556      0.867082368      -29.2849556      0.489180198      60.1158896       
1110.5           0.496980022      59.6100346       0.862648221      -29.7986527      0.862648221      -29.7986527      0.496980022      59.6100346       
1132.69          0.504677976      59.1079908       0.858181062      -30.3082395      0.858181062      -30.3082395      0.504677976      59.1079908       
1154.88          0.512274274      58.6097825       0.853682955      -30.813707       0.853682955      -30.813707       0.512274274      58.6097825       
1177.07          0.519769191      58.1154304       0.849155921      -31.3150485      0.849155921      -31.3150485      0.519769191      58.1154304       
1199.26          0.527163062      57.6249524       0.844601943      -31.8122594      0.844601943      -31.8122594      0.527163062      57.6249524       
1221.45          0.534456278      57.1383629       0.840022958      -32.3053373      0.840022958      -32.3053373      0.534456278      57.1383629       
1243.64          0.541649281      56.6556735       0.83542086       -32.794282       0.83542086       -32.794282       0.541649281      56.6556735       
1265.83          0.548742567      56.1768931       0.830797501      -33.2790953      0.830797501      -33.2790953      0.548742567      56.1768931       
1288.02          0.555736679      55.7020278       0.826154685      -33.7597807      0.826154685      -33.7597807      0.555736679      55.7020278       
1310.21          0.562632204      55.2310814       0.821494173      -34.2363438      0.821494173      -34.2363438      0.562632204      55.2310814       
1332.4           0.569429774      54.7640551       0.81681768       -34.7087919      0.81681768       -34.7087919      0.569429774      54.7640551       
1354.59          0.57613006       54.3009479       0.812126875      -35.177134       0.812126875      -35.177134       0.57613006       54.3009479       
1376.78          0.582733773      53.8417568       0.80742338       -35.6413806      0.80742338       -35.6413806      0.582733773      53.8417568       
1398.97          0.589241655      53.3864766       0.802708774      -36.101544       0.802708774      -36.101544       0.589241655      53.3864766       
1421.16          0.595654487      52.9351001       0.797984585      -36.5576379      0.797984585      -36.5576379      0.595654487      52.9351001       
1443.35          0.601973077      52.4876185       0.793252301      -37.0096774      0.793252301      -37.0096774      0.601973077      52.4876185       
1465.54          0.608198262      52.044021        0.788513361      -37.4576791      0.788513361      -37.4576791      0.608198262      52.044021        
1487.73          0.614330906      51.6042955       0.783769159      -37.9016605      0.783769159      -37.9016605      0.614330906      51.6042955       
1509.92          0.620371899      51.168428        0.779021045      -38.3416408      0.779021045      -38.3416408      0.620371899      51.168428        
1532.11          0.626322152      50.7364032       0.774270324      -38.7776401      0.774270324      -38.7776401      0.626322152      50.7364032       
1554.3           0.632182594      50.3082044       0.769518258      -39.2096796      0.769518258      -39.2096796      0.632182594      50.3082044       
1576.49          0.637954177      49.8838138       0.764766062      -39.6377817      0.764766062      -39.6377817      0.637954177      49.8838138       
1598.68          0.643637867      49.4632119       0.760014913      -40.0619695      0.760014913      -40.0619695      0.643637867      49.4632119       
1620.87          0.649234645      49.0463786       0.755265943      -40.4822673      0.755265943      -40.4822673      0.649234645      49.0463786       
1643.06          0.654745507      48.6332923       0.750520242      -40.8987001      0.750520242      -40.8987001      0.654745507      48.6332923       
1665.25          0.660171459      48.2239306       0.745778861      -41.3112937      0.745778861      -41.3112937      0.660171459      48.2239306       
1687.44          0.665513517      47.8182701       0.741042808      -41.7200747      0.741042808      -41.7200747      0.665513517      47.8182701       
1709.63          0.670772706      47.4162867       0.736313054      -42.1250705      0.736313054      -42.1250705      0.670772706      47.4162867       
1731.82          0.67595006       47.0179551       0.73159053       -42.5263089      0.73159053       -42.5263089      0.67595006       47.0179551       
1754.01          0.681046617      46.6232496       0.726876131      -42.9238186      0.726876131      -42.9238186      0.681046617      46.6232496       
1776.2           0.68606342       46.2321437       0.722170712      -43.3176286      0.722170712      -43.3176286      0.68606342       46.2321437       
1798.39          0.691001516      45.8446101       0.717475094      -43.7077685      0.717475094      -43.7077685      0.691001516      45.8446101       
1820.58          0.695861953      45.4606211       0.712790061      -44.0942684      0.712790061      -44.0942684      0.695861953      45.4606211       
1842.77          0.700645782      45.0801484       0.708116364      -44.4771588      0.708116364      -44.4771588      0.700645782      45.0801484       
1864.96          0.705354052      44.703163        0.703454719      -44.8564706      0.703454719      -44.8564706      0.705354052      44.703163        
1887.15          0.709987814      44.3296359       0.69880581       -45.232235       0.69880581       -45.232235       0.709987814      44.3296359       
1909.34          0.714548114      43.9595372       0.694170289      -45.6044836      0.694170289      -45.6044836      0.714548114      43.9595372       
1931.53          0.719035999      43.5928369       0.689548776      -45.973248       0.689548776      -45.973248       0.719035999      43.5928369       
1953.72          0.723452509      43.2295046       0.684941862      -46.3385605      0.684941862      -46.3385605      0.723452509      43.2295046       
1975.91          0.727798683      42.8695096       0.680350107      -46.7004532      0.680350107      -46.7004532      0.727798683      42.8695096       
1998.1           0.732075552      42.512821        0.675774044      -47.0589586      0.675774044      -47.0589586      0.732075552      42.512821        
2020.29          0.736284144      42.1594076       0.671214176      -47.4141092      0.671214176      -47.4141092      0.736284144      42.1594076       
2042.48          0.74042548       41.809238        0.666670983      -47.7659376      0.666670983      -47.7659376      0.74042548       41.809238        
2064.67          0.744500574      41.4622808       0.662144915      -48.1144767      0.662144915      -48.1144767      0.744500574      41.4622808       
2086.86          0.748510433      41.1185043       0.657636398      -48.4597593      0.657636398      -48.4597593      0.748510433      41.1185043       
2109.05          0.752456056      40.7778768       0.653145835      -48.8018182      0.653145835      -48.8018182      0.752456056      40.7778768       
2131.24          0.756338434      40.4403663       0.648673604      -49.1406862      0.648673604      -49.1406862      0.756338434      40.4403663       
2153.43          0.760158549      40.1059412       0.644220059      -49.4763963      0.644220059      -49.4763963      0.760158549      40.1059412       
2175.62          0.763917375      39.7745693       0.639785535      -49.8089812      0.639785535      -49.8089812      0.763917375      39.7745693       
2197.81          0.767615874      39.446219        0.635370342      -50.1384738      0.635370342      -50.1384738      0.767615874      39.446219        
2220             0.771255001      39.1208582       0.630974771      -50.4649066      0.630974771      -50.4649066      0.771255001      39.1208582       
2242.19          0.774835699      38.7984552       0.626599095      -50.7883124      0.626599095      -50.7883124      0.774835699      38.7984552       
2264.38          0.778358904      38.4789781       0.622243565      -51.1087237      0.622243565      -51.1087237      0.778358904      38.4789781       
2286.57          0.781825537      38.1623952       0.617908414      -51.4261728      0.617908414      -51.4261728      0.781825537      38.1623952       
2308.76          0.785236511      37.848675        0.613593858      -51.7406919      0.613593858      -51.7406919      0.785236511      37.848675        
2330.95          0.788592727      37.5377859       0.609300096      -52.0523132      0.609300096      -52.0523132      0.788592727      37.5377859       
2353.14          0.791895077      37.2296965       0.605027309      -52.3610685      0.605027309      -52.3610685      0.791895077      37.2296965       
2375.33          0.795144438      36.9243755       0.600775663      -52.6669897      0.600775663      -52.6669897      0.795144438      36.9243755       
2397.52          0.79834168       36.621792        0.596545309      -52.9701082      0.596545309      -52.9701082      0.79834168       36.621792        
2419.71          0.801487657      36.3219149       0.592336383      -53.2704555      0.592336383      -53.2704555      0.801487657      36.3219149       
2441.9           0.804583216      36.0247134       0.588149006      -53.5680627      0.588149006      -53.5680627      0.804583216      36.0247134       
2464.09          0.807629189      35.7301571       0.583983288      -53.8629607      0.583983288      -53.8629607      0.807629189      35.7301571       
2486.28          0.810626398      35.4382155       0.579839323      -54.1551802      0.579839323      -54.1551802      0.810626398      35.4382155       
2508.47          0.813575652      35.1488584       0.575717193      -54.4447516      0.575717193      -54.4447516      0.813575652      35.1488584       
2530.66          0.816477751      34.8620559       0.571616971      -54.7317052      0.571616971      -54.7317052      0.816477751      34.8620559       
2552.85          0.819333481      34.5777783       0.567538714      -55.016071       0.567538714      -55.016071       0.819333481      34.5777783       
2575.04          0.822143616      34.2959959       0.563482472      -55.2978786      0.563482472      -55.2978786      0.822143616      34.2959959       
2597.23          0.82490892       34.0166797       0.559448282      -55.5771575      0.559448282      -55.5771575      0.82490892       34.0166797       
2619.42          0.827630144      33.7398004       0.555436172      -55.8539368      0.555436172      -55.8539368      0.827630144      33.7398004       
2641.61          0.830308028      33.4653294       0.55144616       -56.1282454      0.55144616       -56.1282454      0.830308028      33.4653294       
2663.8           0.832943301      33.1932381       0.547478255      -56.400112       0.547478255      -56.400112       0.832943301      33.1932381       
2685.99          0.835536679      32.9234981       0.543532458      -56.6695648      0.543532458      -56.6695648      0.835536679      32.9234981       
2708.18          0.838088869      32.6560816       0.53960876       -56.936632       0.53960876       -56.936632       0.838088869      32.6560816       
2730.37          0.840600564      32.3909607       0.535707144      -57.2013412      0.535707144      -57.2013412      0.840600564      32.3909607       
2752.56          0.843072448      32.1281079       0.531827588      -57.4637199      0.531827588      -57.4637199      0.843072448      32.1281079       
2774.75          0.845505191      31.8674961       0.527970061      -57.7237953      0.527970061      -57.7237953      0.845505191      31.8674961       
2796.94          0.847899456      31.6090982       0.524134523      -57.9815942      0.524134523      -57.9815942      0.847899456      31.6090982       
2819.13          0.850255891      31.3528877       0.520320931      -58.2371432      0.520320931      -58.2371432      0.850255891      31.3528877       
