! Coilcraft 1008CT-500 Chip Inductor				
! 17 July 2002			
# MHZ S MA R 50
!Freq             MagS11           AngS11           MagS21           AngS21           MagS12           AngS12           MagS22           AngS22
1                0.00626506439    29.7363837       0.994564795      -0.179021986     0.994564795      -0.179021986     0.00626506439    29.7363837       
7.98             0.0257611748     73.6866092       0.993071736      -1.42661241      0.993071736      -1.42661241      0.0257611748     73.6866092       
14.96            0.0471733063     78.4370826       0.991621964      -2.67131787      0.991621964      -2.67131787      0.0471733063     78.4370826       
21.94            0.0686792658     79.5561933       0.989857419      -3.91253341      0.989857419      -3.91253341      0.0686792658     79.5561933       
28.92            0.0901308987     79.6001647       0.987716246      -5.14938186      0.987716246      -5.14938186      0.0901308987     79.6001647       
35.9             0.111472388      79.1806382       0.985178362      -6.38092556      0.985178362      -6.38092556      0.111472388      79.1806382       
42.88            0.132667017      78.5200281       0.982238428      -7.60621541      0.982238428      -7.60621541      0.132667017      78.5200281       
49.86            0.153684684      77.7194812       0.978898402      -8.82431232      0.978898402      -8.82431232      0.153684684      77.7194812       
56.84            0.174498611      76.8320637       0.975164654      -10.0342995      0.975164654      -10.0342995      0.174498611      76.8320637       
63.82            0.195084267      75.8885694       0.971046583      -11.235291       0.971046583      -11.235291       0.195084267      75.8885694       
70.8             0.215418995      74.9082745       0.966555833      -12.4264375      0.966555833      -12.4264375      0.215418995      74.9082745       
77.78            0.235481869      73.9039836       0.96170579       -13.6069314      0.96170579       -13.6069314      0.235481869      73.9039836       
84.76            0.255253664      72.8846197       0.956511221      -14.7760105      0.956511221      -14.7760105      0.255253664      72.8846197       
91.74            0.274716845      71.8566496       0.950987993      -15.9329608      0.950987993      -15.9329608      0.274716845      71.8566496       
98.72            0.293855572      70.8249144       0.945152827      -17.0771185      0.945152827      -17.0771185      0.293855572      70.8249144       
105.7            0.312655699      69.7931358       0.9390231        -18.2078717      0.9390231        -18.2078717      0.312655699      69.7931358       
112.68           0.33110476       68.7642386       0.932616656      -19.3246611      0.932616656      -19.3246611      0.33110476       68.7642386       
119.66           0.34919195       67.7405614       0.925951641      -20.4269806      0.925951641      -20.4269806      0.34919195       67.7405614       
126.64           0.36690809       66.7240006       0.919046354      -21.5143769      0.919046354      -21.5143769      0.36690809       66.7240006       
133.62           0.38424558       65.7161096       0.911919109      -22.5864492      0.911919109      -22.5864492      0.38424558       65.7161096       
140.6            0.401198347      64.71817         0.904588109      -23.642848       0.904588109      -23.642848       0.401198347      64.71817         
147.58           0.417761776      63.7312437       0.897071343      -24.6832739      0.897071343      -24.6832739      0.417761776      63.7312437       
154.56           0.433932643      62.7562117       0.889386481      -25.7074763      0.889386481      -25.7074763      0.433932643      62.7562117       
161.54           0.449709032      61.7938036       0.881550791      -26.7152512      0.881550791      -26.7152512      0.449709032      61.7938036       
168.52           0.465090257      60.8446206       0.873581068      -27.7064392      0.873581068      -27.7064392      0.465090257      60.8446206       
175.5            0.480076775      59.909154        0.865493569      -28.6809236      0.865493569      -28.6809236      0.480076775      59.909154        
182.48           0.494670098      58.9878002       0.857303959      -29.638628       0.857303959      -29.638628       0.494670098      58.9878002       
189.46           0.508872704      58.0808722       0.849027277      -30.5795136      0.849027277      -30.5795136      0.508872704      58.0808722       
196.44           0.522687954      57.1886105       0.840677895      -31.5035772      0.840677895      -31.5035772      0.522687954      57.1886105       
203.42           0.536120003      56.3111916       0.832269501      -32.4108483      0.832269501      -32.4108483      0.536120003      56.3111916       
210.4            0.549173715      55.4487353       0.823815081      -33.3013871      0.823815081      -33.3013871      0.549173715      55.4487353       
217.38           0.561854588      54.6013112       0.81532691       -34.1752817      0.81532691       -34.1752817      0.561854588      54.6013112       
224.36           0.574168668      53.7689446       0.806816554      -35.0326458      0.806816554      -35.0326458      0.574168668      53.7689446       
231.34           0.586122483      52.9516216       0.798294868      -35.8736165      0.798294868      -35.8736165      0.586122483      52.9516216       
238.32           0.597722971      52.1492931       0.789772008      -36.6983519      0.789772008      -36.6983519      0.597722971      52.1492931       
245.3            0.608977414      51.3618796       0.781257446      -37.507029       0.781257446      -37.507029       0.608977414      51.3618796       
252.28           0.619893376      50.5892743       0.772759982      -38.2998418      0.772759982      -38.2998418      0.619893376      50.5892743       
259.26           0.630478652      49.8313466       0.764287765      -39.0769991      0.764287765      -39.0769991      0.630478652      49.8313466       
266.24           0.640741211      49.087945        0.755848317      -39.8387225      0.755848317      -39.8387225      0.640741211      49.087945        
273.22           0.650689152      48.3588998       0.747448553      -40.5852453      0.747448553      -40.5852453      0.650689152      48.3588998       
280.2            0.660330659      47.6440257       0.739094809      -41.3168102      0.739094809      -41.3168102      0.660330659      47.6440257       
287.18           0.669673962      46.9431239       0.730792868      -42.0336682      0.730792868      -42.0336682      0.669673962      46.9431239       
294.16           0.678727305      46.2559841       0.722547983      -42.736077       0.722547983      -42.736077       0.678727305      46.2559841       
301.14           0.687498912      45.5823863       0.714364909      -43.4242998      0.714364909      -43.4242998      0.687498912      45.5823863       
308.12           0.695996958      44.9221027       0.706247928      -44.0986039      0.706247928      -44.0986039      0.695996958      44.9221027       
315.1            0.704229548      44.2748989       0.698200874      -44.7592599      0.698200874      -44.7592599      0.704229548      44.2748989       
322.08           0.712204695      43.6405352       0.690227163      -45.4065405      0.690227163      -45.4065405      0.712204695      43.6405352       
329.06           0.719930299      43.0187682       0.682329817      -46.0407197      0.682329817      -46.0407197      0.719930299      43.0187682       
336.04           0.727414134      42.4093517       0.674511489      -46.6620718      0.674511489      -46.6620718      0.727414134      42.4093517       
343.02           0.734663832      41.8120375       0.666774488      -47.2708708      0.666774488      -47.2708708      0.734663832      41.8120375       
350              0.741686875      41.2265764       0.659120802      -47.8673898      0.659120802      -47.8673898      0.741686875      41.2265764       
356.98           0.748490581      40.6527192       0.651552123      -48.4519001      0.651552123      -48.4519001      0.748490581      40.6527192       
363.96           0.7550821        40.0902171       0.644069865      -49.0246711      0.644069865      -49.0246711      0.7550821        40.0902171       
370.94           0.76146841       39.5388223       0.636675187      -49.5859695      0.636675187      -49.5859695      0.76146841       39.5388223       
377.92           0.767656307      38.998289        0.629369013      -50.1360589      0.629369013      -50.1360589      0.767656307      38.998289        
384.9            0.773652406      38.4683731       0.622152049      -50.6751997      0.622152049      -50.6751997      0.773652406      38.4683731       
391.88           0.779463137      37.9488335       0.6150248        -51.2036485      0.6150248        -51.2036485      0.779463137      37.9488335       
398.86           0.785094746      37.4394316       0.60798759       -51.721658       0.60798759       -51.721658       0.785094746      37.4394316       
405.84           0.790553293      36.9399324       0.601040574      -52.2294767      0.601040574      -52.2294767      0.790553293      36.9399324       
412.82           0.795844654      36.4501041       0.594183754      -52.7273488      0.594183754      -52.7273488      0.795844654      36.4501041       
419.8            0.800974522      35.9697188       0.587416992      -53.2155138      0.587416992      -53.2155138      0.800974522      35.9697188       
426.78           0.805948409      35.4985525       0.580740025      -53.6942069      0.580740025      -53.6942069      0.805948409      35.4985525       
433.76           0.810771649      35.0363851       0.574152475      -54.1636582      0.574152475      -54.1636582      0.810771649      35.0363851       
440.74           0.815449397      34.5830009       0.567653859      -54.6240931      0.567653859      -54.6240931      0.815449397      34.5830009       
447.72           0.819986641      34.1381882       0.561243602      -55.0757324      0.561243602      -55.0757324      0.819986641      34.1381882       
454.7            0.824388197      33.7017401       0.554921044      -55.5187915      0.554921044      -55.5187915      0.824388197      33.7017401       
461.68           0.828658716      33.2734536       0.548685453      -55.9534814      0.548685453      -55.9534814      0.828658716      33.2734536       
468.66           0.832802687      32.8531304       0.542536029      -56.3800078      0.542536029      -56.3800078      0.832802687      32.8531304       
475.64           0.836824446      32.4405767       0.536471911      -56.7985717      0.536471911      -56.7985717      0.836824446      32.4405767       
482.62           0.840728172      32.035603        0.53049219       -57.2093694      0.53049219       -57.2093694      0.840728172      32.035603        
489.6            0.844517897      31.6380244       0.52459591       -57.612592       0.52459591       -57.612592       0.844517897      31.6380244       
496.58           0.848197511      31.2476603       0.518782074      -58.0084261      0.518782074      -58.0084261      0.848197511      31.2476603       
503.56           0.851770761      30.8643345       0.513049654      -58.3970535      0.513049654      -58.3970535      0.851770761      30.8643345       
510.54           0.85524126       30.4878752       0.507397591      -58.7786515      0.507397591      -58.7786515      0.85524126       30.4878752       
517.52           0.858612491      30.1181147       0.501824802      -59.1533925      0.501824802      -59.1533925      0.858612491      30.1181147       
524.5            0.861887808      29.7548899       0.496330186      -59.5214448      0.496330186      -59.5214448      0.861887808      29.7548899       
531.48           0.865070446      29.3980414       0.490912623      -59.882972       0.490912623      -59.882972       0.865070446      29.3980414       
538.46           0.868163519      29.0474142       0.485570982      -60.2381335      0.485570982      -60.2381335      0.868163519      29.0474142       
545.44           0.871170027      28.7028573       0.480304123      -60.5870843      0.480304123      -60.5870843      0.871170027      28.7028573       
552.42           0.87409286       28.3642236       0.475110898      -60.9299755      0.475110898      -60.9299755      0.87409286       28.3642236       
559.4            0.876934802      28.0313699       0.469990157      -61.2669539      0.469990157      -61.2669539      0.876934802      28.0313699       
566.38           0.879698535      27.7041567       0.464940747      -61.5981623      0.464940747      -61.5981623      0.879698535      27.7041567       
573.36           0.882386643      27.3824482       0.459961516      -61.9237399      0.459961516      -61.9237399      0.882386643      27.3824482       
580.34           0.885001612      27.0661124       0.455051315      -62.2438218      0.455051315      -62.2438218      0.885001612      27.0661124       
587.32           0.887545839      26.7550208       0.450209         -62.5585396      0.450209         -62.5585396      0.887545839      26.7550208       
594.3            0.890021632      26.4490481       0.445433433      -62.8680211      0.445433433      -62.8680211      0.890021632      26.4490481       
601.28           0.892431215      26.1480728       0.440723482      -63.1723907      0.440723482      -63.1723907      0.892431215      26.1480728       
608.26           0.894776729      25.8519763       0.436078025      -63.4717695      0.436078025      -63.4717695      0.894776729      25.8519763       
615.24           0.897060237      25.5606434       0.431495949      -63.7662751      0.431495949      -63.7662751      0.897060237      25.5606434       
622.22           0.899283728      25.273962        0.426976154      -64.0560218      0.426976154      -64.0560218      0.899283728      25.273962        
629.2            0.901449117      24.9918231       0.42251755       -64.3411209      0.42251755       -64.3411209      0.901449117      24.9918231       
636.18           0.903558248      24.7141206       0.418119058      -64.6216806      0.418119058      -64.6216806      0.903558248      24.7141206       
643.16           0.9056129        24.4407512       0.413779615      -64.897806       0.413779615      -64.897806       0.9056129        24.4407512       
650.14           0.907614787      24.1716146       0.40949817       -65.1695993      0.40949817       -65.1695993      0.907614787      24.1716146       
657.12           0.90956556       23.906613        0.405273688      -65.43716        0.405273688      -65.43716        0.90956556       23.906613        
664.1            0.911466811      23.6456515       0.401105146      -65.7005849      0.401105146      -65.7005849      0.911466811      23.6456515       
671.08           0.913320076      23.3886376       0.396991538      -65.959968       0.396991538      -65.959968       0.913320076      23.3886376       
678.06           0.915126833      23.1354814       0.392931873      -66.2154006      0.392931873      -66.2154006      0.915126833      23.1354814       
685.04           0.916888508      22.8860953       0.388925174      -66.4669717      0.388925174      -66.4669717      0.916888508      22.8860953       
692.02           0.918606479      22.6403942       0.384970482      -66.7147679      0.384970482      -66.7147679      0.918606479      22.6403942       
699              0.920282071      22.3982953       0.381066852      -66.9588732      0.381066852      -66.9588732      0.920282071      22.3982953       
705.98           0.921916565      22.159718        0.377213357      -67.1993695      0.377213357      -67.1993695      0.921916565      22.159718        
712.96           0.923511194      21.9245838       0.373409082      -67.4363362      0.373409082      -67.4363362      0.923511194      21.9245838       
719.94           0.925067151      21.6928165       0.369653132      -67.669851       0.369653132      -67.669851       0.925067151      21.6928165       
726.92           0.926585584      21.4643416       0.365944627      -67.8999889      0.365944627      -67.8999889      0.926585584      21.4643416       
733.9            0.928067602      21.239087        0.3622827        -68.1268234      0.3622827        -68.1268234      0.928067602      21.239087        
740.88           0.929514276      21.0169822       0.358666504      -68.3504256      0.358666504      -68.3504256      0.929514276      21.0169822       
747.86           0.930926641      20.7979588       0.355095205      -68.570865       0.355095205      -68.570865       0.930926641      20.7979588       
754.84           0.932305692      20.58195         0.351567985      -68.788209       0.351567985      -68.788209       0.932305692      20.58195         
761.82           0.933652395      20.368891        0.348084042      -69.0025233      0.348084042      -69.0025233      0.933652395      20.368891        
768.8            0.934967679      20.1587184       0.344642589      -69.2138717      0.344642589      -69.2138717      0.934967679      20.1587184       
775.78           0.936252443      19.9513709       0.341242855      -69.4223166      0.341242855      -69.4223166      0.936252443      19.9513709       
782.76           0.937507555      19.7467883       0.337884082      -69.6279184      0.337884082      -69.6279184      0.937507555      19.7467883       
789.74           0.938733855      19.5449124       0.334565528      -69.830736       0.334565528      -69.830736       0.938733855      19.5449124       
796.72           0.939932152      19.3456863       0.331286466      -70.0308268      0.331286466      -70.0308268      0.939932152      19.3456863       
803.7            0.941103231      19.1490546       0.328046183      -70.2282467      0.328046183      -70.2282467      0.941103231      19.1490546       
810.68           0.942247848      18.9549633       0.32484398       -70.42305        0.32484398       -70.42305        0.942247848      18.9549633       
817.66           0.943366736      18.7633599       0.321679172      -70.6152897      0.321679172      -70.6152897      0.943366736      18.7633599       
824.64           0.944460602      18.5741932       0.318551087      -70.8050174      0.318551087      -70.8050174      0.944460602      18.5741932       
831.62           0.94553013       18.3874133       0.315459067      -70.9922832      0.315459067      -70.9922832      0.94553013       18.3874133       
838.6            0.946575984      18.2029715       0.312402469      -71.177136       0.312402469      -71.177136       0.946575984      18.2029715       
845.58           0.947598803      18.0208204       0.309380661      -71.3596236      0.309380661      -71.3596236      0.947598803      18.0208204       
852.56           0.948599207      17.8409139       0.306393023      -71.5397922      0.306393023      -71.5397922      0.948599207      17.8409139       
859.54           0.949577796      17.6632069       0.303438951      -71.7176871      0.303438951      -71.7176871      0.949577796      17.6632069       
866.52           0.950535149      17.4876555       0.300517849      -71.8933523      0.300517849      -71.8933523      0.950535149      17.4876555       
873.5            0.951471829      17.3142169       0.297629137      -72.0668307      0.297629137      -72.0668307      0.951471829      17.3142169       
880.48           0.952388379      17.1428493       0.294772245      -72.2381641      0.294772245      -72.2381641      0.952388379      17.1428493       
887.46           0.953285326      16.973512        0.291946614      -72.4073932      0.291946614      -72.4073932      0.953285326      16.973512        
