! Coilcraft 1008CT-040 Chip Inductor				
! 17 July 2002			
# MHZ S MA R 50
!Freq             MagS11           AngS11           MagS21           AngS21           MagS12           AngS12           MagS22           AngS22
1                0.00157568618    9.14929888       0.998444392      -0.0143775995    0.998444392      -0.0143775995    0.00157568618    9.14929888       
35.16            0.00901010885    77.7081199       0.998120646      -0.505363067     0.998120646      -0.505363067     0.00901010885    77.7081199       
69.32            0.0174976904     82.5107178       0.997870155      -0.996163124     0.997870155      -0.996163124     0.0174976904     82.5107178       
103.48           0.0260298181     83.9188287       0.997578315      -1.48677328      0.997578315      -1.48677328      0.0260298181     83.9188287       
137.64           0.0345695794     84.4162907       0.997230074      -1.97716071      0.997230074      -1.97716071      0.0345695794     84.4162907       
171.8            0.0431078843     84.5363954       0.996819638      -2.46728569      0.996819638      -2.46728569      0.0431078843     84.5363954       
205.96           0.0516406521     84.4631747       0.996344122      -2.95710551      0.996344122      -2.95710551      0.0516406521     84.4631747       
240.12           0.0601652895     84.2774106       0.995801915      -3.44657589      0.995801915      -3.44657589      0.0601652895     84.2774106       
274.28           0.0686797778     84.0202694       0.99519207       -3.93565168      0.99519207       -3.93565168      0.0686797778     84.0202694       
308.44           0.0771823614     83.7149973       0.994514038      -4.42428724      0.994514038      -4.42428724      0.0771823614     83.7149973       
342.6            0.0856714228     83.3757489       0.993767525      -4.91243672      0.993767525      -4.91243672      0.0856714228     83.3757489       
376.76           0.0941454249     83.0116569       0.992952417      -5.40005416      0.992952417      -5.40005416      0.0941454249     83.0116569       
410.92           0.102602883      82.6288915       0.992068732      -5.88709366      0.992068732      -5.88709366      0.102602883      82.6288915       
445.08           0.111042352      82.2317814       0.991116595      -6.37350947      0.991116595      -6.37350947      0.111042352      82.2317814       
479.24           0.119462414      81.8234599       0.99009621       -6.85925604      0.99009621       -6.85925604      0.119462414      81.8234599       
513.4            0.127861679      81.4062566       0.989007856      -7.3442881       0.989007856      -7.3442881       0.127861679      81.4062566       
547.56           0.136238781      80.9819442       0.98785187       -7.82856072      0.98785187       -7.82856072      0.136238781      80.9819442       
581.72           0.144592373      80.5518985       0.986628641      -8.31202932      0.986628641      -8.31202932      0.144592373      80.5518985       
615.88           0.152921133      80.1172071       0.985338608      -8.79464978      0.985338608      -8.79464978      0.152921133      80.1172071       
650.04           0.161223761      79.6787432       0.983982253      -9.27637841      0.983982253      -9.27637841      0.161223761      79.6787432       
684.2            0.169498976      79.2372182       0.982560095      -9.75717203      0.982560095      -9.75717203      0.169498976      79.2372182       
718.36           0.177745523      78.7932191       0.981072693      -10.236988       0.981072693      -10.236988       0.177745523      78.7932191       
752.52           0.185962169      78.3472364       0.979520637      -10.7157841      0.979520637      -10.7157841      0.185962169      78.3472364       
786.68           0.194147704      77.899684        0.977904552      -11.193519       0.977904552      -11.193519       0.194147704      77.899684        
820.84           0.202300942      77.4509153       0.97622509       -11.6701516      0.97622509       -11.6701516      0.202300942      77.4509153       
855              0.210420723      77.0012342       0.974482933      -12.1456418      0.974482933      -12.1456418      0.210420723      77.0012342       
889.16           0.218505912      76.5509048       0.972678789      -12.6199498      0.972678789      -12.6199498      0.218505912      76.5509048       
923.32           0.2265554        76.1001581       0.970813392      -13.0930369      0.970813392      -13.0930369      0.2265554        76.1001581       
957.48           0.234568103      75.649198        0.968887498      -13.5648646      0.968887498      -13.5648646      0.234568103      75.649198        
991.64           0.242542966      75.1982055       0.966901886      -14.0353956      0.966901886      -14.0353956      0.242542966      75.1982055       
1025.8           0.250478961      74.747342        0.964857356      -14.504593       0.964857356      -14.504593       0.250478961      74.747342        
1059.96          0.258375087      74.2967531       0.962754728      -14.9724208      0.962754728      -14.9724208      0.258375087      74.2967531       
1094.12          0.266230371      73.8465699       0.96059484       -15.4388437      0.96059484       -15.4388437      0.266230371      73.8465699       
1128.28          0.27404387       73.3969117       0.958378547      -15.9038273      0.958378547      -15.9038273      0.27404387       73.3969117       
1162.44          0.281814669      72.9478872       0.956106721      -16.3673378      0.956106721      -16.3673378      0.281814669      72.9478872       
1196.6           0.289541883      72.4995962       0.953780249      -16.8293424      0.953780249      -16.8293424      0.289541883      72.4995962       
1230.76          0.297224654      72.0521303       0.951400031      -17.2898091      0.951400031      -17.2898091      0.297224654      72.0521303       
1264.92          0.304862156      71.6055741       0.94896698       -17.7487064      0.94896698       -17.7487064      0.304862156      71.6055741       
1299.08          0.312453593      71.1600059       0.946482021      -18.2060041      0.946482021      -18.2060041      0.312453593      71.1600059       
1333.24          0.319998196      70.7154983       0.943946091      -18.6616724      0.943946091      -18.6616724      0.319998196      70.7154983       
1367.4           0.327495229      70.2721192       0.941360134      -19.1156828      0.941360134      -19.1156828      0.327495229      70.2721192       
1401.56          0.334943984      69.8299316       0.938725105      -19.5680072      0.938725105      -19.5680072      0.334943984      69.8299316       
1435.72          0.342343783      69.3889945       0.936041966      -20.0186187      0.936041966      -20.0186187      0.342343783      69.3889945       
1469.88          0.349693979      68.9493633       0.933311684      -20.467491       0.933311684      -20.467491       0.349693979      68.9493633       
1504.04          0.356993954      68.5110898       0.930535235      -20.9145988      0.930535235      -20.9145988      0.356993954      68.5110898       
1538.2           0.364243119      68.0742228       0.927713597      -21.3599175      0.927713597      -21.3599175      0.364243119      68.0742228       
1572.36          0.371440916      67.6388079       0.924847753      -21.8034236      0.924847753      -21.8034236      0.371440916      67.6388079       
1606.52          0.378586815      67.2048884       0.92193869       -22.2450943      0.92193869       -22.2450943      0.378586815      67.2048884       
1640.68          0.385680315      66.7725048       0.918987395      -22.6849076      0.918987395      -22.6849076      0.385680315      66.7725048       
1674.84          0.392720946      66.3416954       0.915994858      -23.1228425      0.915994858      -23.1228425      0.392720946      66.3416954       
1709             0.399708265      65.9124962       0.912962069      -23.5588786      0.912962069      -23.5588786      0.399708265      65.9124962       
1743.16          0.406641856      65.4849413       0.909890019      -23.9929966      0.909890019      -23.9929966      0.406641856      65.4849413       
1777.32          0.413521333      65.0590627       0.906779695      -24.425178       0.906779695      -24.425178       0.413521333      65.0590627       
1811.48          0.420346338      64.6348907       0.903632084      -24.8554049      0.903632084      -24.8554049      0.420346338      64.6348907       
1845.64          0.427116539      64.2124537       0.900448172      -25.2836605      0.900448172      -25.2836605      0.427116539      64.2124537       
1879.8           0.43383163       63.7917785       0.897228939      -25.7099286      0.897228939      -25.7099286      0.43383163       63.7917785       
1913.96          0.440491333      63.3728906       0.893975362      -26.134194       0.893975362      -26.134194       0.440491333      63.3728906       
1948.12          0.447095397      62.9558136       0.890688415      -26.5564421      0.890688415      -26.5564421      0.447095397      62.9558136       
1982.28          0.453643594      62.5405699       0.887369065      -26.9766593      0.887369065      -26.9766593      0.453643594      62.5405699       
2016.44          0.460135723      62.1271805       0.884018273      -27.3948325      0.884018273      -27.3948325      0.460135723      62.1271805       
2050.6           0.466571607      61.715665        0.880636996      -27.8109497      0.880636996      -27.8109497      0.466571607      61.715665        
2084.76          0.472951093      61.3060419       0.877226182      -28.2249994      0.877226182      -28.2249994      0.472951093      61.3060419       
2118.92          0.479274053      60.8983284       0.873786773      -28.6369709      0.873786773      -28.6369709      0.479274053      60.8983284       
2153.08          0.485540379      60.4925404       0.870319701      -29.0468544      0.870319701      -29.0468544      0.485540379      60.4925404       
2187.24          0.49174999       60.0886931       0.866825892      -29.4546406      0.866825892      -29.4546406      0.49174999       60.0886931       
2221.4           0.497902824      59.6868001       0.863306262      -29.8603211      0.863306262      -29.8603211      0.497902824      59.6868001       
2255.56          0.50399884       59.2868743       0.859761718      -30.263888       0.859761718      -30.263888       0.50399884       59.2868743       
2289.72          0.510038022      58.8889275       0.856193157      -30.6653343      0.856193157      -30.6653343      0.510038022      58.8889275       
2323.88          0.516020369      58.4929706       0.852601467      -31.0646535      0.852601467      -31.0646535      0.516020369      58.4929706       
2358.04          0.521945905      58.0990134       0.848987525      -31.4618399      0.848987525      -31.4618399      0.521945905      58.0990134       
2392.2           0.527814671      57.707065        0.845352198      -31.8568884      0.845352198      -31.8568884      0.527814671      57.707065        
2426.36          0.533626726      57.3171336       0.84169634       -32.2497945      0.84169634       -32.2497945      0.533626726      57.3171336       
2460.52          0.539382148      56.9292263       0.838020796      -32.6405543      0.838020796      -32.6405543      0.539382148      56.9292263       
2494.68          0.545081034      56.5433497       0.834326398      -33.0291646      0.834326398      -33.0291646      0.545081034      56.5433497       
2528.84          0.550723497      56.1595095       0.830613968      -33.4156227      0.830613968      -33.4156227      0.550723497      56.1595095       
2563             0.556309665      55.7777106       0.826884314      -33.7999265      0.826884314      -33.7999265      0.556309665      55.7777106       
2597.16          0.561839685      55.3979571       0.823138234      -34.1820746      0.823138234      -34.1820746      0.561839685      55.3979571       
2631.32          0.567313718      55.0202527       0.819376511      -34.562066       0.819376511      -34.562066       0.567313718      55.0202527       
2665.48          0.57273194       54.6446          0.815599917      -34.9399002      0.815599917      -34.9399002      0.57273194       54.6446          
2699.64          0.578094541      54.2710013       0.811809213      -35.3155774      0.811809213      -35.3155774      0.578094541      54.2710013       
2733.8           0.583401725      53.899458        0.808005143      -35.6890981      0.808005143      -35.6890981      0.583401725      53.899458        
2767.96          0.588653709      53.5299709       0.804188443      -36.0604635      0.804188443      -36.0604635      0.588653709      53.5299709       
2802.12          0.593850725      53.1625403       0.800359832      -36.4296751      0.800359832      -36.4296751      0.593850725      53.1625403       
2836.28          0.598993014      52.797166        0.796520019      -36.7967351      0.796520019      -36.7967351      0.598993014      52.797166        
2870.44          0.604080831      52.433847        0.792669698      -37.1616458      0.792669698      -37.1616458      0.604080831      52.433847        
2904.6           0.609114441      52.072582        0.788809551      -37.5244103      0.788809551      -37.5244103      0.609114441      52.072582        
2938.76          0.614094121      51.713369        0.784940246      -37.8850318      0.784940246      -37.8850318      0.614094121      51.713369        
2972.92          0.619020156      51.3562056       0.781062438      -38.2435143      0.781062438      -38.2435143      0.619020156      51.3562056       
3007.08          0.623892843      51.0010888       0.777176769      -38.5998618      0.777176769      -38.5998618      0.623892843      51.0010888       
3041.24          0.628712488      50.6480153       0.773283869      -38.9540789      0.773283869      -38.9540789      0.628712488      50.6480153       
3075.4           0.633479405      50.2969812       0.769384353      -39.3061706      0.769384353      -39.3061706      0.633479405      50.2969812       
3109.56          0.638193916      49.9479823       0.765478825      -39.6561422      0.765478825      -39.6561422      0.638193916      49.9479823       
3143.72          0.642856353      49.6010139       0.761567873      -40.0039992      0.761567873      -40.0039992      0.642856353      49.6010139       
3177.88          0.647467053      49.2560709       0.757652074      -40.3497476      0.757652074      -40.3497476      0.647467053      49.2560709       
3212.04          0.652026361      48.9131478       0.753731994      -40.6933938      0.753731994      -40.6933938      0.652026361      48.9131478       
3246.2           0.65653463       48.5722388       0.749808182      -41.0349443      0.749808182      -41.0349443      0.65653463       48.5722388       
3280.36          0.660992216      48.2333377       0.745881177      -41.3744061      0.745881177      -41.3744061      0.660992216      48.2333377       
3314.52          0.665399486      47.896438        0.741951505      -41.7117862      0.741951505      -41.7117862      0.665399486      47.896438        
3348.68          0.669756806      47.5615328       0.738019679      -42.0470922      0.738019679      -42.0470922      0.669756806      47.5615328       
3382.84          0.674064553      47.2286149       0.734086201      -42.3803317      0.734086201      -42.3803317      0.674064553      47.2286149       
3417             0.678323105      46.8976769       0.730151558      -42.7115127      0.730151558      -42.7115127      0.678323105      46.8976769       
3451.16          0.682532846      46.568711        0.726216227      -43.0406434      0.726216227      -43.0406434      0.682532846      46.568711        
3485.32          0.686694163      46.2417092       0.722280672      -43.3677321      0.722280672      -43.3677321      0.686694163      46.2417092       
3519.48          0.690807448      45.9166632       0.718345346      -43.6927877      0.718345346      -43.6927877      0.690807448      45.9166632       
3553.64          0.694873094      45.5935644       0.71441069       -44.0158188      0.71441069       -44.0158188      0.694873094      45.5935644       
3587.8           0.698891501      45.2724041       0.710477132      -44.3368344      0.710477132      -44.3368344      0.698891501      45.2724041       
3621.96          0.702863068      44.9531733       0.706545091      -44.655844       0.706545091      -44.655844       0.702863068      44.9531733       
3656.12          0.706788198      44.6358627       0.702614972      -44.9728567      0.702614972      -44.9728567      0.706788198      44.6358627       
3690.28          0.710667296      44.3204629       0.69868717       -45.2878822      0.69868717       -45.2878822      0.710667296      44.3204629       
3724.44          0.714500769      44.0069644       0.694762071      -45.6009301      0.694762071      -45.6009301      0.714500769      44.0069644       
3758.6           0.718289026      43.6953572       0.690840046      -45.9120104      0.690840046      -45.9120104      0.718289026      43.6953572       
3792.76          0.722032475      43.3856315       0.686921459      -46.221133       0.686921459      -46.221133       0.722032475      43.3856315       
3826.92          0.725731529      43.0777772       0.683006662      -46.5283081      0.683006662      -46.5283081      0.725731529      43.0777772       
3861.08          0.7293866        42.7717839       0.679095997      -46.8335459      0.679095997      -46.8335459      0.7293866        42.7717839       
3895.24          0.732998098      42.4676411       0.675189795      -47.1368567      0.675189795      -47.1368567      0.732998098      42.4676411       
3929.4           0.736566439      42.1653385       0.671288377      -47.438251       0.671288377      -47.438251       0.736566439      42.1653385       
3963.56          0.740092034      41.8648651       0.667392057      -47.7377394      0.667392057      -47.7377394      0.740092034      41.8648651       
3997.72          0.743575297      41.5662103       0.663501135      -48.0353325      0.663501135      -48.0353325      0.743575297      41.5662103       
4031.88          0.747016641      41.2693632       0.659615904      -48.331041       0.659615904      -48.331041       0.747016641      41.2693632       
4066.04          0.750416478      40.9743126       0.655736649      -48.6248758      0.655736649      -48.6248758      0.750416478      40.9743126       
4100.2           0.753775221      40.6810475       0.651863642      -48.9168476      0.651863642      -48.9168476      0.753775221      40.6810475       
4134.36          0.75709328       40.3895566       0.64799715       -49.2069674      0.64799715       -49.2069674      0.75709328       40.3895566       
4168.52          0.760371067      40.0998288       0.64413743       -49.4952461      0.64413743       -49.4952461      0.760371067      40.0998288       
4202.68          0.763608989      39.8118525       0.640284728      -49.7816949      0.640284728      -49.7816949      0.763608989      39.8118525       
4236.84          0.766807457      39.5256165       0.636439284      -50.0663246      0.636439284      -50.0663246      0.766807457      39.5256165       
4271             0.769966876      39.2411091       0.632601331      -50.3491465      0.632601331      -50.3491465      0.769966876      39.2411091       
4305.16          0.773087651      38.9583189       0.62877109       -50.6301716      0.62877109       -50.6301716      0.773087651      38.9583189       
4339.32          0.776170187      38.6772343       0.624948777      -50.9094111      0.624948777      -50.9094111      0.776170187      38.6772343       
