! Coilcraft 1008CT-101 Chip Inductor				
! 17 July 2002			
# MHZ S MA R 50
!Freq             MagS11           AngS11           MagS21           AngS21           MagS12           AngS12           MagS22           AngS22
1                0.0100146698     38.1394631       0.992142641      -0.357173801     0.992142641      -0.357173801     0.0100146698     38.1394631       
5.74             0.0370630873     72.2614352       0.989337828      -2.04482909      0.989337828      -2.04482909      0.0370630873     72.2614352       
10.48            0.0659456665     76.3858109       0.986561645      -3.72488991      0.986561645      -3.72488991      0.0659456665     76.3858109       
15.22            0.0948411255     77.1323756       0.983235851      -5.39582844      0.983235851      -5.39582844      0.0948411255     77.1323756       
19.96            0.123535054      76.8238542       0.979256037      -7.0555076       0.979256037      -7.0555076       0.123535054      76.8238542       
24.7             0.151926492      76.0512814       0.974595751      -8.70168373      0.974595751      -8.70168373      0.151926492      76.0512814       
29.44            0.179941391      75.0372833       0.969257761      -10.3321373      0.969257761      -10.3321373      0.179941391      75.0372833       
34.18            0.207517304      73.8858457       0.963259959      -11.9447337      0.963259959      -11.9447337      0.207517304      73.8858457       
38.92            0.234599444      72.652819        0.95662955       -13.5374587      0.95662955       -13.5374587      0.234599444      72.652819        
43.66            0.261139495      71.3713299       0.949400031      -15.1084428      0.949400031      -15.1084428      0.261139495      71.3713299       
48.4             0.287095219      70.062542        0.941609289      -16.6559766      0.941609289      -16.6559766      0.287095219      70.062542        
53.14            0.312430294      68.740769        0.933298247      -18.1785213      0.933298247      -18.1785213      0.312430294      68.740769        
57.88            0.337114198      67.416128        0.924509809      -19.6747148      0.924509809      -19.6747148      0.337114198      67.416128        
62.62            0.361122047      66.0960151       0.915287983      -21.1433734      0.915287983      -21.1433734      0.361122047      66.0960151       
67.36            0.384434395      64.7859741       0.90567715       -22.5834911      0.90567715       -22.5834911      0.384434395      64.7859741       
72.1             0.407036968      63.4902334       0.895721442      -23.9942356      0.895721442      -23.9942356      0.407036968      63.4902334       
76.84            0.42892035       62.2120537       0.885464214      -25.3749422      0.885464214      -25.3749422      0.42892035       62.2120537       
81.58            0.450079633      60.9539599       0.874947605      -26.7251061      0.874947605      -26.7251061      0.450079633      60.9539599       
86.32            0.470514034      59.7179033       0.864212185      -28.0443734      0.864212185      -28.0443734      0.470514034      59.7179033       
91.06            0.490226496      58.5053782       0.853296671      -29.3325305      0.853296671      -29.3325305      0.490226496      58.5053782       
95.8             0.509223287      57.3175082       0.842237714      -30.5894932      0.842237714      -30.5894932      0.509223287      57.3175082       
100.54           0.527513595      56.1551124       0.831069748      -31.8152961      0.831069748      -31.8152961      0.527513595      56.1551124       
105.28           0.545109136      55.0187571       0.819824893      -33.0100802      0.819824893      -33.0100802      0.545109136      55.0187571       
110.02           0.562023778      53.9087973       0.808532905      -34.1740824      0.808532905      -34.1740824      0.562023778      53.9087973       
114.76           0.578273189      52.8254106       0.79722117       -35.3076243      0.79722117       -35.3076243      0.578273189      52.8254106       
119.5            0.593874506      51.7686257       0.785914729      -36.4111013      0.785914729      -36.4111013      0.593874506      51.7686257       
124.24           0.608846031      50.738346        0.774636333      -37.484973       0.774636333      -37.484973       0.608846031      50.738346        
128.98           0.623206954      49.7343699       0.763406517      -38.5297534      0.763406517      -38.5297534      0.623206954      49.7343699       
133.72           0.636977111      48.7564082       0.752243701      -39.5460023      0.752243701      -39.5460023      0.636977111      48.7564082       
138.46           0.650176761      47.804099        0.74116429       -40.5343174      0.74116429       -40.5343174      0.650176761      47.804099        
143.2            0.66282639       46.8770205       0.730182791      -41.4953264      0.730182791      -41.4953264      0.66282639       46.8770205       
147.94           0.67494655       45.9747027       0.719311938      -42.4296808      0.719311938      -42.4296808      0.67494655       45.9747027       
152.68           0.686557709      45.0966364       0.708562808      -43.3380497      0.708562808      -43.3380497      0.686557709      45.0966364       
157.42           0.697680133      44.2422823       0.69794495       -44.2211142      0.69794495       -44.2211142      0.697680133      44.2422823       
162.16           0.708333781      43.4110779       0.687466505      -45.0795631      0.687466505      -45.0795631      0.708333781      43.4110779       
166.9            0.718538219      42.6024441       0.677134319      -45.9140883      0.677134319      -45.9140883      0.718538219      42.6024441       
171.64           0.728312558      41.8157902       0.666954066      -46.7253813      0.666954066      -46.7253813      0.728312558      41.8157902       
176.38           0.737675393      41.050519        0.656930346      -47.5141303      0.656930346      -47.5141303      0.737675393      41.050519        
181.12           0.746644763      40.3060306       0.647066796      -48.2810169      0.647066796      -48.2810169      0.746644763      40.3060306       
185.86           0.755238125      39.5817258       0.63736618       -49.0267145      0.63736618       -49.0267145      0.755238125      39.5817258       
190.6            0.763472327      38.877009        0.62783048       -49.7518855      0.62783048       -49.7518855      0.763472327      38.877009        
195.34           0.771363597      38.1912905       0.618460985      -50.4571808      0.618460985      -50.4571808      0.771363597      38.1912905       
200.08           0.778927536      37.5239885       0.60925836       -51.1432376      0.60925836       -51.1432376      0.778927536      37.5239885       
204.82           0.78617912       36.8745312       0.600222721      -51.8106784      0.600222721      -51.8106784      0.78617912       36.8745312       
209.56           0.793132702      36.2423572       0.591353702      -52.460111       0.591353702      -52.460111       0.793132702      36.2423572       
214.3            0.799802019      35.6269176       0.582650509      -53.0921268      0.582650509      -53.0921268      0.799802019      35.6269176       
219.04           0.806200207      35.0276762       0.57411198       -53.707301       0.57411198       -53.707301       0.806200207      35.0276762       
223.78           0.812339812      34.4441102       0.56573663       -54.3061925      0.56573663       -54.3061925      0.812339812      34.4441102       
228.52           0.818232808      33.875711        0.557522697      -54.889343       0.557522697      -54.889343       0.818232808      33.875711        
233.26           0.823890612      33.3219841       0.549468182      -55.4572775      0.549468182      -55.4572775      0.823890612      33.3219841       
238              0.829324105      32.7824496       0.541570883      -56.0105043      0.541570883      -56.0105043      0.829324105      32.7824496       
242.74           0.834543651      32.2566421       0.533828433      -56.5495151      0.533828433      -56.5495151      0.834543651      32.2566421       
247.48           0.839559117      31.7441106       0.526238321      -57.074785       0.526238321      -57.074785       0.839559117      31.7441106       
252.22           0.84437989       31.244419        0.518797924      -57.586773       0.518797924      -57.586773       0.84437989       31.244419        
256.96           0.849014902      30.7571449       0.511504526      -58.0859223      0.511504526      -58.0859223      0.849014902      30.7571449       
261.7            0.853472646      30.2818806       0.504355343      -58.5726605      0.504355343      -58.5726605      0.853472646      30.2818806       
266.44           0.857761197      29.8182318       0.497347534      -59.0473999      0.497347534      -59.0473999      0.857761197      29.8182318       
271.18           0.861888232      29.365818        0.490478226      -59.5105382      0.490478226      -59.5105382      0.861888232      29.365818        
275.92           0.865861048      28.9242718       0.483744519      -59.9624586      0.483744519      -59.9624586      0.865861048      28.9242718       
280.66           0.869686579      28.4932391       0.477143505      -60.4035304      0.477143505      -60.4035304      0.869686579      28.4932391       
285.4            0.873371416      28.0723779       0.470672275      -60.8341095      0.470672275      -60.8341095      0.873371416      28.0723779       
290.14           0.876921822      27.6613587       0.464327929      -61.2545385      0.464327929      -61.2545385      0.876921822      27.6613587       
294.88           0.880343749      27.2598638       0.458107586      -61.6651474      0.458107586      -61.6651474      0.880343749      27.2598638       
299.62           0.883642856      26.867587        0.452008388      -62.066254       0.452008388      -62.066254       0.883642856      26.867587        
304.36           0.886824518      26.4842332       0.446027509      -62.4581644      0.446027509      -62.4581644      0.886824518      26.4842332       
309.1            0.889893848      26.109518        0.440162158      -62.8411731      0.440162158      -62.8411731      0.889893848      26.109518        
313.84           0.892855703      25.7431675       0.434409583      -63.2155638      0.434409583      -63.2155638      0.892855703      25.7431675       
318.58           0.895714705      25.3849177       0.428767077      -63.5816096      0.428767077      -63.5816096      0.895714705      25.3849177       
323.32           0.898475246      25.0345143       0.423231979      -63.9395733      0.423231979      -63.9395733      0.898475246      25.0345143       
328.06           0.901141505      24.6917123       0.417801676      -64.2897081      0.417801676      -64.2897081      0.901141505      24.6917123       
332.8            0.903717457      24.3562756       0.412473607      -64.6322577      0.412473607      -64.6322577      0.903717457      24.3562756       
337.54           0.906206883      24.0279769       0.407245261      -64.9674568      0.407245261      -64.9674568      0.906206883      24.0279769       
342.28           0.908613382      23.7065969       0.402114185      -65.2955313      0.402114185      -65.2955313      0.908613382      23.7065969       
347.02           0.91094038       23.3919246       0.397077974      -65.6166989      0.397077974      -65.6166989      0.91094038       23.3919246       
351.76           0.913191139      23.0837565       0.392134283      -65.9311692      0.392134283      -65.9311692      0.913191139      23.0837565       
356.5            0.915368764      22.7818965       0.387280819      -66.2391441      0.387280819      -66.2391441      0.915368764      22.7818965       
361.24           0.917476213      22.4861558       0.382515345      -66.540818       0.382515345      -66.540818       0.917476213      22.4861558       
365.98           0.919516306      22.196352        0.377835677      -66.8363784      0.377835677      -66.8363784      0.919516306      22.196352        
370.72           0.921491728      21.9123097       0.373239688      -67.1260058      0.373239688      -67.1260058      0.921491728      21.9123097       
375.46           0.92340504       21.6338595       0.368725302      -67.4098743      0.368725302      -67.4098743      0.92340504       21.6338595       
380.2            0.925258682      21.3608381       0.364290499      -67.6881516      0.364290499      -67.6881516      0.925258682      21.3608381       
384.94           0.927054984      21.0930882       0.359933309      -67.9609994      0.359933309      -67.9609994      0.927054984      21.0930882       
389.68           0.928796166      20.8304578       0.355651816      -68.2285736      0.355651816      -68.2285736      0.928796166      20.8304578       
394.42           0.930484349      20.5728004       0.351444153      -68.4910246      0.351444153      -68.4910246      0.930484349      20.5728004       
399.16           0.932121555      20.3199748       0.347308504      -68.7484974      0.347308504      -68.7484974      0.932121555      20.3199748       
403.9            0.933709717      20.0718444       0.343243101      -69.0011319      0.343243101      -69.0011319      0.933709717      20.0718444       
408.64           0.935250678      19.8282776       0.339246225      -69.249063       0.339246225      -69.249063       0.935250678      19.8282776       
413.38           0.936746202      19.5891473       0.335316203      -69.4924211      0.335316203      -69.4924211      0.936746202      19.5891473       
418.12           0.938197973      19.3543308       0.331451409      -69.7313317      0.331451409      -69.7313317      0.938197973      19.3543308       
422.86           0.939607601      19.1237096       0.32765026       -69.9659163      0.32765026       -69.9659163      0.939607601      19.1237096       
427.6            0.940976624      18.8971692       0.323911218      -70.1962921      0.323911218      -70.1962921      0.940976624      18.8971692       
432.34           0.942306516      18.6745991       0.320232788      -70.4225722      0.320232788      -70.4225722      0.942306516      18.6745991       
437.08           0.943598683      18.4558923       0.316613514      -70.6448659      0.316613514      -70.6448659      0.943598683      18.4558923       
441.82           0.944854475      18.2409458       0.313051984      -70.8632788      0.313051984      -70.8632788      0.944854475      18.2409458       
446.56           0.94607518       18.0296595       0.309546822      -71.0779128      0.309546822      -71.0779128      0.94607518       18.0296595       
451.3            0.947262033      17.8219372       0.306096692      -71.2888667      0.306096692      -71.2888667      0.947262033      17.8219372       
456.04           0.948416218      17.6176855       0.302700295      -71.4962356      0.302700295      -71.4962356      0.948416218      17.6176855       
460.78           0.949538868      17.4168141       0.299356367      -71.7001118      0.299356367      -71.7001118      0.949538868      17.4168141       
465.52           0.950631068      17.2192358       0.296063682      -71.9005843      0.296063682      -71.9005843      0.950631068      17.2192358       
470.26           0.95169386       17.0248663       0.292821044      -72.0977392      0.292821044      -72.0977392      0.95169386       17.0248663       
475              0.952728241      16.8336236       0.289627295      -72.29166        0.289627295      -72.29166        0.952728241      16.8336236       
479.74           0.953735168      16.6454289       0.286481304      -72.4824272      0.286481304      -72.4824272      0.953735168      16.6454289       
484.48           0.95471556       16.4602055       0.283381976      -72.6701189      0.283381976      -72.6701189      0.95471556       16.4602055       
489.22           0.955670297      16.2778793       0.280328243      -72.8548106      0.280328243      -72.8548106      0.955670297      16.2778793       
493.96           0.956600225      16.0983785       0.277319069      -73.0365754      0.277319069      -73.0365754      0.956600225      16.0983785       
498.7            0.957506155      15.9216336       0.274353444      -73.215484       0.274353444      -73.215484       0.957506155      15.9216336       
503.44           0.958388869      15.7475774       0.271430388      -73.3916051      0.271430388      -73.3916051      0.958388869      15.7475774       
508.18           0.959249113      15.5761444       0.268548945      -73.5650049      0.268548945      -73.5650049      0.959249113      15.5761444       
512.92           0.960087609      15.4072714       0.26570819       -73.7357478      0.26570819       -73.7357478      0.960087609      15.4072714       
517.66           0.960905047      15.2408972       0.262907218      -73.903896       0.262907218      -73.903896       0.960905047      15.2408972       
522.4            0.961702093      15.0769623       0.260145152      -74.0695101      0.260145152      -74.0695101      0.961702093      15.0769623       
527.14           0.962479385      14.9154091       0.257421137      -74.2326483      0.257421137      -74.2326483      0.962479385      14.9154091       
531.88           0.963237539      14.7561817       0.254734343      -74.3933676      0.254734343      -74.3933676      0.963237539      14.7561817       
536.62           0.963977146      14.5992258       0.252083959      -74.5517227      0.252083959      -74.5517227      0.963977146      14.5992258       
541.36           0.964698775      14.4444888       0.2494692        -74.7077672      0.2494692        -74.7077672      0.964698775      14.4444888       
546.1            0.965402974      14.2919198       0.2468893        -74.8615526      0.2468893        -74.8615526      0.965402974      14.2919198       
550.84           0.966090271      14.1414691       0.244343512      -75.0131292      0.244343512      -75.0131292      0.966090271      14.1414691       
555.58           0.966761174      13.9930886       0.24183111       -75.1625455      0.24183111       -75.1625455      0.966761174      13.9930886       
560.32           0.967416172      13.8467317       0.239351389      -75.3098488      0.239351389      -75.3098488      0.967416172      13.8467317       
565.06           0.968055736      13.702353        0.236903661      -75.4550849      0.236903661      -75.4550849      0.968055736      13.702353        
569.8            0.968680321      13.5599085       0.234487254      -75.5982983      0.234487254      -75.5982983      0.968680321      13.5599085       
574.54           0.969290365      13.4193554       0.232101518      -75.7395322      0.232101518      -75.7395322      0.969290365      13.4193554       
579.28           0.969886289      13.2806521       0.229745817      -75.8788283      0.229745817      -75.8788283      0.969886289      13.2806521       
584.02           0.970468502      13.1437582       0.227419532      -76.0162275      0.227419532      -76.0162275      0.970468502      13.1437582       
588.76           0.971037396      13.0086345       0.225122059      -76.1517691      0.225122059      -76.1517691      0.971037396      13.0086345       
593.5            0.971593349      12.8752428       0.222852813      -76.2854917      0.222852813      -76.2854917      0.971593349      12.8752428       
598.24           0.972136728      12.743546        0.22061122       -76.4174325      0.22061122       -76.4174325      0.972136728      12.743546        
602.98           0.972667885      12.613508        0.218396723      -76.5476276      0.218396723      -76.5476276      0.972667885      12.613508        
