! Coilcraft 132-20SM_ Maxi Spring Air Core Inductor				
! 28 May 2003
# MHZ S MA R 50
!Freq             MagS11           AngS11           MagS21           AngS21           MagS12           AngS12           MagS22           AngS22
1                0.0353225924     63.8334679       0.984943749      -1.86307185      0.984943749      -1.86307185      0.0353309167     63.8395639       
2                0.0659031402     73.5540245       0.983415823      -3.72233617      0.983415823      -3.72233617      0.0659209313     73.5575159       
3                0.0972630521     75.8656746       0.980884965      -5.57403241      0.980884965      -5.57403241      0.0972900361     75.8680666       
4                0.128592952      76.1444712       0.977374285      -7.41449255      0.977374285      -7.41449255      0.128628977      76.1462826       
5                0.159646367      75.5992869       0.972915318      -9.24018383      0.972915318      -9.24018383      0.159691295      75.6007426       
6                0.190284999      74.6483767       0.967547253      -11.0477475      0.967547253      -11.0477475      0.190338682      74.6495926       
7                0.22040735       73.4752101       0.961316007      -12.8340326      0.961316007      -12.8340326      0.220469625      73.4762538       
8                0.249930854      72.1735374       0.954273185      -14.5961239      0.954273185      -14.5961239      0.250001538      72.1744515       
9                0.278786148      70.7967068       0.946474969      -16.331364       0.946474969      -16.331364       0.278865046      70.7975198       
10               0.306914903      69.3776058       0.937980982      -18.0373687      0.937980982      -18.0373687      0.307001803      69.3783377       
11               0.33426881       67.9377861       0.928853157      -19.7120363      0.928853157      -19.7120363      0.334363489      67.9384516       
12               0.360808954      66.4920489       0.919154666      -21.3535512      0.919154666      -21.3535512      0.360911177      66.492659        
13               0.386505273      65.0509254       0.908948919      -22.9603817      0.908948919      -22.9603817      0.386614799      65.0514886       
14               0.411336008      63.6221035       0.898298664      -24.5312736      0.898298664      -24.5312736      0.41145259       63.6226265       
15               0.4352871        62.2112921       0.887265204      -26.0652388      0.887265204      -26.0652388      0.435410487      62.2117802       
16               0.458351539      60.822769        0.875907729      -27.5615422      0.875907729      -27.5615422      0.458481478      60.8232265       
17               0.48052868       59.4597437       0.864282782      -29.0196843      0.864282782      -29.0196843      0.480664918      59.4601742       
18               0.50182353       58.1246064       0.852443839      -30.4393833      0.852443839      -30.4393833      0.501965816      58.125013        
19               0.522246045      56.8191058       0.840441008      -31.8205559      0.840441008      -31.8205559      0.522394131      56.8194909       
20               0.541810431      55.5444792       0.828320824      -33.163297       0.828320824      -33.163297       0.541964073      55.544845        
21               0.56053448       54.3015519       0.816126146      -34.4678604      0.816126146      -34.4678604      0.560693439      54.3019001       
22               0.578438942      53.0908138       0.803896129      -35.7346387      0.803896129      -35.7346387      0.578602986      53.0911462       
23               0.595546944      51.9124814       0.791666259      -36.9641451      0.791666259      -36.9641451      0.595715845      51.9127992       
24               0.611883458      50.7665466       0.779468449      -38.1569954      0.779468449      -38.1569954      0.612056997      50.766851        
25               0.627474828      49.652818        0.767331174      -39.3138918      0.767331174      -39.3138918      0.627652794      49.6531101       
26               0.642348345      48.5709547       0.755279635      -40.4356072      0.755279635      -40.4356072      0.642530534      48.5712356       
27               0.656531883      47.5204948       0.743335951      -41.5229718      0.743335951      -41.5229718      0.656718099      47.5207652       
28               0.670053574      46.5008794       0.731519364      -42.5768603      0.731519364      -42.5768603      0.670243628      46.50114         
29               0.682941541      45.5114724       0.719846445      -43.5981805      0.719846445      -43.5981805      0.683135254      45.5117239       
30               0.695223672      44.5515784       0.708331313      -44.5878638      0.708331313      -44.5878638      0.695420871      44.5518215       
31               0.706927428      43.6204569       0.696985843      -45.5468562      0.696985843      -45.5468562      0.707127951      43.620692        
32               0.718079698      42.7173343       0.685819875      -46.4761109      0.685819875      -46.4761109      0.718283386      42.717562        
33               0.728706671      41.8414149       0.674841407      -47.3765815      0.674841407      -47.3765815      0.728913376      41.8416356       
34               0.738833748      40.9918894       0.664056782      -48.2492168      0.664056782      -48.2492168      0.739043327      40.9921035       
35               0.748485469      40.167942        0.65347087       -49.0949559      0.65347087       -49.0949559      0.748697788      40.1681499       
36               0.757685469      39.368757        0.643087224      -49.9147244      0.643087224      -49.9147244      0.757900399      39.368959        
37               0.766456443      38.5935233       0.632908236      -50.7094312      0.632908236      -50.7094312      0.766673863      38.5937198       
38               0.774820129      37.8414391       0.622935276      -51.4799656      0.622935276      -51.4799656      0.775039923      37.8416302       
39               0.782797305      37.1117147       0.613168819      -52.2271959      0.613168819      -52.2271959      0.783019363      37.1119009       
40               0.790407793      36.403576        0.60360856       -52.9519671      0.60360856       -52.9519671      0.79063201       36.4037574       
41               0.79767047       35.7162656       0.594253518      -53.6551001      0.594253518      -53.6551001      0.797896748      35.7164425       
42               0.804603291      35.0490454       0.585102134      -54.337391       0.585102134      -54.337391       0.804831537      35.049218        
43               0.81122331       34.4011974       0.57615235       -54.9996102      0.57615235       -54.9996102      0.811453435      34.4013659       
44               0.817546709      33.7720243       0.567401692      -55.6425024      0.567401692      -55.6425024      0.817778629      33.7721889       
45               0.823588831      33.1608508       0.55884733       -56.2667864      0.55884733       -56.2667864      0.823822465      33.1610116       
46               0.829364205      32.5670234       0.550486143      -56.8731554      0.550486143      -56.8731554      0.829599478      32.5671806       
47               0.834886589      31.9899105       0.542314771      -57.4622771      0.542314771      -57.4622771      0.835123429      31.9900642       
48               0.840168998      31.4289027       0.534329659      -58.034794       0.534329659      -58.034794       0.840407337      31.4290532       
49               0.84522374       30.8834126       0.526527104      -58.5913243      0.526527104      -58.5913243      0.845463513      30.8835599       
50               0.850062452      30.3528741       0.518903285      -59.132462       0.518903285      -59.132462       0.850303598      30.3530184       
51               0.854696129      29.8367425       0.511454298      -59.6587776      0.511454298      -59.6587776      0.854938591      29.8368838       
52               0.859135164      29.3344936       0.50417618       -60.1708192      0.50417618       -60.1708192      0.859378885      29.3346321       
53               0.863389372      28.8456237       0.49706494       -60.6691127      0.49706494       -60.6691127      0.8636343        28.8457595       
54               0.867468027      28.3696486       0.49011657       -61.1541625      0.49011657       -61.1541625      0.867714112      28.3697818       
55               0.871379888      27.9061032       0.483327071      -61.6264529      0.483327071      -61.6264529      0.871627082      27.9062338       
56               0.875133228      27.4545408       0.476692463      -62.0864479      0.476692463      -62.0864479      0.875381487      27.4546691       
57               0.878735864      27.0145328       0.470208798      -62.5345927      0.470208798      -62.5345927      0.878985146      27.0146586       
58               0.88219518       26.5856675       0.463872174      -62.9713141      0.463872174      -62.9713141      0.882445443      26.5857911       
59               0.885518153      26.16755         0.457678742      -63.3970211      0.457678742      -63.3970211      0.885769358      26.1676714       
60               0.888711374      25.7598013       0.451624713      -63.8121061      0.451624713      -63.8121061      0.888963485      25.7599206       
61               0.891781075      25.3620578       0.445706365      -64.216945       0.445706365      -64.216945       0.892034057      25.3621751       
62               0.894733145      24.9739707       0.439920049      -64.6118983      0.439920049      -64.6118983      0.894986964      24.9740859       
63               0.897573153      24.5952052       0.434262191      -64.9973114      0.434262191      -64.9973114      0.897827777      24.5953185       
64               0.900306366      24.2254401       0.428729295      -65.3735158      0.428729295      -65.3735158      0.900561765      24.2255515       
65               0.902937764      23.8643674       0.423317947      -65.7408291      0.423317947      -65.7408291      0.903193909      23.864477        
66               0.905472062      23.5116913       0.418024815      -66.0995558      0.418024815      -66.0995558      0.905728926      23.5117992       
67               0.907913722      23.1671283       0.412846652      -66.4499882      0.412846652      -66.4499882      0.908171278      23.1672344       
68               0.910266966      22.8304058       0.407780294      -66.7924065      0.407780294      -66.7924065      0.910525189      22.8305103       
69               0.912535795      22.5012627       0.402822661      -67.1270794      0.402822661      -67.1270794      0.912794662      22.5013655       
70               0.914723999      22.179448        0.397970758      -67.4542648      0.397970758      -67.4542648      0.914983485      22.1795493       
71               0.916835167      21.8647208       0.393221672      -67.7742104      0.393221672      -67.7742104      0.917095252      21.8648206       
72               0.918872703      21.5568499       0.388572573      -68.0871536      0.388572573      -68.0871536      0.919133366      21.5569482       
73               0.920839836      21.255613        0.384020713      -68.3933226      0.384020713      -68.3933226      0.921101056      21.2557099       
74               0.922739626      20.9607969       0.379563422      -68.6929362      0.379563422      -68.6929362      0.923001384      20.9608923       
75               0.924574978      20.6721965       0.37519811       -68.9862049      0.37519811       -68.9862049      0.924837256      20.6722905       
76               0.926348649      20.3896147       0.370922264      -69.2733307      0.370922264      -69.2733307      0.92661143       20.3897074       
77               0.928063258      20.1128623       0.366733446      -69.5545076      0.366733446      -69.5545076      0.928326525      20.1129537       
78               0.929721292      19.8417571       0.362629291      -69.8299223      0.362629291      -69.8299223      0.929985028      19.8418472       
79               0.931325112      19.5761242       0.358607506      -70.099754       0.358607506      -70.099754       0.931589303      19.5762131       
80               0.932876965      19.3157952       0.354665869      -70.3641751      0.354665869      -70.3641751      0.933141596      19.3158829       
81               0.934378988      19.0606082       0.350802225      -70.6233515      0.350802225      -70.6233515      0.934644043      19.0606947       
82               0.93583321       18.8104074       0.347014486      -70.8774426      0.347014486      -70.8774426      0.936098677      18.8104927       
83               0.937241564      18.5650428       0.343300627      -71.1266019      0.343300627      -71.1266019      0.937507431      18.565127        
84               0.938605891      18.32437         0.339658687      -71.3709771      0.339658687      -71.3709771      0.938872144      18.3244531       
85               0.939927943      18.0882501       0.336086765      -71.6107104      0.336086765      -71.6107104      0.940194569      18.0883321       
86               0.941209387      17.8565493       0.332583021      -71.8459385      0.332583021      -71.8459385      0.941476376      17.8566302       
87               0.942451813      17.6291385       0.329145667      -72.0767934      0.329145667      -72.0767934      0.942719154      17.6292184       
88               0.943656738      17.4058935       0.325772976      -72.303402       0.325772976      -72.303402       0.94392442       17.4059724       
89               0.944825605      17.1866947       0.322463272      -72.5258867      0.322463272      -72.5258867      0.945093618      17.1867726       
90               0.945959794      16.9714265       0.319214929      -72.7443654      0.319214929      -72.7443654      0.946228127      16.9715035       
91               0.947060619      16.7599778       0.316026375      -72.9589519      0.316026375      -72.9589519      0.947329264      16.7600538       
92               0.948129335      16.552241        0.312896083      -73.1697557      0.312896083      -73.1697557      0.948398282      16.5523161       
93               0.949167141      16.3481129       0.309822577      -73.3768825      0.309822577      -73.3768825      0.949436381      16.348187        
94               0.950175181      16.1474933       0.306804422      -73.5804344      0.306804422      -73.5804344      0.950444707      16.1475666       
95               0.95115455       15.9502859       0.303840231      -73.7805099      0.303840231      -73.7805099      0.951424352      15.9503583       
96               0.952106291      15.7563977       0.300928656      -73.9772038      0.300928656      -73.9772038      0.952376363      15.7564692       
97               0.953031406      15.5657387       0.298068393      -74.170608       0.298068393      -74.170608       0.953301738      15.5658094       
98               0.953930848      15.3782221       0.295258176      -74.360811       0.295258176      -74.360811       0.954201435      15.378292        
99               0.954805534      15.1937642       0.292496778      -74.5478984      0.292496778      -74.5478984      0.955076367      15.1938332       
100              0.955656336      15.0122838       0.289783008      -74.7319527      0.289783008      -74.7319527      0.95592741       15.012352        
101              0.956484094      14.8337026       0.287115714      -74.9130539      0.287115714      -74.9130539      0.956755402      14.8337701       
102              0.957289609      14.6579451       0.284493776      -75.0912792      0.284493776      -75.0912792      0.957561144      14.6580118       
103              0.958073649      14.4849379       0.281916107      -75.2667032      0.281916107      -75.2667032      0.958345406      14.4850039       
104              0.958836951      14.3146103       0.279381653      -75.4393981      0.279381653      -75.4393981      0.959108923      14.3146755       
105              0.95958022       14.1468938       0.276889394      -75.6094337      0.276889394      -75.6094337      0.959852402      14.1469583       
106              0.960304133      13.9817221       0.274438337      -75.7768775      0.274438337      -75.7768775      0.960576518      13.981786        
107              0.961009337      13.8190313       0.272027518      -75.9417948      0.272027518      -75.9417948      0.961281922      13.8190944       
108              0.961696457      13.658759        0.269656005      -76.104249       0.269656005      -76.104249       0.961969235      13.6588215       
109              0.962366088      13.5008454       0.267322888      -76.2643012      0.267322888      -76.2643012      0.962639055      13.5009072       
110              0.963018804      13.3452322       0.265027288      -76.4220108      0.265027288      -76.4220108      0.963291955      13.3452932       
111              0.963655155      13.1918629       0.26276835       -76.5774352      0.26276835       -76.5774352      0.963928485      13.1919234       
112              0.964275671      13.0406831       0.260545242      -76.73063        0.260545242      -76.73063        0.964549175      13.0407429       
113              0.964880858      12.8916398       0.258357158      -76.8816491      0.258357158      -76.8816491      0.965154533      12.8916989       
114              0.965471205      12.7446816       0.256203314      -77.0305447      0.256203314      -77.0305447      0.965745046      12.7447402       
115              0.96604718       12.599759        0.254082948      -77.1773676      0.254082948      -77.1773676      0.966321184      12.5998169       
116              0.966609236      12.4568236       0.251995322      -77.3221667      0.251995322      -77.3221667      0.966883397      12.4568809       
117              0.967157805      12.3158287       0.249939716      -77.4649898      0.249939716      -77.4649898      0.967432121      12.3158854       
118              0.967693305      12.1767289       0.24791543       -77.6058829      0.24791543       -77.6058829      0.967967771      12.176785        
119              0.968216136      12.0394803       0.245921787      -77.7448909      0.245921787      -77.7448909      0.96849075       12.0395358       
120              0.968726687      11.90404         0.243958125      -77.8820573      0.243958125      -77.8820573      0.969001444      11.904095        
121              0.969225328      11.7703668       0.242023802      -78.0174242      0.242023802      -78.0174242      0.969500225      11.7704213       
122              0.969712418      11.6384203       0.240118193      -78.1510326      0.240118193      -78.1510326      0.969987452      11.6384742       
123              0.970188302      11.5081615       0.238240692      -78.2829223      0.238240692      -78.2829223      0.970463469      11.5082149       
124              0.970653313      11.3795524       0.236390707      -78.4131319      0.236390707      -78.4131319      0.97092861       11.3796052       
125              0.97110777       11.2525562       0.234567664      -78.5416988      0.234567664      -78.5416988      0.971383195      11.2526085       
126              0.971551983      11.127137        0.232771003      -78.6686596      0.232771003      -78.6686596      0.971827533      11.1271888       
127              0.97198625       11.0032601       0.231000181      -78.7940496      0.231000181      -78.7940496      0.972261921      11.0033113       
128              0.972410857      10.8808916       0.229254666      -78.9179033      0.229254666      -78.9179033      0.972686646      10.8809424       
