! Coilcraft 132-15SM_ Maxi Spring Air Core Inductor				
! 28 May 2003
# MHZ S MA R 50
!Freq             MagS11           AngS11           MagS21           AngS21           MagS12           AngS12           MagS22           AngS22
1                0.0163685397     65.711768        0.99338342       -0.87717542      0.99338342       -0.87717542      0.0163719523     65.7169388       
3                0.045489205      79.1577006       0.992487856      -2.62998664      0.992487856      -2.62998664      0.0455002368     79.1597054       
5                0.0751840462     80.6728093       0.99070392       -4.37819551      0.99070392       -4.37819551      0.0752025207     80.6740281       
7                0.104785276      80.3419807       0.988045832      -6.11878843      0.988045832      -6.11878843      0.104811118      80.3428544       
9                0.13414666       79.3971266       0.984534529      -7.84883223      0.984534529      -7.84883223      0.134179794      79.397807        
11               0.163176391      78.1806953       0.980197218      -9.56550336      0.980197218      -9.56550336      0.163216725      78.1812524       
13               0.191798923      76.8266232       0.975066794      -11.2661143      0.975066794      -11.2661143      0.191846353      76.8270947       
15               0.219947786      75.3988305       0.969181178      -12.9481366      0.969181178      -12.9481366      0.220002192      75.3992392       
17               0.247563813      73.9322117       0.962582569      -14.6092203      0.962582569      -14.6092203      0.247625061      73.9325723       
19               0.274594703      72.4477803       0.95531666       -16.2472088      0.95531666       -16.2472088      0.274662647      72.4481029       
21               0.300994916      70.9591678       0.94743183       -17.8601504      0.94743183       -17.8601504      0.3010694        70.9594597       
23               0.326725629      69.4757346       0.938978349      -19.4463052      0.938978349      -19.4463052      0.326806486      69.4760011       
25               0.351754633      68.004189        0.930007601      -21.0041479      0.930007601      -21.0041479      0.351841688      68.0044341       
27               0.376056157      66.5494898       0.920571368      -22.532368       0.920571368      -22.532368       0.376149231      66.5497167       
29               0.399610613      65.1153793       0.910721165      -24.0298654      0.910721165      -24.0298654      0.399709519      65.1155905       
31               0.422404254      63.7047139       0.900507652      -25.4957445      0.900507652      -25.4957445      0.422508805      63.7049113       
33               0.444428788      62.3196793       0.889980124      -26.9293048      0.889980124      -26.9293048      0.444538792      62.3198647       
35               0.465680931      60.9619372       0.879186087      -28.3300306      0.879186087      -28.3300306      0.465796197      60.962112        
37               0.486161946      59.6327291       0.868170903      -29.6975788      0.868170903      -29.6975788      0.486282283      59.6328943       
39               0.505877152      58.3329527       0.856977533      -31.0317657      0.856977533      -31.0317657      0.506002371      58.3331094       
41               0.524835446      57.0632208       0.84564633       -32.3325533      0.84564633       -32.3325533      0.524965358      57.0633698       
43               0.543048818      55.8239073       0.834214922      -33.6000352      0.834214922      -33.6000352      0.54318324       55.8240494       
45               0.560531897      54.6151854       0.822718136      -34.8344233      0.822718136      -34.8344233      0.560670648      54.615321        
47               0.577301517      53.4370581       0.811187985      -36.0360335      0.811187985      -36.0360335      0.577444419      53.4371879       
49               0.593376308      52.2893855       0.799653693      -37.2052728      0.799653693      -37.2052728      0.593523189      52.2895099       
51               0.608776325      51.1719067       0.78814176       -38.3426272      0.78814176       -38.3426272      0.608927018      51.1720262       
53               0.623522711      50.0842601       0.776676049      -39.4486497      0.776676049      -39.4486497      0.623677055      50.084375        
55               0.637637396      49.026           0.765277906      -40.5239491      0.765277906      -40.5239491      0.637795234      49.0261106       
57               0.651142823      47.9966114       0.753966284      -41.5691809      0.753966284      -41.5691809      0.651304004      47.9967181       
59               0.664061718      46.9955236       0.742757889      -42.5850372      0.742757889      -42.5850372      0.664226097      46.9956266       
61               0.676416887      46.0221209       0.731667325      -43.5722392      0.731667325      -43.5722392      0.676584324      46.0222205       
63               0.688231038      45.075753        0.720707245      -44.5315292      0.720707245      -44.5315292      0.688401399      45.0758493       
65               0.699526639      44.1557432       0.709888502      -45.4636646      0.709888502      -45.4636646      0.699699796      44.1558365       
67               0.710325797      43.2613963       0.699220298      -46.3694117      0.699220298      -46.3694117      0.710501626      43.2614867       
69               0.720650153      42.3920047       0.688710326      -47.2495409      0.688710326      -47.2495409      0.720828537      42.3920925       
71               0.730520808      41.5468544       0.67836491       -48.1048219      0.67836491       -48.1048219      0.730701636      41.5469396       
73               0.739958261      40.7252293       0.668189134      -48.9360205      0.668189134      -48.9360205      0.740141424      40.7253121       
75               0.748982356      39.9264155       0.658186968      -49.7438949      0.658186968      -49.7438949      0.749167752      39.9264961       
77               0.757612256      39.1497047       0.64836138       -50.5291931      0.64836138       -50.5291931      0.757799788      39.149783        
79               0.765866416      38.3943968       0.638714449      -51.2926509      0.638714449      -51.2926509      0.766055989      38.3944731       
81               0.773762569      37.6598027       0.629247459      -52.0349895      0.629247459      -52.0349895      0.773954096      37.659877        
83               0.781317727      36.9452458       0.619960994      -52.7569146      0.619960994      -52.7569146      0.781511123      36.9453183       
85               0.788548176      36.2500638       0.610855021      -53.4591147      0.610855021      -53.4591147      0.788743361      36.2501345       
87               0.79546949       35.57361         0.601928966      -54.1422606      0.601928966      -54.1422606      0.795666387      35.573679        
89               0.802096537      34.9152537       0.593181785      -54.8070045      0.593181785      -54.8070045      0.802295073      34.9153211       
91               0.808443499      34.2743818       0.584612025      -55.4539795      0.584612025      -55.4539795      0.808643605      34.2744476       
93               0.814523888      33.6503984       0.576217882      -56.0837994      0.576217882      -56.0837994      0.814725498      33.6504627       
95               0.820350568      33.0427256       0.567997253      -56.6970589      0.567997253      -56.6970589      0.820553619      33.0427885       
97               0.825935773      32.4508035       0.55994778       -57.2943328      0.55994778       -57.2943328      0.826140205      32.4508651       
99               0.831291138      31.8740905       0.552066893      -57.876177       0.552066893      -57.876177       0.831496894      31.8741508       
101              0.836427713      31.3120627       0.544351844      -58.4431282      0.544351844      -58.4431282      0.836634739      31.3121216       
103              0.841355996      30.764214        0.536799744      -58.995704       0.536799744      -58.995704       0.84156424       30.7642717       
105              0.84608595       30.230056        0.529407586      -59.5344041      0.529407586      -59.5344041      0.846295363      30.2301126       
107              0.850627031      29.7091177       0.522172275      -60.0597096      0.522172275      -60.0597096      0.850837567      29.7091731       
109              0.854988212      29.2009445       0.515090651      -60.5720842      0.515090651      -60.5720842      0.855199825      29.2009989       
111              0.859178003      28.7050988       0.508159505      -61.0719745      0.508159505      -61.0719745      0.859390652      28.7051522       
113              0.863204476      28.2211588       0.501375599      -61.5598102      0.501375599      -61.5598102      0.86341812       28.2212112       
115              0.867075287      27.7487184       0.49473568       -62.036005       0.49473568       -62.036005       0.867289887      27.7487698       
117              0.870797695      27.2873867       0.488236495      -62.5009568      0.488236495      -62.5009568      0.871013214      27.2874371       
119              0.874378585      26.8367873       0.4818748        -62.9550484      0.4818748        -62.9550484      0.874594989      26.8368367       
121              0.877824486      26.3965582       0.475647373      -63.3986479      0.475647373      -63.3986479      0.87804174       26.3966068       
123              0.881141588      25.966351        0.469551017      -63.8321093      0.469551017      -63.8321093      0.881359661      25.9663987       
125              0.884335765      25.5458307       0.463582575      -64.2557731      0.463582575      -64.2557731      0.884554627      25.5458776       
127              0.887412586      25.134675        0.457738928      -64.6699665      0.457738928      -64.6699665      0.887632207      25.134721        
129              0.890377337      24.7325737       0.452017007      -65.0750043      0.452017007      -65.0750043      0.890597689      24.732619        
131              0.89323503       24.3392288       0.446413791      -65.471189       0.446413791      -65.471189       0.893456088      24.3392733       
133              0.895990424      23.9543534       0.440926315      -65.8588114      0.440926315      -65.8588114      0.896212161      23.9543972       
135              0.898648034      23.5776717       0.435551673      -66.2381513      0.435551673      -66.2381513      0.898870427      23.5777147       
137              0.901212148      23.2089183       0.430287015      -66.6094777      0.430287015      -66.6094777      0.901435174      23.2089607       
139              0.903686837      22.8478381       0.425129555      -66.9730491      0.425129555      -66.9730491      0.903910473      22.8478798       
141              0.906075967      22.4941855       0.420076569      -67.3291143      0.420076569      -67.3291143      0.906300191      22.4942265       
143              0.908383211      22.1477244       0.415125394      -67.6779125      0.415125394      -67.6779125      0.908608003      22.1477647       
145              0.910612059      21.8082274       0.410273433      -68.0196738      0.410273433      -68.0196738      0.9108374        21.8082672       
147              0.912765827      21.4754759       0.405518152      -68.3546196      0.405518152      -68.3546196      0.912991699      21.4755151       
149              0.914847671      21.1492595       0.40085708       -68.682963       0.40085708       -68.682963       0.915074055      21.149298        
151              0.916860588      20.8293755       0.396287811      -69.0049089      0.396287811      -69.0049089      0.917087467      20.8294134       
153              0.918807431      20.5156289       0.391808001      -69.3206546      0.391808001      -69.3206546      0.91903479       20.5156663       
155              0.920690915      20.207832        0.387415366      -69.6303901      0.387415366      -69.6303901      0.920918737      20.2078689       
157              0.922513623      19.905804        0.383107687      -69.9342981      0.383107687      -69.9342981      0.922741894      19.9058403       
159              0.924278016      19.6093707       0.378882804      -70.2325549      0.378882804      -70.2325549      0.92450672       19.6094064       
161              0.925986434      19.3183643       0.374738616      -70.5253299      0.374738616      -70.5253299      0.926215558      19.3183995       
163              0.92764111       19.0326232       0.37067308       -70.8127866      0.37067308       -70.8127866      0.927870641      19.032658        
165              0.92924417       18.7519917       0.36668421       -71.0950825      0.36668421       -71.0950825      0.929474094      18.7520259       
167              0.93079764       18.4763196       0.362770078      -71.3723691      0.362770078      -71.3723691      0.931027946      18.4763534       
169              0.932303453      18.2054623       0.358928809      -71.6447927      0.358928809      -71.6447927      0.932534128      18.2054955       
171              0.933763452      17.93928         0.355158582      -71.9124943      0.355158582      -71.9124943      0.933994485      17.9393128       
173              0.935179395      17.6776384       0.351457626      -72.1756098      0.351457626      -72.1756098      0.935410775      17.6776707       
175              0.93655296       17.4204075       0.347824225      -72.4342704      0.347824225      -72.4342704      0.936784677      17.4204394       
177              0.93788575       17.167462        0.344256708      -72.6886025      0.344256708      -72.6886025      0.938117793      17.1674935       
179              0.939179293      16.9186812       0.340753454      -72.9387282      0.340753454      -72.9387282      0.939411653      16.9187123       
181              0.940435051      16.6739484       0.337312891      -73.1847652      0.337312891      -73.1847652      0.940667718      16.673979        
183              0.94165442       16.4331508       0.33393349       -73.4268273      0.33393349       -73.4268273      0.941887386      16.4331811       
185              0.942838735      16.1961798       0.330613766      -73.6650242      0.330613766      -73.6650242      0.94307199       16.1962097       
187              0.943989271      15.9629304       0.327352278      -73.8994619      0.327352278      -73.8994619      0.944222808      15.9629598       
189              0.945107249      15.7333009       0.324147628      -74.1302429      0.324147628      -74.1302429      0.945341058      15.73333         
191              0.946193835      15.5071935       0.320998456      -74.357466       0.320998456      -74.357466       0.94642791       15.5072221       
193              0.947250147      15.2845132       0.317903444      -74.5812269      0.317903444      -74.5812269      0.947484479      15.2845416       
195              0.948277254      15.0651686       0.314861309      -74.801618       0.314861309      -74.801618       0.948511836      15.0651966       
197              0.949276179      14.8490711       0.311870808      -75.0187285      0.311870808      -75.0187285      0.949511005      14.8490987       
199              0.950247903      14.636135        0.308930733      -75.232645       0.308930733      -75.232645       0.950482966      14.6361622       
201              0.951193366      14.4262774       0.30603991       -75.4434509      0.30603991       -75.4434509      0.951428658      14.4263043       
203              0.952113467      14.2194183       0.3031972        -75.651227       0.3031972        -75.651227       0.952348983      14.2194448       
205              0.953009069      14.01548         0.300401496      -75.8560516      0.300401496      -75.8560516      0.953244803      14.0155062       
207              0.953881001      13.8143875       0.297651723      -76.0580004      0.297651723      -76.0580004      0.954116946      13.8144134       
209              0.954730055      13.6160681       0.294946835      -76.2571465      0.294946835      -76.2571465      0.954966206      13.6160937       
211              0.955556992      13.4204515       0.29228582       -76.4535611      0.29228582       -76.4535611      0.955793344      13.4204767       
213              0.956362545      13.2274694       0.28966769       -76.6473126      0.28966769       -76.6473126      0.956599092      13.2274944       
215              0.957147413      13.0370559       0.287091488      -76.8384678      0.287091488      -76.8384678      0.95738415       13.0370806       
217              0.957912271      12.849147        0.284556284      -77.027091       0.284556284      -77.027091       0.958149193      12.8491714       
219              0.958657766      12.6636807       0.282061173      -77.2132447      0.282061173      -77.2132447      0.958894868      12.6637048       
221              0.959384518      12.4805969       0.279605275      -77.3969895      0.279605275      -77.3969895      0.959621796      12.4806207       
223              0.960093126      12.2998374       0.277187737      -77.5783841      0.277187737      -77.5783841      0.960330574      12.2998609       
225              0.960784163      12.1213456       0.274807727      -77.7574853      0.274807727      -77.7574853      0.961021778      12.1213688       
227              0.961458181      11.9450668       0.272464439      -77.9343484      0.272464439      -77.9343484      0.961695958      11.9450897       
229              0.962115711      11.7709478       0.270157087      -78.1090269      0.270157087      -78.1090269      0.962353646      11.7709705       
231              0.962757263      11.598937        0.267884908      -78.2815728      0.267884908      -78.2815728      0.962995352      11.5989594       
233              0.963383329      11.4289845       0.26564716       -78.4520365      0.26564716       -78.4520365      0.963621569      11.4290066       
235              0.963994382      11.2610415       0.26344312       -78.6204668      0.26344312       -78.6204668      0.964232768      11.2610633       
237              0.964590877      11.0950609       0.261272087      -78.7869113      0.261272087      -78.7869113      0.964829406      11.0950825       
239              0.965173253      10.9309969       0.259133377      -78.9514162      0.259133377      -78.9514162      0.96541192       10.9310183       
241              0.96574193       10.7688051       0.257026326      -79.1140261      0.257026326      -79.1140261      0.965980734      10.7688262       
243              0.966297317      10.6084422       0.254950287      -79.2747847      0.254950287      -79.2747847      0.966536253      10.608463        
245              0.966839805      10.4498662       0.252904631      -79.4337342      0.252904631      -79.4337342      0.967078871      10.4498868       
247              0.967369772      10.2930363       0.250888746      -79.5909156      0.250888746      -79.5909156      0.967608964      10.2930566       
249              0.967887582      10.1379128       0.248902036      -79.7463689      0.248902036      -79.7463689      0.968126897      10.1379329       
251              0.968393587      9.98445718       0.246943921      -79.9001329      0.246943921      -79.9001329      0.968633021      9.98447706       
253              0.968888124      9.83263196       0.245013836      -80.0522453      0.245013836      -80.0522453      0.969127676      9.8326516        
255              0.969371521      9.68240064       0.243111231      -80.2027428      0.243111231      -80.2027428      0.969611187      9.68242005       
