! Coilcraft 132-11SM_ Maxi Spring Air Core Inductor				
! 28 May 2003
# MHZ S MA R 50
!Freq             MagS11           AngS11           MagS21           AngS21           MagS12           AngS12           MagS22           AngS22
1                0.00879538022    63.7493908       0.996143385      -0.471459605     0.996143385      -0.471459605     0.00879749531    63.7560435       
3                0.0240601025     79.4402968       0.995893459      -1.41415643      0.995893459      -1.41415643      0.0240670576     79.4429624       
5                0.0397550357     82.1265544       0.995394159      -2.35618678      0.995394159      -2.35618678      0.0397667166     82.12818         
7                0.0554898376     82.756059        0.994646585      -3.29710852      0.994646585      -3.29710852      0.0555062158     82.7572253       
9                0.0712071205     82.6918793       0.993652383      -4.23648279      0.993652383      -4.23648279      0.0712281772     82.6927882       
11               0.086882831      82.3122108       0.992413727      -5.17387528      0.992413727      -5.17387528      0.0869085475     82.312955        
13               0.102500872      81.7636377       0.990933313      -6.10885746      0.990933313      -6.10885746      0.102531228      81.7642677       
15               0.11804798       81.114985        0.989214337      -7.04100778      0.989214337      -7.04100778      0.118082952      81.1155312       
17               0.13351223       80.402939        0.987260481      -7.96991283      0.987260481      -7.96991283      0.133551793      80.403421        
19               0.148882509      79.6489258       0.985075889      -8.89516843      0.985075889      -8.89516843      0.148926633      79.6493571       
21               0.164148303      78.8663616       0.982665142      -9.81638065      0.982665142      -9.81638065      0.164196957      78.8667518       
23               0.179299613      78.0641263       0.980033234      -10.7331668      0.980033234      -10.7331668      0.179352762      78.0644825       
25               0.194326921      77.2483704       0.977185544      -11.6451561      0.977185544      -11.6451561      0.194384529      77.2486981       
27               0.209221179      76.4235202       0.974127804      -12.5519911      0.974127804      -12.5519911      0.209283205      76.4238236       
29               0.223973812      75.5928666       0.970866072      -13.4533274      0.970866072      -13.4533274      0.224040214      75.593149        
31               0.238576722      74.7589261       0.9674067        -14.3488353      0.9674067        -14.3488353      0.238647456      74.7591902       
33               0.253022297      73.9236705       0.963756299      -15.2381996      0.963756299      -15.2381996      0.253097316      73.9239186       
35               0.267303416      73.0886779       0.959921708      -16.1211207      0.959921708      -16.1211207      0.267382671      73.0889118       
37               0.281413454      72.2552344       0.955909965      -16.9973142      0.955909965      -16.9973142      0.281496893      72.2554556       
39               0.295346286      71.4244047       0.951728269      -17.8665121      0.951728269      -17.8665121      0.295433858      71.4246145       
41               0.309096288      70.597082        0.947383952      -18.7284622      0.947383952      -18.7284622      0.309187938      70.5972815       
43               0.322658335      69.7740238       0.942884448      -19.5829286      0.942884448      -19.5829286      0.322754007      69.774214        
45               0.336027797      68.9558789       0.938237261      -20.429692       0.938237261      -20.429692       0.336127434      68.9560606       
47               0.349200535      68.1432065       0.933449936      -21.268549       0.933449936      -21.268549       0.349304078      68.1433804       
49               0.36217289       67.3364916       0.928530033      -22.0993127      0.928530033      -22.0993127      0.36228028       67.3366584       
51               0.374941678      66.5361563       0.923485101      -22.9218121      0.923485101      -22.9218121      0.375052854      66.5363165       
53               0.38750417       65.7425691       0.91832265       -23.7358921      0.91832265       -23.7358921      0.387619072      65.7427231       
55               0.39985809       64.9560517       0.913050129      -24.541413       0.913050129      -24.541413       0.399976654      64.9562001       
57               0.412001589      64.1768853       0.907674907      -25.3382507      0.907674907      -25.3382507      0.412123755      64.1770285       
59               0.423933238      63.4053148       0.902204251      -26.1262956      0.902204251      -26.1262956      0.424058941      63.4054531       
61               0.435652006      62.6415529       0.896645304      -26.9054526      0.896645304      -26.9054526      0.435781184      62.6416865       
63               0.447157243      61.8857833       0.891005077      -27.6756409      0.891005077      -27.6756409      0.447289832      61.8859126       
65               0.458448663      61.1381635       0.885290428      -28.4367928      0.885290428      -28.4367928      0.4585846        61.1382888       
67               0.469526325      60.3988274       0.879508048      -29.1888541      0.879508048      -29.1888541      0.469665546      60.3989489       
69               0.480390612      59.6678868       0.873664457      -29.9317829      0.873664457      -29.9317829      0.480533054      59.6680048       
71               0.491042214      58.945434        0.867765985      -30.6655493      0.867765985      -30.6655493      0.491187813      58.9455486       
73               0.501482106      58.2315427       0.86181877       -31.3901348      0.86181877       -31.3901348      0.5016308        58.2316541       
75               0.511711531      57.52627         0.85582875       -32.1055321      0.85582875       -32.1055321      0.511863258      57.5263784       
77               0.521731981      56.8296573       0.849801654      -32.8117439      0.849801654      -32.8117439      0.521886678      56.8297628       
79               0.531545174      56.1417319       0.843743005      -33.5087829      0.843743005      -33.5087829      0.53170278       56.1418347       
81               0.541153042      55.4625079       0.83765811       -34.196671       0.83765811       -34.196671       0.541313496      55.462608        
83               0.550557708      54.791987        0.831552062      -34.8754388      0.831552062      -34.8754388      0.550720949      54.7920847       
85               0.559761472      54.1301599       0.825429739      -35.545125       0.825429739      -35.545125       0.559927441      54.1302553       
87               0.568766791      53.4770071       0.819295803      -36.205776       0.819295803      -36.205776       0.568935429      53.4771002       
89               0.577576266      52.8324994       0.813154702      -36.8574452      0.813154702      -36.8574452      0.577747514      52.8325903       
91               0.586192623      52.1965988       0.807010673      -37.5001927      0.807010673      -37.5001927      0.586366425      52.1966877       
93               0.594618704      51.5692595       0.800867744      -38.1340846      0.800867744      -38.1340846      0.594795002      51.5693464       
95               0.602857445      50.9504282       0.794729734      -38.7591927      0.794729734      -38.7591927      0.603036185      50.9505133       
97               0.610911871      50.3400451       0.788600263      -39.375594       0.788600263      -39.375594       0.611092997      50.3401284       
99               0.618785076      49.7380442       0.782482751      -39.9833701      0.782482751      -39.9833701      0.618968535      49.7381257       
101              0.626480218      49.1443539       0.776380425      -40.5826069      0.776380425      -40.5826069      0.626665957      49.1444337       
103              0.634000501      48.5588976       0.770296325      -41.1733942      0.770296325      -41.1733942      0.634188468      48.5589758       
105              0.641349171      47.9815944       0.764233307      -41.7558254      0.764233307      -41.7558254      0.641539315      47.981671        
107              0.648529502      47.4123591       0.75819405       -42.3299969      0.75819405       -42.3299969      0.648721773      47.4124343       
109              0.655544789      46.851103        0.752181061      -42.896008       0.752181061      -42.896008       0.655739137      46.8511768       
111              0.662398338      46.2977344       0.746196683      -43.4539602      0.746196683      -43.4539602      0.662594716      46.2978067       
113              0.669093462      45.7521584       0.740243096      -44.0039574      0.740243096      -44.0039574      0.669291823      45.7522294       
115              0.675633468      45.2142779       0.734322331      -44.5461051      0.734322331      -44.5461051      0.675833765      45.2143476       
117              0.682021656      44.6839936       0.728436268      -45.0805104      0.728436268      -45.0805104      0.682223845      44.6840621       
119              0.68826131       44.1612046       0.722586647      -45.6072819      0.722586647      -45.6072819      0.688465347      44.1612719       
121              0.694355695      43.6458081       0.716775071      -46.1265288      0.716775071      -46.1265288      0.694561536      43.6458742       
123              0.700308049      43.1377003       0.711003016      -46.6383615      0.711003016      -46.6383615      0.700515652      43.1377653       
125              0.706121581      42.6367764       0.705271833      -47.1428908      0.705271833      -47.1428908      0.706330905      42.6368404       
127              0.711799465      42.1429309       0.699582755      -47.6402279      0.699582755      -47.6402279      0.71201047       42.1429937       
129              0.71734484       41.6560575       0.693936902      -48.1304841      0.693936902      -48.1304841      0.717557486      41.6561193       
131              0.722760803      41.1760498       0.688335289      -48.613771       0.688335289      -48.613771       0.722975052      41.1761107       
133              0.728050408      40.7028012       0.682778828      -49.0901997      0.682778828      -49.0901997      0.728266222      40.7028611       
135              0.733216665      40.236205        0.677268338      -49.5598813      0.677268338      -49.5598813      0.733434007      40.2362639       
137              0.738262534      39.7761548       0.671804542      -50.0229264      0.671804542      -50.0229264      0.738481369      39.7762128       
139              0.743190927      39.3225444       0.666388082      -50.479445       0.666388082      -50.479445       0.74341122       39.3226015       
141              0.748004705      38.8752681       0.661019515      -50.9295464      0.661019515      -50.9295464      0.748226422      38.8753244       
143              0.752706677      38.4342208       0.655699322      -51.3733392      0.655699322      -51.3733392      0.752929785      38.4342762       
145              0.757299599      37.9992979       0.650427913      -51.8109313      0.650427913      -51.8109313      0.757524065      37.9993525       
147              0.761786173      37.5703958       0.645205629      -52.2424294      0.645205629      -52.2424294      0.762011965      37.5704495       
149              0.766169045      37.1474115       0.640032746      -52.6679392      0.640032746      -52.6679392      0.766396133      37.1474645       
151              0.770450808      36.7302432       0.634909481      -53.0875655      0.634909481      -53.0875655      0.770679162      36.7302955       
153              0.774634         36.31879         0.629835995      -53.5014118      0.629835995      -53.5014118      0.77486359       36.3188415       
155              0.778721102      35.912952        0.624812393      -53.9095805      0.624812393      -53.9095805      0.7789519        35.9130027       
157              0.782714541      35.5126304       0.619838735      -54.3121725      0.619838735      -54.3121725      0.782946519      35.5126805       
159              0.78661669       35.1177278       0.61491503       -54.7092876      0.61491503       -54.7092876      0.78684982       35.1177772       
161              0.790429865      34.7281478       0.610041248      -55.1010244      0.610041248      -55.1010244      0.790664122      34.7281966       
163              0.794156329      34.3437955       0.605217317      -55.4874798      0.605217317      -55.4874798      0.794391687      34.3438435       
165              0.797798292      33.9645769       0.600443126      -55.8687496      0.600443126      -55.8687496      0.798034725      33.9646244       
167              0.801357908      33.5903998       0.595718532      -56.2449279      0.595718532      -56.2449279      0.801595392      33.5904466       
169              0.804837282      33.221173        0.591043358      -56.6161077      0.591043358      -56.6161077      0.805075793      33.2212192       
171              0.808238464      32.8568069       0.586417397      -56.9823802      0.586417397      -56.9823802      0.808477979      32.8568525       
173              0.811563454      32.497213        0.581840416      -57.3438355      0.581840416      -57.3438355      0.811803951      32.497258        
175              0.814814202      32.1423044       0.577312155      -57.7005619      0.577312155      -57.7005619      0.815055658      32.1423488       
177              0.817992608      31.7919956       0.572832331      -58.0526464      0.572832331      -58.0526464      0.818235001      31.7920395       
179              0.821100522      31.4462025       0.568400639      -58.4001746      0.568400639      -58.4001746      0.821343832      31.4462459       
181              0.824139749      31.1048423       0.564016754      -58.7432305      0.564016754      -58.7432305      0.824383954      31.1048851       
183              0.827112043      30.7678338       0.559680336      -59.0818966      0.559680336      -59.0818966      0.827357125      30.7678761       
185              0.830019116      30.4350969       0.555391024      -59.4162541      0.555391024      -59.4162541      0.830265055      30.4351387       
187              0.832862633      30.1065533       0.551148446      -59.7463826      0.551148446      -59.7463826      0.83310941       30.1065946       
189              0.835644215      29.7821258       0.546952214      -60.0723604      0.546952214      -60.0723604      0.835891811      29.7821666       
191              0.83836544       29.4617386       0.542801929      -60.3942641      0.542801929      -60.3942641      0.838613838      29.4617789       
193              0.841027844      29.1453175       0.538697181      -60.7121692      0.538697181      -60.7121692      0.841277025      29.1453574       
195              0.843632921      28.8327895       0.534637549      -61.0261497      0.534637549      -61.0261497      0.843882869      28.8328288       
197              0.846182125      28.5240829       0.530622606      -61.3362779      0.530622606      -61.3362779      0.846432824      28.5241218       
199              0.848676872      28.2191274       0.526651916      -61.6426252      0.526651916      -61.6426252      0.848928304      28.2191659       
201              0.851118537      27.9178542       0.522725035      -61.9452614      0.522725035      -61.9452614      0.851370688      27.9178922       
203              0.853508461      27.6201955       0.518841515      -62.2442548      0.518841515      -62.2442548      0.853761315      27.6202331       
205              0.855847947      27.326085        0.515000904      -62.5396726      0.515000904      -62.5396726      0.856101488      27.3261222       
207              0.85813826       27.0354577       0.511202745      -62.8315807      0.511202745      -62.8315807      0.858392475      27.0354945       
209              0.860380634      26.7482498       0.507446576      -63.1200436      0.507446576      -63.1200436      0.860635508      26.7482861       
211              0.862576268      26.4643986       0.503731935      -63.4051246      0.503731935      -63.4051246      0.862831787      26.4644345       
213              0.864726327      26.1838429       0.500058358      -63.6868856      0.500058358      -63.6868856      0.864982477      26.1838784       
215              0.866831947      25.9065224       0.496425377      -63.9653875      0.496425377      -63.9653875      0.867088715      25.9065576       
217              0.868894228      25.6323784       0.492832526      -64.2406898      0.492832526      -64.2406898      0.869151602      25.6324131       
219              0.870914245      25.3613529       0.489279337      -64.5128509      0.489279337      -64.5128509      0.871172211      25.3613873       
221              0.872893041      25.0933893       0.485765345      -64.7819281      0.485765345      -64.7819281      0.873151587      25.0934234       
223              0.874831629      24.8284322       0.482290081      -65.0479773      0.482290081      -65.0479773      0.875090743      24.8284659       
225              0.876730997      24.5664272       0.478853081      -65.3110535      0.478853081      -65.3110535      0.876990668      24.5664605       
227              0.878592104      24.3073209       0.475453881      -65.5712105      0.475453881      -65.5712105      0.87885232       24.3073539       
229              0.880415884      24.0510611       0.47209202       -65.8285012      0.47209202       -65.8285012      0.880676634      24.0510938       
231              0.882203243      23.7975967       0.468767036      -66.082977       0.468767036      -66.082977       0.882464516      23.797629        
233              0.883955065      23.5468774       0.465478474      -66.3346888      0.465478474      -66.3346888      0.884216851      23.5469093       
235              0.885672209      23.2988541       0.462225877      -66.583686       0.462225877      -66.583686       0.885934497      23.2988857       
237              0.88735551       23.0534786       0.459008795      -66.8300172      0.459008795      -66.8300172      0.88761829       23.0535099       
239              0.889005779      22.8107039       0.455826779      -67.0737301      0.455826779      -67.0737301      0.889269041      22.8107349       
241              0.890623807      22.5704836       0.452679384      -67.3148713      0.452679384      -67.3148713      0.890887542      22.5705142       
243              0.892210363      22.3327724       0.449566169      -67.5534865      0.449566169      -67.5534865      0.892474561      22.3328028       
245              0.893766194      22.097526        0.446486695      -67.7896204      0.446486695      -67.7896204      0.894030846      22.097556        
247              0.895292028      21.8647008       0.443440529      -68.023317       0.443440529      -68.023317       0.895557125      21.8647306       
249              0.896788572      21.6342544       0.440427241      -68.2546191      0.440427241      -68.2546191      0.897054105      21.6342838       
251              0.898256515      21.4061448       0.437446405      -68.4835688      0.437446405      -68.4835688      0.898522476      21.406174        
253              0.899696527      21.1803312       0.434497601      -68.7102075      0.434497601      -68.7102075      0.899962907      21.1803601       
255              0.901109259      20.9567736       0.431580412      -68.9345754      0.431580412      -68.9345754      0.90137605       20.9568022       
