! Coilcraft 132-16SM_ Maxi Spring Air Core Inductor				
! 28 May 2003
# MHZ S MA R 50
!Freq             MagS11           AngS11           MagS21           AngS21           MagS12           AngS12           MagS22           AngS22
1                0.0203781274     65.475139        0.991719783      -1.0876563       0.991719783      -1.0876563       0.0203823322     65.480263        
3                0.0565943853     78.5175677       0.990335641      -3.25999501      0.990335641      -3.25999501      0.0566079737     78.519555        
5                0.0934453012     79.6214075       0.987584563      -5.42346146      0.987584563      -5.42346146      0.093468035      79.6226157       
7                0.130046304      78.8840877       0.983500372      -7.57230345      0.983500372      -7.57230345      0.130078059      78.8849538       
9                0.166167958      77.5415644       0.978132363      -9.70100578      0.978132363      -9.70100578      0.166208594      77.5422389       
11               0.201654572      75.9390745       0.971543692      -11.8043716      0.971543692      -11.8043716      0.201703923      75.9396267       
13               0.236377668      74.2128381       0.963809377      -13.8775916      0.963809377      -13.8775916      0.236435543      74.2133056       
15               0.270227722      72.42869         0.955014053      -15.9162991      0.955014053      -15.9162991      0.270293903      72.4290951       
17               0.303112298      70.6230993       0.945249586      -17.9166098      0.945249586      -17.9166098      0.303186546      70.6234567       
19               0.334955471      68.8183238       0.934612683      -19.8751463      0.934612683      -19.8751463      0.33503753       68.8186436       
21               0.365697371      67.0289185       0.923202584      -21.7890482      0.923202584      -21.7890482      0.36578697       67.0292078       
23               0.395293517      65.2648601       0.911118944      -23.6559685      0.911118944      -23.6559685      0.395390373      65.2651242       
25               0.423713895      63.5331869       0.898459952      -25.4740586      0.898459952      -25.4740586      0.423817721      63.5334297       
27               0.450941812      61.838926        0.885320739      -27.2419441      0.885320739      -27.2419441      0.451052314      61.8391508       
29               0.476972572      60.185655        0.871792078      -28.9586928      0.871792078      -28.9586928      0.477089456      60.1858642       
31               0.501812061      58.5758637       0.857959402      -30.6237784      0.857959402      -30.6237784      0.501935036      58.5760593       
33               0.525475287      57.0112005       0.843902091      -32.2370393      0.843902091      -32.2370393      0.525604064      57.0113842       
35               0.547984938      55.4926504       0.829693028      -33.7986383      0.829693028      -33.7986383      0.548119233      55.4928235       
37               0.569370002      54.0206681       0.815398383      -35.3090199      0.815398383      -35.3090199      0.56950954       54.0208318       
39               0.589664481      52.5952822       0.801077582      -36.7688705      0.801077582      -36.7688705      0.589808994      52.5954374       
41               0.608906213      51.2161787       0.786783431      -38.1790795      0.786783431      -38.1790795      0.609055443      51.2163262       
43               0.627135829      49.8827691       0.772562367      -39.5407038      0.772562367      -39.5407038      0.627289528      49.8829097       
45               0.644395831      48.5942473       0.758454786      -40.8549346      0.758454786      -40.8549346      0.644553761      48.5943816       
47               0.660729806      47.3496367       0.744495441      -42.123068       0.744495441      -42.123068       0.660891739      47.3497652       
49               0.676181757      46.1478298       0.730713868      -43.3464791      0.730713868      -43.3464791      0.676347478      46.1479529       
51               0.690795557      44.9876216       0.717134838      -44.5265982      0.717134838      -44.5265982      0.69096486       44.9877398       
53               0.704614497      43.8677375       0.703778805      -45.6648913      0.703778805      -45.6648913      0.704787187      43.8678511       
55               0.717680932      42.7868564       0.690662348      -46.762843       0.690662348      -46.762843       0.717856825      42.7869659       
57               0.730036006      41.7436304       0.677798595      -47.8219419      0.677798595      -47.8219419      0.730214927      41.743736        
59               0.741719447      40.7367002       0.665197621      -48.8436688      0.665197621      -48.8436688      0.741901231      40.7368021       
61               0.75276942       39.7647085       0.652866821      -49.8294866      0.652866821      -49.8294866      0.752953912      39.764807        
63               0.763222429      38.8263103       0.640811255      -50.7808324      0.640811255      -50.7808324      0.763409482      38.8264056       
65               0.773113262      37.9201816       0.629033959      -51.699111       0.629033959      -51.699111       0.77330274       37.9202738       
67               0.782474968      37.0450255       0.617536229      -52.5856906      0.617536229      -52.5856906      0.782666739      37.0451148       
69               0.791338855      36.1995778       0.606317875      -53.441898       0.606317875      -53.441898       0.791532798      36.1996645       
71               0.799734521      35.3826107       0.595377447      -54.2690171      0.595377447      -54.2690171      0.799930521      35.3826949       
73               0.807689888      34.5929354       0.584712438      -55.0682862      0.584712438      -55.0682862      0.807887837      34.5930171       
75               0.815231254      33.8294039       0.574319459      -55.8408977      0.574319459      -55.8408977      0.81543105       33.8294834       
77               0.822383356      33.0909106       0.564194398      -56.5879971      0.564194398      -56.5879971      0.822584905      33.090988        
79               0.829169434      32.3763924       0.554332554      -57.3106831      0.554332554      -57.3106831      0.829372645      32.3764677       
81               0.835611302      31.6848288       0.544728753      -58.0100083      0.544728753      -58.0100083      0.835816091      31.6849022       
83               0.841729418      31.0152418       0.535377458      -58.6869799      0.535377458      -58.6869799      0.841935705      31.0153134       
85               0.847542957      30.3666953       0.526272848      -59.3425603      0.526272848      -59.3425603      0.847750668      30.366765        
87               0.853069885      29.7382938       0.517408902      -59.977669       0.517408902      -59.977669       0.853278949      29.7383618       
89               0.858327024      29.1291817       0.508779458      -60.5931831      0.508779458      -60.5931831      0.858537376      29.1292482       
91               0.863330127      28.5385423       0.500378272      -61.1899394      0.500378272      -61.1899394      0.863541704      28.5386072       
93               0.86809394       27.9655959       0.492199061      -61.7687356      0.492199061      -61.7687356      0.868306683      27.9656593       
95               0.872632264      27.4095989       0.484235548      -62.3303318      0.484235548      -62.3303318      0.872846117      27.4096609       
97               0.876958018      26.8698424       0.476481487      -62.8754523      0.476481487      -62.8754523      0.87717293       26.869903        
99               0.881083296      26.3456506       0.468930696      -63.4047867      0.468930696      -63.4047867      0.881299218      26.3457099       
101              0.885019421      25.8363795       0.461577077      -63.918992       0.461577077      -63.918992       0.885236306      25.8364376       
103              0.888776991      25.3414155       0.454414636      -64.4186937      0.454414636      -64.4186937      0.888994796      25.3414723       
105              0.892365937      24.8601739       0.447437493      -64.9044873      0.447437493      -64.9044873      0.892584619      24.8602295       
107              0.895795557      24.3920976       0.440639899      -65.37694        0.440639899      -65.37694        0.896015079      24.3921521       
109              0.899074568      23.936656        0.434016241      -65.8365919      0.434016241      -65.8365919      0.899294891      23.9367095       
111              0.902211137      23.4933436       0.42756105       -66.2839572      0.42756105       -66.2839572      0.902432227      23.493396        
113              0.905212924      23.0616784       0.421269005      -66.719526       0.421269005      -66.719526       0.905434748      23.0617297       
115              0.908087112      22.6412013       0.415134935      -67.1437646      0.415134935      -67.1437646      0.908309638      22.6412517       
117              0.910840443      22.2314748       0.409153826      -67.5571179      0.409153826      -67.5571179      0.911063642      22.2315243       
119              0.913479244      21.8320817       0.403320812      -67.9600094      0.403320812      -67.9600094      0.913703088      21.8321303       
121              0.916009458      21.4426243       0.397631183      -68.352843       0.397631183      -68.352843       0.91623392       21.4426719       
123              0.918436668      21.0627232       0.39208038       -68.7360036      0.39208038       -68.7360036      0.918661723      21.0627699       
125              0.920766121      20.6920165       0.386663994      -69.1098585      0.386663994      -69.1098585      0.920991745      20.6920625       
127              0.923002752      20.3301592       0.381377762      -69.4747578      0.381377762      -69.4747578      0.923228921      20.3302043       
129              0.925151201      19.9768217       0.376217567      -69.8310356      0.376217567      -69.8310356      0.925377895      19.976866        
131              0.927215839      19.6316894       0.371179431      -70.1790108      0.371179431      -70.1790108      0.927443036      19.631733        
133              0.929200777      19.2944621       0.366259517      -70.5189879      0.366259517      -70.5189879      0.929428459      19.2945049       
135              0.931109893      18.9648528       0.36145412       -70.8512576      0.36145412       -70.8512576      0.93133804       18.9648949       
137              0.932946838      18.6425875       0.356759664      -71.1760977      0.356759664      -71.1760977      0.933175433      18.6426289       
139              0.934715057      18.3274042       0.352172703      -71.4937734      0.352172703      -71.4937734      0.934944082      18.3274449       
141              0.936417797      18.0190523       0.347689911      -71.8045385      0.347689911      -71.8045385      0.936647238      18.0190924       
143              0.938058127      17.7172925       0.343308081      -72.1086356      0.343308081      -72.1086356      0.938287967      17.7173319       
145              0.939638941      17.4218956       0.339024122      -72.4062967      0.339024122      -72.4062967      0.939869166      17.4219344       
147              0.941162975      17.1326422       0.334835053      -72.6977436      0.334835053      -72.6977436      0.94139357       17.1326804       
149              0.942632814      16.8493225       0.330737999      -72.9831889      0.330737999      -72.9831889      0.942863767      16.8493601       
151              0.944050904      16.5717354       0.32673019       -73.262836       0.32673019       -73.262836       0.944282202      16.5717724       
153              0.945419557      16.2996885       0.322808955      -73.5368797      0.322808955      -73.5368797      0.945651188      16.2997249       
155              0.946740962      16.0329972       0.318971718      -73.8055067      0.318971718      -73.8055067      0.946972914      16.0330331       
157              0.948017193      15.7714847       0.315215997      -74.0688958      0.315215997      -74.0688958      0.948249455      15.77152         
159              0.949250213      15.5149815       0.311539396      -74.3272186      0.311539396      -74.3272186      0.949482774      15.5150163       
161              0.950441884      15.2633248       0.307939608      -74.5806395      0.307939608      -74.5806395      0.950674734      15.2633591       
163              0.95159397       15.0163588       0.304414405      -74.8293162      0.304414405      -74.8293162      0.951827099      15.0163925       
165              0.952708145      14.7739335       0.300961641      -75.0734003      0.300961641      -75.0734003      0.952941544      14.7739667       
167              0.953785998      14.5359053       0.297579245      -75.313037       0.297579245      -75.313037       0.954019658      14.535938        
169              0.954829038      14.302136        0.294265219      -75.5483659      0.294265219      -75.5483659      0.955062951      14.3021683       
171              0.955838697      14.072493        0.291017636      -75.7795212      0.291017636      -75.7795212      0.956072855      14.0725248       
173              0.956816338      13.8468488       0.287834635      -76.0066316      0.287834635      -76.0066316      0.957050732      13.8468802       
175              0.957763254      13.6250809       0.284714422      -76.2298209      0.284714422      -76.2298209      0.957997877      13.6251118       
177              0.958680677      13.4070714       0.281655264      -76.4492084      0.281655264      -76.4492084      0.958915521      13.4071019       
179              0.959569779      13.192707        0.27865549       -76.6649084      0.27865549       -76.6649084      0.959804837      13.1927371       
181              0.960431673      12.9818786       0.275713485      -76.8770311      0.275713485      -76.8770311      0.960666939      12.9819082       
183              0.961267422      12.7744812       0.27282769       -77.0856827      0.27282769       -77.0856827      0.96150289       12.7745103       
185              0.962078037      12.5704137       0.2699966        -77.2909651      0.2699966        -77.2909651      0.9623137        12.5704424       
187              0.962864483      12.3695787       0.267218761      -77.4929767      0.267218761      -77.4929767      0.963100335      12.3696071       
189              0.963627677      12.1718826       0.264492767      -77.6918123      0.264492767      -77.6918123      0.963863713      12.1719106       
191              0.964368497      11.977235        0.261817262      -77.887563       0.261817262      -77.887563       0.96460471       11.9772626       
193              0.965087778      11.7855486       0.259190933      -78.0803168      0.259190933      -78.0803168      0.965324164      11.7855759       
195              0.965786319      11.5967396       0.256612513      -78.2701585      0.256612513      -78.2701585      0.966022873      11.5967664       
197              0.966464882      11.4107268       0.254080775      -78.4571699      0.254080775      -78.4571699      0.966701598      11.4107533       
199              0.967124195      11.2274322       0.251594535      -78.64143        0.251594535      -78.64143        0.967361069      11.2274584       
201              0.967764952      11.0467803       0.249152646      -78.8230147      0.249152646      -78.8230147      0.968001979      11.0468061       
203              0.96838782       10.8686982       0.246753999      -79.0019977      0.246753999      -79.0019977      0.968624996      10.8687237       
205              0.968993433      10.6931157       0.244397523      -79.1784499      0.244397523      -79.1784499      0.969230753      10.6931408       
207              0.9695824        10.5199648       0.242082178      -79.3524399      0.242082178      -79.3524399      0.969819861      10.5199896       
209              0.970155302      10.34918         0.239806962      -79.5240337      0.239806962      -79.5240337      0.970392899      10.3492044       
211              0.970712697      10.1806977       0.237570901      -79.6932955      0.237570901      -79.6932955      0.970950427      10.1807218       
213              0.971255117      10.0144567       0.235373056      -79.8602871      0.235373056      -79.8602871      0.971492976      10.0144806       
215              0.971783074      9.85039778       0.233212513      -80.0250682      0.233212513      -80.0250682      0.972021057      9.85042128       
217              0.972297056      9.68846351       0.231088392      -80.1876967      0.231088392      -80.1876967      0.972535161      9.6884867        
219              0.972797533      9.52859846       0.228999837      -80.3482285      0.228999837      -80.3482285      0.973035757      9.52862135       
221              0.973284954      9.37074896       0.226946021      -80.5067178      0.226946021      -80.5067178      0.973523293      9.37077156       
223              0.973759751      9.21486307       0.224926141      -80.6632169      0.224926141      -80.6632169      0.973998202      9.21488537       
225              0.974222337      9.06089047       0.222939419      -80.8177766      0.222939419      -80.8177766      0.974460897      9.06091248       
227              0.974673109      8.90878246       0.220985102      -80.970446       0.220985102      -80.970446       0.974911775      8.90880418       
229              0.975112449      8.75849185       0.21906246       -81.1212726      0.21906246       -81.1212726      0.975351218      8.75851329       
231              0.975540723      8.60997293       0.217170784      -81.2703025      0.217170784      -81.2703025      0.975779592      8.60999409       
233              0.975958281      8.46318138       0.215309387      -81.4175805      0.215309387      -81.4175805      0.976197248      8.46320227       
235              0.976365461      8.31807425       0.213477604      -81.5631498      0.213477604      -81.5631498      0.976604523      8.31809486       
237              0.976762589      8.17460988       0.211674787      -81.7070523      0.211674787      -81.7070523      0.977001744      8.17463023       
239              0.977149976      8.03274789       0.209900311      -81.8493289      0.209900311      -81.8493289      0.977389221      8.03276798       
241              0.977527922      7.89244909       0.208153566      -81.990019       0.208153566      -81.990019       0.977767255      7.89246892       
243              0.977896716      7.75367545       0.206433963      -82.1291608      0.206433963      -82.1291608      0.978136134      7.75369503       
245              0.978256635      7.61639007       0.204740928      -82.2667917      0.204740928      -82.2667917      0.978496137      7.61640939       
247              0.978607947      7.48055712       0.203073906      -82.4029477      0.203073906      -82.4029477      0.978847529      7.48057619       
249              0.978950908      7.34614182       0.201432355      -82.5376638      0.201432355      -82.5376638      0.97919057       7.34616064       
251              0.979285767      7.21311036       0.199815752      -82.6709741      0.199815752      -82.6709741      0.979525506      7.21312895       
253              0.979612762      7.08142994       0.198223587      -82.8029116      0.198223587      -82.8029116      0.979852576      7.08144828       
255              0.979932123      6.95106866       0.196655365      -82.9335086      0.196655365      -82.9335086      0.980172009      6.95108677       
