! Coilcraft 132-13SM_ Maxi Spring Air Core Inductor				
! 28 May 2003
# MHZ S MA R 50
!Freq             MagS11           AngS11           MagS21           AngS21           MagS12           AngS12           MagS22           AngS22
1                0.0137930081     65.6448553       0.994394226      -0.738006745     0.994394226      -0.738006745     0.0137954485     65.649287        
3                0.0382894786     79.4945528       0.993759434      -2.21310299      0.993759434      -2.21310299      0.0382973804     79.4962758       
5                0.0633092765     81.3168707       0.992493463      -3.68545446      0.992493463      -3.68545446      0.063322518      81.3179184       
7                0.0883005306     81.2725945       0.990603482      -5.15325445      0.990603482      -5.15325445      0.0883190681     81.2733457       
9                0.113156915      80.6040057       0.988100102      -6.61473044      0.988100102      -6.61473044      0.113180708      80.6045908       
11               0.137817257      79.6557299       0.984997216      -8.06815695      0.984997216      -8.06815695      0.137846256      79.656209        
13               0.162232477      78.5619609       0.981311784      -9.51186744      0.981311784      -9.51186744      0.16226663       78.5623664       
15               0.186359161      77.3862879       0.977063583      -10.9442652      0.977063583      -10.9442652      0.186398404      77.3866393       
17               0.210157849      76.1630919       0.972274922      -12.3638329      0.972274922      -12.3638329      0.210202112      76.163402        
19               0.233592543      74.9128449       0.96697033       -13.7691411      0.96697033       -13.7691411      0.233641747      74.9131224       
21               0.25663058       73.6486765       0.96117623       -15.1588549      0.96117623       -15.1588549      0.256684643      73.6489275       
23               0.279242627      72.3795167       0.954920594      -16.5317398      0.954920594      -16.5317398      0.279301457      72.3797459       
25               0.301402684      71.1117305       0.94823261       -17.8866649      0.94823261       -17.8866649      0.301466186      71.1119413       
27               0.323088082      69.8500261       0.941142343      -19.2226064      0.941142343      -19.2226064      0.323156156      69.8502213       
29               0.34427945       68.5979882       0.933680408      -20.5386479      0.933680408      -20.5386479      0.344351991      68.5981699       
31               0.364960647      67.3584053       0.925877669      -21.8339808      0.925877669      -21.8339808      0.365037548      67.3585752       
33               0.385118664      66.1334798       0.917764951      -23.1079028      0.917764951      -23.1079028      0.385199815      66.1336394       
35               0.404743498      64.9249673       0.909372778      -24.3598158      0.909372778      -24.3598158      0.404828785      64.9251177       
37               0.423827996      63.7342723       0.900731142      -25.5892224      0.900731142      -25.5892224      0.423917306      63.7344145       
39               0.44236769       62.5625165       0.891869296      -26.7957219      0.891869296      -26.7957219      0.442460908      62.5626514       
41               0.460360605      61.4105888       0.882815582      -27.9790059      0.882815582      -27.9790059      0.460457615      61.4107171       
43               0.477807062      60.2791831       0.87359728       -29.1388532      0.87359728       -29.1388532      0.477907749      60.2793053       
45               0.494709477      59.1688274       0.864240492      -30.2751239      0.864240492      -30.2751239      0.494813727      59.1689442       
47               0.511072156      58.079908        0.854770049      -31.3877543      0.854770049      -31.3877543      0.511179854      58.0800198       
49               0.526901089      57.0126886       0.845209445      -32.4767504      0.845209445      -32.4767504      0.527012123      57.0127958       
51               0.542203754      55.9673262       0.835580791      -33.5421824      0.835580791      -33.5421824      0.542318013      55.9674292       
53               0.556988924      54.9438854       0.825904792      -34.5841791      0.825904792      -34.5841791      0.557106299      54.9439845       
55               0.571266483      53.9423502       0.816200738      -35.6029214      0.816200738      -35.6029214      0.571386868      53.9424456       
57               0.585047258      52.9626342       0.806486517      -36.5986375      0.806486517      -36.5986375      0.585170547      52.9627262       
59               0.598342852      52.0045903       0.796778636      -37.5715971      0.796778636      -37.5715971      0.598468943      52.0046791       
61               0.611165498      51.0680187       0.787092255      -38.5221065      0.787092255      -38.5221065      0.611294291      51.0681045       
63               0.623527923      50.1526742       0.777441228      -39.4505039      0.777441228      -39.4505039      0.623659321      50.1527573       
65               0.635443225      49.2582731       0.767838156      -40.3571547      0.767838156      -40.3571547      0.635577134      49.2583536       
67               0.646924757      48.3844987       0.758294442      -41.2424473      0.758294442      -41.2424473      0.647061085      48.3845767       
69               0.65798603       47.5310067       0.748820349      -42.1067894      0.748820349      -42.1067894      0.658124689      47.5310824       
71               0.668640625      46.69743         0.739425061      -42.9506045      0.739425061      -42.9506045      0.668781529      46.6975036       
73               0.678902114      45.8833831       0.73011675       -43.7743283      0.73011675       -43.7743283      0.67904518       45.8834546       
75               0.68878399       45.0884655       0.720902635      -44.578406       0.720902635      -44.578406       0.688929138      45.0885351       
77               0.698299613      44.3122653       0.711789051      -45.3632896      0.711789051      -45.3632896      0.698446767      44.312333        
79               0.707462158      43.5543623       0.702781507      -46.1294355      0.702781507      -46.1294355      0.707611242      43.5544282       
81               0.71628457       42.8143303       0.693884748      -46.8773023      0.693884748      -46.8773023      0.716435513      42.8143945       
83               0.724779535      42.0917397       0.685102813      -47.6073491      0.685102813      -47.6073491      0.724932267      42.0918024       
85               0.732959445      41.3861595       0.676439095      -48.3200332      0.676439095      -48.3200332      0.733113901      41.3862207       
87               0.740836383      40.6971593       0.66789639       -49.0158096      0.66789639       -49.0158096      0.740992498      40.697219        
89               0.748422095      40.0243102       0.659476951      -49.6951288      0.659476951      -49.6951288      0.748579808      40.0243685       
91               0.755727987      39.3671869       0.651182533      -50.3584363      0.651182533      -50.3584363      0.755887238      39.3672439       
93               0.762765108      38.7253684       0.643014445      -51.0061713      0.643014445      -51.0061713      0.762925842      38.7254242       
95               0.769544148      38.0984393       0.634973584      -51.6387662      0.634973584      -51.6387662      0.76970631       38.0984938       
97               0.776075436      37.4859903       0.627060482      -52.2566455      0.627060482      -52.2566455      0.776238974      37.4860437       
99               0.782368936      36.8876191       0.619275337      -52.8602256      0.619275337      -52.8602256      0.782533799      36.8876714       
101              0.788434251      36.3029311       0.611618051      -53.4499143      0.611618051      -53.4499143      0.788600391      36.3029822       
103              0.794280626      35.7315394       0.604088261      -54.0261104      0.604088261      -54.0261104      0.794447997      35.7315895       
105              0.799916954      35.1730657       0.596685366      -54.5892033      0.596685366      -54.5892033      0.800085512      35.1731148       
107              0.805351782      34.6271403       0.589408557      -55.1395728      0.589408557      -55.1395728      0.805521484      34.6271884       
109              0.810593318      34.0934024       0.582256839      -55.6775894      0.582256839      -55.6775894      0.810764124      34.0934497       
111              0.81564944       33.5715003       0.575229054      -56.2036136      0.575229054      -56.2036136      0.81582131       33.5715466       
113              0.820527704      33.0610912       0.568323905      -56.7179963      0.568323905      -56.7179963      0.820700602      33.0611367       
115              0.825235355      32.5618416       0.561539968      -57.2210787      0.561539968      -57.2210787      0.825409244      32.5618863       
117              0.829779336      32.0734272       0.554875715      -57.7131921      0.554875715      -57.7131921      0.829954181      32.073471        
119              0.834166296      31.5955326       0.548329528      -58.1946585      0.548329528      -58.1946585      0.834342065      31.5955757       
121              0.838402604      31.1278517       0.541899712      -58.6657903      0.541899712      -58.6657903      0.838579264      31.127894        
123              0.842494356      30.670087        0.535584508      -59.1268906      0.535584508      -59.1268906      0.842671877      30.6701286       
125              0.846447387      30.2219502       0.529382104      -59.5782533      0.529382104      -59.5782533      0.84662574       30.221991        
127              0.85026728       29.7831612       0.52329065       -60.0201633      0.52329065       -60.0201633      0.850446436      29.7832014       
129              0.853959376      29.3534488       0.517308258      -60.4528967      0.517308258      -60.4528967      0.854139309      29.3534883       
131              0.857528784      28.93255         0.51143302       -60.876721       0.51143302       -60.876721       0.857709468      28.9325889       
133              0.860980393      28.5202099       0.505663009      -61.2918952      0.505663009      -61.2918952      0.861161802      28.5202482       
135              0.864318875      28.1161816       0.49999629       -61.6986701      0.49999629       -61.6986701      0.864500986      28.1162192       
137              0.8675487        27.720226        0.494430923      -62.0972886      0.494430923      -62.0972886      0.867731491      27.720263        
139              0.870674145      27.3321114       0.488964967      -62.4879857      0.488964967      -62.4879857      0.870857593      27.3321479       
141              0.873699296      26.9516137       0.48359649       -62.8709889      0.48359649       -62.8709889      0.87388338       26.9516496       
143              0.876628063      26.5785159       0.478323569      -63.2465183      0.478323569      -63.2465183      0.876812763      26.5785512       
145              0.879464186      26.2126078       0.473144294      -63.6147871      0.473144294      -63.6147871      0.879649482      26.2126426       
147              0.88221124       25.853686        0.468056773      -63.9760013      0.468056773      -63.9760013      0.882397114      25.8537203       
149              0.884872647      25.5015538       0.463059131      -64.3303603      0.463059131      -64.3303603      0.885059079      25.5015876       
151              0.887451677      25.1560207       0.458149517      -64.678057       0.458149517      -64.678057       0.887638651      25.156054        
153              0.889951461      24.8169023       0.453326104      -65.0192782      0.453326104      -65.0192782      0.89013896       24.8169351       
155              0.892374994      24.4840203       0.448587091      -65.3542045      0.448587091      -65.3542045      0.892563002      24.4840527       
157              0.894725141      24.1572021       0.443930701      -65.6830105      0.443930701      -65.6830105      0.894913643      24.157234        
159              0.897004644      23.8362806       0.439355189      -66.0058653      0.439355189      -66.0058653      0.897193625      23.8363121       
161              0.899216129      23.5210942       0.434858838      -66.3229324      0.434858838      -66.3229324      0.899405574      23.5211252       
163              0.901362108      23.2114864       0.430439961      -66.6343701      0.430439961      -66.6343701      0.901552003      23.211517        
165              0.903444986      22.9073058       0.426096902      -66.9403315      0.426096902      -66.9403315      0.903635319      22.907336        
167              0.905467067      22.6084058       0.421828036      -67.2409649      0.421828036      -67.2409649      0.905657824      22.6084356       
169              0.907430557      22.3146446       0.417631772      -67.5364136      0.417631772      -67.5364136      0.907621726      22.314674        
171              0.909337569      22.0258849       0.413506546      -67.8268164      0.413506546      -67.8268164      0.909529138      22.0259139       
173              0.911190128      21.7419937       0.409450831      -68.1123076      0.409450831      -68.1123076      0.911382085      21.7420223       
175              0.912990174      21.4628423       0.40546313       -68.3930174      0.40546313       -68.3930174      0.913182509      21.4628705       
177              0.914739567      21.188306        0.401541977      -68.6690715      0.401541977      -68.6690715      0.914932268      21.1883339       
179              0.916440088      20.9182643       0.397685938      -68.940592       0.397685938      -68.940592       0.916633145      20.9182918       
181              0.918093446      20.6526002       0.393893612      -69.2076968      0.393893612      -69.2076968      0.91828685       20.6526274       
183              0.919701282      20.3912005       0.390163629      -69.4705003      0.390163629      -69.4705003      0.919895022      20.3912273       
185              0.921265166      20.1339555       0.386494647      -69.7291133      0.386494647      -69.7291133      0.921459234      20.133982        
187              0.922786607      19.880759        0.38288536       -69.9836428      0.38288536       -69.9836428      0.922980994      19.8807852       
189              0.924267053      19.6315081       0.379334487      -70.2341929      0.379334487      -70.2341929      0.924461749      19.631534        
191              0.925707891      19.386103        0.375840779      -70.4808643      0.375840779      -70.4808643      0.925902889      19.3861285       
193              0.927110456      19.144447        0.372403016      -70.7237545      0.372403016      -70.7237545      0.927305747      19.1444723       
195              0.928476028      18.9064465       0.369020006      -70.962958       0.369020006      -70.962958       0.928671604      18.9064714       
197              0.929805836      18.6720105       0.365690588      -71.1985666      0.365690588      -71.1985666      0.93000169       18.6720351       
199              0.931101062      18.441051        0.362413625      -71.430669       0.362413625      -71.430669       0.931297187      18.4410753       
201              0.93236284       18.2134826       0.359188009      -71.6593515      0.359188009      -71.6593515      0.932559228      18.2135067       
203              0.933592261      17.9892224       0.356012659      -71.8846976      0.356012659      -71.8846976      0.933788906      17.9892462       
205              0.934790373      17.7681902       0.352886519      -72.1067882      0.352886519      -72.1067882      0.934987269      17.7682137       
207              0.935958185      17.5503079       0.34980856       -72.3257022      0.34980856       -72.3257022      0.936155324      17.5503311       
209              0.937096664      17.3354999       0.346777777      -72.5415156      0.346777777      -72.5415156      0.937294041      17.3355229       
211              0.938206744      17.1236929       0.343793189      -72.7543024      0.343793189      -72.7543024      0.938404352      17.1237156       
213              0.939289321      16.9148156       0.340853839      -72.9641346      0.340853839      -72.9641346      0.939487155      16.9148381       
215              0.940345259      16.7087989       0.337958795      -73.1710818      0.337958795      -73.1710818      0.940543312      16.7088211       
217              0.941375386      16.5055756       0.335107146      -73.3752115      0.335107146      -73.3752115      0.941573654      16.5055976       
219              0.942380504      16.3050806       0.332298003      -73.5765897      0.332298003      -73.5765897      0.942578981      16.3051023       
221              0.943361382      16.1072506       0.329530501      -73.7752799      0.329530501      -73.7752799      0.943560063      16.1072721       
223              0.944318761      15.9120241       0.326803794      -73.9713443      0.326803794      -73.9713443      0.944517641      15.9120453       
225              0.945253355      15.7193414       0.324117058      -74.1648428      0.324117058      -74.1648428      0.945452429      15.7193624       
227              0.946165852      15.5291445       0.321469487      -74.3558341      0.321469487      -74.3558341      0.946365117      15.5291653       
229              0.947056916      15.341377        0.318860298      -74.5443749      0.318860298      -74.5443749      0.947256366      15.3413975       
231              0.947927186      15.1559841       0.316288724      -74.7305204      0.316288724      -74.7305204      0.948126816      15.1560044       
233              0.948777277      14.9729126       0.313754018      -74.9143242      0.313754018      -74.9143242      0.948977084      14.9729327       
235              0.949607784      14.7921106       0.311255452      -75.0958386      0.311255452      -75.0958386      0.949807763      14.7921305       
237              0.95041928       14.6135279       0.308792315      -75.2751141      0.308792315      -75.2751141      0.950619427      14.6135476       
239              0.951212318      14.4371155       0.306363913      -75.4522002      0.306363913      -75.4522002      0.951412629      14.437135        
241              0.951987431      14.2628258       0.303969569      -75.6271447      0.303969569      -75.6271447      0.952187902      14.2628451       
243              0.952745133      14.0906125       0.301608623      -75.7999944      0.301608623      -75.7999944      0.952945761      14.0906315       
245              0.953485921      13.9204304       0.299280429      -75.9707945      0.299280429      -75.9707945      0.953686703      13.9204492       
247              0.954210276      13.7522358       0.296984359      -76.1395893      0.296984359      -76.1395893      0.954411207      13.7522545       
249              0.954918661      13.585986        0.294719799      -76.3064216      0.294719799      -76.3064216      0.955119738      13.5860045       
251              0.955611522      13.4216395       0.29248615       -76.4713333      0.29248615       -76.4713333      0.955812742      13.4216578       
253              0.956289292      13.2591559       0.290282826      -76.6343651      0.290282826      -76.6343651      0.956490652      13.259174        
255              0.956952388      13.0984957       0.288109258      -76.7955566      0.288109258      -76.7955566      0.957153885      13.0985136       
