! Coilcraft 132-12SM_ Maxi Spring Air Core Inductor				
! 28 May 2003
# MHZ S MA R 50
!Freq             MagS11           AngS11           MagS21           AngS21           MagS12           AngS12           MagS22           AngS22
1                0.0112855687     65.8574064       0.99544005       -0.608281367     0.99544005       -0.608281367     0.0112877836     65.8623027       
3                0.031352627      79.9154894       0.995013945      -1.82434326      0.995013945      -1.82434326      0.0313597961     79.9173909       
5                0.0518641029     81.9829756       0.994163353      -3.03890516      0.994163353      -3.03890516      0.0518761209     81.9841317       
7                0.0723838122     82.1888828       0.992891499      -4.25097553      0.992891499      -4.25097553      0.072400647      82.1897117       
9                0.0928372473     81.7700625       0.991203174      -5.45957542      0.991203174      -5.45957542      0.0928588721     81.7707081       
11               0.113185907      81.069059        0.989104688      -6.66374325      0.989104688      -6.66374325      0.113212292      81.0695876       
13               0.13340028       80.2188249       0.986603807      -7.86253942      0.986603807      -7.86253942      0.133431391      80.2192723       
15               0.15345448       79.2820243       0.98370967       -9.05505061      0.98370967       -9.05505061      0.153490278      79.2824121       
17               0.173324743      78.2922756       0.980432703      -10.2403938      0.980432703      -10.2403938      0.173365184      78.2926178       
19               0.192988942      77.2693958       0.976784513      -11.41772        0.976784513      -11.41772        0.193033976      77.269702        
21               0.212426426      76.2259451       0.972777781      -12.5862174      0.972777781      -12.5862174      0.212476001      76.2262222       
23               0.23161798       75.1703607       0.968426145      -13.7451143      0.968426145      -13.7451143      0.231672037      75.1706136       
25               0.250545828      74.1085854       0.963744077      -14.8936813      0.963744077      -14.8936813      0.250604306      74.1088181       
27               0.26919365       73.0449739       0.95874676       -16.0312337      0.95874676       -16.0312337      0.269256483      73.0451892       
29               0.287546594      71.9828226       0.953449964      -17.1571329      0.953449964      -17.1571329      0.287613713      71.9830231       
31               0.305591288      70.9246955       0.947869922      -18.2707871      0.947869922      -18.2707871      0.305662621      70.9248831       
33               0.323315835      69.8726306       0.942023205      -19.3716528      0.942023205      -19.3716528      0.323391307      69.8728067       
35               0.340709801      68.8282761       0.935926611      -20.4592342      0.935926611      -20.4592342      0.340789336      68.8284421       
37               0.357764196      67.7929833       0.929597049      -21.533084       0.929597049      -21.533084       0.357847712      67.7931403       
39               0.374471431      66.7678705       0.923051434      -22.5928021      0.923051434      -22.5928021      0.374558849      66.7680194       
41               0.390825286      65.7538687       0.916306591      -23.6380356      0.916306591      -23.6380356      0.390916522      65.7540103       
43               0.406820851      64.7517557       0.909379162      -24.6684773      0.909379162      -24.6684773      0.406915821      64.7518907       
45               0.422454472      63.7621811       0.902285525      -25.6838646      0.902285525      -25.6838646      0.422553093      63.7623101       
47               0.437723687      62.7856856       0.895041722      -26.683978       0.895041722      -26.683978       0.437825873      62.785809        
49               0.452627159      61.8227159       0.887663395      -27.6686395      0.887663395      -27.6686395      0.452732824      61.8228342       
51               0.4671646        60.8736371       0.880165727      -28.6377104      0.880165727      -28.6377104      0.467273659      60.8737508       
53               0.481336703      59.9387427       0.872563399      -29.5910897      0.872563399      -29.5910897      0.481449071      59.938852        
55               0.495145066      59.0182624       0.864870546      -30.5287121      0.864870546      -30.5287121      0.495260658      59.0183677       
57               0.508592114      58.1123696       0.85710073       -31.4505454      0.85710073       -31.4505454      0.508710845      58.1124712       
59               0.52168103       57.221187        0.849266915      -32.356589       0.849266915      -32.356589       0.521802816      57.2212851       
61               0.534415676      56.3447924       0.841381448      -33.2468714      0.841381448      -33.2468714      0.534540436      56.3448872       
63               0.546800529      55.4832229       0.83345605       -34.1214481      0.83345605       -34.1214481      0.54692818       55.4833147       
65               0.558840606      54.6364794       0.825501809      -34.9803994      0.825501809      -34.9803994      0.558971067      54.6365683       
67               0.570541403      53.8045302       0.817529181      -35.8238285      0.817529181      -35.8238285      0.570674595      53.8046164       
69               0.581908831      52.9873146       0.809547994      -36.6518595      0.809547994      -36.6518595      0.582044676      52.9873983       
71               0.592949155      52.1847458       0.801567457      -37.4646352      0.801567457      -37.4646352      0.593087578      52.1848271       
73               0.603668944      51.396714        0.793596169      -38.2623155      0.793596169      -38.2623155      0.603809869      51.396793        
75               0.614075015      50.6230886       0.785642137      -39.0450755      0.785642137      -39.0450755      0.614218368      50.6231655       
77               0.624174384      49.8637212       0.77771279       -39.8131037      0.77771279       -39.8131037      0.624320095      49.863796        
79               0.633974227      49.1184473       0.769814999      -40.5666006      0.769814999      -40.5666006      0.634122225      49.1185201       
81               0.643481835      48.3870884       0.761955098      -41.3057768      0.761955098      -41.3057768      0.643632051      48.3871594       
83               0.652704578      47.6694542       0.754138904      -42.0308523      0.754138904      -42.0308523      0.652856947      47.6695234       
85               0.661649872      46.9653437       0.746371743      -42.7420543      0.746371743      -42.7420543      0.661804328      46.9654113       
87               0.670325149      46.2745475       0.738658466      -43.4396164      0.738658466      -43.4396164      0.67048163       46.2746135       
89               0.678737829      45.5968486       0.73100348       -44.1237776      0.73100348       -44.1237776      0.678896272      45.596913        
91               0.686895294      44.9320238       0.723410768      -44.7947809      0.723410768      -44.7947809      0.687055641      44.9320868       
93               0.694804872      44.2798453       0.715883911      -45.4528725      0.715883911      -45.4528725      0.694967065      44.2799069       
95               0.702473813      43.6400814       0.708426111      -46.0983008      0.708426111      -46.0983008      0.702637795      43.6401416       
97               0.709909272      43.0124974       0.701040218      -46.7313159      0.701040218      -46.7313159      0.710074989      43.0125564       
99               0.7171183        42.3968568       0.693728746      -47.3521683      0.693728746      -47.3521683      0.717285698      42.3969146       
101              0.724107827      41.792922        0.686493898      -47.9611086      0.686493898      -47.9611086      0.724276856      41.7929786       
103              0.730884655      41.2004549       0.679337584      -48.558387       0.679337584      -48.558387       0.731055265      41.2005103       
105              0.737455445      40.6192176       0.672261445      -49.1442524      0.672261445      -49.1442524      0.737627587      40.6192719       
107              0.743826716      40.048973        0.665266867      -49.7189521      0.665266867      -49.7189521      0.744000344      40.0490262       
109              0.750004833      39.4894852       0.658355002      -50.2827315      0.658355002      -50.2827315      0.750179902      39.4895374       
111              0.755996008      38.9405202       0.651526785      -50.8358334      0.651526785      -50.8358334      0.756172475      38.9405715       
113              0.761806295      38.4018462       0.64478295       -51.3784979      0.64478295       -51.3784979      0.761984116      38.4018965       
115              0.767441585      37.8732336       0.638124045      -51.910962       0.638124045      -51.910962       0.76762072       37.873283        
117              0.772907608      37.3544559       0.631550451      -52.4334594      0.631550451      -52.4334594      0.773088017      37.3545044       
119              0.778209933      36.8452896       0.625062387      -52.9462203      0.625062387      -52.9462203      0.778391579      36.8453373       
121              0.783353965      36.3455145       0.618659933      -53.449471       0.618659933      -53.449471       0.78353681       36.3455613       
123              0.788344949      35.8549136       0.612343035      -53.9434341      0.612343035      -53.9434341      0.788528957      35.8549596       
125              0.793187969      35.3732741       0.606111521      -54.428328       0.606111521      -54.428328       0.793373106      35.3733193       
127              0.797887951      34.9003865       0.599965109      -54.9043673      0.599965109      -54.9043673      0.798074183      34.9004309       
129              0.802449665      34.4360454       0.59390342       -55.3717619      0.59390342       -55.3717619      0.80263696       34.4360891       
131              0.806877728      33.9800493       0.587925982      -55.830718       0.587925982      -55.830718       0.807066055      33.9800924       
133              0.811176606      33.5322009       0.582032246      -56.281437       0.582032246      -56.281437       0.811365935      33.5322433       
135              0.815350617      33.0923068       0.57622159       -56.7241162      0.57622159       -56.7241162      0.815540919      33.0923485       
137              0.819403937      32.6601778       0.570493324      -57.1589486      0.570493324      -57.1589486      0.819595182      32.6602188       
139              0.823340598      32.2356288       0.564846704      -57.5861227      0.564846704      -57.5861227      0.82353276       32.2356692       
141              0.827164496      31.8184789       0.559280932      -58.0058228      0.559280932      -58.0058228      0.827357549      31.8185186       
143              0.830879394      31.4085511       0.553795166      -58.4182289      0.553795166      -58.4182289      0.831073313      31.4085902       
145              0.834488925      31.0056728       0.548388524      -58.8235166      0.548388524      -58.8235166      0.834683683      31.0057113       
147              0.837996594      30.6096752       0.543060089      -59.2218574      0.543060089      -59.2218574      0.838192169      30.6097132       
149              0.841405784      30.2203938       0.537808914      -59.6134185      0.537808914      -59.6134185      0.841602153      30.2204312       
151              0.84471976       29.8376679       0.532634026      -59.9983632      0.532634026      -59.9983632      0.8449169        29.8377048       
153              0.847941672      29.4613407       0.527534432      -60.3768504      0.527534432      -60.3768504      0.848139562      29.4613771       
155              0.851074556      29.0912594       0.522509121      -60.7490353      0.522509121      -60.7490353      0.851273175      29.0912953       
157              0.854121344      28.727275        0.517557064      -61.115069       0.517557064      -61.115069       0.854320671      28.7273104       
159              0.85708486       28.3692422       0.512677226      -61.4750988      0.512677226      -61.4750988      0.857284876      28.3692771       
161              0.859967828      28.0170194       0.507868558      -61.8292682      0.507868558      -61.8292682      0.860168515      28.0170538       
163              0.862772877      27.6704687       0.503130009      -62.177717       0.503130009      -62.177717       0.862974216      27.6705027       
165              0.865502539      27.3294557       0.498460522      -62.5205813      0.498460522      -62.5205813      0.865704513      27.3294891       
167              0.868159256      26.9938493       0.49385904       -62.8579937      0.49385904       -62.8579937      0.868361848      26.9938823       
169              0.870745385      26.663522        0.489324504      -63.1900834      0.489324504      -63.1900834      0.870948577      26.6635546       
171              0.873263194      26.3383497       0.484855858      -63.5169761      0.484855858      -63.5169761      0.873466972      26.3383819       
173              0.875714874      26.0182113       0.480452052      -63.8387941      0.480452052      -63.8387941      0.875919221      26.0182431       
175              0.878102535      25.7029891       0.476112038      -64.1556566      0.476112038      -64.1556566      0.878307436      25.7030204       
177              0.880428212      25.3925683       0.471834774      -64.4676796      0.471834774      -64.4676796      0.880633653      25.3925993       
179              0.882693867      25.0868373       0.467619229      -64.7749761      0.467619229      -64.7749761      0.882899835      25.0868678       
181              0.884901394      24.7856873       0.463464378      -65.077656       0.463464378      -65.077656       0.885107874      24.7857175       
183              0.887052616      24.4890125       0.459369204      -65.3758262      0.459369204      -65.3758262      0.887259596      24.4890423       
185              0.889149294      24.1967098       0.455332703      -65.6695909      0.455332703      -65.6695909      0.88935676       24.1967392       
187              0.891193125      23.9086788       0.451353881      -65.9590514      0.451353881      -65.9590514      0.891401064      23.9087079       
189              0.893185745      23.624822        0.447431754      -66.2443065      0.447431754      -66.2443065      0.893394147      23.6248507       
191              0.895128734      23.3450441       0.443565353      -66.5254522      0.443565353      -66.5254522      0.895337587      23.3450725       
193              0.897023616      23.0692527       0.439753718      -66.802582       0.439753718      -66.802582       0.897232907      23.0692807       
195              0.898871859      22.7973575       0.435995906      -67.0757868      0.435995906      -67.0757868      0.899081579      22.7973852       
197              0.900674883      22.5292709       0.432290983      -67.3451553      0.432290983      -67.3451553      0.90088502       22.5292983       
199              0.902434054      22.2649074       0.428638031      -67.6107737      0.428638031      -67.6107737      0.902644599      22.2649345       
201              0.904150695      22.0041838       0.425036145      -67.872726       0.425036145      -67.872726       0.904361637      22.0042106       
203              0.905826078      21.7470192       0.421484436      -68.1310938      0.421484436      -68.1310938      0.906037408      21.7470456       
205              0.907461435      21.4933346       0.417982025      -68.3859568      0.417982025      -68.3859568      0.907673143      21.4933608       
207              0.909057953      21.2430533       0.414528051      -68.6373924      0.414528051      -68.6373924      0.90927003       21.2430792       
209              0.910616778      20.9961005       0.411121665      -68.8854761      0.411121665      -68.8854761      0.910829216      20.9961261       
211              0.912139019      20.7524034       0.407762034      -69.1302813      0.407762034      -69.1302813      0.912351808      20.7524286       
213              0.913625744      20.511891        0.404448337      -69.3718796      0.404448337      -69.3718796      0.913838876      20.5119159       
215              0.915077985      20.2744942       0.401179769      -69.6103406      0.401179769      -69.6103406      0.915291453      20.2745189       
217              0.916496741      20.0401458       0.397955539      -69.8457322      0.397955539      -69.8457322      0.916710537      20.0401702       
219              0.917882976      19.8087801       0.394774871      -70.0781206      0.394774871      -70.0781206      0.918097091      19.8088043       
221              0.91923762       19.5803334       0.391637         -70.30757        0.391637         -70.30757        0.919452048      19.5803573       
223              0.920561573      19.3547434       0.388541179      -70.5341432      0.388541179      -70.5341432      0.920776306      19.354767        
225              0.921855706      19.1319494       0.385486671      -70.7579014      0.385486671      -70.7579014      0.922070737      19.1319728       
227              0.923120858      18.9118925       0.382472756      -70.978904       0.382472756      -70.978904       0.923336181      18.9119156       
229              0.924357843      18.694515        0.379498725      -71.1972092      0.379498725      -71.1972092      0.924573451      18.6945378       
231              0.925567447      18.4797608       0.376563884      -71.4128733      0.376563884      -71.4128733      0.925783333      18.4797834       
233              0.926750428      18.2675752       0.373667553      -71.6259516      0.373667553      -71.6259516      0.926966587      18.2675976       
235              0.927907523      18.057905        0.370809062      -71.8364977      0.370809062      -71.8364977      0.928123948      18.0579271       
237              0.929039443      17.8506981       0.367987756      -72.044564       0.367987756      -72.044564       0.929256127      17.85072         
239              0.930146874      17.6459038       0.365202994      -72.2502016      0.365202994      -72.2502016      0.930363813      17.6459255       
241              0.931230482      17.4434729       0.362454146      -72.4534602      0.362454146      -72.4534602      0.93144767       17.4434944       
243              0.932290912      17.2433571       0.359740592      -72.6543884      0.359740592      -72.6543884      0.932508343      17.2433784       
245              0.933328786      17.0455094       0.35706173       -72.8530334      0.35706173       -72.8530334      0.933546455      17.0455305       
247              0.934344708      16.8498841       0.354416964      -73.0494415      0.354416964      -73.0494415      0.93456261       16.8499049       
249              0.935339262      16.6564363       0.351805713      -73.2436575      0.351805713      -73.2436575      0.935557392      16.6564569       
251              0.936313013      16.4651226       0.349227407      -73.4357255      0.349227407      -73.4357255      0.936531366      16.465143        
253              0.937266509      16.2759003       0.346681488      -73.6256883      0.346681488      -73.6256883      0.93748508       16.2759205       
255              0.93820028       16.0887281       0.344167407      -73.8135876      0.344167407      -73.8135876      0.938419065      16.088748        
