! Coilcraft 132-19SM_ Maxi Spring Air Core Inductor				
! 28 May 2003
# MHZ S MA R 50
!Freq             MagS11           AngS11           MagS21           AngS21           MagS12           AngS12           MagS22           AngS22
1                0.0322088863     65.2692902       0.986966666      -1.7140549       0.986966666      -1.7140549       0.0322149886     65.2739007       
2                0.0605326742     74.5830207       0.985667933      -3.42513597      0.985667933      -3.42513597      0.0605456278     74.5856244       
3                0.0895079772     76.8099807       0.983514697      -5.1303005       0.983514697      -5.1303005       0.0895276019     76.8117591       
4                0.118468958      77.111157        0.980523677      -6.82666729      0.980523677      -6.82666729      0.118495158      77.1125023       
5                0.14721604       76.6323787       0.976717779      -8.51144535      0.976717779      -8.51144535      0.147248728      76.6334592       
6                0.175637614      75.7683481       0.972125612      -10.1819604      0.972125612      -10.1819604      0.175676699      75.7692505       
7                0.203651249      74.6917076       0.966780909      -11.8356785      0.966780909      -11.8356785      0.203696628      74.692482        
8                0.231188988      73.490449        0.960721868      -13.4702261      0.960721868      -13.4702261      0.231240547      73.4911272       
9                0.258192652      72.2145237       0.953990432      -15.0834072      0.953990432      -15.0834072      0.258250268      72.2151268       
10               0.284612095      70.8946651       0.946631538      -16.6732154      0.946631538      -16.6732154      0.284675633      70.8952081       
11               0.310404447      69.5509938       0.938692369      -18.2378435      0.938692369      -18.2378435      0.310473765      69.5514875       
12               0.335533714      68.1973377       0.930221605      -19.7756881      0.930221605      -19.7756881      0.335608661      68.1977903       
13               0.359970463      66.8435654       0.921268723      -21.2853518      0.921268723      -21.2853518      0.360050883      66.8439832       
14               0.383691519      65.4969257       0.911883332      -22.7656411      0.911883332      -22.7656411      0.383777252      65.4973137       
15               0.406679632      64.1628554       0.902114583      -24.2155621      0.902114583      -24.2155621      0.406770512      64.1632175       
16               0.428923094      62.8454896       0.89201064       -25.6343134      0.89201064       -25.6343134      0.429018954      62.8458291       
17               0.450415329      61.5479963       0.881618227      -27.0212775      0.881618227      -27.0212775      0.450516         61.5483158       
18               0.471154447      60.2728044       0.870982254      -28.3760096      0.870982254      -28.3760096      0.471259761      60.273106        
19               0.491142788      59.0217641       0.860145515      -29.6982261      0.860145515      -29.6982261      0.491252575      59.0220499       
20               0.51038645       57.7962643       0.849148458      -30.9877921      0.849148458      -30.9877921      0.510500544      57.7965357       
21               0.52889483       56.5973194       0.838029022      -32.2447081      0.838029022      -32.2447081      0.529013066      56.5975779       
22               0.54668017       55.4256374       0.826822534      -33.4690969      0.826822534      -33.4690969      0.546802387      55.425884        
23               0.563757131      54.2816724       0.815561657      -34.6611905      0.815561657      -34.6611905      0.563883169      54.2819083       
24               0.580142381      53.1656679       0.804276389      -35.8213175      0.804276389      -35.8213175      0.580272087      53.1658939       
25               0.595854225      52.0776916       0.792994094      -36.9498906      0.792994094      -36.9498906      0.595987447      52.0779085       
26               0.610912254      51.0176647       0.78173957       -38.0473953      0.78173957       -38.0473953      0.611048845      51.0178732       
27               0.625337035      49.9853867       0.770535139      -39.1143785      0.770535139      -39.1143785      0.625476854      49.9855874       
28               0.639149832      48.9805556       0.759400758      -40.151439       0.759400758      -40.151439       0.639292741      48.9807492       
29               0.652372357      48.0027866       0.748354147      -41.1592178      0.748354147      -41.1592178      0.652518225      48.0029734       
30               0.665026554      47.0516265       0.737410915      -42.1383897      0.737410915      -42.1383897      0.665175253      47.051807        
31               0.677134415      46.1265676       0.726584707      -43.089656       0.726584707      -43.089656       0.677285824      46.1267422       
32               0.688717817      45.2270583       0.715887341      -44.013737       0.715887341      -44.013737       0.688871817      45.2272275       
33               0.699798387      44.3525137       0.705328953      -44.9113664      0.705328953      -44.9113664      0.699954866      44.3526776       
34               0.710397396      43.5023231       0.694918131      -45.7832861      0.694918131      -45.7832861      0.710556246      43.5024822       
35               0.720535659      42.6758579       0.684662051      -46.6302407      0.684662051      -46.6302407      0.720696778      42.6760124       
36               0.730233472      41.8724773       0.674566609      -47.4529743      0.674566609      -47.4529743      0.73039676       41.8726274       
37               0.739510545      41.0915339       0.664636536      -48.2522265      0.664636536      -48.2522265      0.739675909      41.0916799       
38               0.748385967      40.3323777       0.654875521      -49.0287294      0.654875521      -49.0287294      0.748553317      40.3325198       
39               0.756878171      39.5943606       0.645286312      -49.7832053      0.645286312      -49.7832053      0.757047421      39.594499        
40               0.765004914      38.8768388       0.635870822      -50.5163645      0.635870822      -50.5163645      0.765175982      38.8769737       
41               0.772783267      38.179176        0.626630217      -51.2289033      0.626630217      -51.2289033      0.772956074      38.1793075       
42               0.780229608      37.500745        0.617565004      -51.9215031      0.617565004      -51.9215031      0.780404082      37.5008734       
43               0.787359629      36.8409303       0.608675109      -52.5948289      0.608675109      -52.5948289      0.787535697      36.8410556       
44               0.794188336      36.1991287       0.599959948      -53.2495287      0.599959948      -53.2495287      0.794365932      36.1992511       
45               0.800730069      35.5747508       0.591418494      -53.8862326      0.591418494      -53.8862326      0.800909128      35.5748704       
46               0.806998508      34.9672219       0.583049332      -54.5055525      0.583049332      -54.5055525      0.80717897       34.9673389       
47               0.813006697      34.3759826       0.574850716      -55.108082       0.574850716      -55.108082       0.813188502      34.3760971       
48               0.818767059      33.8004893       0.566820616      -55.6943961      0.566820616      -55.6943961      0.818950153      33.8006012       
49               0.82429142       33.2402141       0.558956759      -56.2650511      0.558956759      -56.2650511      0.824475749      33.2403237       
50               0.829591027      32.6946455       0.551256671      -56.8205851      0.551256671      -56.8205851      0.829776542      32.6947529       
51               0.834676574      32.1632883       0.543717708      -57.3615176      0.543717708      -57.3615176      0.834863226      32.1633935       
52               0.839558222      31.6456632       0.536337091      -57.8883503      0.536337091      -57.8883503      0.839745967      31.6457663       
53               0.844245625      31.1413069       0.52911193       -58.4015674      0.52911193       -58.4015674      0.844434418      31.1414081       
54               0.848747948      30.649772        0.522039246      -58.9016353      0.522039246      -58.9016353      0.848937748      30.6498713       
55               0.853073893      30.1706267       0.515116001      -59.3890039      0.515116001      -59.3890039      0.85326466       30.170724        
56               0.85723172       29.703454        0.508339106      -59.8641066      0.508339106      -59.8641066      0.857423417      29.7035496       
57               0.861229266      29.2478522       0.501705445      -60.3273605      0.501705445      -60.3273605      0.861421858      29.247946        
58               0.865073972      28.8034337       0.495211887      -60.7791674      0.495211887      -60.7791674      0.865267423      28.8035259       
59               0.868772895      28.3698254       0.488855298      -61.219914       0.488855298      -61.219914       0.868967173      28.3699159       
60               0.872332732      27.9466674       0.482632554      -61.6499726      0.482632554      -61.6499726      0.872527806      27.9467564       
61               0.875759838      27.5336135       0.476540546      -62.0697009      0.476540546      -62.0697009      0.875955679      27.5337009       
62               0.879060245      27.13033         0.470576194      -62.4794437      0.470576194      -62.4794437      0.879256823      27.1304159       
63               0.882239673      26.7364957       0.464736451      -62.8795321      0.464736451      -62.8795321      0.882436963      26.7365803       
64               0.885303557      26.3518017       0.459018306      -63.270285       0.459018306      -63.270285       0.885501531      26.3518849       
65               0.888257049      25.9759502       0.453418794      -63.6520089      0.453418794      -63.6520089      0.888455684      25.976032        
66               0.891105046      25.6086547       0.447934998      -64.0249986      0.447934998      -64.0249986      0.891304317      25.6087353       
67               0.893852194      25.2496397       0.442564052      -64.3895379      0.442564052      -64.3895379      0.894052079      25.249719        
68               0.896502906      24.8986398       0.437303144      -64.7458994      0.437303144      -64.7458994      0.896703384      24.8987178       
69               0.899061374      24.5553994       0.432149517      -65.0943457      0.432149517      -65.0943457      0.899262424      24.5554763       
70               0.901531581      24.219673        0.427100474      -65.4351291      0.427100474      -65.4351291      0.901733183      24.2197487       
71               0.903917311      23.8912236       0.422153376      -65.7684926      0.422153376      -65.7684926      0.904119446      23.8912982       
72               0.90622216       23.5698237       0.417305643      -66.0946699      0.417305643      -66.0946699      0.90642481       23.5698972       
73               0.908449548      23.2552539       0.412554757      -66.4138858      0.412554757      -66.4138858      0.908652696      23.2553264       
74               0.910602726      22.9473031       0.407898259      -66.7263568      0.407898259      -66.7263568      0.910806356      22.9473745       
75               0.912684788      22.645768        0.403333753      -67.0322911      0.403333753      -67.0322911      0.912888883      22.6458384       
76               0.914698675      22.3504527       0.398858901      -67.3318893      0.398858901      -67.3318893      0.914903221      22.3505221       
77               0.916647189      22.0611687       0.394471426      -67.6253444      0.394471426      -67.6253444      0.91685217       22.0612371       
78               0.918532995      21.7777343       0.39016911       -67.9128423      0.39016911       -67.9128423      0.918738397      21.7778018       
79               0.920358631      21.4999746       0.385949795      -68.1945621      0.385949795      -68.1945621      0.920564441      21.5000412       
80               0.922126516      21.2277209       0.381811378      -68.4706762      0.381811378      -68.4706762      0.922332721      21.2277866       
81               0.923838952      20.9608107       0.377751815      -68.7413508      0.377751815      -68.7413508      0.924045539      20.9608756       
82               0.925498134      20.6990874       0.373769117      -69.0067461      0.373769117      -69.0067461      0.925705092      20.6991514       
83               0.927106156      20.4424          0.369861351      -69.2670162      0.369861351      -69.2670162      0.927313474      20.4424631       
84               0.928665014      20.1906027       0.366026635      -69.52231        0.366026635      -69.52231        0.928872679      20.1906651       
85               0.930176609      19.9435553       0.362263143      -69.7727709      0.362263143      -69.7727709      0.930384612      19.9436169       
86               0.93164276       19.7011223       0.358569096      -70.0185371      0.358569096      -70.0185371      0.93185109       19.7011831       
87               0.933065198      19.4631731       0.354942769      -70.2597421      0.354942769      -70.2597421      0.933273846      19.4632331       
88               0.93444558       19.2295814       0.351382483      -70.4965146      0.351382483      -70.4965146      0.934654536      19.2296407       
89               0.935785485      19.0002257       0.347886608      -70.7289786      0.347886608      -70.7289786      0.93599474       19.0002843       
90               0.937086423      18.7749885       0.344453561      -70.9572541      0.344453561      -70.9572541      0.937295969      18.7750464       
91               0.938349837      18.5537564       0.341081802      -71.1814567      0.341081802      -71.1814567      0.938559665      18.5538135       
92               0.939577105      18.3364198       0.337769837      -71.401698       0.337769837      -71.401698       0.939787207      18.3364763       
93               0.940769547      18.122873        0.334516213      -71.6180861      0.334516213      -71.6180861      0.940979915      18.1229289       
94               0.941928423      17.9130138       0.331319519      -71.8307249      0.331319519      -71.8307249      0.94213905       17.913069        
95               0.94305494       17.7067435       0.328178385      -72.0397152      0.328178385      -72.0397152      0.943265818      17.706798        
96               0.944150251      17.5039666       0.325091479      -72.2451542      0.325091479      -72.2451542      0.944361373      17.5040205       
97               0.945215463      17.3045909       0.322057509      -72.4471359      0.322057509      -72.4471359      0.945426823      17.3046442       
98               0.946251632      17.1085272       0.319075217      -72.6457511      0.319075217      -72.6457511      0.946463223      17.1085799       
99               0.947259773      16.9156892       0.316143382      -72.8410878      0.316143382      -72.8410878      0.947471589      16.9157413       
100              0.948240857      16.7259936       0.31326082       -73.0332308      0.31326082       -73.0332308      0.948452892      16.7260451       
101              0.949195814      16.5393596       0.310426378      -73.2222623      0.310426378      -73.2222623      0.949408062      16.5394105       
102              0.950125537      16.3557091       0.307638935      -73.4082619      0.307638935      -73.4082619      0.950337992      16.3557595       
103              0.951030879      16.1749666       0.304897404      -73.5913065      0.304897404      -73.5913065      0.951243536      16.1750164       
104              0.951912663      15.9970589       0.302200728      -73.7714705      0.302200728      -73.7714705      0.952125517      15.9971082       
105              0.952771676      15.8219152       0.299547878      -73.9488261      0.299547878      -73.9488261      0.952984721      15.821964        
106              0.953608672      15.6494669       0.296937858      -74.1234431      0.296937858      -74.1234431      0.953821903      15.6495152       
107              0.954424376      15.4796476       0.294369695      -74.295389       0.294369695      -74.295389       0.954637789      15.4796953       
108              0.955219486      15.3123928       0.291842446      -74.4647294      0.291842446      -74.4647294      0.955433076      15.3124401       
109              0.95599467       15.1476403       0.289355193      -74.6315276      0.289355193      -74.6315276      0.956208433      15.147687        
110              0.95675057       14.9853295       0.286907046      -74.7958452      0.286907046      -74.7958452      0.956964501      14.9853758       
111              0.957487803      14.825402        0.284497135      -74.9577418      0.284497135      -74.9577418      0.957701899      14.8254478       
112              0.958206965      14.6678008       0.28212462       -75.1172751      0.28212462       -75.1172751      0.95842122       14.6678462       
113              0.958908624      14.512471        0.279788677      -75.2745012      0.279788677      -75.2745012      0.959123036      14.5125159       
114              0.95959333       14.3593591       0.277488512      -75.4294744      0.277488512      -75.4294744      0.959807894      14.3594035       
115              0.96026161       14.2084132       0.275223346      -75.5822473      0.275223346      -75.5822473      0.960476323      14.2084572       
116              0.960913973      14.0595831       0.272992426      -75.7328711      0.272992426      -75.7328711      0.961128831      14.0596266       
117              0.961550908      13.91282         0.270795016      -75.8813954      0.270795016      -75.8813954      0.961765907      13.9128631       
118              0.962172884      13.7680765       0.268630402      -76.0278684      0.268630402      -76.0278684      0.962388022      13.7681192       
119              0.962780356      13.6253067       0.266497889      -76.1723367      0.266497889      -76.1723367      0.96299563       13.6253489       
120              0.96337376       13.4844658       0.264396799      -76.3148458      0.264396799      -76.3148458      0.963589165      13.4845077       
121              0.963953517      13.3455106       0.262326474      -76.4554397      0.262326474      -76.4554397      0.96416905       13.3455521       
122              0.96452003       13.2083989       0.260286272      -76.5941613      0.260286272      -76.5941613      0.96473569       13.20844         
123              0.965073692      13.0730899       0.258275568      -76.731052       0.258275568      -76.731052       0.965289475      13.0731305       
124              0.965614879      12.9395436       0.256293755      -76.8661523      0.256293755      -76.8661523      0.965830782      12.9395839       
125              0.966143953      12.8077216       0.254340241      -76.9995014      0.254340241      -76.9995014      0.966359974      12.8077615       
126              0.966661266      12.6775863       0.252414447      -77.1311375      0.252414447      -77.1311375      0.966877401      12.6776258       
127              0.967167154      12.5491011       0.250515814      -77.2610977      0.250515814      -77.2610977      0.967383401      12.5491402       
128              0.967661944      12.4222305       0.248643793      -77.3894181      0.248643793      -77.3894181      0.967878301      12.4222693       
