! Coilcraft 132-09SM_ Maxi Spring Air Core Inductor				
! 28 May 2003
# MHZ S MA R 50
!Freq             MagS11           AngS11           MagS21           AngS21           MagS12           AngS12           MagS22           AngS22
1                0.00598753068    65.5590425       0.997539047      -0.330225949     0.997539047      -0.330225949     0.00598885856    65.5647279       
3                0.0165749627     80.5244988       0.997419866      -0.990603772     0.997419866      -0.990603772     0.0165792787     80.526724        
5                0.0274252947     83.2344291       0.99718163       -1.65075947      0.99718163       -1.65075947      0.027432537      83.235783        
7                0.0383069611     84.0313053       0.996824594      -2.31054532      0.996824594      -2.31054532      0.0383171165     84.0322761       
9                0.0491888471     84.1834771       0.996349138      -2.9698141       0.996349138      -2.9698141       0.0492019084     84.1842333       
11               0.0600596017     84.0418688       0.995755766      -3.62841936      0.995755766      -3.62841936      0.0600755625     84.042488        
13               0.0709125158     83.7422291       0.995045106      -4.28621556      0.995045106      -4.28621556      0.0709313696     83.7427533       
15               0.0817424617     83.3481409       0.994217908      -4.9430583       0.994217908      -4.9430583       0.0817642012     83.3485953       
17               0.0925449927     82.8933798       0.99327504       -5.59880454      0.99327504       -5.59880454      0.09256961       82.8937808       
19               0.103316015      82.397576        0.99221749       -6.25331276      0.99221749       -6.25331276      0.103343501      82.3979348       
21               0.114051647      81.8729408       0.991046356      -6.90644316      0.991046356      -6.90644316      0.114081993      81.8732654       
23               0.124748163      81.327488        0.989762849      -7.55805783      0.989762849      -7.55805783      0.124781357      81.3277844       
25               0.135401954      80.766711        0.988368287      -8.20802097      0.988368287      -8.20802097      0.135437984      80.7669837       
27               0.14600952       80.194514        0.986864092      -8.85619899      0.986864092      -8.85619899      0.146048375      80.1947665       
29               0.156567461      79.6137594       0.985251786      -9.50246073      0.985251786      -9.50246073      0.156609127      79.6139944       
31               0.167072475      79.0266023       0.983532986      -10.1466776      0.983532986      -10.1466776      0.167116937      79.0268221       
33               0.177521355      78.4347041       0.981709401      -10.7887236      0.981709401      -10.7887236      0.177568599      78.4349106       
35               0.187910995      77.8393724       0.979782827      -11.4284759      0.979782827      -11.4284759      0.187961006      77.8395671       
37               0.198238389      77.2416559       0.97775514       -12.0658141      0.97775514       -12.0658141      0.198291149      77.24184         
39               0.208500633      76.6424097       0.975628295      -12.7006215      0.975628295      -12.7006215      0.208556125      76.6425843       
41               0.218694927      76.0423417       0.97340432       -13.3327841      0.97340432       -13.3327841      0.218753133      76.0425078       
43               0.228818579      75.4420461       0.971085308      -13.9621914      0.971085308      -13.9621914      0.22887948       75.4422044       
45               0.238869004      74.8420276       0.968673416      -14.5887364      0.968673416      -14.5887364      0.23893258       74.8421789       
47               0.248843728      74.2427199       0.966170857      -15.2123154      0.966170857      -15.2123154      0.248909959      74.2428647       
49               0.258740388      73.6444991       0.963579895      -15.8328282      0.963579895      -15.8328282      0.258809253      73.644638        
51               0.268556733      73.0476947       0.960902843      -16.4501783      0.960902843      -16.4501783      0.268628211      73.0478281       
53               0.278290627      72.4525972       0.958142053      -17.0642729      0.958142053      -17.0642729      0.278364697      72.4527255       
55               0.287940049      71.8594646       0.955299915      -17.6750227      0.955299915      -17.6750227      0.288016686      71.8595883       
57               0.297503088      71.2685277       0.952378849      -18.2823424      0.952378849      -18.2823424      0.297582271      71.268647        
59               0.306977953      70.6799937       0.949381302      -18.8861502      0.949381302      -18.8861502      0.307059657      70.6801089       
61               0.316362963      70.0940495       0.946309742      -19.4863681      0.946309742      -19.4863681      0.316447165      70.0941609       
63               0.325656552      69.5108646       0.943166654      -20.082922       0.943166654      -20.082922       0.325743228      69.5109725       
65               0.334857269      68.930593        0.939954534      -20.6757415      0.939954534      -20.6757415      0.334946393      68.9306974       
67               0.34396377       68.3533747       0.936675887      -21.2647599      0.936675887      -21.2647599      0.344055319      68.353476        
69               0.352974827      67.7793376       0.933333219      -21.8499143      0.933333219      -21.8499143      0.353068773      67.779436        
71               0.361889316      67.2085987       0.929929036      -22.4311456      0.929929036      -22.4311456      0.361985635      67.2086942       
73               0.370706224      66.6412648       0.926465839      -23.0083982      0.926465839      -23.0083982      0.370804889      66.6413577       
75               0.379424641      66.0774336       0.922946118      -23.5816204      0.922946118      -23.5816204      0.379525627      66.077524        
77               0.388043762      65.5171944       0.919372352      -24.1507638      0.919372352      -24.1507638      0.388147041      65.5172824       
79               0.396562881      64.960629        0.915747002      -24.7157837      0.915747002      -24.7157837      0.396668427      64.9607147       
81               0.404981393      64.4078117       0.912072511      -25.2766391      0.912072511      -25.2766391      0.405089179      64.4078953       
83               0.413298787      63.8588104       0.908351297      -25.8332921      0.908351297      -25.8332921      0.413408787      63.858892        
85               0.421514647      63.3136868       0.904585752      -26.3857085      0.904585752      -26.3857085      0.421626833      63.3137664       
87               0.429628647      62.7724965       0.900778241      -26.9338571      0.900778241      -26.9338571      0.429742991      62.7725743       
89               0.437640548      62.23529         0.896931096      -27.4777103      0.896931096      -27.4777103      0.437757024      62.2353659       
91               0.445550197      61.7021123       0.893046617      -28.0172433      0.893046617      -28.0172433      0.445668778      61.7021866       
93               0.453357523      61.1730038       0.889127066      -28.5524346      0.889127066      -28.5524346      0.453478182      61.1730765       
95               0.461062535      60.6480003       0.885174668      -29.0832658      0.885174668      -29.0832658      0.461185243      60.6480714       
97               0.468665315      60.1271331       0.881191608      -29.6097211      0.881191608      -29.6097211      0.468790046      60.1272027       
99               0.47616602       59.6104294       0.877180029      -30.1317879      0.877180029      -30.1317879      0.476292746      59.6104976       
101              0.483564876      59.0979127       0.873142033      -30.6494561      0.873142033      -30.6494561      0.483693571      59.0979795       
103              0.490862176      58.5896026       0.869079674      -31.1627185      0.869079674      -31.1627185      0.490992812      58.589668        
105              0.498058277      58.0855151       0.864994965      -31.6715702      0.864994965      -31.6715702      0.498190828      58.0855793       
107              0.505153596      57.5856631       0.860889869      -32.176009       0.860889869      -32.176009       0.505288033      57.5857261       
109              0.512148606      57.0900563       0.856766303      -32.6760351      0.856766303      -32.6760351      0.512284904      57.090118        
111              0.519043836      56.598701        0.852626135      -33.1716509      0.852626135      -33.1716509      0.519181968      56.5987616       
113              0.525839867      56.1116012       0.848471187      -33.6628611      0.848471187      -33.6628611      0.525979807      56.1116607       
115              0.532537328      55.6287577       0.844303229      -34.1496726      0.844303229      -34.1496726      0.532679049      55.6288162       
117              0.539136893      55.1501691       0.840123984      -34.6320943      0.840123984      -34.6320943      0.539280369      55.1502265       
119              0.545639278      54.6758311       0.835935123      -35.1101369      0.835935123      -35.1101369      0.545784484      54.6758876       
121              0.552045243      54.2057376       0.83173827       -35.5838132      0.83173827       -35.5838132      0.552192152      54.2057931       
123              0.558355581      53.7398799       0.827534998      -36.0531377      0.827534998      -36.0531377      0.558504168      53.7399344       
125              0.564571122      53.2782473       0.823326831      -36.5181266      0.823326831      -36.5181266      0.564721362      53.2783009       
127              0.570692728      52.8208272       0.819115243      -36.9787978      0.819115243      -36.9787978      0.570844596      52.8208799       
129              0.576721291      52.3676051       0.814901661      -37.4351707      0.814901661      -37.4351707      0.576874762      52.367657        
131              0.582657729      51.9185648       0.810687462      -37.887266       0.810687462      -37.887266       0.582812779      51.9186159       
133              0.588502988      51.4736883       0.806473975      -38.335106       0.806473975      -38.335106       0.588659592      51.4737386       
135              0.594258034      51.0329562       0.802262482      -38.7787143      0.802262482      -38.7787143      0.594416167      51.0330057       
137              0.599923854      50.5963475       0.798054218      -39.2181157      0.798054218      -39.2181157      0.600083495      50.5963962       
139              0.605501457      50.1638398       0.793850372      -39.6533359      0.793850372      -39.6533359      0.60566258       50.1638878       
141              0.610991864      49.7354096       0.789652086      -40.0844022      0.789652086      -40.0844022      0.611154446      49.7354569       
143              0.616396114      49.3110319       0.78546046       -40.5113425      0.78546046       -40.5113425      0.616560132      49.3110785       
145              0.621715257      48.8906809       0.781276548      -40.9341859      0.781276548      -40.9341859      0.621880689      48.8907268       
147              0.626950356      48.4743294       0.77710136       -41.3529621      0.77710136       -41.3529621      0.627117179      48.4743747       
149              0.632102482      48.0619495       0.772935866      -41.767702       0.772935866      -41.767702       0.632270675      48.0619942       
151              0.637172714      47.6535123       0.768780993      -42.178437       0.768780993      -42.178437       0.637342255      47.6535563       
153              0.64216214       47.248988        0.764637628      -42.5851994      0.764637628      -42.5851994      0.642333006      47.2490314       
155              0.64707185       46.8483459       0.760506618      -42.9880219      0.760506618      -42.9880219      0.647244021      46.8483888       
157              0.651902938      46.451555        0.756388771      -43.386938       0.756388771      -43.386938       0.652076392      46.4515973       
159              0.656656501      46.0585832       0.752284858      -43.7819817      0.752284858      -43.7819817      0.656831219      46.0586249       
161              0.661333638      45.6693981       0.748195613      -44.1731875      0.748195613      -44.1731875      0.661509598      45.6694393       
163              0.665935447      45.2839666       0.744121734      -44.5605904      0.744121734      -44.5605904      0.66611263       45.2840072       
165              0.670463025      44.9022551       0.740063884      -44.9442256      0.740063884      -44.9442256      0.670641411      44.9022952       
167              0.674917467      44.5242297       0.736022692      -45.3241288      0.736022692      -45.3241288      0.675097036      44.5242693       
169              0.679299865      44.149856        0.731998755      -45.7003361      0.731998755      -45.7003361      0.679480597      44.1498951       
171              0.683611306      43.7790992       0.727992636      -46.0728837      0.727992636      -46.0728837      0.683793183      43.7791378       
173              0.687852873      43.4119243       0.72400487       -46.4418082      0.72400487       -46.4418082      0.688035877      43.4119624       
175              0.692025645      43.048296        0.72003596       -46.8071462      0.72003596       -46.8071462      0.692209757      43.0483337       
177              0.696130692      42.6881788       0.716086379      -47.1689346      0.716086379      -47.1689346      0.696315894      42.688216        
179              0.700169079      42.331537        0.712156573      -47.5272104      0.712156573      -47.5272104      0.700355352      42.3315737       
181              0.704141861      41.9783347       0.708246962      -47.8820107      0.708246962      -47.8820107      0.704329189      41.978371        
183              0.708050088      41.6285359       0.704357938      -48.2333726      0.704357938      -48.2333726      0.708238453      41.6285717       
185              0.711894798      41.2821045       0.700489866      -48.5813333      0.700489866      -48.5813333      0.712084184      41.28214         
187              0.715677022      40.9390045       0.69664309       -48.92593        0.69664309       -48.92593        0.715867412      40.9390395       
189              0.719397781      40.5991996       0.692817929      -49.2672         0.692817929      -49.2672         0.719589158      40.5992343       
191              0.723058085      40.2626538       0.689014677      -49.6051802      0.689014677      -49.6051802      0.723250434      40.2626881       
193              0.726658935      39.9293309       0.685233608      -49.9399079      0.685233608      -49.9399079      0.726852238      39.9293648       
195              0.730201318      39.5991949       0.681474975      -50.2714199      0.681474975      -50.2714199      0.730395562      39.5992284       
197              0.733686214      39.2722097       0.677739009      -50.5997532      0.677739009      -50.5997532      0.733881382      39.2722428       
199              0.737114589      38.9483394       0.674025923      -50.9249444      0.674025923      -50.9249444      0.737310666      38.9483721       
201              0.740487399      38.6275482       0.670335911      -51.2470302      0.670335911      -51.2470302      0.74068437       38.6275806       
203              0.743805585      38.3098005       0.666669146      -51.566047       0.666669146      -51.566047       0.744003437      38.3098326       
205              0.74707008       37.9950608       0.663025787      -51.882031       0.663025787      -51.882031       0.747268797      37.9950925       
207              0.750281803      37.6832937       0.659405975      -52.1950184      0.659405975      -52.1950184      0.750481371      37.683325        
209              0.753441659      37.374464        0.655809834      -52.5050448      0.655809834      -52.5050448      0.753642065      37.3744951       
211              0.756550544      37.0685369       0.652237475      -52.812146       0.652237475      -52.812146       0.756751774      37.0685676       
213              0.759609339      36.7654775       0.648688991      -53.1163574      0.648688991      -53.1163574      0.75981138       36.7655078       
215              0.762618914      36.4652512       0.645164464      -53.417714       0.645164464      -53.417714       0.762821752      36.4652813       
217              0.765580123      36.1678239       0.64166396       -53.7162508      0.64166396       -53.7162508      0.765783746      36.1678537       
219              0.768493812      35.8731615       0.638187533      -54.0120024      0.638187533      -54.0120024      0.768698207      35.873191        
221              0.771360812      35.5812301       0.634735226      -54.3050031      0.634735226      -54.3050031      0.771565965      35.5812593       
223              0.77418194       35.2919963       0.631307069      -54.5952869      0.631307069      -54.5952869      0.774387841      35.2920251       
225              0.776958002      35.0054267       0.627903079      -54.8828877      0.627903079      -54.8828877      0.777164638      35.0054553       
227              0.779689792      34.7214884       0.624523265      -55.1678389      0.624523265      -55.1678389      0.779897152      34.7215167       
229              0.78237809       34.4401487       0.621167624      -55.4501736      0.621167624      -55.4501736      0.782586161      34.4401768       
231              0.785023664      34.1613753       0.617836145      -55.7299247      0.617836145      -55.7299247      0.785232435      34.161403        
233              0.787627268      33.8851359       0.614528806      -56.0071248      0.614528806      -56.0071248      0.787836728      33.8851634       
235              0.790189647      33.6113988       0.611245576      -56.2818061      0.611245576      -56.2818061      0.790399785      33.611426        
237              0.79271153       33.3401325       0.607986418      -56.5540004      0.607986418      -56.5540004      0.792922335      33.3401595       
239              0.795193635      33.0713059       0.604751284      -56.8237394      0.604751284      -56.8237394      0.795405097      33.0713326       
241              0.79763667       32.8048881       0.60154012       -57.0910542      0.60154012       -57.0910542      0.797848778      32.8049145       
243              0.800041328      32.5408485       0.598352865      -57.3559758      0.598352865      -57.3559758      0.800254072      32.5408747       
245              0.802408291      32.2791569       0.59518945       -57.6185347      0.59518945       -57.6185347      0.802621661      32.2791829       
247              0.804738229      32.0197835       0.592049801      -57.8787613      0.592049801      -57.8787613      0.804952215      32.0198092       
249              0.807031802      31.7626987       0.588933836      -58.1366853      0.588933836      -58.1366853      0.807246394      31.7627242       
251              0.809289656      31.5078732       0.58584147       -58.3923363      0.58584147       -58.3923363      0.809504844      31.5078984       
253              0.811512427      31.2552781       0.582772611      -58.6457437      0.582772611      -58.6457437      0.811728202      31.2553031       
255              0.813700738      31.0048849       0.57972716       -58.8969361      0.57972716       -58.8969361      0.813917092      31.0049097       
