! Coilcraft 132-10SM_ Maxi Spring Air Core Inductor				
! 28 May 2003
# MHZ S MA R 50
!Freq             MagS11           AngS11           MagS21           AngS21           MagS12           AngS12           MagS22           AngS22
1                0.00750235578    63.8212782       0.996714874      -0.404688768     0.996714874      -0.404688768     0.00750415311    63.8279043       
3                0.0205251124     79.6425846       0.996532902      -1.21392722      0.996532902      -1.21392722      0.0205310228     79.6452393       
5                0.0339187131     82.4612582       0.996169252      -2.02274872      0.996169252      -2.02274872      0.0339286407     82.4628771       
7                0.0473529758     83.2232103       0.995624513      -2.83087631      0.995624513      -2.83087631      0.0473668985     83.224372        
9                0.0607815774     83.2910553       0.994899563      -3.63803452      0.994899563      -3.63803452      0.0607994818     83.2919605       
11               0.0741865579     83.0427438       0.99399557       -4.44394998      0.99399557       -4.44394998      0.0742084317     83.043485        
13               0.0875566672     82.6246697       0.992913979      -5.24835197      0.992913979      -5.24835197      0.0875824972     82.6252972       
15               0.10088298       82.1054883       0.991656515      -6.05097302      0.991656515      -6.05097302      0.100912752      82.1060323       
17               0.114157611      81.5217283       0.990225167      -6.85154941      0.990225167      -6.85154941      0.114191308      81.5222083       
19               0.127373249      80.8946659       0.988622185      -7.64982174      0.988622185      -7.64982174      0.127410853      80.8950954       
21               0.140522968      80.2375753       0.986850069      -8.4455354       0.986850069      -8.4455354       0.140564459      80.2379639       
23               0.153600143      79.559201        0.984911555      -9.23844107      0.984911555      -9.23844107      0.153645499      79.5595558       
25               0.16659841       78.8655651       0.98280961       -10.0282952      0.98280961       -10.0282952      0.166647607      78.8658915       
27               0.179511653      78.1609727       0.980547412      -10.8148603      0.980547412      -10.8148603      0.179564666      78.1612749       
29               0.192334         77.4486008       0.978128344      -11.5979055      0.978128344      -11.5979055      0.192390802      77.4488821       
31               0.205059821      76.7308595       0.975555976      -12.377207       0.975555976      -12.377207       0.205120383      76.7311226       
33               0.217683732      76.0096219       0.972834054      -13.1525479      0.972834054      -13.1525479      0.217748024      76.009869        
35               0.230200598      75.286375        0.969966485      -13.9237192      0.969966485      -13.9237192      0.230268589      75.286608        
37               0.242605542      74.562322        0.966957319      -14.6905195      0.966957319      -14.6905195      0.242677197      74.5625424       
39               0.254893941      73.8384524       0.963810739      -15.4527554      0.963810739      -15.4527554      0.254969227      73.8386614       
41               0.267061436      73.1155923       0.960531044      -16.210242       0.960531044      -16.210242       0.267140316      73.1157911       
43               0.279103931      72.39444         0.957122635      -16.9628025      0.957122635      -16.9628025      0.27918637       72.3946295       
45               0.291017598      71.6755928       0.95359          -17.7102689      0.95359          -17.7102689      0.291103556      71.6757738       
47               0.302798872      70.959566        0.949937697      -18.4524815      0.949937697      -18.4524815      0.302888311      70.9597393       
49               0.314444457      70.2468084       0.946170344      -19.1892896      0.946170344      -19.1892896      0.314537336      70.2469746       
51               0.32595132       69.5377134       0.942292604      -19.9205511      0.942292604      -19.9205511      0.326047598      69.537873        
53               0.337316693      68.8326274       0.938309168      -20.6461325      0.938309168      -20.6461325      0.337416328      68.8327809       
55               0.348538064      68.1318574       0.934224747      -21.3659093      0.934224747      -21.3659093      0.348641014      68.1320053       
57               0.359613181      67.4356761       0.930044055      -22.0797655      0.930044055      -22.0797655      0.359719402      67.4358188       
59               0.370540041      66.7443263       0.925771801      -22.7875935      0.925771801      -22.7875935      0.37064949       66.7444641       
61               0.38131689       66.0580247       0.921412675      -23.4892945      0.921412675      -23.4892945      0.381429521      66.0581579       
63               0.39194221       65.3769645       0.916971337      -24.1847778      0.916971337      -24.1847778      0.39205798       65.3770934       
65               0.402414721      64.7013181       0.912452409      -24.8739612      0.912452409      -24.8739612      0.402533584      64.7014431       
67               0.412733367      64.0312393       0.907860465      -25.5567703      0.907860465      -25.5567703      0.412855278      64.0313604       
69               0.422897315      63.3668644       0.903200019      -26.2331388      0.903200019      -26.2331388      0.423022227      63.366982        
71               0.432905938      62.7083145       0.898475521      -26.9030079      0.898475521      -26.9030079      0.433033807      62.7084287       
73               0.442758819      62.055696        0.893691349      -27.5663265      0.893691349      -27.5663265      0.442889597      62.0558071       
75               0.452455731      61.4091026       0.888851799      -28.2230506      0.888851799      -28.2230506      0.452589373      61.4092106       
77               0.461996637      60.7686152       0.883961082      -28.8731434      0.883961082      -28.8731434      0.462133096      60.7687204       
79               0.471381676      60.134304        0.879023318      -29.5165749      0.879023318      -29.5165749      0.471520907      60.1344065       
81               0.480611156      59.5062281       0.87404253       -30.1533215      0.87404253       -30.1533215      0.480753112      59.506328        
83               0.489685547      58.8844372       0.869022642      -30.7833663      0.869022642      -30.7833663      0.489830183      58.8845347       
85               0.498605468      58.2689717       0.863967472      -31.4066981      0.863967472      -31.4066981      0.498752738      58.2690669       
87               0.507371684      57.6598636       0.858880732      -32.0233118      0.858880732      -32.0233118      0.507521542      57.6599565       
89               0.515985089      57.0571366       0.853766024      -32.6332078      0.853766024      -32.6332078      0.51613749       57.0572273       
91               0.524446706      56.4608072       0.848626839      -33.2363919      0.848626839      -33.2363919      0.524601606      56.460896        
93               0.532757674      55.870885        0.843466555      -33.8328748      0.843466555      -33.8328748      0.532915027      55.8709717       
95               0.540919239      55.2873727       0.838288434      -34.4226721      0.838288434      -34.4226721      0.541079002      55.2874576       
97               0.54893275       54.7102672       0.833095626      -35.0058041      0.833095626      -35.0058041      0.549094878      54.7103503       
99               0.556799645      54.1395597       0.827891164      -35.5822953      0.827891164      -35.5822953      0.556964096      54.1396411       
101              0.564521451      53.5752359       0.822677966      -36.1521743      0.822677966      -36.1521743      0.564688181      53.5753156       
103              0.572099768      53.0172767       0.817458838      -36.7154736      0.817458838      -36.7154736      0.572268735      53.0173548       
105              0.57953627       52.4656583       0.81223647       -37.2722292      0.81223647       -37.2722292      0.579707432      52.4657349       
107              0.586832692      51.9203526       0.807013441      -37.8224805      0.807013441      -37.8224805      0.587006008      51.9204277       
109              0.593990828      51.3813274       0.801792217      -38.3662702      0.801792217      -38.3662702      0.594166256      51.3814011       
111              0.601012521      50.8485471       0.796575158      -38.9036438      0.796575158      -38.9036438      0.601190022      50.8486194       
113              0.607899659      50.3219725       0.791364512      -39.4346496      0.791364512      -39.4346496      0.608079193      50.3220434       
115              0.61465417       49.801561        0.786162426      -39.9593384      0.786162426      -39.9593384      0.614835696      49.8016307       
117              0.621278013      49.2872675       0.780970939      -40.4777633      0.780970939      -40.4777633      0.621461494      49.287336        
119              0.627773177      48.7790441       0.775791991      -40.9899797      0.775791991      -40.9899797      0.627958575      48.7791113       
121              0.634141675      48.2768402       0.770627423      -41.4960448      0.770627423      -41.4960448      0.634328951      48.2769063       
123              0.640385537      47.7806032       0.76547898       -41.9960177      0.76547898       -41.9960177      0.640574656      47.7806682       
125              0.64650681       47.2902785       0.760348311      -42.489959       0.760348311      -42.489959       0.646697734      47.2903424       
127              0.652507548      46.8058095       0.755236976      -42.9779309      0.755236976      -42.9779309      0.652700242      46.8058723       
129              0.658389814      46.3271381       0.750146446      -43.4599968      0.750146446      -43.4599968      0.658584244      46.3271999       
131              0.664155675      45.8542045       0.745078105      -43.9362213      0.745078105      -43.9362213      0.664351805      45.8542653       
133              0.669807195      45.3869478       0.740033257      -44.4066702      0.740033257      -44.4066702      0.670004992      45.3870076       
135              0.675346437      44.9253058       0.735013121      -44.8714098      0.735013121      -44.8714098      0.675545868      44.9253647       
137              0.680775457      44.4692153       0.730018843      -45.3305076      0.730018843      -45.3305076      0.680976489      44.4692733       
139              0.686096303      44.0186122       0.725051492      -45.7840315      0.725051492      -45.7840315      0.686298904      44.0186693       
141              0.69131101       43.5734316       0.720112066      -46.2320501      0.720112066      -46.2320501      0.691515149      43.5734879       
143              0.696421602      43.1336082       0.715201493      -46.6746322      0.715201493      -46.6746322      0.696627247      43.1336637       
145              0.701430086      42.6990758       0.710320634      -47.1118471      0.710320634      -47.1118471      0.701637207      42.6991305       
147              0.706338452      42.2697681       0.705470288      -47.5437643      0.705470288      -47.5437643      0.70654702       42.2698219       
149              0.711148671      41.8456182       0.700651191      -47.9704536      0.700651191      -47.9704536      0.711358657      41.8456713       
151              0.715862694      41.4265593       0.69586402       -48.3919846      0.69586402       -48.3919846      0.71607407       41.4266116       
153              0.72048245       41.0125241       0.691109397      -48.8084271      0.691109397      -48.8084271      0.720695187      41.0125757       
155              0.725009844      40.6034456       0.686387889      -49.2198508      0.686387889      -49.2198508      0.725223915      40.6034965       
157              0.729446759      40.1992566       0.681700013      -49.6263251      0.681700013      -49.6263251      0.729662137      40.1993068       
159              0.733795049      39.7998899       0.677046235      -50.0279193      0.677046235      -50.0279193      0.734011708      39.7999395       
161              0.738056546      39.4052788       0.672426977      -50.4247025      0.672426977      -50.4247025      0.73827446       39.4053277       
163              0.742233053      39.0153566       0.667842612      -50.8167433      0.667842612      -50.8167433      0.742452197      39.0154048       
165              0.746326346      38.6300567       0.663293474      -51.2041102      0.663293474      -51.2041102      0.746546696      38.6301043       
167              0.750338173      38.2493132       0.658779857      -51.5868709      0.658779857      -51.5868709      0.750559705      38.2493602       
169              0.754270254      37.8730604       0.654302012      -51.965093       0.654302012      -51.965093       0.754492944      37.8731067       
171              0.758124281      37.5012329       0.649860159      -52.3388434      0.649860159      -52.3388434      0.758348105      37.5012786       
173              0.761901915      37.1337659       0.645454481      -52.7081886      0.645454481      -52.7081886      0.762126851      37.1338111       
175              0.765604789      36.7705952       0.641085126      -53.0731943      0.641085126      -53.0731943      0.765830815      36.7706398       
177              0.769234506      36.4116568       0.636752214      -53.4339257      0.636752214      -53.4339257      0.769461601      36.4117009       
179              0.772792642      36.0568877       0.632455834      -53.7904476      0.632455834      -53.7904476      0.773020783      36.0569312       
181              0.776280739      35.706225        0.628196049      -54.1428239      0.628196049      -54.1428239      0.776509907      35.7062681       
183              0.779700314      35.3596069       0.623972893      -54.4911178      0.623972893      -54.4911178      0.779930487      35.3596494       
185              0.783052851      35.0169719       0.619786376      -54.8353919      0.619786376      -54.8353919      0.783284011      35.0170139       
187              0.786339809      34.6782593       0.615636486      -55.1757082      0.615636486      -55.1757082      0.786571935      34.6783008       
189              0.789562613      34.343409        0.611523188      -55.5121278      0.611523188      -55.5121278      0.789795687      34.34345         
191              0.792722663      34.0123616       0.607446426      -55.8447112      0.607446426      -55.8447112      0.792956667      34.0124021       
193              0.795821329      33.6850585       0.603406124      -56.1735179      0.603406124      -56.1735179      0.796056243      33.6850986       
195              0.798859952      33.3614418       0.59940219       -56.4986069      0.59940219       -56.4986069      0.79909576       33.3614814       
197              0.801839846      33.0414542       0.595434512      -56.8200364      0.595434512      -56.8200364      0.802076529      33.0414934       
199              0.804762297      32.7250393       0.591502964      -57.1378638      0.591502964      -57.1378638      0.804999838      32.725078        
201              0.807628562      32.4121413       0.587607405      -57.4521456      0.587607405      -57.4521456      0.807866946      32.4121796       
203              0.810439873      32.1027052       0.583747678      -57.7629376      0.583747678      -57.7629376      0.810679083      32.1027431       
205              0.813197435      31.7966768       0.579923615      -58.0702949      0.579923615      -58.0702949      0.813437454      31.7967143       
207              0.815902426      31.4940027       0.576135035      -58.3742717      0.576135035      -58.3742717      0.816143239      31.4940397       
209              0.818555997      31.19463         0.572381745      -58.6749215      0.572381745      -58.6749215      0.818797589      31.1946666       
211              0.821159276      30.8985068       0.568663543      -58.9722969      0.568663543      -58.9722969      0.821401632      30.8985431       
213              0.823713364      30.605582        0.564980217      -59.2664499      0.564980217      -59.2664499      0.82395647       30.6056179       
215              0.826219338      30.3158051       0.561331545      -59.5574314      0.561331545      -59.5574314      0.826463179      30.3158405       
217              0.828678251      30.0291263       0.557717297      -59.8452919      0.557717297      -59.8452919      0.828922813      30.0291614       
219              0.831091132      29.7454967       0.554137237      -60.1300809      0.554137237      -60.1300809      0.831336401      29.7455315       
221              0.833458985      29.4648682       0.55059112       -60.4118472      0.55059112       -60.4118472      0.833704949      29.4649026       
223              0.835782794      29.1871933       0.547078696      -60.6906387      0.547078696      -60.6906387      0.836029439      29.1872273       
225              0.838063518      28.9124253       0.543599709      -60.9665028      0.543599709      -60.9665028      0.838310831      28.912459        
227              0.840302096      28.6405183       0.540153897      -61.2394859      0.540153897      -61.2394859      0.840550065      28.6405516       
229              0.842499442      28.3714269       0.536740993      -61.5096337      0.536740993      -61.5096337      0.842748055      28.3714598       
231              0.844656453      28.1051066       0.533360728      -61.7769912      0.533360728      -61.7769912      0.844905698      28.1051393       
233              0.846774003      27.8415138       0.530012827      -62.0416029      0.530012827      -62.0416029      0.847023868      27.8415461       
235              0.848852946      27.5806052       0.526697013      -62.303512       0.526697013      -62.303512       0.849103419      27.5806372       
237              0.850894116      27.3223384       0.523413005      -62.5627616      0.523413005      -62.5627616      0.851145185      27.3223701       
239              0.852898327      27.0666719       0.52016052       -62.8193937      0.52016052       -62.8193937      0.853149983      27.0667033       
241              0.854866375      26.8135646       0.516939274      -63.0734497      0.516939274      -63.0734497      0.855118606      26.8135957       
243              0.856799037      26.5629761       0.513748978      -63.3249704      0.513748978      -63.3249704      0.857051833      26.5630069       
245              0.858697071      26.3148669       0.510589344      -63.5739958      0.510589344      -63.5739958      0.858950422      26.3148973       
247              0.860561219      26.0691978       0.507460084      -63.8205652      0.507460084      -63.8205652      0.860815115      26.069228        
249              0.862392204      25.8259306       0.504360905      -64.0647173      0.504360905      -64.0647173      0.862646635      25.8259605       
251              0.864190733      25.5850276       0.501291517      -64.3064902      0.501291517      -64.3064902      0.864445689      25.5850572       
253              0.865957496      25.3464518       0.498251628      -64.5459213      0.498251628      -64.5459213      0.866212967      25.3464811       
255              0.867693165      25.1101666       0.495240945      -64.7830474      0.495240945      -64.7830474      0.867949143      25.1101956       
