! Coilcraft 132-14SM_ Maxi Spring Air Core Inductor				
! 28 May 2003
# MHZ S MA R 50
!Freq             MagS11           AngS11           MagS21           AngS21           MagS12           AngS12           MagS22           AngS22
1                0.0148833152     65.0984079       0.993828397      -0.793631774     0.993828397      -0.793631774     0.0148862461     65.1034557       
3                0.0411761677     79.1364377       0.993095357      -2.3797583       0.993095357      -2.3797583       0.0411856879     79.1384131       
5                0.0680476842     80.9233807       0.991634087      -3.96248374      0.991634087      -3.96248374      0.0680636394     80.9245827       
7                0.094873561      80.8027727       0.98945412       -5.53957374      0.98945412       -5.53957374      0.0948958931     80.8036346       
9                0.121529245      80.0448461       0.986569538      -7.10884272      0.986569538      -7.10884272      0.121557898      80.0455175       
11               0.14794142       79.0024531       0.982998726      -8.66817197      0.982998726      -8.66817197      0.147976328      79.0030028       
13               0.174050935      77.8132148       0.978764048      -10.2155262      0.978764048      -10.2155262      0.174092023      77.8136801       
15               0.199805646      76.5424984       0.97389147       -11.7489686      0.97389147       -11.7489686      0.199852828      76.5429017       
17               0.225158556      75.2257574       0.968410134      -13.2666736      0.968410134      -13.2666736      0.225211735      75.2261133       
19               0.25006729       73.8841812       0.9623519        -14.766938       0.9623519        -14.766938       0.25012636       73.8844997       
21               0.274493975      72.5314123       0.955750862      -16.2481893      0.955750862      -16.2481893      0.274558822      72.5317004       
23               0.29840522       71.1767608       0.948642864      -17.7089922      0.948642864      -17.7089922      0.298475721      71.1770238       
25               0.321772098      69.8268772       0.941065017      -19.1480529      0.941065017      -19.1480529      0.321848124      69.8271191       
27               0.344570099      68.4866823       0.93305523       -20.5642209      0.93305523       -20.5642209      0.344651514      68.4869062       
29               0.366779034      67.1599139       0.924651773      -21.956489       0.924651773      -21.956489       0.3668657        67.1601224       
31               0.388382894      65.8494638       0.91589286       -23.3239917      0.91589286       -23.3239917      0.388474667      65.8496587       
33               0.409369664      64.5575944       0.906816286      -24.6660017      0.906816286      -24.6660017      0.409466399      64.5577775       
35               0.429731101      63.2860839       0.897459089      -25.9819254      0.897459089      -25.9819254      0.429832649      63.2862565       
37               0.449462483      62.0363268       0.887857272      -27.2712965      0.887857272      -27.2712965      0.449568695      62.03649         
39               0.468562335      60.8094065       0.87804556       -28.5337696      0.87804556       -28.5337696      0.468673062      60.8095613       
41               0.487032145      59.6061491       0.868057204      -29.7691126      0.868057204      -29.7691126      0.487147238      59.6062963       
43               0.504876071      58.4271649       0.857923824      -30.9771988      0.857923824      -30.9771988      0.504995381      58.4273052       
45               0.522100645      57.2728813       0.847675301      -32.1579981      0.847675301      -32.1579981      0.522224027      57.2730153       
47               0.53871449       56.1435696       0.837339693      -33.3115694      0.837339693      -33.3115694      0.538841799      56.1436978       
49               0.554728038      55.0393667       0.826943194      -34.4380515      0.826943194      -34.4380515      0.554859131      55.0394896       
51               0.570153263      53.9602946       0.816510116      -35.5376553      0.816510116      -35.5376553      0.570288002      53.9604126       
53               0.585003436      52.9062762       0.806062896      -36.6106554      0.806062896      -36.6106554      0.585141685      52.9063897       
55               0.599292886      51.8771494       0.795622131      -37.6573828      0.795622131      -37.6573828      0.599434512      51.8772587       
57               0.613036789      50.8726794       0.785206619      -38.6782174      0.785206619      -38.6782174      0.613181663      50.8727848       
59               0.626250972      49.8925697       0.774833425      -39.6735812      0.774833425      -39.6735812      0.626398969      49.8926715       
61               0.638951737      48.9364717       0.764517951      -40.6439317      0.764517951      -40.6439317      0.639102735      48.9365701       
63               0.651155702      48.0039931       0.754274017      -41.5897564      0.754274017      -41.5897564      0.651309584      48.0040883       
65               0.662879664      47.0947057       0.744113945      -42.511567       0.744113945      -42.511567       0.663036317      47.094798        
67               0.674140474      46.2081519       0.734048653      -43.4098945      0.734048653      -43.4098945      0.674299788      46.2082414       
69               0.684954934      45.3438508       0.72408774       -44.2852848      0.72408774       -44.2852848      0.685116802      45.3439375       
71               0.695339702      44.5013031       0.714239581      -45.1382946      0.714239581      -45.1382946      0.695504025      44.5013874       
73               0.70531122       43.6799964       0.704511417      -45.9694878      0.704511417      -45.9694878      0.705477899      43.6800783       
75               0.714885646      42.8794085       0.694909442      -46.7794323      0.694909442      -46.7794323      0.715054586      42.8794881       
77               0.724078799      42.0990114       0.685438887      -47.5686972      0.685438887      -47.5686972      0.724249912      42.099089        
79               0.732906122      41.3382744       0.676104103      -48.3378502      0.676104103      -48.3378502      0.73307932       41.3383499       
81               0.741382641      40.5966664       0.66690864       -49.0874554      0.66690864       -49.0874554      0.741557841      40.59674         
83               0.749522944      39.8736588       0.657855316      -49.8180717      0.657855316      -49.8180717      0.749700067      39.8737305       
85               0.757341158      39.1687267       0.648946291      -50.5302509      0.648946291      -50.5302509      0.757520127      39.1687967       
87               0.764850938      38.4813513       0.640183128      -51.2245366      0.640183128      -51.2245366      0.765031682      38.4814197       
89               0.77206546       37.811021        0.631566858      -51.901463       0.631566858      -51.901463       0.772247908      37.8110878       
91               0.778997416      37.1572325       0.623098028      -52.5615538      0.623098028      -52.5615538      0.7791815        37.1572977       
93               0.785659012      36.5194919       0.614776762      -53.2053216      0.614776762      -53.2053216      0.78584467       36.5195556       
95               0.792061977      35.8973154       0.606602801      -53.8332673      0.606602801      -53.8332673      0.792249147      35.8973777       
97               0.798217566      35.29023         0.598575553      -54.4458796      0.598575553      -54.4458796      0.798406189      35.290291        
99               0.804136566      34.697774        0.590694127      -55.0436347      0.590694127      -55.0436347      0.804326587      34.6978338       
101              0.809829312      34.1194974       0.582957374      -55.6269959      0.582957374      -55.6269959      0.810020677      34.1195559       
103              0.815305693      33.5549618       0.57536392       -56.1964139      0.57536392       -56.1964139      0.815498351      33.5550191       
105              0.820575167      33.003741        0.567912193      -56.7523261      0.567912193      -56.7523261      0.820769069      33.0037972       
107              0.825646775      32.465421        0.560600454      -57.2951571      0.560600454      -57.2951571      0.825841874      32.465476        
109              0.830529153      31.9395996       0.553426819      -57.8253186      0.553426819      -57.8253186      0.830725404      31.9396536       
111              0.835230547      31.425887        0.546389286      -58.3432096      0.546389286      -58.3432096      0.835427908      31.4259399       
113              0.83975883       30.9239051       0.539485747      -58.8492163      0.539485747      -58.8492163      0.839957259      30.9239571       
115              0.84412151       30.4332879       0.532714016      -59.3437128      0.532714016      -59.3437128      0.844320969      30.4333389       
117              0.848325755      29.9536807       0.526071837      -59.8270607      0.526071837      -59.8270607      0.848526205      29.9537308       
119              0.852378395      29.4847405       0.519556902      -60.2996099      0.519556902      -60.2996099      0.852579801      29.4847897       
121              0.856285947      29.0261355       0.513166864      -60.7616985      0.513166864      -60.7616985      0.856488275      29.0261837       
123              0.860054621      28.5775446       0.506899348      -61.2136534      0.506899348      -61.2136534      0.860257838      28.577592        
125              0.863690341      28.1386577       0.500751961      -61.6557902      0.500751961      -61.6557902      0.863894415      28.1387043       
127              0.867198749      27.709175        0.494722301      -62.088414       0.494722301      -62.088414       0.86740365       27.7092209       
129              0.870585226      27.2888069       0.488807965      -62.5118191      0.488807965      -62.5118191      0.870790925      27.2888519       
131              0.873854899      26.8772735       0.483006557      -62.9262898      0.483006557      -62.9262898      0.87406137       26.8773178       
133              0.877012658      26.4743045       0.477315692      -63.3321008      0.477315692      -63.3321008      0.877219873      26.4743481       
135              0.88006316       26.0796392       0.471733001      -63.7295168      0.471733001      -63.7295168      0.880271094      26.079682        
137              0.883010848      25.6930253       0.466256141      -64.1187937      0.466256141      -64.1187937      0.883219476      25.6930675       
139              0.885859955      25.3142198       0.460882791      -64.5001783      0.460882791      -64.5001783      0.886069254      25.3142613       
141              0.888614518      24.9429876       0.455610662      -64.8739087      0.455610662      -64.8739087      0.888824466      24.9430285       
143              0.891278386      24.5791021       0.450437494      -65.240215       0.450437494      -65.240215       0.891488961      24.5791423       
145              0.893855231      24.2223443       0.445361066      -65.5993188      0.445361066      -65.5993188      0.894066413      24.2223839       
147              0.896348553      23.8725029       0.44037919       -65.9514345      0.44037919       -65.9514345      0.896560322      23.8725419       
149              0.898761692      23.5293738       0.435489718      -66.2967686      0.435489718      -66.2967686      0.898974029      23.5294123       
151              0.901097835      23.1927601       0.430690541      -66.6355207      0.430690541      -66.6355207      0.901310721      23.192798        
153              0.903360022      22.8624717       0.425979591      -66.9678832      0.425979591      -66.9678832      0.90357344       22.862509        
155              0.905551156      22.5383248       0.421354842      -67.294042       0.421354842      -67.294042       0.905765089      22.5383616       
157              0.907674006      22.2201422       0.416814307      -67.6141766      0.416814307      -67.6141766      0.907888439      22.2201785       
159              0.909731219      21.9077527       0.412356046      -67.9284602      0.412356046      -67.9284602      0.909946135      21.9077885       
161              0.911725319      21.6009909       0.407978159      -68.23706        0.407978159      -68.23706        0.911940705      21.6010262       
163              0.913658721      21.2996971       0.403678787      -68.5401376      0.403678787      -68.5401376      0.91387456       21.2997319       
165              0.915533729      21.003717        0.399456116      -68.8378491      0.399456116      -68.8378491      0.915750009      21.0037513       
167              0.917352546      20.7129015       0.395308375      -69.1303449      0.395308375      -69.1303449      0.917569253      20.7129353       
169              0.919117278      20.4271067       0.391233831      -69.4177709      0.391233831      -69.4177709      0.9193344        20.42714         
171              0.920829939      20.1461933       0.387230796      -69.7002675      0.387230796      -69.7002675      0.921047462      20.1462262       
173              0.922492452      19.8700269       0.383297623      -69.9779707      0.383297623      -69.9779707      0.922710366      19.8700594       
175              0.924106661      19.5984776       0.379432702      -70.2510118      0.379432702      -70.2510118      0.924324953      19.5985096       
177              0.925674325      19.3314195       0.375634467      -70.5195178      0.375634467      -70.5195178      0.925892985      19.3314511       
179              0.927197132      19.0687312       0.37190139       -70.7836113      0.37190139       -70.7836113      0.927416149      19.0687624       
181              0.928676695      18.8102952       0.368231979      -71.0434111      0.368231979      -71.0434111      0.928896058      18.810326        
183              0.930114559      18.5559979       0.364624784      -71.299032       0.364624784      -71.299032       0.930334259      18.5560283       
185              0.931512204      18.3057293       0.361078389      -71.5505847      0.361078389      -71.5505847      0.93173223       18.3057593       
187              0.932871046      18.0593831       0.357591415      -71.7981769      0.357591415      -71.7981769      0.933091391      18.0594128       
189              0.934192445      17.8168564       0.354162519      -72.0419122      0.354162519      -72.0419122      0.934413099      17.8168856       
191              0.935477701      17.5780495       0.350790394      -72.2818913      0.350790394      -72.2818913      0.935698655      17.5780784       
193              0.936728062      17.3428661       0.347473764      -72.5182113      0.347473764      -72.5182113      0.936949308      17.3428947       
195              0.937944724      17.1112129       0.344211389      -72.7509665      0.344211389      -72.7509665      0.938166255      17.1112411       
197              0.939128835      16.8829994       0.341002059      -72.980248       0.341002059      -72.980248       0.939350643      16.8830273       
199              0.940281496      16.6581382       0.337844599      -73.2061441      0.337844599      -73.2061441      0.940503573      16.6581657       
201              0.941403762      16.4365446       0.33473786       -73.4287403      0.33473786       -73.4287403      0.941626101      16.4365717       
203              0.942496648      16.2181363       0.331680728      -73.6481194      0.331680728      -73.6481194      0.942719241      16.2181631       
205              0.943561126      16.0028338       0.328672114      -73.8643616      0.328672114      -73.8643616      0.943783967      16.0028603       
207              0.944598131      15.79056         0.325710962      -74.0775448      0.325710962      -74.0775448      0.944821214      15.7905862       
209              0.945608561      15.5812402       0.322796239      -74.2877442      0.322796239      -74.2877442      0.945831879      15.5812661       
211              0.946593279      15.3748019       0.319926944      -74.4950329      0.319926944      -74.4950329      0.946816826      15.3748275       
213              0.947553112      15.1711749       0.317102097      -74.6994817      0.317102097      -74.6994817      0.947776882      15.1712001       
215              0.948488858      14.9702909       0.314320748      -74.9011593      0.314320748      -74.9011593      0.948712845      14.9703159       
217              0.949401282      14.772084        0.311581969      -75.1001324      0.311581969      -75.1001324      0.949625481      14.7721087       
219              0.950291121      14.5764901       0.308884859      -75.2964654      0.308884859      -75.2964654      0.950515527      14.5765145       
221              0.951159084      14.3834468       0.306228539      -75.4902211      0.306228539      -75.4902211      0.951383691      14.3834709       
223              0.952005852      14.1928939       0.303612151      -75.6814603      0.303612151      -75.6814603      0.952230655      14.1929177       
225              0.952832081      14.0047727       0.301034864      -75.870242       0.301034864      -75.870242       0.953057076      14.0047963       
227              0.953638402      13.8190264       0.298495864      -76.0566236      0.298495864      -76.0566236      0.953863584      13.8190497       
229              0.954425425      13.6355997       0.29599436       -76.2406607      0.29599436       -76.2406607      0.954650788      13.6356227       
231              0.955193733      13.454439        0.293529583      -76.4224073      0.293529583      -76.4224073      0.955419274      13.4544618       
233              0.955943891      13.2754921       0.291100781      -76.6019159      0.291100781      -76.6019159      0.956169605      13.2755147       
235              0.956676442      13.0987085       0.288707224      -76.7792375      0.288707224      -76.7792375      0.956902325      13.0987308       
237              0.95739191       12.924039        0.286348198      -76.9544215      0.286348198      -76.9544215      0.957617958      12.9240611       
239              0.958090799      12.7514358       0.284023009      -77.1275161      0.284023009      -77.1275161      0.958317009      12.7514576       
241              0.958773597      12.5808524       0.281730981      -77.2985681      0.281730981      -77.2985681      0.958999963      12.5808739       
243              0.959440772      12.4122437       0.279471455      -77.467623       0.279471455      -77.467623       0.959667292      12.412265        
245              0.960092777      12.2455657       0.277243788      -77.6347248      0.277243788      -77.6347248      0.960319446      12.2455867       
247              0.960730048      12.0807757       0.275047354      -77.7999167      0.275047354      -77.7999167      0.960956864      12.0807966       
249              0.961353007      11.9178323       0.272881542      -77.9632404      0.272881542      -77.9632404      0.961579965      11.9178529       
251              0.96196206       11.756695        0.270745758      -78.1247365      0.270745758      -78.1247365      0.962189158      11.7567154       
253              0.9625576        11.5973245       0.268639422      -78.2844447      0.268639422      -78.2844447      0.962784834      11.5973447       
255              0.963140006      11.4396825       0.266561967      -78.4424034      0.266561967      -78.4424034      0.963367373      11.4397025       
