! Coilcraft 132-18SM_ Maxi Spring Air Core Inductor				
! 28 May 2003
# MHZ S MA R 50
!Freq             MagS11           AngS11           MagS21           AngS21           MagS12           AngS12           MagS22           AngS22
1                0.027666278      65.5702681       0.988886554      -1.47782882      0.988886554      -1.47782882      0.0276724499     65.5756797       
2                0.0520311998     75.0909373       0.987925001      -2.95377257      0.987925001      -2.95377257      0.0520443013     75.0939913       
3                0.0769866538     77.5392828       0.986328603      -4.42596074      0.986328603      -4.42596074      0.0770065124     77.5413684       
4                0.101979648      78.0641524       0.98410654       -5.89255174      0.98410654       -5.89255174      0.10200618       78.0657301       
5                0.126854552      77.8072382       0.981271461      -7.3517466       0.981271461      -7.3517466       0.126887688      77.8085053       
6                0.151529459      77.1611642       0.977839283      -8.80180196      0.977839283      -8.80180196      0.151569127      77.1622224       
7                0.175945711      76.2972039       0.973828951      -10.241042       0.973828951      -10.241042       0.175991831      76.298112        
8                0.200055153      75.3023127       0.969262152      -11.667869       0.969262152      -11.667869       0.200107638      75.3031079       
9                0.223815996      74.2256092       0.964163006      -13.0807729      0.964163006      -13.0807729      0.223874749      74.2263164       
10               0.247191264      73.0971465       0.958557728      -14.4783391      0.958557728      -14.4783391      0.247256181      73.0977832       
11               0.270148151      71.9364943       0.95247428       -15.8592548      0.95247428       -15.8592548      0.270219119      71.9370733       
12               0.292657729      70.7570454       0.945942014      -17.2223136      0.945942014      -17.2223136      0.292734627      70.7575762       
13               0.314694787      69.5683412       0.938991326      -18.566419       0.938991326      -18.566419       0.314777491      69.5688311       
14               0.33623772       68.3774029       0.931653305      -19.8905861      0.931653305      -19.8905861      0.336326099      68.3778579       
15               0.357268413      67.1895327       0.923959413      -21.193942       0.923959413      -21.193942       0.357362331      67.1899573       
16               0.377772117      66.0088158       0.915941175      -22.4757247      0.915941175      -22.4757247      0.377871434      66.0092138       
17               0.397737303      64.8384475       0.907629903      -23.7352813      0.907629903      -23.7352813      0.397841878      64.8388221       
18               0.417155499      63.6809527       0.899056435      -24.9720648      0.899056435      -24.9720648      0.417265186      63.6813064       
19               0.436021102      62.5383383       0.890250921      -26.1856303      0.890250921      -26.1856303      0.436135756      62.5386733       
20               0.454331184      61.4122017       0.881242623      -27.37563        0.881242623      -27.37563        0.454450659      61.4125199       
21               0.472085282      60.3038103       0.872059754      -28.5418087      0.872059754      -28.5418087      0.47220943       60.3041133       
22               0.489285182      59.2141611       0.862729349      -29.6839972      0.862729349      -29.6839972      0.489413858      59.2144504       
23               0.505934705      58.1440267       0.853277156      -30.8021072      0.853277156      -30.8021072      0.506067763      58.1443033       
24               0.522039486      57.0939911       0.843727564      -31.8961248      0.843727564      -31.8961248      0.522176784      57.0942561       
25               0.537606768      56.0644789       0.834103543      -32.9661044      0.834103543      -32.9661044      0.537748164      56.0647333       
26               0.552645197      55.0557789       0.824426622      -34.0121626      0.824426622      -34.0121626      0.55279055       55.0560234       
27               0.567164621      54.0680636       0.814716868      -35.0344721      0.814716868      -35.0344721      0.567313797      54.0682989       
28               0.581175916      53.1014061       0.8049929        -36.0332559      0.8049929        -36.0332559      0.581328779      53.101633        
29               0.594690805      52.1557941       0.795271905      -37.0087814      0.795271905      -37.0087814      0.594847225      52.1560131       
30               0.607721702      51.231142        0.785569672      -37.9613554      0.785569672      -37.9613554      0.607881551      51.2313536       
31               0.620281566      50.3273016       0.775900633      -38.8913186      0.775900633      -38.8913186      0.620444721      50.3275064       
32               0.632383768      49.4440715       0.766277917      -39.7990413      0.766277917      -39.7990413      0.632550108      49.4442698       
33               0.64404197       48.5812047       0.756713403      -40.6849184      0.756713403      -40.6849184      0.644211378      48.5813969       
34               0.655270018      47.7384162       0.747217784      -41.5493657      0.747217784      -41.5493657      0.655442381      47.7386027       
35               0.666081848      46.9153892       0.737800628      -42.3928157      0.737800628      -42.3928157      0.666257056      46.9155703       
36               0.6764914        46.1117804       0.728470447      -43.2157146      0.728470447      -43.2157146      0.676669347      46.1119564       
37               0.686512547      45.3272253       0.719234763      -44.0185189      0.719234763      -44.0185189      0.686693131      45.3273964       
38               0.696159032      44.561342        0.710100169      -44.8016924      0.710100169      -44.8016924      0.696342154      44.5615086       
39               0.705444412      43.8137354       0.701072403      -45.5657039      0.701072403      -45.5657039      0.705629978      43.8138977       
40               0.714382018      43.0840006       0.692156404      -46.3110249      0.692156404      -46.3110249      0.714569935      43.0841587       
41               0.72298491       42.3717253       0.683356376      -47.0381272      0.683356376      -47.0381272      0.723175091      42.3718795       
42               0.731265852      41.6764929       0.674675849      -47.7474819      0.674675849      -47.7474819      0.731458213      41.6766434       
43               0.739237287      40.9978845       0.666117733      -48.4395568      0.666117733      -48.4395568      0.739431745      40.9980314       
44               0.746911315      40.3354808       0.657684372      -49.1148159      0.657684372      -49.1148159      0.747107792      40.3356244       
45               0.75429968       39.6888641       0.649377592      -49.7737177      0.649377592      -49.7737177      0.754498101      39.6890043       
46               0.761413759      39.0576191       0.641198756      -50.4167145      0.641198756      -50.4167145      0.761614052      39.0577563       
47               0.768264558      38.4413349       0.633148798      -51.0442513      0.633148798      -51.0442513      0.768466653      38.441469        
48               0.774862708      37.8396053       0.625228275      -51.6567654      0.625228275      -51.6567654      0.775066539      37.8397366       
49               0.78121846       37.2520304       0.617437395      -52.2546853      0.617437395      -52.2546853      0.781423963      37.252159        
50               0.787341695      36.6782168       0.609776064      -52.8384307      0.609776064      -52.8384307      0.787548809      36.6783427       
51               0.793241919      36.1177784       0.602243908      -53.4084121      0.602243908      -53.4084121      0.793450585      36.1179018       
52               0.798928274      35.570337        0.594840312      -53.96503        0.594840312      -53.96503        0.799138436      35.5704579       
53               0.804409544      35.0355223       0.587564442      -54.5086753      0.587564442      -54.5086753      0.804621148      35.0356409       
54               0.809694161      34.5129727       0.580415276      -55.0397289      0.580415276      -55.0397289      0.809907156      34.513089        
55               0.814790215      34.0023352       0.573391622      -55.5585615      0.573391622      -55.5585615      0.81500455       34.0024493       
56               0.819705463      33.5032657       0.566492143      -56.0655338      0.566492143      -56.0655338      0.81992109       33.5033777       
57               0.824447337      33.0154289       0.559715376      -56.5609962      0.559715376      -56.5609962      0.824664212      33.0155389       
58               0.829022959      32.5384987       0.55305975       -57.0452894      0.55305975       -57.0452894      0.829241038      32.5386067       
59               0.833439147      32.0721577       0.546523599      -57.5187439      0.546523599      -57.5187439      0.833658387      32.0722639       
60               0.837702426      31.6160977       0.540105182      -57.9816804      0.540105182      -57.9816804      0.837922787      31.616202        
61               0.841819042      31.1700192       0.533802691      -58.43441        0.533802691      -58.43441        0.842040486      31.1701217       
62               0.845794969      30.7336314       0.527614266      -58.8772343      0.527614266      -58.8772343      0.846017459      30.7337322       
63               0.849635922      30.3066525       0.521538005      -59.3104455      0.521538005      -59.3104455      0.849859421      30.3067516       
64               0.853347364      29.8888087       0.515571972      -59.7343266      0.515571972      -59.7343266      0.853571839      29.8889062       
65               0.856934521      29.479835        0.50971421       -60.1491518      0.50971421       -60.1491518      0.85715994       29.4799309       
66               0.860402389      29.0794743       0.503962742      -60.5551865      0.503962742      -60.5551865      0.860628719      29.0795687       
67               0.863755743      28.6874776       0.498315583      -60.9526876      0.498315583      -60.9526876      0.863982955      28.6875705       
68               0.866999149      28.3036037       0.492770747      -61.3419037      0.492770747      -61.3419037      0.867227214      28.3036952       
69               0.87013697       27.927619        0.487326246      -61.7230755      0.487326246      -61.7230755      0.87036586       27.9277091       
70               0.873173379      27.5592973       0.481980101      -62.0964357      0.481980101      -62.0964357      0.873403067      27.5593861       
71               0.876112364      27.1984197       0.476730343      -62.4622096      0.476730343      -62.4622096      0.876342825      27.1985071       
72               0.878957737      26.8447743       0.47157502       -62.8206148      0.47157502       -62.8206148      0.879188946      26.8448604       
73               0.881713142      26.4981558       0.466512195      -63.1718622      0.466512195      -63.1718622      0.881945076      26.4982407       
74               0.884382066      26.1583659       0.461539954      -63.5161555      0.461539954      -63.5161555      0.8846147        26.1584496       
75               0.886967839      25.8252124       0.456656403      -63.8536917      0.456656403      -63.8536917      0.887201153      25.8252949       
76               0.889473648      25.4985093       0.451859678      -64.1846616      0.451859678      -64.1846616      0.889707621      25.4985907       
77               0.891902541      25.1780769       0.447147936      -64.5092494      0.447147936      -64.5092494      0.892137152      25.1781571       
78               0.894257433      24.863741        0.442519367      -64.8276334      0.442519367      -64.8276334      0.894492663      24.8638201       
79               0.896541111      24.5553333       0.43797219       -65.1399861      0.43797219       -65.1399861      0.896776941      24.5554113       
80               0.898756244      24.2526907       0.433504652      -65.4464743      0.433504652      -65.4464743      0.898992656      24.2527677       
81               0.900905385      23.9556556       0.429115033      -65.7472593      0.429115033      -65.7472593      0.901142361      23.9557316       
82               0.902990976      23.6640753       0.424801647      -66.0424972      0.424801647      -66.0424972      0.903228501      23.6641503       
83               0.905015357      23.3778023       0.420562836      -66.332339       0.420562836      -66.332339       0.905253414      23.3778763       
84               0.906980767      23.0966934       0.416396979      -66.6169306      0.416396979      -66.6169306      0.90721934       23.0967665       
85               0.90888935       22.8206105       0.412302486      -66.8964135      0.412302486      -66.8964135      0.909128424      22.8206826       
86               0.910743159      22.5494196       0.4082778        -67.1709244      0.4082778        -67.1709244      0.91098272       22.5494908       
87               0.912544161      22.282991        0.404321398      -67.4405956      0.404321398      -67.4405956      0.912784195      22.2830614       
88               0.914294241      22.0211994       0.400431789      -67.7055552      0.400431789      -67.7055552      0.914534734      22.0212689       
89               0.915995205      21.7639232       0.396607515      -67.9659271      0.396607515      -67.9659271      0.916236145      21.7639918       
90               0.917648783      21.5110447       0.392847151      -68.2218314      0.392847151      -68.2218314      0.917890157      21.5111125       
91               0.919256636      21.26245         0.389149303      -68.4733843      0.389149303      -68.4733843      0.919498432      21.262517        
92               0.920820355      21.0180289       0.385512609      -68.7206982      0.385512609      -68.7206982      0.921062561      21.018095        
93               0.922341465      20.7776743       0.381935741      -68.9638821      0.381935741      -68.9638821      0.922584071      20.7777397       
94               0.923821431      20.5412828       0.378417398      -69.2030415      0.378417398      -69.2030415      0.924064425      20.5413475       
95               0.925261657      20.3087541       0.374956313      -69.4382786      0.374956313      -69.4382786      0.925505029      20.308818        
96               0.926663491      20.0799909       0.371551246      -69.6696925      0.371551246      -69.6696925      0.926907231      20.0800541       
97               0.928028228      19.8548991       0.368200988      -69.897379       0.368200988      -69.897379       0.928272326      19.8549616       
98               0.92935711       19.6333874       0.36490436       -70.1214312      0.36490436       -70.1214312      0.929601556      19.6334491       
99               0.930651329      19.4153672       0.36166021       -70.3419391      0.36166021       -70.3419391      0.930896115      19.4154283       
100              0.931912032      19.2007528       0.358467412      -70.55899        0.358467412      -70.55899        0.932157148      19.2008132       
101              0.93314032       18.9894609       0.355324872      -70.7726687      0.355324872      -70.7726687      0.933385758      18.9895206       
102              0.93433725       18.7814109       0.352231519      -70.9830573      0.352231519      -70.9830573      0.934583002      18.78147         
103              0.93550384       18.5765246       0.349186308      -71.1902354      0.349186308      -71.1902354      0.935749898      18.5765829       
104              0.936641067      18.3747259       0.346188222      -71.3942801      0.346188222      -71.3942801      0.936887423      18.3747836       
105              0.937749871      18.1759412       0.343236267      -71.5952664      0.343236267      -71.5952664      0.937996518      18.1759984       
106              0.938831157      17.9800992       0.340329475      -71.793267       0.340329475      -71.793267       0.939078087      17.9801557       
107              0.939885793      17.7871304       0.337466899      -71.9883524      0.337466899      -71.9883524      0.940132999      17.7871863       
108              0.940914618      17.5969675       0.334647618      -72.180591       0.334647618      -72.180591       0.941162093      17.5970228       
109              0.941918435      17.4095451       0.331870733      -72.3700493      0.331870733      -72.3700493      0.942166174      17.4095999       
110              0.942898022      17.2247999       0.329135365      -72.5567917      0.329135365      -72.5567917      0.943146017      17.2248541       
111              0.943854123      17.0426701       0.326440661      -72.7408808      0.326440661      -72.7408808      0.944102368      17.0427238       
112              0.944787459      16.8630961       0.323785785      -72.9223776      0.323785785      -72.9223776      0.945035948      16.8631491       
113              0.945698721      16.6860195       0.321169923      -73.1013409      0.321169923      -73.1013409      0.945947449      16.6860721       
114              0.946588577      16.511384        0.318592281      -73.2778282      0.318592281      -73.2778282      0.946837538      16.5114361       
115              0.94745767       16.3391348       0.316052084      -73.4518952      0.316052084      -73.4518952      0.947706858      16.3391863       
116              0.948306619      16.1692184       0.313548577      -73.6235961      0.313548577      -73.6235961      0.94855603       16.1692694       
117              0.949136023      16.0015831       0.311081023      -73.7929835      0.311081023      -73.7929835      0.94938565       16.0016336       
118              0.949946456      15.8361785       0.308648702      -73.9601085      0.308648702      -73.9601085      0.950196295      15.8362285       
119              0.950738475      15.6729556       0.306250914      -74.1250209      0.306250914      -74.1250209      0.950988521      15.6730051       
120              0.951512615      15.5118668       0.303886972      -74.287769       0.303886972      -74.287769       0.951762864      15.5119158       
121              0.952269395      15.3528658       0.301556211      -74.4483999      0.301556211      -74.4483999      0.952519841      15.3529143       
122              0.953009312      15.1959075       0.299257977      -74.6069592      0.299257977      -74.6069592      0.953259952      15.1959556       
123              0.953732849      15.0409482       0.296991636      -74.7634914      0.296991636      -74.7634914      0.953983678      15.0409958       
124              0.954440471      14.8879451       0.294756566      -74.9180398      0.294756566      -74.9180398      0.954691484      14.8879923       
125              0.955132627      14.7368569       0.292552163      -75.0706465      0.292552163      -75.0706465      0.955383821      14.7369036       
126              0.955809751      14.5876431       0.290377834      -75.2213525      0.290377834      -75.2213525      0.956061121      14.5876893       
127              0.956472261      14.4402644       0.288233003      -75.3701976      0.288233003      -75.3701976      0.956723804      14.4403102       
128              0.957120563      14.2946825       0.286117107      -75.5172207      0.286117107      -75.5172207      0.957372275      14.2947279       
