! Coilcraft 132-17SM_ Maxi Spring Air Core Inductor				
! 28 May 2003
# MHZ S MA R 50
!Freq             MagS11           AngS11           MagS21           AngS21           MagS12           AngS12           MagS22           AngS22
1                0.0251104995     65.44618         0.989835229      -1.3383953       0.989835229      -1.3383953       0.0251155409     65.4511129       
2                0.0471664186     75.2203887       0.989045296      -2.67538713      0.989045296      -2.67538713      0.0471771373     75.2231804       
3                0.069787596      77.8539152       0.987732923      -4.00958095      0.987732923      -4.00958095      0.0698038523     77.8558228       
4                0.09247031       78.5401247       0.985904324      -5.33959992      0.985904324      -5.33959992      0.0924920405     78.5415681       
5                0.115078322      78.4330551       0.983568085      -6.66409342      0.983568085      -6.66409342      0.115105477      78.4342145       
6                0.137543236      77.9295741       0.980735052      -7.98174515      0.980735052      -7.98174515      0.137575764      77.9305424       
7                0.159817571      77.2026345       0.977418194      -9.29128068      0.977418194      -9.29128068      0.159855418      77.2034655       
8                0.181862841      76.3398814       0.973632444      -10.5914744      0.973632444      -10.5914744      0.181905946      76.3406091       
9                0.20364564       75.3906911       0.969394513      -11.8811558      0.969394513      -11.8811558      0.203693937      75.3913383       
10               0.225136157      74.3851732       0.964722699      -13.1592148      0.964722699      -13.1592148      0.225189574      74.3857559       
11               0.246307546      73.3428602       0.959636677      -14.4246066      0.959636677      -14.4246066      0.246366005      73.3433901       
12               0.267135652      72.2770696       0.954157287      -15.6763552      0.954157287      -15.6763552      0.26719907       72.2775553       
13               0.287598876      71.1972574       0.948306313      -16.9135564      0.948306313      -16.9135564      0.287667164      71.1977059       
14               0.307678093      70.1103674       0.942106272      -18.1353798      0.942106272      -18.1353798      0.30775116       70.1107838       
15               0.327356602      69.0216403       0.935580198      -19.3410704      0.935580198      -19.3410704      0.327434352      69.0220289       
16               0.34662006       67.9351215       0.928751445      -20.5299484      0.928751445      -20.5299484      0.346702393      67.9354858       
17               0.365456415      66.8539901       0.921643491      -21.7014096      0.921643491      -21.7014096      0.365543229      66.854333        
18               0.383855831      65.7807795       0.914279759      -22.8549238      0.914279759      -22.8549238      0.383947022      65.7811033       
19               0.401810591      64.7175287       0.906683455      -23.9900338      0.906683455      -23.9900338      0.401906053      64.7178355       
20               0.419314995      63.6658902       0.898877418      -25.106353       0.898877418      -25.106353       0.419414621      63.6661816       
21               0.436365249      62.6272071       0.890883988      -26.2035631      0.890883988      -26.2035631      0.43646893       62.6274846       
22               0.45295934       61.6025714       0.882724894      -27.2814108      0.882724894      -27.2814108      0.453066968      61.6028362       
23               0.46909691       60.592867        0.874421153      -28.3397051      0.874421153      -28.3397051      0.469208375      60.5931202       
24               0.484779125      59.5988038       0.865992988      -29.3783134      0.865992988      -29.3783134      0.48489432       59.5990465       
25               0.500008543      58.6209446       0.857459768      -30.3971583      0.857459768      -30.3971583      0.50012736       58.6211775       
26               0.514788983      57.6597261       0.848839953      -31.3962134      0.848839953      -31.3962134      0.514911314      57.65995         
27               0.529125392      56.7154768       0.840151056      -32.3755001      0.840151056      -32.3755001      0.529251133      56.7156924       
28               0.543023723      55.7884314       0.831409624      -33.3350834      0.831409624      -33.3350834      0.543152769      55.7886393       
29               0.55649081       54.8787435       0.822631223      -34.2750683      0.822631223      -34.2750683      0.556623058      54.8789441       
30               0.56953425       53.9864956       0.813830435      -35.1955961      0.813830435      -35.1955961      0.569669599      53.9866895       
31               0.582162297      53.1117087       0.805020865      -36.096841       0.805020865      -36.096841       0.582300649      53.1118963       
32               0.594383757      52.2543501       0.796215157      -36.9790065      0.796215157      -36.9790065      0.594525016      52.2545318       
33               0.606207892      51.4143401       0.787425014      -37.8423222      0.787425014      -37.8423222      0.606351962      51.4145162       
34               0.617644328      50.5915586       0.778661222      -38.6870407      0.778661222      -38.6870407      0.617791117      50.5917295       
35               0.628702979      49.7858501       0.769933686      -39.5134348      0.769933686      -39.5134348      0.628852397      49.786016        
36               0.639393968      48.9970289       0.761251459      -40.3217944      0.761251459      -40.3217944      0.639545928      48.9971902       
37               0.649727561      48.2248832       0.752622783      -41.1124243      0.752622783      -41.1124243      0.649881978      48.2250401       
38               0.659714108      47.4691792       0.744055123      -41.8856414      0.744055123      -41.8856414      0.659870899      47.4693319       
39               0.669363987      46.7296642       0.735555213      -42.641773       0.735555213      -42.641773       0.669523073      46.729813        
40               0.678687557      46.0060703       0.727129091      -43.3811544      0.727129091      -43.3811544      0.678848859      46.0062152       
41               0.687695115      45.2981163       0.718782142      -44.1041273      0.718782142      -44.1041273      0.687858559      45.2982577       
42               0.696396862      44.605511        0.71051914       -44.8110379      0.71051914       -44.8110379      0.696562375      44.6056489       
43               0.704802869      43.9279548       0.702344282      -45.5022353      0.702344282      -45.5022353      0.70497038       43.9280896       
44               0.712923048      43.2651422       0.694261234      -46.1780704      0.694261234      -46.1780704      0.71309249       43.2652738       
45               0.720767136      42.616763        0.686273165      -46.8388947      0.686273165      -46.8388947      0.720938442      42.6168917       
46               0.728344666      41.9825042       0.67838278       -47.4850587      0.67838278       -47.4850587      0.728517774      41.98263         
47               0.735664962      41.3620511       0.670592361      -48.1169116      0.670592361      -48.1169116      0.73583981       41.3621742       
48               0.742737118      40.7550889       0.662903798      -48.7347997      0.662903798      -48.7347997      0.742913647      40.7552093       
49               0.749569992      40.1613033       0.655318616      -49.3390663      0.655318616      -49.3390663      0.749748146      40.1614212       
50               0.756172199      39.5803817       0.647838011      -49.9300506      0.647838011      -49.9300506      0.756351922      39.5804972       
51               0.762552105      39.0120139       0.640462877      -50.5080875      0.640462877      -50.5080875      0.762733344      39.0121271       
52               0.768717822      38.4558929       0.633193829      -51.0735066      0.633193829      -51.0735066      0.768900528      38.4560039       
53               0.774677212      37.9117154       0.626031231      -51.6266322      0.626031231      -51.6266322      0.774861333      37.9118242       
54               0.780437879      37.3791822       0.618975218      -52.167783       0.618975218      -52.167783       0.78062337       37.3792889       
55               0.786007177      36.8579988       0.612025719      -52.6972713      0.612025719      -52.6972713      0.786193992      36.8581035       
56               0.79139221       36.3478757       0.605182475      -53.2154034      0.605182475      -53.2154034      0.791580305      36.3479786       
57               0.796599833      35.8485289       0.598445061      -53.7224789      0.598445061      -53.7224789      0.796789166      35.8486299       
58               0.801636659      35.3596797       0.5918129        -54.2187909      0.5918129        -54.2187909      0.801827189      35.359779        
59               0.806509063      34.8810553       0.58528528       -54.7046258      0.58528528       -54.7046258      0.806700751      34.8811528       
60               0.811223185      34.4123886       0.578861372      -55.1802633      0.578861372      -55.1802633      0.811415994      34.4124844       
61               0.815784938      33.9534186       0.572540239      -55.6459759      0.572540239      -55.6459759      0.815978831      33.9535128       
62               0.820200013      33.5038904       0.56632085       -56.1020298      0.56632085       -56.1020298      0.820394955      33.503983        
63               0.824473884      33.0635552       0.560202095      -56.548684       0.560202095      -56.548684       0.824669842      33.0636463       
64               0.828611817      32.6321701       0.554182791      -56.9861909      0.554182791      -56.9861909      0.828808758      32.6322597       
65               0.832618873      32.2094987       0.548261694      -57.4147963      0.548261694      -57.4147963      0.832816766      32.2095869       
66               0.836499917      31.7953103       0.542437507      -57.8347392      0.542437507      -57.8347392      0.836698732      31.7953971       
67               0.840259623      31.3893804       0.536708889      -58.2462521      0.536708889      -58.2462521      0.840459332      31.3894658       
68               0.843902484      30.9914905       0.531074464      -58.6495611      0.531074464      -58.6495611      0.844103058      30.9915746       
69               0.847432812      30.6014279       0.525532821      -59.044886       0.525532821      -59.044886       0.847634225      30.6015108       
70               0.850854749      30.2189858       0.520082528      -59.4324402      0.520082528      -59.4324402      0.851056976      30.2190674       
71               0.854172275      29.843963        0.514722134      -59.8124313      0.514722134      -59.8124313      0.85437529       29.8440435       
72               0.857389208      29.4761642       0.509450174      -60.1850607      0.509450174      -60.1850607      0.857592987      29.4762434       
73               0.860509215      29.1153991       0.504265173      -60.550524       0.504265173      -60.550524       0.860713735      29.1154773       
74               0.863535817      28.7614833       0.499165652      -60.9090112      0.499165652      -60.9090112      0.863741056      28.7615603       
75               0.866472394      28.4142374       0.494150127      -61.2607067      0.494150127      -61.2607067      0.86667833       28.4143133       
76               0.869322188      28.0734871       0.489217121      -61.6057895      0.489217121      -61.6057895      0.869528802      28.073562        
77               0.872088316      27.7390634       0.484365157      -61.9444332      0.484365157      -61.9444332      0.872295587      27.7391372       
78               0.874773767      27.4108019       0.479592768      -62.2768064      0.479592768      -62.2768064      0.874981676      27.4108748       
79               0.877381411      27.0885432       0.474898494      -62.6030727      0.474898494      -62.6030727      0.877589939      27.0886151       
80               0.879914003      26.7721325       0.470280888      -62.9233908      0.470280888      -62.9233908      0.880123133      26.7722035       
81               0.882374189      26.4614195       0.465738516      -63.2379146      0.465738516      -63.2379146      0.882583903      26.4614895       
82               0.88476451       26.1562583       0.461269959      -63.5467935      0.461269959      -63.5467935      0.884974792      26.1563274       
83               0.887087405      25.8565072       0.456873814      -63.8501725      0.456873814      -63.8501725      0.887298239      25.8565755       
84               0.889345216      25.562029        0.452548696      -64.1481922      0.452548696      -64.1481922      0.889556586      25.5620963       
85               0.891540194      25.2726901       0.448293236      -64.440989       0.448293236      -64.440989       0.891752084      25.2727566       
86               0.893674498      24.9883611       0.444106088      -64.7286952      0.444106088      -64.7286952      0.893886895      24.9884268       
87               0.895750204      24.7089163       0.439985923      -65.0114393      0.439985923      -65.0114393      0.895963095      24.7089812       
88               0.897769308      24.4342338       0.435931434      -65.2893459      0.435931434      -65.2893459      0.897982678      24.4342979       
89               0.899733725      24.1641952       0.431941335      -65.5625358      0.431941335      -65.5625358      0.899947561      24.1642586       
90               0.901645296      23.8986856       0.428014362      -65.8311264      0.428014362      -65.8311264      0.901859586      23.8987482       
91               0.903505792      23.6375935       0.424149271      -66.0952314      0.424149271      -66.0952314      0.903720523      23.6376554       
92               0.905316913      23.3808105       0.420344842      -66.3549614      0.420344842      -66.3549614      0.905532074      23.3808717       
93               0.907080295      23.1282316       0.416599877      -66.6104235      0.416599877      -66.6104235      0.907295875      23.1282921       
94               0.90879751       22.8797548       0.4129132        -66.8617218      0.4129132        -66.8617218      0.909013498      22.8798145       
95               0.910470071      22.6352809       0.409283656      -67.1089573      0.409283656      -67.1089573      0.910686456      22.6353399       
96               0.912099433      22.3947137       0.405710114      -67.3522281      0.405710114      -67.3522281      0.912316204      22.3947721       
97               0.913686993      22.1579599       0.402191465      -67.5916293      0.402191465      -67.5916293      0.913904141      22.1580177       
98               0.9152341        21.9249288       0.398726622      -67.8272532      0.398726622      -67.8272532      0.915451615      21.9249859       
99               0.916742047      21.6955322       0.395314519      -68.0591898      0.395314519      -68.0591898      0.91695992       21.6955886       
100              0.918212082      21.4696845       0.391954113      -68.287526       0.391954113      -68.287526       0.918430304      21.4697403       
101              0.919645405      21.2473027       0.388644382      -68.5123465      0.388644382      -68.5123465      0.919863967      21.2473579       
102              0.921043171      21.0283059       0.385384326      -68.7337334      0.385384326      -68.7337334      0.921262065      21.0283606       
103              0.922406494      20.8126158       0.382172964      -68.9517667      0.382172964      -68.9517667      0.92262571       20.8126699       
104              0.923736444      20.6001561       0.379009339      -69.1665239      0.379009339      -69.1665239      0.923955976      20.6002096       
105              0.925034054      20.3908528       0.375892512      -69.3780803      0.375892512      -69.3780803      0.925253893      20.3909057       
106              0.926300318      20.1846338       0.372821564      -69.5865092      0.372821564      -69.5865092      0.926520458      20.1846862       
107              0.927536195      19.9814291       0.369795598      -69.7918816      0.369795598      -69.7918816      0.927756628      19.981481        
108              0.928742609      19.7811708       0.366813734      -69.9942668      0.366813734      -69.9942668      0.928963328      19.7812221       
109              0.929920449      19.5837927       0.363875113      -70.1937321      0.363875113      -70.1937321      0.930141447      19.5838435       
110              0.931070574      19.3892306       0.360978895      -70.3903426      0.360978895      -70.3903426      0.931291845      19.3892809       
111              0.932193812      19.1974218       0.358124257      -70.5841621      0.358124257      -70.5841621      0.932415349      19.1974716       
112              0.933290962      19.0083057       0.355310394      -70.7752522      0.355310394      -70.7752522      0.933512759      19.0083549       
113              0.934362793      18.821823        0.352536522      -70.9636731      0.352536522      -70.9636731      0.934584844      18.8218718       
114              0.935410048      18.6379162       0.349801869      -71.1494832      0.349801869      -71.1494832      0.935632347      18.6379645       
115              0.936433446      18.4565294       0.347105686      -71.3327393      0.347105686      -71.3327393      0.936655987      18.4565772       
116              0.937433676      18.2776081       0.344447236      -71.5134968      0.344447236      -71.5134968      0.937656455      18.2776555       
117              0.938411409      18.1010994       0.341825801      -71.6918094      0.341825801      -71.6918094      0.938634419      18.1011463       
118              0.939367288      17.9269516       0.339240679      -71.8677296      0.339240679      -71.8677296      0.939590525      17.926998        
119              0.940301938      17.7551145       0.336691181      -72.0413082      0.336691181      -72.0413082      0.940525395      17.7551605       
120              0.941215958      17.5855394       0.334176637      -72.2125949      0.334176637      -72.2125949      0.941439632      17.585585        
121              0.942109932      17.4181786       0.33169639       -72.381638       0.33169639       -72.381638       0.942333818      17.4182237       
122              0.94298442       17.2529858       0.329249797      -72.5484845      0.329249797      -72.5484845      0.943208513      17.2530305       
123              0.943839965      17.0899159       0.326836231      -72.7131801      0.326836231      -72.7131801      0.94406426       17.0899602       
124              0.944677092      16.928925        0.324455079      -72.8757695      0.324455079      -72.8757695      0.944901585      16.9289689       
125              0.945496308      16.7699703       0.322105739      -73.036296       0.322105739      -73.036296       0.945720995      16.7700138       
126              0.946298103      16.6130101       0.319787626      -73.194802       0.319787626      -73.194802       0.946522979      16.6130532       
127              0.947082951      16.4580038       0.317500166      -73.3513286      0.317500166      -73.3513286      0.947308013      16.4580465       
128              0.947851311      16.3049118       0.315242797      -73.505916       0.315242797      -73.505916       0.948076555      16.3049541       
