! Coilcraft 1812CS-103 Chip Inductor				
! 31 July 2002			
# MHZ S MA R 50
!Freq             MagS11           AngS11           MagS21           AngS21           MagS12           AngS12           MagS22           AngS22
1                0.496861996      49.4442178       0.775089911      -29.1464424      0.775089911      -29.1464424      0.496861996      49.4442178       
1.32             0.597991561      44.628715        0.711648611      -36.1791741      0.711648611      -36.1791741      0.597991561      44.628715        
1.64             0.676609087      40.1242022       0.650432621      -42.0965735      0.650432621      -42.0965735      0.676609087      40.1242022       
1.96             0.737121257      36.1562556       0.594161705      -47.0497039      0.594161705      -47.0497039      0.737121257      36.1562556       
2.28             0.783736202      32.7345026       0.543790108      -51.2011262      0.543790108      -51.2011262      0.783736202      32.7345026       
2.6              0.819895689      29.8015664       0.499296416      -54.6983487      0.499296416      -54.6983487      0.819895689      29.8015664       
2.92             0.848229446      27.2854308       0.460209501      -57.6652669      0.460209501      -57.6652669      0.848229446      27.2854308       
3.24             0.870687023      25.1178677       0.425901779      -60.2021513      0.425901779      -60.2021513      0.870687023      25.1178677       
3.56             0.888698117      23.2399723       0.395734175      -62.3888045      0.395734175      -62.3888045      0.888698117      23.2399723       
3.88             0.903310759      21.602823        0.369119075      -64.2883815      0.369119075      -64.2883815      0.903310759      21.602823        
4.2              0.915297278      20.1664536       0.345541736      -65.9508919      0.345541736      -65.9508919      0.915297278      20.1664536       
4.52             0.925231612      18.8983996       0.324562215      -67.4160982      0.324562215      -67.4160982      0.925231612      18.8983996       
4.84             0.933544512      17.7722918       0.305809101      -68.7158065      0.305809101      -68.7158065      0.933544512      17.7722918       
5.16             0.940562684      16.7666466       0.288970535      -69.8756377      0.288970535      -69.8756377      0.940562684      16.7666466       
5.48             0.946536576      15.863878        0.273785014      -70.9163842      0.273785014      -70.9163842      0.946536576      15.863878        
5.8              0.951660194      15.0495105       0.260033021      -71.8550475      0.260033021      -71.8550475      0.951660194      15.0495105       
6.12             0.956085344      14.3115564       0.247529811      -72.7056331      0.247529811      -72.7056331      0.956085344      14.3115564       
6.44             0.959931965      13.6400279       0.236119358      -73.4797613      0.236119358      -73.4797613      0.959931965      13.6400279       
6.76             0.963295683      13.0265524       0.22566937       -74.1871406      0.22566937       -74.1871406      0.963295683      13.0265524       
7.08             0.966253405      12.4640696       0.216067194      -74.8359352      0.216067194      -74.8359352      0.966253405      12.4640696       
7.4              0.968867485      11.9465917       0.207216486      -75.4330541      0.207216486      -75.4330541      0.968867485      11.9465917       
7.72             0.97118887       11.4690121       0.199034486      -75.9843784      0.199034486      -75.9843784      0.97118887       11.4690121       
8.04             0.973259484      11.0269532       0.191449795      -76.4949421      0.191449795      -76.4949421      0.973259484      11.0269532       
8.36             0.975114063      10.6166436       0.184400552      -76.9690772      0.184400552      -76.9690772      0.975114063      10.6166436       
8.68             0.976781571      10.2348182       0.177832947      -77.4105299      0.177832947      -77.4105299      0.976781571      10.2348182       
9                0.978286304      9.87863788       0.17169998       -77.8225552      0.17169998       -77.8225552      0.978286304      9.87863788       
9.32             0.979648758      9.54562321       0.165960447      -78.2079938      0.165960447      -78.2079938      0.979648758      9.54562321       
9.64             0.980886315      9.23360006       0.160578092      -78.5693352      0.160578092      -78.5693352      0.980886315      9.23360006       
9.96             0.982013793      8.94065471       0.155520902      -78.9087698      0.155520902      -78.9087698      0.982013793      8.94065471       
10.28            0.983043882      8.66509642       0.150760515      -79.2282323      0.150760515      -79.2282323      0.983043882      8.66509642       
10.6             0.9839875        8.40542632       0.146271722      -79.5294372      0.146271722      -79.5294372      0.9839875        8.40542632       
10.92            0.98485408       8.1603112        0.142032048      -79.8139094      0.142032048      -79.8139094      0.98485408       8.1603112        
11.24            0.985651804      7.92856151       0.138021399      -80.0830093      0.138021399      -80.0830093      0.985651804      7.92856151       
11.56            0.986387799      7.70911266       0.134221757      -80.337954       0.134221757      -80.337954       0.986387799      7.70911266       
11.88            0.987068293      7.50100926       0.130616923      -80.5798363      0.130616923      -80.5798363      0.987068293      7.50100926       
12.2             0.987698748      7.30339149       0.127192294      -80.8096391      0.127192294      -80.8096391      0.987698748      7.30339149       
12.52            0.988283971      7.11548363       0.123934677      -81.0282497      0.123934677      -81.0282497      0.988283971      7.11548363       
12.84            0.988828205      6.93658404       0.120832123      -81.2364704      0.120832123      -81.2364704      0.988828205      6.93658404       
13.16            0.989335206      6.76605662       0.117873785      -81.4350287      0.117873785      -81.4350287      0.989335206      6.76605662       
13.48            0.98980831       6.60332338       0.115049793      -81.6245859      0.115049793      -81.6245859      0.98980831       6.60332338       
13.8             0.990250487      6.44785799       0.112351153      -81.805744       0.112351153      -81.805744       0.990250487      6.44785799       
14.12            0.990664388      6.29918018       0.109769648      -81.9790526      0.109769648      -81.9790526      0.990664388      6.29918018       
14.44            0.991052385      6.15685082       0.107297757      -82.1450142      0.107297757      -82.1450142      0.991052385      6.15685082       
14.76            0.991416607      6.02046767       0.104928587      -82.3040892      0.104928587      -82.3040892      0.991416607      6.02046767       
15.08            0.991758967      5.88966156       0.102655803      -82.4567002      0.102655803      -82.4567002      0.991758967      5.88966156       
15.4             0.992081189      5.76409313       0.100473582      -82.6032359      0.100473582      -82.6032359      0.992081189      5.76409313       
15.72            0.992384831      5.64344984       0.098376552      -82.7440541      0.098376552      -82.7440541      0.992384831      5.64344984       
16.04            0.992671302      5.52744343       0.0963597591     -82.8794851      0.0963597591     -82.8794851      0.992671302      5.52744343       
16.36            0.992941879      5.4158076        0.0944186219     -83.0098339      0.0944186219     -83.0098339      0.992941879      5.4158076        
16.68            0.993197723      5.30829596       0.0925488996     -83.1353828      0.0925488996     -83.1353828      0.993197723      5.30829596       
17               0.993439891      5.20468024       0.0907466607     -83.2563936      0.0907466607     -83.2563936      0.993439891      5.20468024       
17.32            0.993669344      5.10474862       0.0890082554     -83.373109       0.0890082554     -83.373109       0.993669344      5.10474862       
17.64            0.993886963      5.0083043        0.0873302912     -83.4857547      0.0873302912     -83.4857547      0.993886963      5.0083043        
17.96            0.994093551      4.91516423       0.0857096103     -83.5945405      0.0857096103     -83.5945405      0.994093551      4.91516423       
18.28            0.994289845      4.82515786       0.0841432704     -83.6996621      0.0841432704     -83.6996621      0.994289845      4.82515786       
18.6             0.994476521      4.73812618       0.0826285261     -83.8013019      0.0826285261     -83.8013019      0.994476521      4.73812618       
18.92            0.994654201      4.65392068       0.0811628129     -83.8996303      0.0811628129     -83.8996303      0.994654201      4.65392068       
19.24            0.994823455      4.57240258       0.0797437331     -83.9948066      0.0797437331     -83.9948066      0.994823455      4.57240258       
19.56            0.99498481       4.49344198       0.0783690418     -84.0869798      0.0783690418     -84.0869798      0.99498481       4.49344198       
19.88            0.995138753      4.41691721       0.0770366354     -84.1762895      0.0770366354     -84.1762895      0.995138753      4.41691721       
20.2             0.995285731      4.34271417       0.0757445409     -84.2628668      0.0757445409     -84.2628668      0.995285731      4.34271417       
20.52            0.995426161      4.27072575       0.0744909052     -84.3468346      0.0744909052     -84.3468346      0.995426161      4.27072575       
20.84            0.995560426      4.20085132       0.073273987      -84.4283084      0.073273987      -84.4283084      0.995560426      4.20085132       
21.16            0.995688884      4.13299624       0.072092148      -84.5073969      0.072092148      -84.5073969      0.995688884      4.13299624       
21.48            0.995811865      4.06707141       0.0709438457     -84.5842025      0.0709438457     -84.5842025      0.995811865      4.06707141       
21.8             0.995929677      4.00299288       0.0698276263     -84.6588214      0.0698276263     -84.6588214      0.995929677      4.00299288       
22.12            0.996042606      3.9406815        0.0687421186     -84.7313447      0.0687421186     -84.7313447      0.996042606      3.9406815        
22.44            0.996150918      3.88006257       0.0676860283     -84.801858       0.0676860283     -84.801858       0.996150918      3.88006257       
22.76            0.996254862      3.82106552       0.0666581323     -84.8704424      0.0666581323     -84.8704424      0.996254862      3.82106552       
23.08            0.99635467       3.76362364       0.0656572745     -84.9371745      0.0656572745     -84.9371745      0.99635467       3.76362364       
23.4             0.996450557      3.70767383       0.0646823607     -85.0021267      0.0646823607     -85.0021267      0.996450557      3.70767383       
23.72            0.996542727      3.65315635       0.0637323549     -85.0653676      0.0637323549     -85.0653676      0.996542727      3.65315635       
24.04            0.996631369      3.60001459       0.0628062754     -85.1269621      0.0628062754     -85.1269621      0.996631369      3.60001459       
24.36            0.996716661      3.54819488       0.0619031913     -85.1869719      0.0619031913     -85.1869719      0.996716661      3.54819488       
24.68            0.996798767      3.49764633       0.0610222191     -85.2454553      0.0610222191     -85.2454553      0.996798767      3.49764633       
25               0.996877846      3.44832057       0.06016252       -85.3024678      0.06016252       -85.3024678      0.996877846      3.44832057       
25.32            0.996954042      3.4001717        0.0593232969     -85.358062       0.0593232969     -85.358062       0.996954042      3.4001717        
25.64            0.997027495      3.35315604       0.0585037921     -85.412288       0.0585037921     -85.412288       0.997027495      3.35315604       
25.96            0.997098332      3.30723209       0.0577032844     -85.4651934      0.0577032844     -85.4651934      0.997098332      3.30723209       
26.28            0.997166676      3.2623603        0.0569210877     -85.5168234      0.0569210877     -85.5168234      0.997166676      3.2623603        
26.6             0.997232642      3.21850303       0.0561565481     -85.5672211      0.0561565481     -85.5672211      0.997232642      3.21850303       
26.92            0.997296338      3.17562441       0.0554090427     -85.6164277      0.0554090427     -85.6164277      0.997296338      3.17562441       
27.24            0.997357866      3.13369024       0.0546779771     -85.6644821      0.0546779771     -85.6644821      0.997357866      3.13369024       
27.56            0.997417322      3.09266788       0.0539627846     -85.7114217      0.0539627846     -85.7114217      0.997417322      3.09266788       
27.88            0.997474797      3.05252619       0.053262924      -85.757282       0.053262924      -85.757282       0.997474797      3.05252619       
28.2             0.997530377      3.01323542       0.0525778783     -85.8020971      0.0525778783     -85.8020971      0.997530377      3.01323542       
28.52            0.997584144      2.97476714       0.0519071536     -85.8458993      0.0519071536     -85.8458993      0.997584144      2.97476714       
28.84            0.997636174      2.93709418       0.0512502776     -85.8887196      0.0512502776     -85.8887196      0.997636174      2.93709418       
29.16            0.997686539      2.90019055       0.0506067984     -85.9305877      0.0506067984     -85.9305877      0.997686539      2.90019055       
29.48            0.99773531       2.86403138       0.0499762838     -85.9715317      0.0499762838     -85.9715317      0.99773531       2.86403138       
29.8             0.997782551      2.82859284       0.0493583196     -86.0115787      0.0493583196     -86.0115787      0.997782551      2.82859284       
30.12            0.997828325      2.79385214       0.0487525093     -86.0507547      0.0487525093     -86.0507547      0.997828325      2.79385214       
30.44            0.99787269       2.75978741       0.0481584728     -86.0890844      0.0481584728     -86.0890844      0.99787269       2.75978741       
30.76            0.997915703      2.72637769       0.0475758456     -86.1265916      0.0475758456     -86.1265916      0.997915703      2.72637769       
31.08            0.997957416      2.6936029        0.0470042782     -86.1632989      0.0470042782     -86.1632989      0.997957416      2.6936029        
31.4             0.99799788       2.66144372       0.0464434351     -86.1992282      0.0464434351     -86.1992282      0.99799788       2.66144372       
31.72            0.998037143      2.62988167       0.0458929942     -86.2344002      0.0458929942     -86.2344002      0.998037143      2.62988167       
32.04            0.998075251      2.59889894       0.0453526463     -86.2688351      0.0453526463     -86.2688351      0.998075251      2.59889894       
32.36            0.998112247      2.56847847       0.0448220941     -86.3025521      0.0448220941     -86.3025521      0.998112247      2.56847847       
32.68            0.998148173      2.53860383       0.044301052      -86.3355694      0.044301052      -86.3355694      0.998148173      2.53860383       
33               0.998183069      2.50925923       0.0437892454     -86.3679049      0.0437892454     -86.3679049      0.998183069      2.50925923       
33.32            0.998216971      2.4804295        0.0432864101     -86.3995754      0.0432864101     -86.3995754      0.998216971      2.4804295        
33.64            0.998249916      2.45210002       0.0427922918     -86.4305972      0.0427922918     -86.4305972      0.998249916      2.45210002       
33.96            0.998281938      2.42425674       0.0423066457     -86.460986       0.0423066457     -86.460986       0.998281938      2.42425674       
34.28            0.99831307       2.3968861        0.0418292363     -86.4907568      0.0418292363     -86.4907568      0.99831307       2.3968861        
34.6             0.998343344      2.36997507       0.0413598365     -86.519924       0.0413598365     -86.519924       0.998343344      2.36997507       
34.92            0.998372789      2.34351108       0.0408982276     -86.5485014      0.0408982276     -86.5485014      0.998372789      2.34351108       
35.24            0.998401433      2.31748201       0.0404441986     -86.5765024      0.0404441986     -86.5765024      0.998401433      2.31748201       
35.56            0.998429304      2.29187619       0.0399975463     -86.6039398      0.0399975463     -86.6039398      0.998429304      2.29187619       
35.88            0.998456429      2.26668234       0.0395580745     -86.6308258      0.0395580745     -86.6308258      0.998456429      2.26668234       
36.2             0.998482832      2.2418896        0.0391255939     -86.6571724      0.0391255939     -86.6571724      0.998482832      2.2418896        
36.52            0.998508537      2.21748747       0.0386999219     -86.6829909      0.0386999219     -86.6829909      0.998508537      2.21748747       
36.84            0.998533567      2.19346582       0.0382808821     -86.7082922      0.0382808821     -86.7082922      0.998533567      2.19346582       
37.16            0.998557944      2.16981487       0.0378683042     -86.7330868      0.0378683042     -86.7330868      0.998557944      2.16981487       
37.48            0.99858169       2.14652518       0.0374620235     -86.7573849      0.0374620235     -86.7573849      0.99858169       2.14652518       
37.8             0.998604824      2.1235876        0.0370618812     -86.7811962      0.0370618812     -86.7811962      0.998604824      2.1235876        
38.12            0.998627366      2.10099332       0.0366677234     -86.8045301      0.0366677234     -86.8045301      0.998627366      2.10099332       
38.44            0.998649334      2.07873379       0.0362794016     -86.8273956      0.0362794016     -86.8273956      0.998649334      2.07873379       
38.76            0.998670747      2.05680076       0.0358967719     -86.8498012      0.0358967719     -86.8498012      0.998670747      2.05680076       
39.08            0.998691622      2.03518625       0.0355196954     -86.8717554      0.0355196954     -86.8717554      0.998691622      2.03518625       
39.4             0.998711974      2.01388253       0.0351480374     -86.8932662      0.0351480374     -86.8932662      0.998711974      2.01388253       
39.72            0.99873182       1.99288212       0.0347816676     -86.9143412      0.0347816676     -86.9143412      0.99873182       1.99288212       
40.04            0.998751175      1.97217778       0.0344204599     -86.9349879      0.0344204599     -86.9349879      0.998751175      1.97217778       
40.36            0.998770054      1.95176249       0.0340642922     -86.9552133      0.0340642922     -86.9552133      0.998770054      1.95176249       
40.68            0.998788471      1.93162947       0.0337130461     -86.9750244      0.0337130461     -86.9750244      0.998788471      1.93162947       
41               0.998806439      1.91177212       0.033366607      -86.9944277      0.033366607      -86.9944277      0.998806439      1.91177212       
41.32            0.998823972      1.89218408       0.0330248637     -87.0134295      0.0330248637     -87.0134295      0.998823972      1.89218408       
41.64            0.998841081      1.87285915       0.0326877084     -87.0320358      0.0326877084     -87.0320358      0.998841081      1.87285915       
