! Coilcraft 1812CS-332 Chip Inductor				
! 31 July 2002			
# MHZ S MA R 50
!Freq             MagS11           AngS11           MagS21           AngS21           MagS12           AngS12           MagS22           AngS22
1                0.200904984      65.4894592       0.934701915      -11.2780715      0.934701915      -11.2780715      0.200904984      65.4894592       
1.65             0.315281313      63.2091776       0.90287648       -18.1624981      0.90287648       -18.1624981      0.315281313      63.2091776       
2.3              0.417738663      58.9600794       0.862382799      -24.5217313      0.862382799      -24.5217313      0.417738663      58.9600794       
2.95             0.506393031      54.4220106       0.816813484      -30.280244       0.816813484      -30.280244       0.506393031      54.4220106       
3.6              0.581381         50.0807451       0.769318449      -35.4217665      0.769318449      -35.4217665      0.581381         50.0807451       
4.25             0.643924412      46.0984625       0.722230585      -39.9717958      0.722230585      -39.9717958      0.643924412      46.0984625       
4.9              0.695703853      42.5157948       0.677059568      -43.9796509      0.677059568      -43.9796509      0.695703853      42.5157948       
5.55             0.738464698      39.3220231       0.634651408      -47.5046684      0.634651408      -47.5046684      0.738464698      39.3220231       
6.2              0.773810806      36.4852975       0.595382844      -50.6073316      0.595382844      -50.6073316      0.773810806      36.4852975       
6.85             0.803122585      33.9668557       0.559328994      -53.3443915      0.559328994      -53.3443915      0.803122585      33.9668557       
7.5              0.827544591      31.7277642       0.526387111      -55.766668       0.526387111      -55.766668       0.827544591      31.7277642       
8.15             0.848005838      29.7319257       0.496359913      -57.9184376      0.496359913      -57.9184376      0.848005838      29.7319257       
8.8              0.865251813      27.9471987       0.46900815       -59.8376596      0.46900815       -59.8376596      0.865251813      27.9471987       
9.45             0.87987764       26.3455869       0.444081964      -61.5565859      0.444081964      -61.5565859      0.87987764       26.3455869       
10.1             0.892357872      24.9029962       0.421338505      -63.1024979      0.421338505      -63.1024979      0.892357872      24.9029962       
10.75            0.903071489      23.5988181       0.400550982      -64.4984398      0.400550982      -64.4984398      0.903071489      23.5988181       
11.4             0.912322126      22.4154716       0.381512614      -65.7638874      0.381512614      -65.7638874      0.912322126      22.4154716       
12.05            0.920354098      21.3379625       0.364037614      -66.915332       0.364037614      -66.915332       0.920354098      21.3379625       
12.7             0.927364973      20.3534874       0.347960572      -67.9667757      0.347960572      -67.9667757      0.927364973      20.3534874       
13.35            0.93351537       19.4510902       0.333135012      -68.9301466      0.333135012      -68.9301466      0.93351537       19.4510902       
14               0.938936599      18.6213694       0.31943162       -69.8156429      0.31943162       -69.8156429      0.938936599      18.6213694       
14.65            0.943736603      17.8562323       0.306736379      -70.6320168      0.306736379      -70.6320168      0.943736603      17.8562323       
15.3             0.948004616      17.1486889       0.294948779      -71.3868089      0.294948779      -71.3868089      0.948004616      17.1486889       
15.95            0.951814802      16.4926809       0.283980166      -72.0865412      0.283980166      -72.0865412      0.951814802      16.4926809       
16.6             0.955229129      15.8829387       0.273752244      -72.7368766      0.273752244      -72.7368766      0.955229129      15.8829387       
17.25            0.958299642      15.3148628       0.26419576       -73.3427504      0.26419576       -73.3427504      0.958299642      15.3148628       
17.9             0.961070266      14.7844245       0.255249342      -73.9084801      0.255249342      -73.9084801      0.961070266      14.7844245       
18.55            0.963578251      14.2880833       0.246858496      -74.4378556      0.246858496      -74.4378556      0.963578251      14.2880833       
19.2             0.965855331      13.8227174       0.238974727      -74.9342157      0.238974727      -74.9342157      0.965855331      13.8227174       
19.85            0.967928657      13.385565        0.231554786      -75.4005113      0.231554786      -75.4005113      0.967928657      13.385565        
20.5             0.96982156       12.974176        0.224560014      -75.839359       0.224560014      -75.839359       0.96982156       12.974176        
21.15            0.971554166      12.5863696       0.217955778      -76.2530858      0.217955778      -76.2530858      0.971554166      12.5863696       
21.8             0.973143904      12.2201995       0.211710982      -76.6437676      0.211710982      -76.6437676      0.973143904      12.2201995       
22.45            0.974605922      11.8739238       0.205797644      -77.0132615      0.205797644      -77.0132615      0.974605922      11.8739238       
23.1             0.975953434      11.5459793       0.200190528      -77.3632331      0.200190528      -77.3632331      0.975953434      11.5459793       
23.75            0.977198004      11.2349599       0.19486683       -77.6951806      0.19486683       -77.6951806      0.977198004      11.2349599       
24.4             0.978349785      10.939597        0.189805897      -78.0104545      0.189805897      -78.0104545      0.978349785      10.939597        
25.05            0.979417719      10.6587443       0.184988987      -78.3102756      0.184988987      -78.3102756      0.979417719      10.6587443       
25.7             0.980409704      10.3913628       0.18039906       -78.5957496      0.18039906       -78.5957496      0.980409704      10.3913628       
26.35            0.981332735      10.1365091       0.176020593      -78.8678802      0.176020593      -78.8678802      0.981332735      10.1365091       
27               0.982193029      9.89332487       0.17183942       -79.1275809      0.17183942       -79.1275809      0.982193029      9.89332487       
27.65            0.982996118      9.66102747       0.167842587      -79.3756843      0.167842587      -79.3756843      0.982996118      9.66102747       
28.3             0.983746943      9.43890185       0.16401823       -79.6129507      0.16401823       -79.6129507      0.983746943      9.43890185       
28.95            0.984449926      9.22629356       0.160355465      -79.8400763      0.160355465      -79.8400763      0.984449926      9.22629356       
29.6             0.985109033      9.02260255       0.156844291      -80.0576992      0.156844291      -80.0576992      0.985109033      9.02260255       
30.25            0.985727828      8.82727765       0.1534755        -80.2664054      0.1534755        -80.2664054      0.985727828      8.82727765       
30.9             0.986309524      8.63981176       0.150240607      -80.4667342      0.150240607      -80.4667342      0.986309524      8.63981176       
31.55            0.98685702       8.45973757       0.147131778      -80.6591823      0.147131778      -80.6591823      0.98685702       8.45973757       
32.2             0.987372939      8.28662378       0.144141768      -80.8442083      0.144141768      -80.8442083      0.987372939      8.28662378       
32.85            0.987859659      8.12007171       0.141263873      -81.022236       0.141263873      -81.022236       0.987859659      8.12007171       
33.5             0.988319336      7.95971232       0.138491876      -81.1936578      0.138491876      -81.1936578      0.988319336      7.95971232       
34.15            0.988753935      7.80520352       0.135820006      -81.3588373      0.135820006      -81.3588373      0.988753935      7.80520352       
34.8             0.989165243      7.65622774       0.133242899      -81.5181121      0.133242899      -81.5181121      0.989165243      7.65622774       
35.45            0.989554894      7.51248986       0.130755565      -81.671796       0.130755565      -81.671796       0.989554894      7.51248986       
36.1             0.989924379      7.37371521       0.128353351      -81.8201809      0.128353351      -81.8201809      0.989924379      7.37371521       
36.75            0.990275064      7.23964787       0.12603192       -81.9635388      0.12603192       -81.9635388      0.990275064      7.23964787       
37.4             0.990608201      7.11004911       0.123787222      -82.1021236      0.123787222      -82.1021236      0.990608201      7.11004911       
38.05            0.990924942      6.98469595       0.121615468      -82.2361723      0.121615468      -82.2361723      0.990924942      6.98469595       
38.7             0.991226343      6.86337994       0.119513115      -82.3659065      0.119513115      -82.3659065      0.991226343      6.86337994       
39.35            0.991513377      6.74590597       0.117476843      -82.4915336      0.117476843      -82.4915336      0.991513377      6.74590597       
40               0.991786944      6.63209121       0.115503537      -82.6132479      0.115503537      -82.6132479      0.991786944      6.63209121       
40.65            0.992047871      6.52176422       0.113590275      -82.7312318      0.113590275      -82.7312318      0.992047871      6.52176422       
41.3             0.992296925      6.41476401       0.111734312      -82.8456563      0.111734312      -82.8456563      0.992296925      6.41476401       
41.95            0.992534815      6.31093933       0.109933064      -82.9566824      0.109933064      -82.9566824      0.992534815      6.31093933       
42.6             0.992762196      6.2101479        0.108184103      -83.0644612      0.108184103      -83.0644612      0.992762196      6.2101479        
43.25            0.992979679      6.11225578       0.106485137      -83.1691351      0.106485137      -83.1691351      0.992979679      6.11225578       
43.9             0.99318783       6.01713675       0.104834008      -83.2708383      0.104834008      -83.2708383      0.99318783       6.01713675       
44.55            0.993387173      5.92467179       0.103228679      -83.3696975      0.103228679      -83.3696975      0.993387173      5.92467179       
45.2             0.993578199      5.83474857       0.101667226      -83.465832       0.101667226      -83.465832       0.993578199      5.83474857       
45.85            0.993761363      5.74726096       0.10014783       -83.5593546      0.10014783       -83.5593546      0.993761363      5.74726096       
46.5             0.99393709       5.66210867       0.098668773      -83.650372       0.098668773      -83.650372       0.99393709       5.66210867       
47.15            0.994105777      5.57919679       0.0972284258     -83.7389851      0.0972284258     -83.7389851      0.994105777      5.57919679       
47.8             0.994267794      5.49843546       0.0958252468     -83.8252894      0.0958252468     -83.8252894      0.994267794      5.49843546       
48.45            0.994423488      5.41973958       0.0944577745     -83.9093755      0.0944577745     -83.9093755      0.994423488      5.41973958       
49.1             0.994573183      5.34302841       0.0931246225     -83.9913291      0.0931246225     -83.9913291      0.994573183      5.34302841       
49.75            0.994717182      5.2682254        0.091824475      -84.0712316      0.091824475      -84.0712316      0.994717182      5.2682254        
50.4             0.994855771      5.19525785       0.0905560821     -84.1491604      0.0905560821     -84.1491604      0.994855771      5.19525785       
51.05            0.994989216      5.12405668       0.0893182561     -84.2251889      0.0893182561     -84.2251889      0.994989216      5.12405668       
51.7             0.995117768      5.05455626       0.0881098673     -84.2993868      0.0881098673     -84.2993868      0.995117768      5.05455626       
52.35            0.995241663      4.98669412       0.0869298409     -84.3718206      0.0869298409     -84.3718206      0.995241663      4.98669412       
53               0.995361122      4.92041082       0.0857771536     -84.4425534      0.0857771536     -84.4425534      0.995361122      4.92041082       
53.65            0.995476354      4.85564976       0.0846508302     -84.5116455      0.0846508302     -84.5116455      0.995476354      4.85564976       
54.3             0.995587555      4.792357         0.0835499414     -84.5791541      0.0835499414     -84.5791541      0.995587555      4.792357         
54.95            0.995694911      4.7304811        0.0824736009     -84.6451339      0.0824736009     -84.6451339      0.995694911      4.7304811        
55.6             0.995798595      4.66997301       0.0814209627     -84.7096371      0.0814209627     -84.7096371      0.995798595      4.66997301       
56.25            0.995898773      4.61078588       0.0803912193     -84.7727134      0.0803912193     -84.7727134      0.995898773      4.61078588       
56.9             0.995995601      4.552875         0.0793835993     -84.8344104      0.0793835993     -84.8344104      0.995995601      4.552875         
57.55            0.996089225      4.49619763       0.0783973653     -84.8947734      0.0783973653     -84.8947734      0.996089225      4.49619763       
58.2             0.996179784      4.44071293       0.0774318122     -84.9538459      0.0774318122     -84.9538459      0.996179784      4.44071293       
58.85            0.99626741       4.38638182       0.0764862655     -85.0116693      0.0764862655     -85.0116693      0.99626741       4.38638182       
59.5             0.996352227      4.33316692       0.0755600798     -85.0682834      0.0755600798     -85.0682834      0.996352227      4.33316692       
60.15            0.996434354      4.28103243       0.0746526366     -85.1237261      0.0746526366     -85.1237261      0.996434354      4.28103243       
60.8             0.996513902      4.22994407       0.0737633438     -85.1780339      0.0737633438     -85.1780339      0.996513902      4.22994407       
61.45            0.996590977      4.17986898       0.0728916337     -85.2312417      0.0728916337     -85.2312417      0.996590977      4.17986898       
62.1             0.99666568       4.13077569       0.072036962      -85.2833828      0.072036962      -85.2833828      0.99666568       4.13077569       
62.75            0.996738106      4.08263397       0.0711988065     -85.3344894      0.0711988065     -85.3344894      0.996738106      4.08263397       
63.4             0.996808347      4.03541485       0.0703766662     -85.3845922      0.0703766662     -85.3845922      0.996808347      4.03541485       
64.05            0.996876488      3.98909052       0.0695700599     -85.4337206      0.0695700599     -85.4337206      0.996876488      3.98909052       
64.7             0.996942612      3.94363425       0.0687785256     -85.4819031      0.0687785256     -85.4819031      0.996942612      3.94363425       
65.35            0.997006796      3.89902039       0.0680016193     -85.5291668      0.0680016193     -85.5291668      0.997006796      3.89902039       
66               0.997069114      3.85522427       0.0672389142     -85.5755378      0.0672389142     -85.5755378      0.997069114      3.85522427       
66.65            0.997129639      3.81222218       0.0664899999     -85.6210413      0.0664899999     -85.6210413      0.997129639      3.81222218       
67.3             0.997188436      3.76999132       0.0657544818     -85.6657015      0.0657544818     -85.6657015      0.997188436      3.76999132       
67.95            0.99724557       3.72850974       0.0650319798     -85.7095416      0.0650319798     -85.7095416      0.99724557       3.72850974       
68.6             0.997301103      3.68775633       0.0643221283     -85.7525839      0.0643221283     -85.7525839      0.997301103      3.68775633       
69.25            0.997355093      3.64771074       0.0636245752     -85.79485        0.0636245752     -85.79485        0.997355093      3.64771074       
69.9             0.997407595      3.60835339       0.0629389812     -85.8363605      0.0629389812     -85.8363605      0.997407595      3.60835339       
70.55            0.997458664      3.56966542       0.0622650194     -85.8771355      0.0622650194     -85.8771355      0.997458664      3.56966542       
71.2             0.997508349      3.53162863       0.0616023747     -85.9171941      0.0616023747     -85.9171941      0.997508349      3.53162863       
71.85            0.9975567        3.49422549       0.0609507432     -85.9565549      0.0609507432     -85.9565549      0.9975567        3.49422549       
72.5             0.997603763      3.45743908       0.0603098318     -85.9952357      0.0603098318     -85.9952357      0.997603763      3.45743908       
73.15            0.997649583      3.42125309       0.0596793576     -86.0332538      0.0596793576     -86.0332538      0.997649583      3.42125309       
73.8             0.997694201      3.38565176       0.0590590477     -86.0706258      0.0590590477     -86.0706258      0.997694201      3.38565176       
74.45            0.99773766       3.35061989       0.0584486385     -86.1073676      0.0584486385     -86.1073676      0.99773766       3.35061989       
75.1             0.997779997      3.31614281       0.0578478753     -86.1434948      0.0578478753     -86.1434948      0.997779997      3.31614281       
75.75            0.997821251      3.28220632       0.0572565123     -86.1790223      0.0572565123     -86.1790223      0.997821251      3.28220632       
76.4             0.997861457      3.24879674       0.0566743118     -86.2139645      0.0566743118     -86.2139645      0.997861457      3.24879674       
77.05            0.99790065       3.2159008        0.0561010441     -86.2483353      0.0561010441     -86.2483353      0.99790065       3.2159008        
77.7             0.997938861      3.18350571       0.055536487      -86.2821482      0.055536487      -86.2821482      0.997938861      3.18350571       
78.35            0.997976124      3.15159908       0.0549804257     -86.3154162      0.0549804257     -86.3154162      0.997976124      3.15159908       
79               0.998012469      3.12016893       0.0544326524     -86.3481518      0.0544326524     -86.3481518      0.998012469      3.12016893       
79.65            0.998047923      3.08920368       0.0538929658     -86.3803673      0.0538929658     -86.3803673      0.998047923      3.08920368       
80.3             0.998082516      3.05869209       0.0533611714     -86.4120742      0.0533611714     -86.4120742      0.998082516      3.05869209       
80.95            0.998116275      3.02862332       0.0528370805     -86.4432841      0.0528370805     -86.4432841      0.998116275      3.02862332       
81.6             0.998149224      2.99898684       0.0523205107     -86.4740078      0.0523205107     -86.4740078      0.998149224      2.99898684       
82.25            0.998181389      2.96977247       0.0518112851     -86.5042561      0.0518112851     -86.5042561      0.998181389      2.96977247       
82.9             0.998212794      2.94097033       0.0513092323     -86.5340391      0.0513092323     -86.5340391      0.998212794      2.94097033       
83.55            0.998243462      2.91257086       0.0508141863     -86.563367       0.0508141863     -86.563367       0.998243462      2.91257086       
