! Coilcraft 1812CS-222 Chip Inductor				
! 31 July 2002			
# MHZ S MA R 50
!Freq             MagS11           AngS11           MagS21           AngS21           MagS12           AngS12           MagS22           AngS22
1                0.139050348      69.9759118       0.961305935      -7.81085247      0.961305935      -7.81085247      0.139050348      69.9759118       
1.77             0.237431868      68.7763045       0.94046181       -13.6116386      0.94046181       -13.6116386      0.237431868      68.7763045       
2.54             0.32921516       65.1983267       0.912241852      -19.1231461      0.912241852      -19.1231461      0.32921516       65.1983267       
3.31             0.412471306      61.12385         0.87849474       -24.2766551      0.87849474       -24.2766551      0.412471306      61.12385         
4.08             0.486445269      57.0620596       0.841212768      -29.033181       0.841212768      -29.033181       0.486445269      57.0620596       
4.85             0.551173369      53.202773        0.802186446      -33.3802904      0.802186446      -33.3802904      0.551173369      53.202773        
5.62             0.607209424      49.6203178       0.762851405      -37.3258432      0.762851405      -37.3258432      0.607209424      49.6203178       
6.39             0.655391922      46.3367645       0.724257778      -40.8912242      0.724257778      -40.8912242      0.655391922      46.3367645       
7.16             0.696669611      43.3482499       0.687109372      -44.1055042      0.687109372      -44.1055042      0.696669611      43.3482499       
7.93             0.731987619      40.6380627       0.651831754      -47.0010584      0.651831754      -47.0010584      0.731987619      40.6380627       
8.7              0.762223092      38.1837399       0.618643684      -49.6106163      0.618643684      -49.6106163      0.762223092      38.1837399       
9.47             0.788155606      35.9610131       0.587619381      -51.9654667      0.587619381      -51.9654667      0.788155606      35.9610131       
10.24            0.810459253      33.9459657       0.558737545      -54.0944967      0.558737545      -54.0944967      0.810459253      33.9459657       
11.01            0.829706806      32.1161435       0.53191752       -56.0237827      0.53191752       -56.0237827      0.829706806      32.1161435       
11.78            0.846379669      30.4510549       0.507044717      -57.7765209      0.507044717      -57.7765209      0.846379669      30.4510549       
12.55            0.860879878      28.9323213       0.48398782       -59.3731524      0.48398782       -59.3731524      0.860879878      28.9323213       
13.32            0.873542096      27.5436361       0.462610015      -60.8315853      0.462610015      -60.8315853      0.873542096      27.5436361       
14.09            0.884644618      26.2706254       0.442776032      -62.1674567      0.442776032      -62.1674567      0.884644618      26.2706254       
14.86            0.894418983      25.1006667       0.424356335      -63.3944         0.424356335      -63.3944         0.894418983      25.1006667       
15.63            0.903058148      24.0226953       0.407229414      -64.5242985      0.407229414      -64.5242985      0.903058148      24.0226953       
16.4             0.910723299      23.0270169       0.39128285       -65.5675171      0.39128285       -65.5675171      0.910723299      23.0270169       
17.17            0.917549475      22.105134        0.376413592      -66.533108       0.376413592      -66.533108       0.917549475      22.105134        
17.94            0.923650187      21.2495898       0.362527777      -67.4289912      0.362527777      -67.4289912      0.923650187      21.2495898       
18.71            0.929121175      20.4538304       0.349540262      -68.2621106      0.349540262      -68.2621106      0.929121175      20.4538304       
19.48            0.934043493      19.7120844       0.337374021      -69.0385682      0.337374021      -69.0385682      0.934043493      19.7120844       
20.25            0.938486008      19.0192585       0.325959476      -69.7637397      0.325959476      -69.7637397      0.938486008      19.0192585       
21.02            0.942507452      18.370848        0.31523383       -70.4423724      0.31523383       -70.4423724      0.942507452      18.370848        
21.79            0.946158101      17.7628589       0.305140408      -71.0786701      0.305140408      -71.0786701      0.946158101      17.7628589       
22.56            0.949481141      17.1917419       0.295628047      -71.6763646      0.295628047      -71.6763646      0.949481141      17.1917419       
23.33            0.952513807      16.654335        0.286650529      -72.238777       0.286650529      -72.238777       0.952513807      16.654335        
24.1             0.955288309      16.1478145       0.278166065      -72.7688709      0.278166065      -72.7688709      0.955288309      16.1478145       
24.87            0.957832608      15.6696528       0.27013683       -73.2692969      0.27013683       -73.2692969      0.957832608      15.6696528       
25.64            0.960171052      15.2175823       0.262528545      -73.742432       0.262528545      -73.742432       0.960171052      15.2175823       
26.41            0.962324913      14.7895634       0.255310102      -74.1904124      0.255310102      -74.1904124      0.962324913      14.7895634       
27.18            0.964312834      14.3837581       0.248453231      -74.6151627      0.248453231      -74.6151627      0.964312834      14.3837581       
27.95            0.966151196      13.998506        0.241932206      -75.0184204      0.241932206      -75.0184204      0.966151196      13.998506        
28.72            0.967854442      13.6323042       0.235723579      -75.4017578      0.235723579      -75.4017578      0.967854442      13.6323042       
29.49            0.969435334      13.2837894       0.229805951      -75.7666008      0.229805951      -75.7666008      0.969435334      13.2837894       
30.26            0.970905184      12.9517226       0.224159756      -76.1142446      0.224159756      -76.1142446      0.970905184      12.9517226       
31.03            0.972274041      12.6349754       0.218767085      -76.4458687      0.218767085      -76.4458687      0.972274041      12.6349754       
31.8             0.973550859      12.3325184       0.213611519      -76.7625488      0.213611519      -76.7625488      0.973550859      12.3325184       
32.57            0.974743627      12.0434105       0.208677981      -77.065268       0.208677981      -77.065268       0.974743627      12.0434105       
33.34            0.9758595        11.7667903       0.203952609      -77.3549263      0.203952609      -77.3549263      0.9758595        11.7667903       
34.11            0.976904891      11.5018674       0.199422639      -77.6323491      0.199422639      -77.6323491      0.976904891      11.5018674       
34.88            0.977885566      11.2479158       0.195076303      -77.8982944      0.195076303      -77.8982944      0.977885566      11.2479158       
35.65            0.978806718      11.0042675       0.190902735      -78.1534599      0.190902735      -78.1534599      0.978806718      11.0042675       
36.42            0.979673033      10.7703067       0.18689189       -78.3984883      0.18689189       -78.3984883      0.979673033      10.7703067       
37.19            0.980488751      10.5454653       0.18303447       -78.6339728      0.18303447       -78.6339728      0.980488751      10.5454653       
37.96            0.981257709      10.3292178       0.179321854      -78.8604618      0.179321854      -78.8604618      0.981257709      10.3292178       
38.73            0.981983393      10.121078        0.175746044      -79.0784628      0.175746044      -79.0784628      0.981983393      10.121078        
39.5             0.98266897       9.92059528       0.17229961       -79.2884461      0.17229961       -79.2884461      0.98266897       9.92059528       
40.27            0.983317325      9.72735135       0.168975637      -79.4908482      0.168975637      -79.4908482      0.983317325      9.72735135       
41.04            0.98393109       9.54095748       0.165767688      -79.6860747      0.165767688      -79.6860747      0.98393109       9.54095748       
41.81            0.984512669      9.361052         0.16266976       -79.874503       0.16266976       -79.874503       0.984512669      9.361052         
42.58            0.985064262      9.18729799       0.159676251      -80.0564847      0.159676251      -80.0564847      0.985064262      9.18729799       
43.35            0.985587886      9.01938122       0.156781928      -80.2323476      0.156781928      -80.2323476      0.985587886      9.01938122       
44.12            0.98608539       8.85700829       0.153981893      -80.4023979      0.153981893      -80.4023979      0.98608539       8.85700829       
44.89            0.986558476      8.69990496       0.151271565      -80.5669216      0.151271565      -80.5669216      0.986558476      8.69990496       
45.66            0.987008707      8.54781462       0.148646648      -80.7261864      0.148646648      -80.7261864      0.987008707      8.54781462       
46.43            0.987437525      8.40049689       0.146103113      -80.8804432      0.146103113      -80.8804432      0.987437525      8.40049689       
47.2             0.987846262      8.2577264        0.143637177      -81.0299269      0.143637177      -81.0299269      0.987846262      8.2577264        
47.97            0.988236146      8.11929163       0.141245286      -81.1748584      0.141245286      -81.1748584      0.988236146      8.11929163       
48.74            0.988608313      7.98499388       0.138924094      -81.3154447      0.138924094      -81.3154447      0.988608313      7.98499388       
49.51            0.988963815      7.85464631       0.136670455      -81.4518809      0.136670455      -81.4518809      0.988963815      7.85464631       
50.28            0.98930363       7.72807307       0.134481402      -81.5843502      0.134481402      -81.5843502      0.98930363       7.72807307       
51.05            0.989628661      7.60510852       0.13235414       -81.7130255      0.13235414       -81.7130255      0.989628661      7.60510852       
51.82            0.989939749      7.48559653       0.130286028      -81.8380697      0.130286028      -81.8380697      0.989939749      7.48559653       
52.59            0.990237678      7.36938975       0.128274574      -81.9596362      0.128274574      -81.9596362      0.990237678      7.36938975       
53.36            0.990523176      7.25634906       0.126317422      -82.0778704      0.126317422      -82.0778704      0.990523176      7.25634906       
54.13            0.99079692       7.146343         0.124412345      -82.1929091      0.124412345      -82.1929091      0.99079692       7.146343         
54.9             0.991059545      7.03924722       0.122557232      -82.3048821      0.122557232      -82.3048821      0.991059545      7.03924722       
55.67            0.99131164       6.93494405       0.120750086      -82.4139121      0.120750086      -82.4139121      0.99131164       6.93494405       
56.44            0.991553758      6.83332202       0.118989012      -82.5201153      0.118989012      -82.5201153      0.991553758      6.83332202       
57.21            0.991786416      6.7342755        0.117272216      -82.6236017      0.117272216      -82.6236017      0.991786416      6.7342755        
57.98            0.992010098      6.6377043        0.115597991      -82.7244759      0.115597991      -82.7244759      0.992010098      6.6377043        
58.75            0.992225255      6.54351333       0.113964719      -82.8228369      0.113964719      -82.8228369      0.992225255      6.54351333       
59.52            0.992432314      6.45161228       0.112370862      -82.9187788      0.112370862      -82.9187788      0.992432314      6.45161228       
60.29            0.992631672      6.36191534       0.110814955      -83.0123912      0.110814955      -83.0123912      0.992631672      6.36191534       
61.06            0.992823705      6.27434089       0.109295607      -83.1037589      0.109295607      -83.1037589      0.992823705      6.27434089       
61.83            0.993008764      6.1888113        0.107811492      -83.1929629      0.107811492      -83.1929629      0.993008764      6.1888113        
62.6             0.993187179      6.10525263       0.106361348      -83.2800802      0.106361348      -83.2800802      0.993187179      6.10525263       
63.37            0.993359263      6.02359448       0.104943971      -83.3651841      0.104943971      -83.3651841      0.993359263      6.02359448       
64.14            0.99352531       5.94376971       0.103558214      -83.4483446      0.103558214      -83.4483446      0.99352531       5.94376971       
64.91            0.993685595      5.86571433       0.102202982      -83.5296282      0.102202982      -83.5296282      0.993685595      5.86571433       
65.68            0.99384038       5.78936726       0.100877229      -83.6090986      0.100877229      -83.6090986      0.99384038       5.78936726       
66.45            0.993989911      5.71467018       0.0995799564     -83.6868163      0.0995799564     -83.6868163      0.993989911      5.71467018       
67.22            0.994134421      5.6415674        0.098310211      -83.7628395      0.098310211      -83.7628395      0.994134421      5.6415674        
67.99            0.994274129      5.57000569       0.0970670801     -83.8372234      0.0970670801     -83.8372234      0.994274129      5.57000569       
68.76            0.994409244      5.49993415       0.0958496911     -83.910021       0.0958496911     -83.910021       0.994409244      5.49993415       
69.53            0.994539963      5.43130411       0.0946572089     -83.9812829      0.0946572089     -83.9812829      0.994539963      5.43130411       
70.3             0.994666471      5.36406896       0.0934888338     -84.0510575      0.0934888338     -84.0510575      0.994666471      5.36406896       
71.07            0.994788945      5.29818408       0.0923438001     -84.1193911      0.0923438001     -84.1193911      0.994788945      5.29818408       
71.84            0.994907554      5.23360674       0.0912213737     -84.1863283      0.0912213737     -84.1863283      0.994907554      5.23360674       
72.61            0.995022454      5.17029597       0.0901208509     -84.2519115      0.0901208509     -84.2519115      0.995022454      5.17029597       
73.38            0.995133798      5.10821249       0.0890415568     -84.3161815      0.0890415568     -84.3161815      0.995133798      5.10821249       
74.15            0.995241727      5.04731864       0.0879828439     -84.3791774      0.0879828439     -84.3791774      0.995241727      5.04731864       
74.92            0.995346378      4.98757826       0.0869440903     -84.4409367      0.0869440903     -84.4409367      0.995346378      4.98757826       
75.69            0.995447881      4.92895665       0.0859246992     -84.5014953      0.0859246992     -84.5014953      0.995447881      4.92895665       
76.46            0.995546357      4.87142046       0.0849240969     -84.5608878      0.0849240969     -84.5608878      0.995546357      4.87142046       
77.23            0.995641924      4.81493768       0.0839417323     -84.6191475      0.0839417323     -84.6191475      0.995641924      4.81493768       
78               0.995734693      4.75947752       0.0829770754     -84.676306       0.0829770754     -84.676306       0.995734693      4.75947752       
78.77            0.99582477       4.70501039       0.0820296164     -84.7323942      0.0820296164     -84.7323942      0.99582477       4.70501039       
79.54            0.995912256      4.65150781       0.081098865      -84.7874413      0.081098865      -84.7874413      0.995912256      4.65150781       
80.31            0.995997247      4.59894238       0.0801843491     -84.8414758      0.0801843491     -84.8414758      0.995997247      4.59894238       
81.08            0.996079835      4.54728775       0.0792856142     -84.8945248      0.0792856142     -84.8945248      0.996079835      4.54728775       
81.85            0.996160108      4.49651852       0.0784022225     -84.9466146      0.0784022225     -84.9466146      0.996160108      4.49651852       
82.62            0.996238148      4.44661021       0.0775337524     -84.9977704      0.0775337524     -84.9977704      0.996238148      4.44661021       
83.39            0.996314037      4.39753928       0.0766797971     -85.0480164      0.0766797971     -85.0480164      0.996314037      4.39753928       
84.16            0.996387849      4.34928299       0.0758399649     -85.0973761      0.0758399649     -85.0973761      0.996387849      4.34928299       
84.93            0.996459659      4.30181944       0.0750138777     -85.1458721      0.0750138777     -85.1458721      0.996459659      4.30181944       
85.7             0.996529536      4.25512749       0.0742011708     -85.1935259      0.0742011708     -85.1935259      0.996529536      4.25512749       
86.47            0.996597546      4.20918677       0.0734014923     -85.2403587      0.0734014923     -85.2403587      0.996597546      4.20918677       
87.24            0.996663754      4.16397758       0.0726145024     -85.2863905      0.0726145024     -85.2863905      0.996663754      4.16397758       
88.01            0.996728219      4.11948094       0.071839873      -85.3316408      0.071839873      -85.3316408      0.996728219      4.11948094       
88.78            0.996791002      4.0756785        0.0710772872     -85.3761285      0.0710772872     -85.3761285      0.996791002      4.0756785        
89.55            0.996852157      4.03255252       0.0703264388     -85.4198715      0.0703264388     -85.4198715      0.996852157      4.03255252       
90.32            0.996911739      3.99008589       0.0695870319     -85.4628876      0.0695870319     -85.4628876      0.996911739      3.99008589       
91.09            0.996969799      3.94826205       0.0688587803     -85.5051934      0.0688587803     -85.5051934      0.996969799      3.94826205       
91.86            0.997026387      3.90706499       0.0681414074     -85.5468054      0.0681414074     -85.5468054      0.997026387      3.90706499       
92.63            0.997081549      3.86647923       0.0674346455     -85.5877392      0.0674346455     -85.5877392      0.997081549      3.86647923       
93.4             0.997135331      3.82648979       0.0667382356     -85.6280101      0.0667382356     -85.6280101      0.997135331      3.82648979       
94.17            0.997187777      3.78708218       0.0660519272     -85.6676328      0.0660519272     -85.6676328      0.997187777      3.78708218       
94.94            0.997238929      3.74824238       0.0653754777     -85.7066215      0.0653754777     -85.7066215      0.997238929      3.74824238       
95.71            0.997288826      3.7099568        0.064708652      -85.7449899      0.064708652      -85.7449899      0.997288826      3.7099568        
96.48            0.997337509      3.67221229       0.0640512226     -85.7827513      0.0640512226     -85.7827513      0.997337509      3.67221229       
97.25            0.997385013      3.63499612       0.0634029692     -85.8199185      0.0634029692     -85.8199185      0.997385013      3.63499612       
98.02            0.997431374      3.59829593       0.062763678      -85.8565039      0.062763678      -85.8565039      0.997431374      3.59829593       
98.79            0.997476628      3.56209976       0.062133142      -85.8925195      0.062133142      -85.8925195      0.997476628      3.56209976       
