! Coilcraft 1812CS-152 Chip Inductor				
! 31 July 2002			
# MHZ S MA R 50
!Freq             MagS11           AngS11           MagS21           AngS21           MagS12           AngS12           MagS22           AngS22
1                0.0954506252     71.8247303       0.974455734      -5.33999227      0.974455734      -5.33999227      0.0954506252     71.8247303       
1.97             0.182174671      72.2946884       0.960406782      -10.4105446      0.960406782      -10.4105446      0.182174671      72.2946884       
2.94             0.265126671      69.4266913       0.940190506      -15.3080139      0.940190506      -15.3080139      0.265126671      69.4266913       
3.91             0.342556724      65.8283211       0.914773332      -19.9767626      0.914773332      -19.9767626      0.342556724      65.8283211       
4.88             0.413519733      62.0964258       0.88541321       -24.3768613      0.88541321       -24.3768613      0.413519733      62.0964258       
5.85             0.477608156      58.4487341       0.853394315      -28.4847121      0.853394315      -28.4847121      0.477608156      58.4487341       
6.82             0.534830052      54.9801394       0.819882715      -32.2912792      0.819882715      -32.2912792      0.534830052      54.9801394       
7.79             0.585488992      51.7320739       0.785852593      -35.7991445      0.785852593      -35.7991445      0.585488992      51.7320739       
8.76             0.630072861      48.7185412       0.752063783      -39.019277       0.752063783      -39.019277       0.630072861      48.7185412       
9.73             0.669163155      45.9383993       0.719072491      -41.9680815      0.719072491      -41.9680815      0.669163155      45.9383993       
10.7             0.703368857      43.3820847       0.687259475      -44.6649958      0.687259475      -44.6649958      0.703368857      43.3820847       
11.67            0.733283012      41.0356022       0.656864233      -47.1306977      0.656864233      -47.1306977      0.733283012      41.0356022       
12.64            0.759457359      38.8829665       0.62801831       -49.3858637      0.62801831       -49.3858637      0.759457359      38.8829665       
13.61            0.782389905      36.9076933       0.600774268      -51.4503726      0.600774268      -51.4503726      0.782389905      36.9076933       
14.58            0.802521045      35.0936855       0.575129194      -53.3428412      0.575129194      -53.3428412      0.802521045      35.0936855       
15.55            0.820234824      33.4257302       0.551042885      -55.0803934      0.551042885      -55.0803934      0.820234824      33.4257302       
16.52            0.835863033      31.8897489       0.528451397      -56.6785857      0.528451397      -56.6785857      0.835863033      31.8897489       
17.49            0.849690581      30.4728916       0.507276855      -58.151429       0.507276855      -58.151429       0.849690581      30.4728916       
18.46            0.861961219      29.1635374       0.487434371      -59.5114699      0.487434371      -59.5114699      0.861961219      29.1635374       
19.43            0.872883094      27.9512416       0.468836791      -60.7699009      0.468836791      -60.7699009      0.872883094      27.9512416       
20.4             0.882633836      26.826653        0.451397847      -61.9366837      0.451397847      -61.9366837      0.882633836      26.826653        
21.37            0.891365093      25.7814194       0.435034188      -63.0206745      0.435034188      -63.0206745      0.891365093      25.7814194       
22.34            0.899206466      24.8080903       0.419666587      -64.0297437      0.419666587      -64.0297437      0.899206466      24.8080903       
23.31            0.906268901      23.9000218       0.405220614      -64.9708879      0.405220614      -64.9708879      0.906268901      23.9000218       
24.28            0.912647558      23.0512878       0.391626912      -65.8503318      0.391626912      -65.8503318      0.912647558      23.0512878       
25.25            0.918424246      22.2565989       0.378821241      -66.6736193      0.378821241      -66.6736193      0.918424246      22.2565989       
26.22            0.923669468      21.5112293       0.366744343      -67.4456948      0.366744343      -67.4456948      0.923669468      21.5112293       
27.19            0.928444144      20.8109506       0.355341718      -68.170975       0.355341718      -68.170975       0.928444144      20.8109506       
28.16            0.932801052      20.1519746       0.344563347      -68.853412       0.344563347      -68.853412       0.932801052      20.1519746       
29.13            0.936786043      19.5309016       0.334363377      -69.4965485      0.334363377      -69.4965485      0.936786043      19.5309016       
30.1             0.940439056      18.9446752       0.324699807      -70.1035657      0.324699807      -70.1035657      0.940439056      18.9446752       
31.07            0.943794978      18.3905432       0.315534174      -70.6773262      0.315534174      -70.6773262      0.943794978      18.3905432       
32.04            0.946884363      17.8660227       0.306831256      -71.2204103      0.306831256      -71.2204103      0.946884363      17.8660227       
33.01            0.949734043      17.3688698       0.29855879       -71.7351487      0.29855879       -71.7351487      0.949734043      17.3688698       
33.98            0.952367642      16.8970526       0.290687203      -72.22365        0.290687203      -72.22365        0.952367642      16.8970526       
34.95            0.954806012      16.4487282       0.283189376      -72.6878263      0.283189376      -72.6878263      0.954806012      16.4487282       
35.92            0.957067606      16.0222221       0.276040418      -73.1294137      0.276040418      -73.1294137      0.957067606      16.0222221       
36.89            0.959168793      15.61601         0.269217463      -73.5499922      0.269217463      -73.5499922      0.959168793      15.61601         
37.86            0.961124125      15.228702        0.262699488      -73.9510018      0.262699488      -73.9510018      0.961124125      15.228702        
38.83            0.962946575      14.8590287       0.256467139      -74.3337572      0.256467139      -74.3337572      0.962946575      14.8590287       
39.8             0.964647727      14.5058286       0.250502587      -74.6994612      0.250502587      -74.6994612      0.964647727      14.5058286       
40.77            0.966237953      14.1680376       0.244789386      -75.0492152      0.244789386      -75.0492152      0.966237953      14.1680376       
41.74            0.967726556      13.8446788       0.239312351      -75.3840301      0.239312351      -75.3840301      0.967726556      13.8446788       
42.71            0.969121897      13.5348544       0.234057444      -75.7048349      0.234057444      -75.7048349      0.969121897      13.5348544       
43.68            0.970431508      13.2377379       0.229011677      -76.0124847      0.229011677      -76.0124847      0.970431508      13.2377379       
44.65            0.971662186      12.9525672       0.224163015      -76.3077676      0.224163015      -76.3077676      0.971662186      12.9525672       
45.62            0.972820074      12.6786387       0.219500299      -76.5914111      0.219500299      -76.5914111      0.972820074      12.6786387       
46.59            0.97391074       12.4153022       0.215013168      -76.8640876      0.215013168      -76.8640876      0.97391074       12.4153022       
47.56            0.974939231      12.1619554       0.210691993      -77.1264198      0.210691993      -77.1264198      0.974939231      12.1619554       
48.53            0.975910137      11.9180402       0.206527814      -77.3789845      0.206527814      -77.3789845      0.975910137      11.9180402       
49.5             0.976827635      11.6830385       0.202512287      -77.6223172      0.202512287      -77.6223172      0.976827635      11.6830385       
50.47            0.977695536      11.456469        0.198637634      -77.8569153      0.198637634      -77.8569153      0.977695536      11.456469        
51.44            0.978517317      11.2378838       0.194896594      -78.0832418      0.194896594      -78.0832418      0.978517317      11.2378838       
52.41            0.979296161      11.0268656       0.191282386      -78.3017276      0.191282386      -78.3017276      0.979296161      11.0268656       
53.38            0.980034982      10.8230254       0.187788669      -78.5127749      0.187788669      -78.5127749      0.980034982      10.8230254       
54.35            0.980736454      10.626           0.184409507      -78.7167587      0.184409507      -78.7167587      0.980736454      10.626           
55.32            0.981403031      10.43545         0.18113934       -78.9140297      0.18113934       -78.9140297      0.981403031      10.43545         
56.29            0.982036971      10.2510577       0.177972955      -79.104916       0.177972955      -79.104916       0.982036971      10.2510577       
57.26            0.982640356      10.0725259       0.174905458      -79.2897248      0.174905458      -79.2897248      0.982640356      10.0725259       
58.23            0.983215101      9.89957562       0.171932253      -79.4687439      0.171932253      -79.4687439      0.983215101      9.89957562       
59.2             0.983762979      9.73194542       0.169049019      -79.6422436      0.169049019      -79.6422436      0.983762979      9.73194542       
60.17            0.984285626      9.56938958       0.16625169       -79.8104774      0.16625169       -79.8104774      0.984285626      9.56938958       
61.14            0.984784556      9.41167719       0.163536437      -79.973684       0.163536437      -79.973684       0.984784556      9.41167719       
62.11            0.985261172      9.25859094       0.160899653      -80.1320876      0.160899653      -80.1320876      0.985261172      9.25859094       
63.08            0.985716776      9.10992624       0.158337933      -80.2858994      0.158337933      -80.2858994      0.985716776      9.10992624       
64.05            0.986152576      8.96549024       0.155848065      -80.4353187      0.155848065      -80.4353187      0.986152576      8.96549024       
65.02            0.986569696      8.82510105       0.153427016      -80.5805332      0.153427016      -80.5805332      0.986569696      8.82510105       
65.99            0.98696918       8.68858695       0.151071915      -80.7217201      0.151071915      -80.7217201      0.98696918       8.68858695       
66.96            0.987352002      8.55578573       0.14878005       -80.8590469      0.14878005       -80.8590469      0.987352002      8.55578573       
67.93            0.987719069      8.42654403       0.146548853      -80.9926719      0.146548853      -80.9926719      0.987719069      8.42654403       
68.9             0.988071226      8.30071673       0.144375889      -81.1227448      0.144375889      -81.1227448      0.988071226      8.30071673       
69.87            0.988409266      8.17816645       0.142258852      -81.2494075      0.142258852      -81.2494075      0.988409266      8.17816645       
70.84            0.988733926      8.058763         0.140195554      -81.3727943      0.140195554      -81.3727943      0.988733926      8.058763         
71.81            0.989045899      7.94238295       0.138183919      -81.4930325      0.138183919      -81.4930325      0.989045899      7.94238295       
72.78            0.989345831      7.82890921       0.136221974      -81.6102429      0.136221974      -81.6102429      0.989345831      7.82890921       
73.75            0.989634329      7.71823059       0.134307845      -81.7245404      0.134307845      -81.7245404      0.989634329      7.71823059       
74.72            0.989911964      7.61024147       0.13243975       -81.8360337      0.13243975       -81.8360337      0.989911964      7.61024147       
75.69            0.990179267      7.50484145       0.130615993      -81.9448265      0.130615993      -81.9448265      0.990179267      7.50484145       
76.66            0.990436742      7.40193503       0.12883496       -82.0510173      0.12883496       -82.0510173      0.990436742      7.40193503       
77.63            0.990684861      7.3014313        0.127095113      -82.1546997      0.127095113      -82.1546997      0.990684861      7.3014313        
78.6             0.990924066      7.20324372       0.125394986      -82.2559631      0.125394986      -82.2559631      0.990924066      7.20324372       
79.57            0.991154776      7.10728981       0.123733182      -82.3548925      0.123733182      -82.3548925      0.991154776      7.10728981       
80.54            0.991377384      7.01349093       0.122108368      -82.4515688      0.122108368      -82.4515688      0.991377384      7.01349093       
81.51            0.991592262      6.92177209       0.120519271      -82.5460695      0.120519271      -82.5460695      0.991592262      6.92177209       
82.48            0.99179976       6.83206169       0.118964675      -82.6384683      0.118964675      -82.6384683      0.99179976       6.83206169       
83.45            0.992000207      6.74429139       0.117443419      -82.7288355      0.117443419      -82.7288355      0.992000207      6.74429139       
84.42            0.992193917      6.65839586       0.115954392      -82.8172386      0.115954392      -82.8172386      0.992193917      6.65839586       
85.39            0.992381184      6.5743127        0.114496533      -82.9037416      0.114496533      -82.9037416      0.992381184      6.5743127        
86.36            0.992562288      6.4919822        0.113068825      -82.9884063      0.113068825      -82.9884063      0.992562288      6.4919822        
87.33            0.992737492      6.41134724       0.111670295      -83.0712912      0.111670295      -83.0712912      0.992737492      6.41134724       
88.3             0.992907047      6.33235314       0.110300011      -83.1524527      0.110300011      -83.1524527      0.992907047      6.33235314       
89.27            0.99307119       6.25494755       0.108957081      -83.2319447      0.108957081      -83.2319447      0.99307119       6.25494755       
90.24            0.993230146      6.17908029       0.107640649      -83.3098188      0.107640649      -83.3098188      0.993230146      6.17908029       
91.21            0.993384127      6.10470327       0.106349893      -83.3861244      0.106349893      -83.3861244      0.993384127      6.10470327       
92.18            0.993533336      6.03177039       0.105084027      -83.4609089      0.105084027      -83.4609089      0.993533336      6.03177039       
93.15            0.993677965      5.9602374        0.103842294      -83.5342178      0.103842294      -83.5342178      0.993677965      5.9602374        
94.12            0.993818196      5.89006184       0.102623968      -83.6060947      0.102623968      -83.6060947      0.993818196      5.89006184       
95.09            0.993954204      5.82120294       0.101428353      -83.6765815      0.101428353      -83.6765815      0.993954204      5.82120294       
96.06            0.994086152      5.75362156       0.100254779      -83.7457183      0.100254779      -83.7457183      0.994086152      5.75362156       
97.03            0.994214198      5.68728005       0.099102601      -83.8135439      0.099102601      -83.8135439      0.994214198      5.68728005       
98               0.994338491      5.62214225       0.0979712003     -83.8800952      0.0979712003     -83.8800952      0.994338491      5.62214225       
98.97            0.994459174      5.55817338       0.0968599811     -83.945408       0.0968599811     -83.945408       0.994459174      5.55817338       
99.94            0.994576382      5.49533997       0.0957683699     -84.0095165      0.0957683699     -84.0095165      0.994576382      5.49533997       
100.91           0.994690244      5.43360984       0.0946958149     -84.0724537      0.0946958149     -84.0724537      0.994690244      5.43360984       
101.88           0.994800884      5.37295197       0.0936417843     -84.1342514      0.0936417843     -84.1342514      0.994800884      5.37295197       
102.85           0.99490842       5.31333652       0.0926057663     -84.1949401      0.0926057663     -84.1949401      0.99490842       5.31333652       
103.82           0.995012963      5.25473472       0.0915872672     -84.2545492      0.0915872672     -84.2545492      0.995012963      5.25473472       
104.79           0.995114621      5.19711886       0.0905858113     -84.313107       0.0905858113     -84.313107       0.995114621      5.19711886       
105.76           0.995213497      5.14046223       0.0896009399     -84.3706408      0.0896009399     -84.3706408      0.995213497      5.14046223       
106.73           0.995309688      5.08473906       0.0886322105     -84.427177       0.0886322105     -84.427177       0.995309688      5.08473906       
107.7            0.995403288      5.0299245        0.0876791961     -84.4827408      0.0876791961     -84.4827408      0.995403288      5.0299245        
108.67           0.995494386      4.97599457       0.0867414845     -84.5373567      0.0867414845     -84.5373567      0.995494386      4.97599457       
109.64           0.995583069      4.92292612       0.0858186778     -84.5910483      0.0858186778     -84.5910483      0.995583069      4.92292612       
110.61           0.995669417      4.8706968        0.0849103917     -84.6438382      0.0849103917     -84.6438382      0.995669417      4.8706968        
111.58           0.995753511      4.81928503       0.084016255      -84.6957486      0.084016255      -84.6957486      0.995753511      4.81928503       
112.55           0.995835424      4.76866995       0.0831359088     -84.7468004      0.0831359088     -84.7468004      0.995835424      4.76866995       
113.52           0.99591523       4.71883141       0.0822690063     -84.7970142      0.0822690063     -84.7970142      0.99591523       4.71883141       
114.49           0.995992997      4.66974994       0.0814152122     -84.8464098      0.0814152122     -84.8464098      0.995992997      4.66974994       
115.46           0.996068792      4.62140668       0.0805742023     -84.8950062      0.0805742023     -84.8950062      0.996068792      4.62140668       
116.43           0.996142678      4.57378344       0.0797456626     -84.9428218      0.0797456626     -84.9428218      0.996142678      4.57378344       
117.4            0.996214716      4.52686257       0.0789292897     -84.9898744      0.0789292897     -84.9898744      0.996214716      4.52686257       
118.37           0.996284965      4.48062703       0.0781247896     -85.0361812      0.0781247896     -85.0361812      0.996284965      4.48062703       
119.34           0.996353481      4.4350603        0.0773318778     -85.081759       0.0773318778     -85.081759       0.996353481      4.4350603        
120.31           0.996420318      4.39014641       0.0765502788     -85.1266237      0.0765502788     -85.1266237      0.996420318      4.39014641       
121.28           0.996485528      4.34586986       0.0757797256     -85.170791       0.0757797256     -85.170791       0.996485528      4.34586986       
122.25           0.996549161      4.30221566       0.0750199597     -85.2142758      0.0750199597     -85.2142758      0.996549161      4.30221566       
123.22           0.996611266      4.25916928       0.0742707303     -85.2570928      0.0742707303     -85.2570928      0.996611266      4.25916928       
124.19           0.996671887      4.21671664       0.0735317946     -85.299256       0.0735317946     -85.299256       0.996671887      4.21671664       
