! Coilcraft 1812CS-183 Chip Inductor				
! 31 July 2002			
# MHZ S MA R 50
!Freq             MagS11           AngS11           MagS21           AngS21           MagS12           AngS12           MagS22           AngS22
1                0.701362833      37.23902         0.612515055      -43.8616702      0.612515055      -43.8616702      0.701362833      37.23902         
1.17             0.752708592      33.9151682       0.563274173      -48.2118346      0.563274173      -48.2118346      0.752708592      33.9151682       
1.34             0.793078451      31.0040558       0.519065921      -51.9076154      0.519065921      -51.9076154      0.793078451      31.0040558       
1.51             0.825033735      28.4695488       0.479744606      -55.0631188      0.479744606      -55.0631188      0.825033735      28.4695488       
1.68             0.850555763      26.2631408       0.444901278      -57.7743241      0.444901278      -57.7743241      0.850555763      26.2631408       
1.85             0.871142749      24.3368799       0.414037203      -60.1197781      0.414037203      -60.1197781      0.871142749      24.3368799       
2.02             0.887918219      22.6479321       0.386652181      -62.1629449      0.386652181      -62.1629449      0.887918219      22.6479321       
2.19             0.901724524      21.1596773       0.362284539      -63.954876       0.362284539      -63.954876       0.901724524      21.1596773       
2.36             0.913195992      19.8414366       0.340525622      -65.5366586      0.340525622      -65.5366586      0.913195992      19.8414366       
2.53             0.922813636      18.6677332       0.321021684      -66.9414718      0.321021684      -66.9414718      0.922813636      18.6677332       
2.7              0.930945268      17.6174651       0.303470098      -68.196244       0.303470098      -68.196244       0.930945268      17.6174651       
2.87             0.937874674      16.6731394       0.287613433      -69.32296        0.287613433      -69.32296        0.937874674      16.6731394       
3.04             0.943822831      15.8202135       0.273233147      -70.3396837      0.273233147      -70.3396837      0.943822831      15.8202135       
3.21             0.948963371      15.0465496       0.260143645      -71.2613538      0.260143645      -71.2613538      0.948963371      15.0465496       
3.38             0.953433945      14.3419696       0.248187041      -72.1004051      0.248187041      -72.1004051      0.953433945      14.3419696       
3.55             0.957344606      13.6978974       0.237228656      -72.8672536      0.237228656      -72.8672536      0.957344606      13.6978974       
3.72             0.960784064      13.1070697       0.227153241      -73.5706777      0.227153241      -73.5706777      0.960784064      13.1070697       
3.89             0.963824377      12.5633046       0.217861817      -74.2181197      0.217861817      -74.2181197      0.963824377      12.5633046       
4.06             0.96652451       12.0613143       0.209269065      -74.8159237      0.209269065      -74.8159237      0.96652451       12.0613143       
4.23             0.96893305       11.5965544       0.20130116       -75.3695274      0.20130116       -75.3695274      0.96893305       11.5965544       
4.4              0.971090291      11.1651011       0.193893981      -75.8836148      0.193893981      -75.8836148      0.971090291      11.1651011       
4.57             0.973029865      10.7635515       0.186991628      -76.3622401      0.186991628      -76.3622401      0.973029865      10.7635515       
4.74             0.974779999      10.3889419       0.180545186      -76.8089284      0.180545186      -76.8089284      0.974779999      10.3889419       
4.91             0.976364523      10.0386805       0.174511704      -77.2267582      0.174511704      -77.2267582      0.976364523      10.0386805       
5.08             0.977803655      9.71049224       0.168853338      -77.6184287      0.168853338      -77.6184287      0.977803655      9.71049224       
5.25             0.979114635      9.40237229       0.163536628      -77.9863161      0.163536628      -77.9863161      0.979114635      9.40237229       
5.42             0.980312236      9.11254804       0.158531902      -78.3325193      0.158531902      -78.3325193      0.980312236      9.11254804       
5.59             0.981409167      8.83944679       0.153812761      -78.6588997      0.153812761      -78.6588997      0.981409167      8.83944679       
5.76             0.982416413      8.58166875       0.149355653      -78.9671126      0.149355653      -78.9671126      0.982416413      8.58166875       
5.93             0.983343503      8.33796425       0.145139503      -79.2586353      0.145139503      -79.2586353      0.983343503      8.33796425       
6.1              0.984198739      8.10721437       0.141145402      -79.53479        0.141145402      -79.53479        0.984198739      8.10721437       
6.27             0.984989374      7.88841446       0.137356342      -79.7967634      0.137356342      -79.7967634      0.984989374      7.88841446       
6.44             0.985721772      7.6806601        0.133756983      -80.0456236      0.133756983      -80.0456236      0.985721772      7.6806601        
6.61             0.986401533      7.48313499       0.13033346       -80.2823343      0.13033346       -80.2823343      0.986401533      7.48313499       
6.78             0.987033598      7.29510062       0.127073211      -80.5077674      0.127073211      -80.5077674      0.987033598      7.29510062       
6.95             0.987622345      7.11588729       0.123964826      -80.7227135      0.123964826      -80.7227135      0.987622345      7.11588729       
7.12             0.988171657      6.94488631       0.120997925      -80.9278909      0.120997925      -80.9278909      0.988171657      6.94488631       
7.29             0.988684996      6.78154333       0.118163043      -81.123954       0.118163043      -81.123954       0.988684996      6.78154333       
7.46             0.989165447      6.62535241       0.115451531      -81.3114998      0.115451531      -81.3114998      0.989165447      6.62535241       
7.63             0.989615775      6.47585089       0.112855472      -81.4910745      0.112855472      -81.4910745      0.989615775      6.47585089       
7.8              0.990038457      6.33261491       0.110367609      -81.6631783      0.110367609      -81.6631783      0.990038457      6.33261491       
7.97             0.990435723      6.19525544       0.107981273      -81.8282705      0.107981273      -81.8282705      0.990435723      6.19525544       
8.14             0.990809579      6.06341481       0.105690326      -81.9867733      0.105690326      -81.9867733      0.990809579      6.06341481       
8.31             0.99116184       5.93676361       0.103489115      -82.1390755      0.103489115      -82.1390755      0.99116184       5.93676361       
8.48             0.991494145      5.81499799       0.10137242       -82.285536       0.10137242       -82.285536       0.991494145      5.81499799       
8.65             0.991807982      5.69783724       0.0993354129     -82.4264862      0.0993354129     -82.4264862      0.991807982      5.69783724       
8.82             0.992104702      5.58502164       0.0973736273     -82.5622328      0.0973736273     -82.5622328      0.992104702      5.58502164       
8.99             0.992385533      5.47631052       0.0954829205     -82.6930602      0.0954829205     -82.6930602      0.992385533      5.47631052       
9.16             0.992651596      5.3714806        0.0936594467     -82.819232       0.0936594467     -82.819232       0.992651596      5.3714806        
9.33             0.992903914      5.27032441       0.0918996311     -82.9409934      0.0918996311     -82.9409934      0.992903914      5.27032441       
9.5              0.993143423      5.17264894       0.0902001463     -83.0585724      0.0902001463     -83.0585724      0.993143423      5.17264894       
9.67             0.993370979      5.07827442       0.0885578915     -83.1721815      0.0885578915     -83.1721815      0.993370979      5.07827442       
9.84             0.993587369      4.98703319       0.0869699735     -83.2820188      0.0869699735     -83.2820188      0.993587369      4.98703319       
10.01            0.993793316      4.89876872       0.0854336901     -83.3882694      0.0854336901     -83.3882694      0.993793316      4.89876872       
10.18            0.993989484      4.81333467       0.0839465141     -83.4911063      0.0839465141     -83.4911063      0.993989484      4.81333467       
10.35            0.994176484      4.73059411       0.08250608       -83.5906912      0.08250608       -83.5906912      0.994176484      4.73059411       
10.52            0.994354883      4.65041878       0.0811101709     -83.687176       0.0811101709     -83.687176       0.994354883      4.65041878       
10.69            0.994525202      4.57268841       0.0797567073     -83.7807029      0.0797567073     -83.7807029      0.994525202      4.57268841       
10.86            0.994687924      4.49729007       0.0784437367     -83.8714053      0.0784437367     -83.8714053      0.994687924      4.49729007       
11.03            0.994843495      4.4241177        0.077169424      -83.9594087      0.077169424      -83.9594087      0.994843495      4.4241177        
11.2             0.99499233       4.35307154       0.0759320427     -84.0448312      0.0759320427     -84.0448312      0.99499233       4.35307154       
11.37            0.995134813      4.28405766       0.0747299672     -84.1277839      0.0747299672     -84.1277839      0.995134813      4.28405766       
11.54            0.995271302      4.21698759       0.0735616658     -84.2083713      0.0735616658     -84.2083713      0.995271302      4.21698759       
11.71            0.99540213       4.15177791       0.0724256935     -84.2866922      0.0724256935     -84.2866922      0.99540213       4.15177791       
11.88            0.995527606      4.08834988       0.0713206864     -84.3628398      0.0713206864     -84.3628398      0.995527606      4.08834988       
12.05            0.995648017      4.02662912       0.0702453559     -84.436902       0.0702453559     -84.436902       0.995648017      4.02662912       
12.22            0.995763635      3.96654535       0.0691984837     -84.508962       0.0691984837     -84.508962       0.995763635      3.96654535       
12.39            0.995874709      3.90803205       0.068178917      -84.5790984      0.068178917      -84.5790984      0.995874709      3.90803205       
12.56            0.995981476      3.85102628       0.0671855643     -84.6473857      0.0671855643     -84.6473857      0.995981476      3.85102628       
12.73            0.996084155      3.79546839       0.0662173913     -84.7138944      0.0662173913     -84.7138944      0.996084155      3.79546839       
12.9             0.996182951      3.74130183       0.0652734171     -84.7786915      0.0652734171     -84.7786915      0.996182951      3.74130183       
13.07            0.996278059      3.68847296       0.0643527112     -84.8418403      0.0643527112     -84.8418403      0.996278059      3.68847296       
13.24            0.996369658      3.63693083       0.0634543899     -84.9034011      0.0634543899     -84.9034011      0.996369658      3.63693083       
13.41            0.99645792       3.58662708       0.0625776134     -84.963431       0.0625776134     -84.963431       0.99645792       3.58662708       
13.58            0.996543004      3.5375157        0.0617215835     -85.0219844      0.0617215835     -85.0219844      0.996543004      3.5375157        
13.75            0.99662506       3.48955295       0.0608855408     -85.079113       0.0608855408     -85.079113       0.99662506       3.48955295       
13.92            0.996704229      3.44269719       0.0600687624     -85.1348659      0.0600687624     -85.1348659      0.996704229      3.44269719       
14.09            0.996780645      3.39690876       0.0592705596     -85.1892901      0.0592705596     -85.1892901      0.996780645      3.39690876       
14.26            0.996854433      3.35214988       0.0584902763     -85.24243        0.0584902763     -85.24243        0.996854433      3.35214988       
14.43            0.996925711      3.30838452       0.0577272866     -85.2943282      0.0577272866     -85.2943282      0.996925711      3.30838452       
14.6             0.996994592      3.26557831       0.0569809936     -85.3450252      0.0569809936     -85.3450252      0.996994592      3.26557831       
14.77            0.99706118       3.22369844       0.0562508274     -85.3945597      0.0562508274     -85.3945597      0.99706118       3.22369844       
14.94            0.997125575      3.18271359       0.0555362436     -85.4429686      0.0555362436     -85.4429686      0.997125575      3.18271359       
15.11            0.997187872      3.14259381       0.0548367219     -85.4902871      0.0548367219     -85.4902871      0.997187872      3.14259381       
15.28            0.99724816       3.10331051       0.0541517652     -85.5365489      0.0541517652     -85.5365489      0.99724816       3.10331051       
15.45            0.997306523      3.0648363        0.0534808976     -85.5817862      0.0534808976     -85.5817862      0.997306523      3.0648363        
15.62            0.997363041      3.02714499       0.0528236639     -85.6260298      0.0528236639     -85.6260298      0.997363041      3.02714499       
15.79            0.99741779       2.99021151       0.0521796282     -85.6693091      0.0521796282     -85.6693091      0.99741779       2.99021151       
15.96            0.997470842      2.95401185       0.051548373      -85.7116522      0.051548373      -85.7116522      0.997470842      2.95401185       
16.13            0.997522265      2.91852298       0.050929498      -85.7530862      0.050929498      -85.7530862      0.997522265      2.91852298       
16.3             0.997572124      2.88372285       0.0503226195     -85.7936369      0.0503226195     -85.7936369      0.997572124      2.88372285       
16.47            0.997620481      2.84959028       0.0497273697     -85.833329       0.0497273697     -85.833329       0.997620481      2.84959028       
16.64            0.997667394      2.81610499       0.0491433954     -85.8721863      0.0491433954     -85.8721863      0.997667394      2.81610499       
16.81            0.997712919      2.78324748       0.0485703575     -85.9102315      0.0485703575     -85.9102315      0.997712919      2.78324748       
16.98            0.997757109      2.75099903       0.0480079305     -85.9474865      0.0480079305     -85.9474865      0.997757109      2.75099903       
17.15            0.997800014      2.71934167       0.0474558015     -85.983972       0.0474558015     -85.983972       0.997800014      2.71934167       
17.32            0.997841683      2.6882581        0.04691367       -86.0197084      0.04691367       -86.0197084      0.997841683      2.6882581        
17.49            0.997882161      2.65773172       0.0463812469     -86.0547147      0.0463812469     -86.0547147      0.997882161      2.65773172       
17.66            0.997921491      2.62774655       0.045858254      -86.0890096      0.045858254      -86.0890096      0.997921491      2.62774655       
17.83            0.997959716      2.5982872        0.0453444239     -86.1226108      0.0453444239     -86.1226108      0.997959716      2.5982872        
18               0.997996875      2.56933889       0.044839499      -86.1555354      0.044839499      -86.1555354      0.997996875      2.56933889       
18.17            0.998033006      2.54088735       0.0443432313     -86.1877998      0.0443432313     -86.1877998      0.998033006      2.54088735       
18.34            0.998068146      2.51291888       0.043855382      -86.2194199      0.043855382      -86.2194199      0.998068146      2.51291888       
18.51            0.998102328      2.48542023       0.0433757207     -86.2504107      0.0433757207     -86.2504107      0.998102328      2.48542023       
18.68            0.998135587      2.45837866       0.0429040257     -86.2807869      0.0429040257     -86.2807869      0.998135587      2.45837866       
18.85            0.998167953      2.43178189       0.0424400829     -86.3105626      0.0424400829     -86.3105626      0.998167953      2.43178189       
19.02            0.998199458      2.40561805       0.0419836861     -86.3397512      0.0419836861     -86.3397512      0.998199458      2.40561805       
19.19            0.998230129      2.37987571       0.0415346361     -86.3683657      0.0415346361     -86.3683657      0.998230129      2.37987571       
19.36            0.998259995      2.35454383       0.0410927407     -86.3964187      0.0410927407     -86.3964187      0.998259995      2.35454383       
19.53            0.998289082      2.32961176       0.0406578143     -86.4239221      0.0406578143     -86.4239221      0.998289082      2.32961176       
19.7             0.998317416      2.3050692        0.0402296778     -86.4508876      0.0402296778     -86.4508876      0.998317416      2.3050692        
19.87            0.998345022      2.28090621       0.0398081581     -86.4773263      0.0398081581     -86.4773263      0.998345022      2.28090621       
20.04            0.998371922      2.25711318       0.0393930879     -86.503249       0.0393930879     -86.503249       0.998371922      2.25711318       
20.21            0.998398139      2.23368084       0.0389843055     -86.528666       0.0389843055     -86.528666       0.998398139      2.23368084       
20.38            0.998423694      2.21060019       0.0385816545     -86.5535872      0.0385816545     -86.5535872      0.998423694      2.21060019       
20.55            0.998448609      2.18786257       0.0381849837     -86.5780224      0.0381849837     -86.5780224      0.998448609      2.18786257       
20.72            0.998472903      2.16545956       0.0377941469     -86.6019806      0.0377941469     -86.6019806      0.998472903      2.16545956       
20.89            0.998496595      2.14338305       0.0374090025     -86.6254708      0.0374090025     -86.6254708      0.998496595      2.14338305       
21.06            0.998519704      2.12162517       0.0370294135     -86.6485016      0.0370294135     -86.6485016      0.998519704      2.12162517       
21.23            0.998542247      2.10017829       0.0366552472     -86.6710813      0.0366552472     -86.6710813      0.998542247      2.10017829       
21.4             0.998564242      2.07903506       0.0362863752     -86.6932177      0.0362863752     -86.6932177      0.998564242      2.07903506       
21.57            0.998585703      2.05818831       0.035922673      -86.7149186      0.035922673      -86.7149186      0.998585703      2.05818831       
21.74            0.998606648      2.03763114       0.03556402       -86.7361914      0.03556402       -86.7361914      0.998606648      2.03763114       
21.91            0.998627091      2.01735682       0.0352102994     -86.757043       0.0352102994     -86.757043       0.998627091      2.01735682       
22.08            0.998647047      1.99735887       0.0348613979     -86.7774805      0.0348613979     -86.7774805      0.998647047      1.99735887       
22.25            0.99866653       1.97763096       0.0345172056     -86.7975103      0.0345172056     -86.7975103      0.99866653       1.97763096       
22.42            0.998685553      1.958167         0.0341776161     -86.8171389      0.0341776161     -86.8171389      0.998685553      1.958167         
22.59            0.998704129      1.93896104       0.0338425258     -86.8363723      0.0338425258     -86.8363723      0.998704129      1.93896104       
