! Coilcraft 1812CS-273 Chip Inductor				
! 31 July 2002			
# MHZ S MA R 50
!Freq             MagS11           AngS11           MagS21           AngS21           MagS12           AngS12           MagS22           AngS22
1                0.814892408      28.2121052       0.477365059      -53.803068       0.477365059      -53.803068       0.814892408      28.2121052       
1.12             0.842739932      25.9625703       0.441394346      -56.7040968      0.441394346      -56.7040968      0.842739932      25.9625703       
1.24             0.865049691      24.0015812       0.409641254      -59.20104        0.409641254      -59.20104        0.865049691      24.0015812       
1.36             0.883112593      22.2861452       0.381571919      -61.3659146      0.381571919      -61.3659146      0.883112593      22.2861452       
1.48             0.897890679      20.7785714       0.356688615      -63.2563751      0.356688615      -63.2563751      0.897890679      20.7785714       
1.6              0.910103408      19.4469167       0.334549782      -64.9185613      0.334549782      -64.9185613      0.910103408      19.4469167       
1.72             0.920292452      18.2645237       0.31477371       -66.3895126      0.31477371       -66.3895126      0.920292452      18.2645237       
1.84             0.92886909       17.2092816       0.297034872      -67.6991135      0.297034872      -67.6991135      0.92886909       17.2092816       
1.96             0.936148502      16.2628716       0.281057463      -68.8716239      0.281057463      -68.8716239      0.936148502      16.2628716       
2.08             0.942374539      15.4100895       0.266608351      -69.9268694      0.266608351      -69.9268694      0.942374539      15.4100895       
2.2              0.947737669      14.6382739       0.253490432      -70.8811627      0.253490432      -70.8811627      0.947737669      14.6382739       
2.32             0.952388047      13.9368356       0.241536758      -71.7480177      0.241536758      -71.7480177      0.952388047      13.9368356       
2.44             0.956445105      13.2968759       0.230605526      -72.5387042      0.230605526      -72.5387042      0.956445105      13.2968759       
2.56             0.960004652      12.7108797       0.220575877      -73.2626816      0.220575877      -73.2626816      0.960004652      12.7108797       
2.68             0.963144171      12.1724682       0.211344417      -73.9279382      0.211344417      -73.9279382      0.963144171      12.1724682       
2.8              0.965926805      11.6761999       0.202822343      -74.54126        0.202822343      -74.54126        0.965926805      11.6761999       
2.92             0.968404386      11.2174104       0.194933082      -75.1084438      0.194933082      -75.1084438      0.968404386      11.2174104       
3.04             0.97061975       10.7920822       0.187610337      -75.6344677      0.187610337      -75.6344677      0.97061975       10.7920822       
3.16             0.972608531      10.3967398       0.180796489      -76.1236282      0.180796489      -76.1236282      0.972608531      10.3967398       
3.28             0.97440055       10.0283629       0.174441263      -76.5796511      0.174441263      -76.5796511      0.97440055       10.0283629       
3.4              0.976020907      9.68431614       0.168500636      -77.005782       0.168500636      -77.005782       0.976020907      9.68431614       
3.52             0.977490845      9.36229073       0.16293591       -77.40486        0.16293591       -77.40486        0.977490845      9.36229073       
3.64             0.978828434      9.06025638       0.157712962      -77.7793788      0.157712962      -77.7793788      0.978828434      9.06025638       
3.76             0.98004912       8.77642121       0.152801593      -78.131537       0.152801593      -78.131537       0.98004912       8.77642121       
3.88             0.981166165      8.50919827       0.148174997      -78.4632801      0.148174997      -78.4632801      0.981166165      8.50919827       
4                0.982191008      8.25717749       0.143809303      -78.7763357      0.143809303      -78.7763357      0.982191008      8.25717749       
4.12             0.983133556      8.01910205       0.139683196      -79.0722425      0.139683196      -79.0722425      0.983133556      8.01910205       
4.24             0.984002421      7.79384833       0.135777583      -79.3523756      0.135777583      -79.3523756      0.984002421      7.79384833       
4.36             0.984805117      7.58040897       0.132075321      -79.6179673      0.132075321      -79.6179673      0.984805117      7.58040897       
4.48             0.985548227      7.37787833       0.128560974      -79.8701253      0.128560974      -79.8701253      0.985548227      7.37787833       
4.6              0.986237533      7.18544017       0.125220612      -80.1098475      0.125220612      -80.1098475      0.986237533      7.18544017       
4.72             0.986878133      7.00235689       0.122041631      -80.3380356      0.122041631      -80.3380356      0.986878133      7.00235689       
4.84             0.987474535      6.82796048       0.119012602      -80.5555063      0.119012602      -80.5555063      0.987474535      6.82796048       
4.96             0.988030736      6.66164449       0.116123138      -80.7630007      0.116123138      -80.7630007      0.988030736      6.66164449       
5.08             0.98855029       6.50285719       0.113363783      -80.9611933      0.113363783      -80.9611933      0.98855029       6.50285719       
5.2              0.989036369      6.3510956        0.110725904      -81.1506987      0.110725904      -81.1506987      0.989036369      6.3510956        
5.32             0.989491804      6.20590023       0.108201611      -81.3320786      0.108201611      -81.3320786      0.989491804      6.20590023       
5.44             0.989919135      6.06685053       0.105783675      -81.5058472      0.105783675      -81.5058472      0.989919135      6.06685053       
5.56             0.990320643      5.93356087       0.103465465      -81.6724757      0.103465465      -81.6724757      0.990320643      5.93356087       
5.68             0.990698382      5.80567702       0.101240883      -81.8323974      0.101240883      -81.8323974      0.990698382      5.80567702       
5.8              0.991054203      5.68287305       0.0991043152     -81.9860109      0.0991043152     -81.9860109      0.991054203      5.68287305       
5.92             0.991389782      5.56484855       0.0970505851     -82.1336833      0.0970505851     -82.1336833      0.991389782      5.56484855       
6.04             0.991706636      5.4513262        0.095074911      -82.2757541      0.095074911      -82.2757541      0.991706636      5.4513262        
6.16             0.992006142      5.34204962       0.0931728696     -82.4125368      0.0931728696     -82.4125368      0.992006142      5.34204962       
6.28             0.992289552      5.23678144       0.0913403636     -82.5443218      0.0913403636     -82.5443218      0.992289552      5.23678144       
6.4              0.992558008      5.13530157       0.0895735922     -82.6713786      0.0895735922     -82.6713786      0.992558008      5.13530157       
6.52             0.99281255       5.03740565       0.0878690251     -82.7939571      0.0878690251     -82.7939571      0.99281255       5.03740565       
6.64             0.993054129      4.9429037        0.0862233786     -82.91229        0.0862233786     -82.91229        0.993054129      4.9429037        
6.76             0.993283618      4.85161889       0.0846335951     -83.0265938      0.0846335951     -83.0265938      0.993283618      4.85161889       
6.88             0.993501814      4.76338639       0.0830968236     -83.1370703      0.0830968236     -83.1370703      0.993501814      4.76338639       
7                0.993709452      4.67805241       0.0816104028     -83.2439079      0.0816104028     -83.2439079      0.993709452      4.67805241       
7.12             0.993907205      4.59547326       0.080171846      -83.3472826      0.080171846      -83.3472826      0.993907205      4.59547326       
7.24             0.994095695      4.51551457       0.0787788265     -83.4473589      0.0787788265     -83.4473589      0.994095695      4.51551457       
7.36             0.994275495      4.43805054       0.0774291653     -83.5442911      0.0774291653     -83.5442911      0.994275495      4.43805054       
7.48             0.994447134      4.36296325       0.0761208198     -83.6382236      0.0761208198     -83.6382236      0.994447134      4.36296325       
7.6              0.9946111        4.29014209       0.074851873      -83.7292919      0.074851873      -83.7292919      0.9946111        4.29014209       
7.72             0.994767847      4.21948317       0.0736205242     -83.8176234      0.0736205242     -83.8176234      0.994767847      4.21948317       
7.84             0.994917793      4.15088883       0.0724250803     -83.9033378      0.0724250803     -83.9033378      0.994917793      4.15088883       
7.96             0.995061329      4.08426721       0.0712639479     -83.9865477      0.0712639479     -83.9865477      0.995061329      4.08426721       
8.08             0.995198816      4.01953177       0.0701356263     -84.0673592      0.0701356263     -84.0673592      0.995198816      4.01953177       
8.2              0.995330589      3.95660097       0.0690387006     -84.1458721      0.0690387006     -84.1458721      0.995330589      3.95660097       
8.32             0.995456963      3.89539787       0.0679718358     -84.2221809      0.0679718358     -84.2221809      0.995456963      3.89539787       
8.44             0.995578229      3.83584985       0.0669337713     -84.2963745      0.0669337713     -84.2963745      0.995578229      3.83584985       
8.56             0.995694659      3.77788827       0.0659233157     -84.368537       0.0659233157     -84.368537       0.995694659      3.77788827       
8.68             0.995806506      3.72144824       0.0649393423     -84.4387481      0.0649393423     -84.4387481      0.995806506      3.72144824       
8.8              0.995914009      3.66646835       0.0639807846     -84.5070828      0.0639807846     -84.5070828      0.995914009      3.66646835       
8.92             0.99601739       3.61289043       0.0630466324     -84.5736125      0.0630466324     -84.5736125      0.99601739       3.61289043       
9.04             0.996116855      3.56065937       0.0621359283     -84.6384047      0.0621359283     -84.6384047      0.996116855      3.56065937       
9.16             0.996212602      3.50972288       0.0612477641     -84.7015234      0.0612477641     -84.7015234      0.996212602      3.50972288       
9.28             0.996304811      3.46003136       0.0603812776     -84.7630293      0.0603812776     -84.7630293      0.996304811      3.46003136       
9.4              0.996393655      3.4115377        0.0595356502     -84.8229801      0.0595356502     -84.8229801      0.996393655      3.4115377        
9.52             0.996479295      3.36419712       0.0587101037     -84.8814306      0.0587101037     -84.8814306      0.996479295      3.36419712       
9.64             0.996561882      3.31796705       0.057903898      -84.9384329      0.057903898      -84.9384329      0.996561882      3.31796705       
9.76             0.99664156       3.27280698       0.057116329      -84.9940364      0.057116329      -84.9940364      0.99664156       3.27280698       
9.88             0.996718461      3.22867835       0.0563467261     -85.0482882      0.0563467261     -85.0482882      0.996718461      3.22867835       
10               0.996792714      3.18554442       0.0555944506     -85.1012333      0.0555944506     -85.1012333      0.996792714      3.18554442       
10.12            0.996864436      3.14337017       0.0548588933     -85.1529144      0.0548588933     -85.1529144      0.996864436      3.14337017       
10.24            0.996933741      3.10212222       0.0541394736     -85.2033722      0.0541394736     -85.2033722      0.996933741      3.10212222       
10.36            0.997000735      3.06176868       0.0534356371     -85.2526455      0.0534356371     -85.2526455      0.997000735      3.06176868       
10.48            0.997065519      3.02227915       0.0527468546     -85.3007713      0.0527468546     -85.3007713      0.997065519      3.02227915       
10.6             0.997128187      2.98362455       0.0520726204     -85.3477851      0.0520726204     -85.3477851      0.997128187      2.98362455       
10.72            0.997188829      2.94577711       0.0514124514     -85.3937206      0.0514124514     -85.3937206      0.997188829      2.94577711       
10.84            0.997247531      2.90871027       0.0507658853     -85.43861        0.0507658853     -85.43861        0.997247531      2.90871027       
10.96            0.997304372      2.87239863       0.05013248       -85.4824842      0.05013248       -85.4824842      0.997304372      2.87239863       
11.08            0.99735943       2.83681786       0.0495118123     -85.5253727      0.0495118123     -85.5253727      0.99735943       2.83681786       
11.2             0.997412776      2.80194467       0.0489034768     -85.5673035      0.0489034768     -85.5673035      0.997412776      2.80194467       
11.32            0.997464481      2.76775676       0.0483070852     -85.6083037      0.0483070852     -85.6083037      0.997464481      2.76775676       
11.44            0.997514608      2.73423274       0.0477222653     -85.6483991      0.0477222653     -85.6483991      0.997514608      2.73423274       
11.56            0.997563219      2.7013521        0.0471486601     -85.6876144      0.0471486601     -85.6876144      0.997563219      2.7013521        
11.68            0.997610375      2.66909518       0.0465859272     -85.7259732      0.0465859272     -85.7259732      0.997610375      2.66909518       
11.8             0.99765613       2.6374431        0.0460337379     -85.7634982      0.0460337379     -85.7634982      0.99765613       2.6374431        
11.92            0.997700539      2.60637774       0.0454917766     -85.8002112      0.0454917766     -85.8002112      0.997700539      2.60637774       
12.04            0.997743651      2.57588168       0.0449597402     -85.8361329      0.0449597402     -85.8361329      0.997743651      2.57588168       
12.16            0.997785516      2.5459382        0.0444373374     -85.8712833      0.0444373374     -85.8712833      0.997785516      2.5459382        
12.28            0.997826179      2.51653121       0.0439242883     -85.9056816      0.0439242883     -85.9056816      0.997826179      2.51653121       
12.4             0.997865684      2.48764527       0.0434203234     -85.9393462      0.0434203234     -85.9393462      0.997865684      2.48764527       
12.52            0.997904074      2.45926548       0.0429251838     -85.9722946      0.0429251838     -85.9722946      0.997904074      2.45926548       
12.64            0.997941388      2.43137755       0.0424386202     -86.0045438      0.0424386202     -86.0045438      0.997941388      2.43137755       
12.76            0.997977665      2.40396768       0.0419603924     -86.03611        0.0419603924     -86.03611        0.997977665      2.40396768       
12.88            0.99801294       2.37702261       0.0414902694     -86.0670088      0.0414902694     -86.0670088      0.99801294       2.37702261       
13               0.998047249      2.35052955       0.0410280285     -86.0972552      0.0410280285     -86.0972552      0.998047249      2.35052955       
13.12            0.998080625      2.32447619       0.0405734549     -86.1268636      0.0405734549     -86.1268636      0.998080625      2.32447619       
13.24            0.9981131        2.29885064       0.0401263418     -86.1558477      0.0401263418     -86.1558477      0.9981131        2.29885064       
13.36            0.998144704      2.27364145       0.0396864897     -86.1842209      0.0396864897     -86.1842209      0.998144704      2.27364145       
13.48            0.998175467      2.24883757       0.039253706      -86.2119959      0.039253706      -86.2119959      0.998175467      2.24883757       
13.6             0.998205416      2.22442834       0.0388278049     -86.2391849      0.0388278049     -86.2391849      0.998205416      2.22442834       
13.72            0.998234578      2.20040347       0.0384086072     -86.2657997      0.0384086072     -86.2657997      0.998234578      2.20040347       
13.84            0.998262979      2.17675302       0.0379959396     -86.2918516      0.0379959396     -86.2918516      0.998262979      2.17675302       
13.96            0.998290644      2.15346739       0.037589635      -86.3173515      0.037589635      -86.3173515      0.998290644      2.15346739       
14.08            0.998317595      2.13053732       0.0371895318     -86.3423099      0.0371895318     -86.3423099      0.998317595      2.13053732       
14.2             0.998343856      2.10795383       0.0367954737     -86.3667367      0.0367954737     -86.3667367      0.998343856      2.10795383       
14.32            0.998369448      2.08570828       0.0364073098     -86.3906415      0.0364073098     -86.3906415      0.998369448      2.08570828       
14.44            0.998394392      2.06379227       0.0360248942     -86.4140338      0.0360248942     -86.4140338      0.998394392      2.06379227       
14.56            0.998418708      2.0421977        0.0356480855     -86.4369223      0.0356480855     -86.4369223      0.998418708      2.0421977        
14.68            0.998442416      2.02091675       0.0352767472     -86.4593156      0.0352767472     -86.4593156      0.998442416      2.02091675       
14.8             0.998465533      1.99994181       0.0349107471     -86.481222       0.0349107471     -86.481222       0.998465533      1.99994181       
14.92            0.998488077      1.97926555       0.0345499571     -86.5026493      0.0345499571     -86.5026493      0.998488077      1.97926555       
15.04            0.998510066      1.95888086       0.0341942533     -86.523605       0.0341942533     -86.523605       0.998510066      1.95888086       
15.16            0.998531515      1.93878084       0.0338435156     -86.5440965      0.0338435156     -86.5440965      0.998531515      1.93878084       
15.28            0.998552442      1.91895883       0.0334976277     -86.5641308      0.0334976277     -86.5641308      0.998552442      1.91895883       
15.4             0.99857286       1.89940836       0.033156477      -86.5837144      0.033156477      -86.5837144      0.99857286       1.89940836       
15.52            0.998592784      1.88012316       0.0328199541     -86.6028539      0.0328199541     -86.6028539      0.998592784      1.88012316       
15.64            0.998612229      1.86109716       0.0324879533     -86.6215554      0.0324879533     -86.6215554      0.998612229      1.86109716       
15.76            0.998631208      1.84232447       0.0321603717     -86.6398248      0.0321603717     -86.6398248      0.998631208      1.84232447       
15.88            0.998649734      1.82379937       0.0318371097     -86.6576677      0.0318371097     -86.6576677      0.998649734      1.82379937       
16               0.99866782       1.80551632       0.0315180708     -86.6750895      0.0315180708     -86.6750895      0.99866782       1.80551632       
16.12            0.998685477      1.78746993       0.0312031611     -86.6920954      0.0312031611     -86.6920954      0.998685477      1.78746993       
16.24            0.998702719      1.769655         0.0308922897     -86.7086903      0.0308922897     -86.7086903      0.998702719      1.769655         
