! Coilcraft 1812CS-822 Chip Inductor				
! 31 July 2002			
# MHZ S MA R 50
!Freq             MagS11           AngS11           MagS21           AngS21           MagS12           AngS12           MagS22           AngS22
1                0.431609987      53.656008        0.821410722      -25.0390448      0.821410722      -25.0390448      0.431609987      53.656008        
1.35             0.538007905      49.0332498       0.764195002      -32.1134845      0.764195002      -32.1134845      0.538007905      49.0332498       
1.7              0.623607182      44.4420961       0.705993417      -38.2051703      0.705993417      -38.2051703      0.623607182      44.4420961       
2.05             0.691286514      40.2675287       0.650327426      -43.3983429      0.650327426      -43.3983429      0.691286514      40.2675287       
2.4              0.74449265       36.5936611       0.598988877      -47.8121334      0.598988877      -47.8121334      0.74449265       36.5936611       
2.75             0.786389766      33.4002423       0.552612789      -51.5693256      0.552612789      -51.5693256      0.786389766      33.4002423       
3.1              0.819580653      30.6332604       0.511177104      -54.7813718      0.511177104      -54.7813718      0.819580653      30.6332604       
3.45             0.846096017      28.2324052       0.474337738      -57.543324       0.474337738      -57.543324       0.846096017      28.2324052       
3.8              0.867480786      26.14144         0.441624318      -59.9337017      0.441624318      -59.9337017      0.867480786      26.14144         
4.15             0.884898459      24.3114753       0.412543901      -62.0163633      0.412543901      -62.0163633      0.884898459      24.3114753       
4.5              0.899223934      22.701342        0.386630676      -63.8429189      0.386630676      -63.8429189      0.899223934      22.701342        
4.85             0.911117351      21.2768742       0.363466244      -65.4550468      0.363466244      -65.4550468      0.911117351      21.2768742       
5.2              0.921079946      20.00988         0.342684814      -66.8864872      0.342684814      -66.8864872      0.921079946      20.00988         
5.55             0.929495288      18.8771158       0.323971232      -68.1646739      0.323971232      -68.1646739      0.929495288      18.8771158       
5.9              0.936659442      17.8593799       0.307056008      -69.3120346      0.307056008      -69.3120346      0.936659442      17.8593799       
6.25             0.942802968      16.9407527       0.291709445      -70.3470148      0.291709445      -70.3470148      0.942802968      16.9407527       
6.6              0.948107017      16.1079756       0.277735874      -71.2848799      0.277735874      -71.2848799      0.948107017      16.1079756       
6.95             0.952715159      15.3499516       0.264968429      -72.1383427      0.264968429      -72.1383427      0.952715159      15.3499516       
7.3              0.956742143      14.6573443       0.253264493      -72.9180555      0.253264493      -72.9180555      0.956742143      14.6573443       
7.65             0.960280418      14.022257        0.242501832      -73.632998       0.242501832      -73.632998       0.960280418      14.022257        
8                0.963405045      13.4379766       0.232575332      -74.2907838      0.232575332      -74.2907838      0.963405045      13.4379766       
8.35             0.966177408      12.8987665       0.22339429       -74.8979033      0.22339429       -74.8979033      0.966177408      12.8987665       
8.7              0.968648059      12.3997013       0.214880152      -75.4599195      0.214880152      -75.4599195      0.968648059      12.3997013       
9.05             0.970858897      11.9365315       0.206964642      -75.9816239      0.206964642      -75.9816239      0.970858897      11.9365315       
9.4              0.972844866      11.5055746       0.199588196      -76.4671631      0.199588196      -76.4671631      0.972844866      11.5055746       
9.75             0.974635282      11.1036255       0.192698673      -76.9201426      0.192698673      -76.9201426      0.974635282      11.1036255       
10.1             0.976254874      10.727883        0.186250264      -77.3437099      0.186250264      -77.3437099      0.976254874      10.727883        
10.45            0.97772461       10.3758895       0.180202592      -77.7406247      0.180202592      -77.7406247      0.97772461       10.3758895       
10.8             0.979062358      10.0454805       0.174519951      -78.1133157      0.174519951      -78.1133157      0.979062358      10.0454805       
11.15            0.980283418      9.73474329       0.169170663      -78.4639279      0.169170663      -78.4639279      0.980283418      9.73474329       
11.5             0.981400946      9.44198139       0.164126542      -78.7943629      0.164126542      -78.7943629      0.981400946      9.44198139       
11.85            0.982426304      9.16568562       0.159362436      -79.1063117      0.159362436      -79.1063117      0.982426304      9.16568562       
12.2             0.983369344      8.9045091        0.154855832      -79.401283       0.154855832      -79.401283       0.983369344      8.9045091        
12.55            0.984238641      8.65724634       0.150586531      -79.6806267      0.150586531      -79.6806267      0.984238641      8.65724634       
12.9             0.985041684      8.42281532       0.146536361      -79.9455542      0.146536361      -79.9455542      0.985041684      8.42281532       
13.25            0.985785041      8.20024227       0.142688932      -80.1971553      0.142688932      -80.1971553      0.985785041      8.20024227       
13.6             0.986474483      7.98864859       0.139029428      -80.4364136      0.139029428      -80.4364136      0.986474483      7.98864859       
13.95            0.987115106      7.78723962       0.135544421      -80.6642182      0.135544421      -80.6642182      0.987115106      7.78723962       
14.3             0.987711417      7.59529491       0.132221721      -80.8813754      0.132221721      -80.8813754      0.987711417      7.59529491       
14.65            0.988267415      7.41215986       0.129050232      -81.0886176      0.129050232      -81.0886176      0.988267415      7.41215986       
15               0.988786659      7.23723842       0.126019837      -81.2866118      0.126019837      -81.2866118      0.988786659      7.23723842       
15.35            0.989272323      7.06998671       0.123121291      -81.4759665      0.123121291      -81.4759665      0.989272323      7.06998671       
15.7             0.989727247      6.9099075        0.120346134      -81.6572381      0.120346134      -81.6572381      0.989727247      6.9099075        
16.05            0.990153978      6.75654536       0.117686605      -81.8309361      0.117686605      -81.8309361      0.990153978      6.75654536       
16.4             0.990554801      6.60948235       0.115135576      -81.9975284      0.115135576      -81.9975284      0.990554801      6.60948235       
16.75            0.990931778      6.46833429       0.112686489      -82.1574447      0.112686489      -82.1574447      0.990931778      6.46833429       
17.1             0.991286767      6.33274745       0.110333298      -82.3110809      0.110333298      -82.3110809      0.991286767      6.33274745       
17.45            0.991621449      6.20239557       0.108070423      -82.4588023      0.108070423      -82.4588023      0.991621449      6.20239557       
17.8             0.991937349      6.0769773        0.105892705      -82.6009459      0.105892705      -82.6009459      0.991937349      6.0769773        
18.15            0.992235849      5.95621386       0.103795368      -82.737824       0.103795368      -82.737824       0.992235849      5.95621386       
18.5             0.992518207      5.83984696       0.101773984      -82.8697257      0.101773984      -82.8697257      0.992518207      5.83984696       
18.85            0.992785569      5.72763702       0.0998244426     -82.9969191      0.0998244426     -82.9969191      0.992785569      5.72763702       
19.2             0.99303898       5.61936143       0.0979429214     -83.1196534      0.0979429214     -83.1196534      0.99303898       5.61936143       
19.55            0.993279398      5.51481316       0.0961258642     -83.2381605      0.0961258642     -83.2381605      0.993279398      5.51481316       
19.9             0.993507698      5.41379938       0.0943699564     -83.3526563      0.0943699564     -83.3526563      0.993507698      5.41379938       
20.25            0.993724681      5.31614026       0.0926721056     -83.4633422      0.0926721056     -83.4633422      0.993724681      5.31614026       
20.6             0.993931086      5.22166795       0.0910294232     -83.5704061      0.0910294232     -83.5704061      0.993931086      5.22166795       
20.95            0.99412759       5.13022555       0.0894392082     -83.6740237      0.0894392082     -83.6740237      0.99412759       5.13022555       
21.3             0.994314818      5.04166625       0.0878989319     -83.7743595      0.0878989319     -83.7743595      0.994314818      5.04166625       
21.65            0.994493345      4.95585256       0.086406225      -83.8715675      0.086406225      -83.8715675      0.994493345      4.95585256       
22               0.994663702      4.87265554       0.0849588648     -83.965792       0.0849588648     -83.965792       0.994663702      4.87265554       
22.35            0.994826382      4.79195419       0.0835547645     -84.0571687      0.0835547645     -84.0571687      0.994826382      4.79195419       
22.7             0.994981839      4.71363482       0.0821919626     -84.1458248      0.0821919626     -84.1458248      0.994981839      4.71363482       
23.05            0.995130495      4.63759053       0.080868614      -84.2318801      0.080868614      -84.2318801      0.995130495      4.63759053       
23.4             0.99527274       4.56372069       0.0795829813     -84.3154473      0.0795829813     -84.3154473      0.99527274       4.56372069       
23.75            0.995408939      4.49193051       0.0783334276     -84.3966326      0.0783334276     -84.3966326      0.995408939      4.49193051       
24.1             0.995539429      4.42213061       0.0771184084     -84.4755361      0.0771184084     -84.4755361      0.995539429      4.42213061       
24.45            0.995664524      4.35423665       0.0759364662     -84.5522523      0.0759364662     -84.5522523      0.995664524      4.35423665       
24.8             0.995784517      4.28816897       0.074786224      -84.6268703      0.074786224      -84.6268703      0.995784517      4.28816897       
25.15            0.995899682      4.22385228       0.0736663798     -84.6994744      0.0736663798     -84.6994744      0.995899682      4.22385228       
25.5             0.996010273      4.16121536       0.0725757017     -84.7701445      0.0725757017     -84.7701445      0.996010273      4.16121536       
25.85            0.99611653       4.10019078       0.0715130232     -84.838956       0.0715130232     -84.838956       0.99611653       4.10019078       
26.2             0.996218674      4.04071468       0.0704772391     -84.9059804      0.0704772391     -84.9059804      0.996218674      4.04071468       
26.55            0.996316915      3.98272651       0.0694673013     -84.9712854      0.0694673013     -84.9712854      0.996316915      3.98272651       
26.9             0.996411448      3.92616883       0.0684822155     -85.0349354      0.0684822155     -85.0349354      0.996411448      3.92616883       
27.25            0.996502457      3.87098712       0.0675210372     -85.0969913      0.0675210372     -85.0969913      0.996502457      3.87098712       
27.6             0.996590113      3.81712958       0.0665828694     -85.1575111      0.0665828694     -85.1575111      0.996590113      3.81712958       
27.95            0.996674579      3.76454697       0.0656668591     -85.2165498      0.0656668591     -85.2165498      0.996674579      3.76454697       
28.3             0.996756007      3.71319246       0.0647721947     -85.2741598      0.0647721947     -85.2741598      0.996756007      3.71319246       
28.65            0.996834538      3.66302149       0.063898104      -85.3303909      0.063898104      -85.3303909      0.996834538      3.66302149       
29               0.996910309      3.61399162       0.0630438513     -85.3852905      0.0630438513     -85.3852905      0.996910309      3.61399162       
29.35            0.996983445      3.5660624        0.0622087353     -85.4389037      0.0622087353     -85.4389037      0.996983445      3.5660624        
29.7             0.997054066      3.51919527       0.0613920875     -85.4912736      0.0613920875     -85.4912736      0.997054066      3.51919527       
30.05            0.997122285      3.47335347       0.0605932701     -85.5424413      0.0605932701     -85.5424413      0.997122285      3.47335347       
30.4             0.997188209      3.42850187       0.0598116741     -85.5924458      0.0598116741     -85.5924458      0.997188209      3.42850187       
30.75            0.997251938      3.38460697       0.0590467181     -85.6413246      0.0590467181     -85.6413246      0.997251938      3.38460697       
31.1             0.997313567      3.34163674       0.0582978463     -85.6891133      0.0582978463     -85.6891133      0.997313567      3.34163674       
31.45            0.997373186      3.29956055       0.0575645273     -85.735846       0.0575645273     -85.735846       0.997373186      3.29956055       
31.8             0.99743088       3.25834912       0.0568462531     -85.7815552      0.0568462531     -85.7815552      0.99743088       3.25834912       
32.15            0.997486731      3.21797444       0.0561425372     -85.8262722      0.0561425372     -85.8262722      0.997486731      3.21797444       
32.5             0.997540813      3.17840968       0.0554529139     -85.8700268      0.0554529139     -85.8700268      0.997540813      3.17840968       
32.85            0.9975932        3.13962915       0.0547769372     -85.9128474      0.0547769372     -85.9128474      0.9975932        3.13962915       
33.2             0.997643961      3.10160823       0.0541141797     -85.9547613      0.0541141797     -85.9547613      0.997643961      3.10160823       
33.55            0.997693161      3.06432332       0.0534642314     -85.9957947      0.0534642314     -85.9957947      0.997693161      3.06432332       
33.9             0.997740861      3.02775179       0.0528266994     -86.0359727      0.0528266994     -86.0359727      0.997740861      3.02775179       
34.25            0.997787121      2.99187192       0.0522012063     -86.0753192      0.0522012063     -86.0753192      0.997787121      2.99187192       
34.6             0.997831996      2.95666286       0.0515873901     -86.1138574      0.0515873901     -86.1138574      0.997831996      2.95666286       
34.95            0.99787554       2.92210461       0.0509849031     -86.1516091      0.0509849031     -86.1516091      0.99787554       2.92210461       
35.3             0.997917804      2.88817792       0.050393411      -86.1885958      0.050393411      -86.1885958      0.997917804      2.88817792       
35.65            0.997958836      2.85486432       0.0498125927     -86.2248376      0.0498125927     -86.2248376      0.997958836      2.85486432       
36               0.997998681      2.82214605       0.0492421396     -86.2603541      0.0492421396     -86.2603541      0.997998681      2.82214605       
36.35            0.998037384      2.79000601       0.0486817546     -86.2951641      0.0486817546     -86.2951641      0.998037384      2.79000601       
36.7             0.998074987      2.75842776       0.0481311519     -86.3292855      0.0481311519     -86.3292855      0.998074987      2.75842776       
37.05            0.998111529      2.72739548       0.0475900564     -86.3627357      0.0475900564     -86.3627357      0.998111529      2.72739548       
37.4             0.998147048      2.69689394       0.0470582034     -86.3955313      0.0470582034     -86.3955313      0.998147048      2.69689394       
37.75            0.998181582      2.66690845       0.0465353376     -86.4276882      0.0465353376     -86.4276882      0.998181582      2.66690845       
38.1             0.998215163      2.63742488       0.0460212132     -86.4592219      0.0460212132     -86.4592219      0.998215163      2.63742488       
38.45            0.998247827      2.60842959       0.0455155933     -86.4901471      0.0455155933     -86.4901471      0.998247827      2.60842959       
38.8             0.998279603      2.57990946       0.0450182492     -86.5204781      0.0450182492     -86.5204781      0.998279603      2.57990946       
39.15            0.998310524      2.5518518        0.0445289607     -86.5502286      0.0445289607     -86.5502286      0.998310524      2.5518518        
39.5             0.998340617      2.52424439       0.0440475151     -86.5794116      0.0440475151     -86.5794116      0.998340617      2.52424439       
39.85            0.998369911      2.49707543       0.0435737071     -86.6080399      0.0435737071     -86.6080399      0.998369911      2.49707543       
40.2             0.998398431      2.47033352       0.0431073385     -86.6361258      0.0431073385     -86.6361258      0.998398431      2.47033352       
40.55            0.998426205      2.44400767       0.0426482181     -86.6636809      0.0426482181     -86.6636809      0.998426205      2.44400767       
40.9             0.998453255      2.41808724       0.042196161      -86.6907165      0.042196161      -86.6907165      0.998453255      2.41808724       
41.25            0.998479606      2.39256198       0.0417509884     -86.7172436      0.0417509884     -86.7172436      0.998479606      2.39256198       
41.6             0.99850528       2.36742195       0.0413125277     -86.7432727      0.0413125277     -86.7432727      0.99850528       2.36742195       
41.95            0.998530299      2.34265756       0.0408806121     -86.7688138      0.0408806121     -86.7688138      0.998530299      2.34265756       
42.3             0.998554682      2.31825954       0.0404550799     -86.7938768      0.0404550799     -86.7938768      0.998554682      2.31825954       
42.65            0.998578451      2.29421889       0.040035775      -86.818471       0.040035775      -86.818471       0.998578451      2.29421889       
43               0.998601623      2.27052694       0.0396225463     -86.8426054      0.0396225463     -86.8426054      0.998601623      2.27052694       
43.35            0.998624218      2.24717529       0.0392152474     -86.8662888      0.0392152474     -86.8662888      0.998624218      2.24717529       
43.7             0.998646253      2.22415578       0.0388137367     -86.8895296      0.0388137367     -86.8895296      0.998646253      2.22415578       
44.05            0.998667745      2.20146055       0.038417877      -86.9123358      0.038417877      -86.9123358      0.998667745      2.20146055       
44.4             0.99868871       2.17908195       0.0380275354     -86.9347153      0.0380275354     -86.9347153      0.99868871       2.17908195       
44.75            0.998709164      2.15701258       0.0376425831     -86.9566755      0.0376425831     -86.9566755      0.998709164      2.15701258       
45.1             0.998729122      2.13524529       0.0372628954     -86.9782238      0.0372628954     -86.9782238      0.998729122      2.13524529       
45.45            0.998748598      2.11377311       0.0368883513     -86.999367       0.0368883513     -86.999367       0.998748598      2.11377311       
