! Coilcraft 1812CS-333 Chip Inductor				
! 31 July 2002			
# MHZ S MA R 50
!Freq             MagS11           AngS11           MagS21           AngS21           MagS12           AngS12           MagS22           AngS22
1                0.853035718      23.8767031       0.409397678      -57.5001577      0.409397678      -57.5001577      0.853035718      23.8767031       
1.1              0.872581266      22.1721924       0.381160827      -59.7632503      0.381160827      -59.7632503      0.872581266      22.1721924       
1.2              0.888590189      20.6709581       0.356120129      -61.7397988      0.356120129      -61.7397988      0.888590189      20.6709581       
1.3              0.901831798      19.34295         0.333839075      -63.4778088      0.333839075      -63.4778088      0.901831798      19.34295         
1.4              0.912887325      18.1626185       0.31393741       -65.0159011      0.31393741       -65.0159011      0.912887325      18.1626185       
1.5              0.922199203      17.1085094       0.296089211      -66.3852813      0.296089211      -66.3852813      0.922199203      17.1085094       
1.6              0.930107116      16.1626956       0.280017398      -67.6113059      0.280017398      -67.6113059      0.930107116      16.1626956       
1.7              0.936874243      15.3102083       0.265487223      -68.7147084      0.265487223      -68.7147084      0.936874243      15.3102083       
1.8              0.94270636       14.5385267       0.252299912      -69.7125546      0.252299912      -69.7125546      0.94270636       14.5385267       
1.9              0.947765821      13.8371446       0.240286928      -70.6189843      0.240286928      -70.6189843      0.947765821      13.8371446       
2                0.952181846      13.1972119       0.229305027      -71.4457901      0.229305027      -71.4457901      0.952181846      13.1972119       
2.1              0.956058145      12.6112402       0.219232077      -72.2028693      0.219232077      -72.2028693      0.956058145      12.6112402       
2.2              0.959478627      12.0728644       0.209963578      -72.8985795      0.209963578      -72.8985795      0.959478627      12.0728644       
2.3              0.962511694      11.576649        0.201409774      -73.540019       0.201409774      -73.540019       0.962511694      11.576649        
2.4              0.965213511      11.1179309       0.193493277      -74.1332506      0.193493277      -74.1332506      0.965213511      11.1179309       
2.5              0.967630509      10.6926912       0.186147097      -74.6834797      0.186147097      -74.6834797      0.967630509      10.6926912       
2.6              0.969801319      10.2974517       0.179313024      -75.195198       0.179313024      -75.195198       0.969801319      10.2974517       
2.7              0.971758281      9.92918874       0.172940285      -75.6723         0.172940285      -75.6723         0.971758281      9.92918874       
2.8              0.973528617      9.58526333       0.166984427      -76.1181771      0.166984427      -76.1181771      0.973528617      9.58526333       
2.9              0.975135374      9.26336327       0.161406395      -76.5357959      0.161406395      -76.5357959      0.975135374      9.26336327       
3                0.976598157      8.96145504       0.156171757      -76.9277613      0.156171757      -76.9277613      0.976598157      8.96145504       
3.1              0.97793373       8.67774385       0.151250055      -77.2963695      0.151250055      -77.2963695      0.97793373       8.67774385       
3.2              0.979156488      8.41064017       0.146614259      -77.6436521      0.146614259      -77.6436521      0.979156488      8.41064017       
3.3              0.980278852      8.15873172       0.142240312      -77.9714126      0.142240312      -77.9714126      0.980278852      8.15873172       
3.4              0.981311578      7.92075975       0.138106734      -78.2812574      0.138106734      -78.2812574      0.981311578      7.92075975       
3.5              0.98226402       7.69559906       0.134194298      -78.5746217      0.134194298      -78.5746217      0.98226402       7.69559906       
3.6              0.983144343      7.48224094       0.130485741      -78.8527914      0.130485741      -78.8527914      0.983144343      7.48224094       
3.7              0.983959698      7.27977867       0.126965529      -79.1169222      0.126965529      -79.1169222      0.983959698      7.27977867       
3.8              0.98471637       7.08739511       0.123619645      -79.3680553      0.123619645      -79.3680553      0.98471637       7.08739511       
3.9              0.985419901      6.90435201       0.12043541       -79.6071313      0.12043541       -79.6071313      0.985419901      6.90435201       
4                0.986075192      6.72998078       0.117401335      -79.8350018      0.117401335      -79.8350018      0.986075192      6.72998078       
4.1              0.986686591      6.56367461       0.114506978      -80.0524398      0.114506978      -80.0524398      0.986686591      6.56367461       
4.2              0.987257964      6.4048815        0.111742836      -80.2601486      0.111742836      -80.2601486      0.987257964      6.4048815        
4.3              0.987792761      6.25309829       0.109100238      -80.458769       0.109100238      -80.458769       0.987792761      6.25309829       
4.4              0.988294064      6.10786542       0.106571261      -80.6488868      0.106571261      -80.6488868      0.988294064      6.10786542       
4.5              0.988764639      5.96876232       0.104148647      -80.8310376      0.104148647      -80.8310376      0.988764639      5.96876232       
4.6              0.989206969      5.83540343       0.101825739      -81.0057129      0.101825739      -81.0057129      0.989206969      5.83540343       
4.7              0.98962329       5.70743463       0.0995964191     -81.1733641      0.0995964191     -81.1733641      0.98962329       5.70743463       
4.8              0.99001562       5.58453013       0.0974550569     -81.3344064      0.0974550569     -81.3344064      0.99001562       5.58453013       
4.9              0.990385784      5.4663897        0.0953964602     -81.4892227      0.0953964602     -81.4892227      0.990385784      5.4663897        
5                0.990735438      5.35273625       0.0934158348     -81.6381664      0.0934158348     -81.6381664      0.990735438      5.35273625       
5.1              0.99106608       5.24331363       0.0915087472     -81.7815642      0.0915087472     -81.7815642      0.99106608       5.24331363       
5.2              0.991379079      5.13788474       0.0896710912     -81.9197187      0.0896710912     -81.9197187      0.991379079      5.13788474       
5.3              0.991675677      5.03622974       0.0878990591     -82.0529103      0.0878990591     -82.0529103      0.991675677      5.03622974       
5.4              0.991957011      4.93814457       0.0861891144     -82.1813995      0.0861891144     -82.1813995      0.991957011      4.93814457       
5.5              0.992224119      4.84343955       0.0845379691     -82.3054285      0.0845379691     -82.3054285      0.992224119      4.84343955       
5.6              0.992477953      4.75193812       0.0829425616     -82.4252226      0.0829425616     -82.4252226      0.992477953      4.75193812       
5.7              0.992719384      4.66347578       0.0814000383     -82.540992       0.0814000383     -82.540992       0.992719384      4.66347578       
5.8              0.992949214      4.57789901       0.0799077357     -82.6529328      0.0799077357     -82.6529328      0.992949214      4.57789901       
5.9              0.99316818       4.49506445       0.0784631657     -82.7612279      0.0784631657     -82.7612279      0.99316818       4.49506445       
6                0.99337696       4.41483802       0.0770640006     -82.8660488      0.0770640006     -82.8660488      0.99337696       4.41483802       
6.1              0.993576181      4.33709421       0.0757080611     -82.9675557      0.0757080611     -82.9675557      0.993576181      4.33709421       
6.2              0.993766422      4.26171542       0.0743933045     -83.065899       0.0743933045     -83.065899       0.993766422      4.26171542       
6.3              0.993948216      4.1885913        0.0731178142     -83.1612195      0.0731178142     -83.1612195      0.993948216      4.1885913        
6.4              0.99412206       4.11761827       0.0718797901     -83.2536496      0.0718797901     -83.2536496      0.99412206       4.11761827       
6.5              0.994288413      4.04869894       0.0706775401     -83.3433137      0.0706775401     -83.3433137      0.994288413      4.04869894       
6.6              0.9944477        3.98174173       0.0695094719     -83.4303289      0.0695094719     -83.4303289      0.9944477        3.98174173       
6.7              0.994600318      3.91666037       0.0683740861     -83.5148052      0.0683740861     -83.5148052      0.994600318      3.91666037       
6.8              0.994746634      3.85337359       0.0672699692     -83.5968464      0.0672699692     -83.5968464      0.994746634      3.85337359       
6.9              0.994886993      3.79180471       0.0661957879     -83.6765505      0.0661957879     -83.6765505      0.994886993      3.79180471       
7                0.995021713      3.73188135       0.0651502833     -83.7540097      0.0651502833     -83.7540097      0.995021713      3.73188135       
7.1              0.995151092      3.67353512       0.0641322657     -83.8293114      0.0641322657     -83.8293114      0.995151092      3.67353512       
7.2              0.99527541       3.61670138       0.0631406104     -83.9025379      0.0631406104     -83.9025379      0.99527541       3.61670138       
7.3              0.995394927      3.56131894       0.0621742526     -83.9737673      0.0621742526     -83.9737673      0.995394927      3.56131894       
7.4              0.995509886      3.50732987       0.0612321844     -84.0430733      0.0612321844     -84.0430733      0.995509886      3.50732987       
7.5              0.995620515      3.45467927       0.0603134501     -84.1105259      0.0603134501     -84.1105259      0.995620515      3.45467927       
7.6              0.995727029      3.40331509       0.0594171435     -84.1761911      0.0594171435     -84.1761911      0.995727029      3.40331509       
7.7              0.995829629      3.35318791       0.0585424047     -84.2401319      0.0585424047     -84.2401319      0.995829629      3.35318791       
7.8              0.995928501      3.30425083       0.057688417      -84.3024077      0.057688417      -84.3024077      0.995928501      3.30425083       
7.9              0.996023825      3.25645928       0.0568544041     -84.3630752      0.0568544041     -84.3630752      0.996023825      3.25645928       
8                0.996115765      3.20977087       0.0560396281     -84.4221881      0.0560396281     -84.4221881      0.996115765      3.20977087       
8.1              0.99620448       3.16414528       0.0552433869     -84.4797973      0.0552433869     -84.4797973      0.99620448       3.16414528       
8.2              0.996290116      3.11954414       0.0544650118     -84.5359514      0.0544650118     -84.5359514      0.996290116      3.11954414       
8.3              0.996372813      3.07593088       0.0537038661     -84.5906965      0.0537038661     -84.5906965      0.996372813      3.07593088       
8.4              0.996452701      3.03327065       0.0529593427     -84.6440766      0.0529593427     -84.6440766      0.996452701      3.03327065       
8.5              0.996529906      2.99153023       0.0522308628     -84.6961334      0.0522308628     -84.6961334      0.996529906      2.99153023       
8.6              0.996604543      2.9506779        0.0515178739     -84.7469068      0.0515178739     -84.7469068      0.996604543      2.9506779        
8.7              0.996676723      2.91068341       0.0508198488     -84.7964347      0.0508198488     -84.7964347      0.996676723      2.91068341       
8.8              0.996746551      2.87151783       0.0501362835     -84.8447532      0.0501362835     -84.8447532      0.996746551      2.87151783       
8.9              0.996814127      2.83315355       0.0494666968     -84.8918968      0.0494666968     -84.8918968      0.996814127      2.83315355       
9                0.996879543      2.79556415       0.0488106282     -84.9378984      0.0488106282     -84.9378984      0.996879543      2.79556415       
9.1              0.996942888      2.75872435       0.0481676374     -84.9827894      0.0481676374     -84.9827894      0.996942888      2.75872435       
9.2              0.997004247      2.72260998       0.0475373028     -85.0265996      0.0475373028     -85.0265996      0.997004247      2.72260998       
9.3              0.9970637        2.68719786       0.0469192207     -85.0693577      0.0469192207     -85.0693577      0.9970637        2.68719786       
9.4              0.997121322      2.65246583       0.0463130046     -85.1110909      0.0463130046     -85.1110909      0.997121322      2.65246583       
9.5              0.997177185      2.61839262       0.0457182838     -85.1518252      0.0457182838     -85.1518252      0.997177185      2.61839262       
9.6              0.997231358      2.58495785       0.0451347029     -85.1915856      0.0451347029     -85.1915856      0.997231358      2.58495785       
9.7              0.997283906      2.55214196       0.0445619211     -85.2303957      0.0445619211     -85.2303957      0.997283906      2.55214196       
9.8              0.997334891      2.51992618       0.0439996112     -85.2682784      0.0439996112     -85.2682784      0.997334891      2.51992618       
9.9              0.997384372      2.48829251       0.0434474591     -85.3052552      0.0434474591     -85.3052552      0.997384372      2.48829251       
10               0.997432404      2.45722363       0.0429051632     -85.3413469      0.0429051632     -85.3413469      0.997432404      2.45722363       
10.1             0.997479042      2.42670293       0.0423724336     -85.3765734      0.0423724336     -85.3765734      0.997479042      2.42670293       
10.2             0.997524335      2.39671444       0.0418489916     -85.4109535      0.0418489916     -85.4109535      0.997524335      2.39671444       
10.3             0.997568334      2.36724277       0.0413345694     -85.4445053      0.0413345694     -85.4445053      0.997568334      2.36724277       
10.4             0.997611083      2.33827316       0.0408289093     -85.4772461      0.0408289093     -85.4772461      0.997611083      2.33827316       
10.5             0.997652628      2.30979138       0.0403317632     -85.5091925      0.0403317632     -85.5091925      0.997652628      2.30979138       
10.6             0.99769301       2.28178374       0.0398428923     -85.5403601      0.0398428923     -85.5403601      0.99769301       2.28178374       
10.7             0.99773227       2.25423706       0.0393620668     -85.5707642      0.0393620668     -85.5707642      0.99773227       2.25423706       
10.8             0.997770446      2.22713864       0.0388890652     -85.600419       0.0388890652     -85.600419       0.997770446      2.22713864       
10.9             0.997807576      2.20047623       0.0384236739     -85.6293383      0.0384236739     -85.6293383      0.997807576      2.20047623       
11               0.997843695      2.17423805       0.0379656874     -85.6575352      0.0379656874     -85.6575352      0.997843695      2.17423805       
11.1             0.997878835      2.14841272       0.037514907      -85.6850222      0.037514907      -85.6850222      0.997878835      2.14841272       
11.2             0.997913031      2.12298926       0.0370711416     -85.7118113      0.0370711416     -85.7118113      0.997913031      2.12298926       
11.3             0.997946312      2.09795709       0.0366342063     -85.7379138      0.0366342063     -85.7379138      0.997946312      2.09795709       
11.4             0.997978708      2.07330598       0.0362039229     -85.7633405      0.0362039229     -85.7633405      0.997978708      2.07330598       
11.5             0.998010247      2.04902607       0.0357801194     -85.7881019      0.0357801194     -85.7881019      0.998010247      2.04902607       
11.6             0.998040958      2.02510783       0.0353626294     -85.8122076      0.0353626294     -85.8122076      0.998040958      2.02510783       
11.7             0.998070865      2.00154206       0.0349512923     -85.835667       0.0349512923     -85.835667       0.998070865      2.00154206       
11.8             0.998099995      1.97831985       0.0345459531     -85.858489       0.0345459531     -85.858489       0.998099995      1.97831985       
11.9             0.998128371      1.9554326        0.0341464616     -85.8806821      0.0341464616     -85.8806821      0.998128371      1.9554326        
12               0.998156016      1.93287201       0.0337526728     -85.902254       0.0337526728     -85.902254       0.998156016      1.93287201       
12.1             0.998182952      1.91063002       0.0333644463     -85.9232125      0.0333644463     -85.9232125      0.998182952      1.91063002       
12.2             0.998209202      1.88869885       0.0329816465     -85.9435645      0.0329816465     -85.9435645      0.998209202      1.88869885       
12.3             0.998234784      1.86707099       0.0326041419     -85.9633169      0.0326041419     -85.9633169      0.998234784      1.86707099       
12.4             0.998259719      1.84573912       0.0322318055     -85.982476       0.0322318055     -85.982476       0.998259719      1.84573912       
12.5             0.998284026      1.82469621       0.031864514      -86.0010477      0.031864514      -86.0010477      0.998284026      1.82469621       
12.6             0.998307724      1.80393541       0.0315021483     -86.0190375      0.0315021483     -86.0190375      0.998307724      1.80393541       
12.7             0.998330829      1.7834501        0.0311445928     -86.0364508      0.0311445928     -86.0364508      0.998330829      1.7834501        
12.8             0.998353358      1.76323387       0.0307917356     -86.0532923      0.0307917356     -86.0532923      0.998353358      1.76323387       
12.9             0.998375329      1.74328049       0.0304434683     -86.0695666      0.0304434683     -86.0695666      0.998375329      1.74328049       
13               0.998396755      1.72358395       0.0300996856     -86.0852779      0.0300996856     -86.0852779      0.998396755      1.72358395       
13.1             0.998417654      1.70413839       0.0297602856     -86.1004299      0.0297602856     -86.1004299      0.998417654      1.70413839       
13.2             0.998438038      1.68493815       0.0294251694     -86.1150261      0.0294251694     -86.1150261      0.998438038      1.68493815       
13.3             0.998457923      1.66597772       0.029094241      -86.1290699      0.029094241      -86.1290699      0.998457923      1.66597772       
13.4             0.998477321      1.64725177       0.0287674073     -86.1425639      0.0287674073     -86.1425639      0.998477321      1.64725177       
13.5             0.998496246      1.62875512       0.028444578      -86.1555109      0.028444578      -86.1555109      0.998496246      1.62875512       
13.6             0.99851471       1.61048274       0.0281256654     -86.167913       0.0281256654     -86.167913       0.99851471       1.61048274       
13.7             0.998532725      1.59242975       0.0278105842     -86.1797721      0.0278105842     -86.1797721      0.998532725      1.59242975       
