! Coilcraft 1812CS-153 Chip Inductor				
! 31 July 2002			
# MHZ S MA R 50
!Freq             MagS11           AngS11           MagS21           AngS21           MagS12           AngS12           MagS22           AngS22
1                0.643038804      41.7872832       0.674217085      -39.4609173      0.674217085      -39.4609173      0.643038804      41.7872832       
1.22             0.713077437      37.5597015       0.614768211      -44.9969038      0.614768211      -44.9969038      0.713077437      37.5597015       
1.44             0.766626838      33.8758243       0.561013905      -49.6126493      0.561013905      -49.6126493      0.766626838      33.8758243       
1.66             0.807748963      30.7131525       0.513379192      -53.4749689      0.513379192      -53.4749689      0.807748963      30.7131525       
1.88             0.839619332      28.0061269       0.471556145      -56.7280228      0.471556145      -56.7280228      0.839619332      28.0061269       
2.1              0.864603945      25.6834254       0.434940943      -59.4896632      0.434940943      -59.4896632      0.864603945      25.6834254       
2.32             0.884431695      23.6804947       0.402859075      -61.8537831      0.402859075      -61.8537831      0.884431695      23.6804947       
2.54             0.90036013       21.9427313       0.374668124      -63.8944252      0.374668124      -63.8944252      0.90036013       21.9427313       
2.76             0.913307064      20.4252489       0.349797109      -65.6698792      0.349797109      -65.6698792      0.913307064      20.4252489       
2.98             0.923947516      19.09157         0.327755498      -67.2261733      0.327755498      -67.2261733      0.923947516      19.09157         
3.2              0.932782848      17.9121373       0.308128983      -68.5998598      0.308128983      -68.5998598      0.932782848      17.9121373       
3.42             0.940189501      16.8629632       0.290570391      -69.8201702      0.290570391      -69.8201702      0.940189501      16.8629632       
3.64             0.946453282      15.9245027       0.274789584      -70.9106617      0.274789584      -70.9106617      0.946453282      15.9245027       
3.86             0.951793579      15.0807451       0.260543987      -71.8904678      0.260543987      -71.8904678      0.951793579      15.0807451       
4.08             0.956380609      14.3184972       0.247630329      -72.775251       0.247630329      -72.775251       0.956380609      14.3184972       
4.3              0.960347783      13.6268191       0.235877695      -73.5779294      0.235877695      -73.5779294      0.960347783      13.6268191       
4.52             0.963800687      12.9965828       0.2251418        -74.3092358      0.2251418        -74.3092358      0.963800687      12.9965828       
4.74             0.96682365       12.4201251       0.2153003        -74.9781494      0.2153003        -74.9781494      0.96682365       12.4201251       
4.96             0.969484605      11.8909742       0.206248988      -75.5922315      0.206248988      -75.5922315      0.969484605      11.8909742       
5.18             0.97183872       11.4036331       0.197898699      -76.1578894      0.197898699      -76.1578894      0.97183872       11.4036331       
5.4              0.97393114       10.9534069       0.190172793      -76.6805845      0.190172793      -76.6805845      0.97393114       10.9534069       
5.62             0.975799073      10.5362652       0.183005105      -77.1649979      0.183005105      -77.1649979      0.975799073      10.5362652       
5.84             0.97747339       10.1487304       0.176338266      -77.6151624      0.176338266      -77.6151624      0.97747339       10.1487304       
6.06             0.978979867      9.78778838       0.170122331      -78.0345699      0.170122331      -78.0345699      0.978979867      9.78778838       
6.28             0.980340154      9.45081437       0.164313644      -78.426258       0.164313644      -78.426258       0.980340154      9.45081437       
6.5              0.981572538      9.13551343       0.158873897      -78.7928803      0.158873897      -78.7928803      0.981572538      9.13551343       
6.72             0.982692544      8.8398708        0.153769358      -79.1367652      0.153769358      -79.1367652      0.982692544      8.8398708        
6.94             0.983713424      8.56211095       0.148970214      -79.459963       0.148970214      -79.459963       0.983713424      8.56211095       
7.16             0.984646535      8.30066357       0.144450034      -79.7642866      0.144450034      -79.7642866      0.984646535      8.30066357       
7.38             0.98550166       8.05413501       0.140185306      -80.051344       0.140185306      -80.051344       0.98550166       8.05413501       
7.6              0.98628726       7.82128446       0.136155051      -80.3225665      0.136155051      -80.3225665      0.98628726       7.82128446       
7.82             0.98701068       7.6010037        0.132340498      -80.5792321      0.132340498      -80.5792321      0.98701068       7.6010037        
8.04             0.98767832       7.39230003       0.128724804      -80.8224854      0.128724804      -80.8224854      0.98767832       7.39230003       
8.26             0.988295782      7.19428176       0.125292813      -81.0533542      0.125292813      -81.0533542      0.988295782      7.19428176       
8.48             0.988867979      7.00614574       0.122030858      -81.2727644      0.122030858      -81.2727644      0.988867979      7.00614574       
8.7              0.989399239      6.82716676       0.118926578      -81.4815518      0.118926578      -81.4815518      0.989399239      6.82716676       
8.92             0.989893386      6.65668835       0.115968771      -81.6804729      0.115968771      -81.6804729      0.989893386      6.65668835       
9.14             0.990353806      6.49411495       0.113147263      -81.870214       0.113147263      -81.870214       0.990353806      6.49411495       
9.36             0.990783508      6.33890495       0.110452792      -82.0513993      0.110452792      -82.0513993      0.990783508      6.33890495       
9.58             0.991185172      6.19056485       0.107876909      -82.2245976      0.107876909      -82.2245976      0.991185172      6.19056485       
9.8              0.991561193      6.04864403       0.105411894      -82.390328       0.105411894      -82.390328       0.991561193      6.04864403       
10.02            0.991913713      5.91273018       0.103050675      -82.5490659      0.103050675      -82.5490659      0.991913713      5.91273018       
10.24            0.992244657      5.78244542       0.100786768      -82.7012466      0.100786768      -82.7012466      0.992244657      5.78244542       
10.46            0.992555756      5.65744272       0.0986142109     -82.8472702      0.0986142109     -82.8472702      0.992555756      5.65744272       
10.68            0.99284857       5.53740286       0.096527518      -82.9875045      0.096527518      -82.9875045      0.99284857       5.53740286       
10.9             0.993124508      5.42203173       0.0945216306     -83.1222887      0.0945216306     -83.1222887      0.993124508      5.42203173       
11.12            0.993384846      5.31105791       0.0925918775     -83.2519356      0.0925918775     -83.2519356      0.993384846      5.31105791       
11.34            0.993630741      5.20423049       0.0907339385     -83.3767344      0.0907339385     -83.3767344      0.993630741      5.20423049       
11.56            0.993863246      5.10131725       0.0889438125     -83.4969528      0.0889438125     -83.4969528      0.993863246      5.10131725       
11.78            0.994083317      5.00210291       0.0872177885     -83.612839       0.0872177885     -83.612839       0.994083317      5.00210291       
12               0.994291827      4.90638764       0.0855524199     -83.7246236      0.0855524199     -83.7246236      0.994291827      4.90638764       
12.22            0.994489574      4.81398567       0.083944502      -83.8325205      0.083944502      -83.8325205      0.994489574      4.81398567       
12.44            0.994677288      4.72472413       0.0823910504     -83.9367292      0.0823910504     -83.9367292      0.994677288      4.72472413       
12.66            0.994855636      4.63844192       0.0808892832     -84.0374354      0.0808892832     -84.0374354      0.994855636      4.63844192       
12.88            0.995025234      4.55498874       0.0794366038     -84.1348125      0.0794366038     -84.1348125      0.995025234      4.55498874       
13.1             0.995186644      4.47422419       0.0780305861     -84.2290223      0.0780305861     -84.2290223      0.995186644      4.47422419       
13.32            0.995340385      4.39601699       0.0766689604     -84.3202162      0.0766689604     -84.3202162      0.995340385      4.39601699       
13.54            0.995486937      4.32024424       0.0753496013     -84.4085359      0.0753496013     -84.4085359      0.995486937      4.32024424       
13.76            0.99562674       4.24679076       0.0740705165     -84.4941141      0.0740705165     -84.4941141      0.99562674       4.24679076       
13.98            0.995760202      4.17554851       0.0728298365     -84.5770756      0.0728298365     -84.5770756      0.995760202      4.17554851       
14.2             0.9958877        4.10641605       0.0716258051     -84.6575372      0.0716258051     -84.6575372      0.9958877        4.10641605       
14.42            0.996009585      4.03929801       0.0704567716     -84.7356087      0.0704567716     -84.7356087      0.996009585      4.03929801       
14.64            0.996126181      3.97410469       0.0693211822     -84.8113937      0.0693211822     -84.8113937      0.996126181      3.97410469       
14.86            0.996237787      3.91075162       0.0682175736     -84.8849895      0.0682175736     -84.8849895      0.996237787      3.91075162       
15.08            0.996344685      3.84915916       0.0671445665     -84.9564878      0.0671445665     -84.9564878      0.996344685      3.84915916       
15.3             0.996447134      3.78925224       0.0661008593     -85.0259751      0.0661008593     -85.0259751      0.996447134      3.78925224       
15.52            0.996545377      3.73095995       0.0650852231     -85.093533       0.0650852231     -85.093533       0.996545377      3.73095995       
15.74            0.99663964       3.67421531       0.0640964966     -85.1592387      0.0640964966     -85.1592387      0.99663964       3.67421531       
15.96            0.996730133      3.61895497       0.0631335813     -85.2231651      0.0631335813     -85.2231651      0.996730133      3.61895497       
16.18            0.996817054      3.56511901       0.0621954377     -85.2853811      0.0621954377     -85.2853811      0.996817054      3.56511901       
16.4             0.996900587      3.51265066       0.0612810813     -85.345952       0.0612810813     -85.345952       0.996900587      3.51265066       
16.62            0.996980904      3.46149614       0.0603895787     -85.4049398      0.0603895787     -85.4049398      0.996980904      3.46149614       
16.84            0.997058167      3.41160443       0.0595200447     -85.4624029      0.0595200447     -85.4624029      0.997058167      3.41160443       
17.06            0.997132527      3.36292713       0.0586716392     -85.518397       0.0586716392     -85.518397       0.997132527      3.36292713       
17.28            0.997204126      3.31541827       0.0578435642     -85.5729749      0.0578435642     -85.5729749      0.997204126      3.31541827       
17.5             0.997273098      3.26903416       0.0570350613     -85.6261867      0.0570350613     -85.6261867      0.997273098      3.26903416       
17.72            0.997339568      3.22373327       0.0562454092     -85.6780801      0.0562454092     -85.6780801      0.997339568      3.22373327       
17.94            0.997403653      3.17947608       0.0554739217     -85.7287002      0.0554739217     -85.7287002      0.997403653      3.17947608       
18.16            0.997465466      3.13622496       0.0547199453     -85.7780903      0.0547199453     -85.7780903      0.997465466      3.13622496       
18.38            0.99752511       3.09394408       0.0539828574     -85.8262913      0.0539828574     -85.8262913      0.99752511       3.09394408       
18.6             0.997582683      3.05259928       0.0532620647     -85.8733422      0.0532620647     -85.8733422      0.997582683      3.05259928       
18.82            0.99763828       3.01215798       0.052557001      -85.9192803      0.052557001      -85.9192803      0.99763828       3.01215798       
19.04            0.997691986      2.97258909       0.0518671262     -85.964141       0.0518671262     -85.964141       0.997691986      2.97258909       
19.26            0.997743887      2.93386294       0.0511919245     -86.0079582      0.0511919245     -86.0079582      0.997743887      2.93386294       
19.48            0.997794058      2.89595118       0.0505309033     -86.0507641      0.0505309033     -86.0507641      0.997794058      2.89595118       
19.7             0.997842575      2.85882672       0.0498835916     -86.0925896      0.0498835916     -86.0925896      0.997842575      2.85882672       
19.92            0.997889508      2.82246364       0.0492495391     -86.133464       0.0492495391     -86.133464       0.997889508      2.82246364       
20.14            0.997934923      2.78683717       0.0486283148     -86.1734155      0.0486283148     -86.1734155      0.997934923      2.78683717       
20.36            0.997978883      2.75192358       0.0480195063     -86.2124709      0.0480195063     -86.2124709      0.997978883      2.75192358       
20.58            0.998021447      2.71770017       0.0474227187     -86.250656       0.0474227187     -86.250656       0.998021447      2.71770017       
20.8             0.998062673      2.68414516       0.0468375736     -86.2879952      0.0468375736     -86.2879952      0.998062673      2.68414516       
21.02            0.998102613      2.65123771       0.0462637082     -86.3245121      0.0462637082     -86.3245121      0.998102613      2.65123771       
21.24            0.998141319      2.61895782       0.0457007746     -86.3602291      0.0457007746     -86.3602291      0.998141319      2.61895782       
21.46            0.998178838      2.58728629       0.0451484392     -86.3951678      0.0451484392     -86.3951678      0.998178838      2.58728629       
21.68            0.998215218      2.55620473       0.0446063816     -86.4293489      0.0446063816     -86.4293489      0.998215218      2.55620473       
21.9             0.998250502      2.52569545       0.0440742945     -86.462792       0.0440742945     -86.462792       0.998250502      2.52569545       
22.12            0.998284731      2.49574147       0.0435518823     -86.4955161      0.0435518823     -86.4955161      0.998284731      2.49574147       
22.34            0.998317946      2.46632648       0.0430388612     -86.5275393      0.0430388612     -86.5275393      0.998317946      2.46632648       
22.56            0.998350183      2.4374348        0.0425349583     -86.558879       0.0425349583     -86.558879       0.998350183      2.4374348        
22.78            0.99838148       2.40905135       0.0420399113     -86.5895519      0.0420399113     -86.5895519      0.99838148       2.40905135       
23               0.99841187       2.38116162       0.0415534676     -86.619574       0.0415534676     -86.619574       0.99841187       2.38116162       
23.22            0.998441386      2.35375165       0.0410753844     -86.6489605      0.0410753844     -86.6489605      0.998441386      2.35375165       
23.44            0.998470059      2.32680801       0.0406054277     -86.6777263      0.0406054277     -86.6777263      0.998470059      2.32680801       
23.66            0.99849792       2.30031774       0.0401433721     -86.7058855      0.0401433721     -86.7058855      0.99849792       2.30031774       
23.88            0.998524996      2.27426839       0.0396890008     -86.7334515      0.0396890008     -86.7334515      0.998524996      2.27426839       
24.1             0.998551315      2.24864793       0.0392421046     -86.7604375      0.0392421046     -86.7604375      0.998551315      2.24864793       
24.32            0.998576903      2.22344479       0.0388024817     -86.7868558      0.0388024817     -86.7868558      0.998576903      2.22344479       
24.54            0.998601785      2.19864778       0.0383699377     -86.8127185      0.0383699377     -86.8127185      0.998601785      2.19864778       
24.76            0.998625985      2.17424615       0.037944285      -86.838037       0.037944285      -86.838037       0.998625985      2.17424615       
24.98            0.998649525      2.15022948       0.0375253426     -86.8628225      0.0375253426     -86.8628225      0.998649525      2.15022948       
25.2             0.998672427      2.12658774       0.0371129357     -86.8870855      0.0371129357     -86.8870855      0.998672427      2.12658774       
25.42            0.998694713      2.10331124       0.0367068955     -86.9108362      0.0367068955     -86.9108362      0.998694713      2.10331124       
25.64            0.998716402      2.08039063       0.0363070591     -86.9340843      0.0363070591     -86.9340843      0.998716402      2.08039063       
25.86            0.998737514      2.05781685       0.035913269      -86.9568394      0.035913269      -86.9568394      0.998737514      2.05781685       
26.08            0.998758066      2.03558117       0.035525373      -86.9791103      0.035525373      -86.9791103      0.998758066      2.03558117       
26.3             0.998778077      2.01367513       0.035143224      -87.0009057      0.035143224      -87.0009057      0.998778077      2.01367513       
26.52            0.998797564      1.99209058       0.0347666795     -87.0222339      0.0347666795     -87.0222339      0.998797564      1.99209058       
26.74            0.998816542      1.9708196        0.0343956022     -87.0431028      0.0343956022     -87.0431028      0.998816542      1.9708196        
26.96            0.998835028      1.94985455       0.0340298587     -87.0635202      0.0340298587     -87.0635202      0.998835028      1.94985455       
27.18            0.998853036      1.92918804       0.0336693201     -87.0834933      0.0336693201     -87.0834933      0.998853036      1.92918804       
27.4             0.998870582      1.90881289       0.0333138618     -87.1030292      0.0333138618     -87.1030292      0.998870582      1.90881289       
27.62            0.998887678      1.88872218       0.032963363      -87.1221345      0.032963363      -87.1221345      0.998887678      1.88872218       
27.84            0.998904338      1.86890919       0.0326177065     -87.1408158      0.0326177065     -87.1408158      0.998904338      1.86890919       
28.06            0.998920575      1.84936741       0.0322767791     -87.1590791      0.0322767791     -87.1590791      0.998920575      1.84936741       
28.28            0.998936402      1.83009053       0.0319404709     -87.1769305      0.0319404709     -87.1769305      0.998936402      1.83009053       
28.5             0.998951829      1.81107244       0.0316086755     -87.1943756      0.0316086755     -87.1943756      0.998951829      1.81107244       
28.72            0.998966869      1.79230722       0.0312812895     -87.2114198      0.0312812895     -87.2114198      0.998966869      1.79230722       
28.94            0.998981533      1.77378912       0.030958213      -87.2280682      0.030958213      -87.2280682      0.998981533      1.77378912       
