! Coilcraft 1812CS-562 Chip Inductor				
! 31 July 2002			
# MHZ S MA R 50
!Freq             MagS11           AngS11           MagS21           AngS21           MagS12           AngS12           MagS22           AngS22
1                0.322759237      59.458248        0.880989736      -18.3928558      0.880989736      -18.3928558      0.322759237      59.458248        
1.47             0.442956601      55.2532714       0.831435178      -25.9609928      0.831435178      -25.9609928      0.442956601      55.2532714       
1.94             0.543343142      50.3882738       0.776125321      -32.6375608      0.776125321      -32.6375608      0.543343142      50.3882738       
2.41             0.624736388      45.7397177       0.719906083      -38.4257572      0.719906083      -38.4257572      0.624736388      45.7397177       
2.88             0.689738764      41.554235        0.665911164      -43.3981375      0.665911164      -43.3981375      0.689738764      41.554235        
3.35             0.741378146      37.8737174       0.615795802      -47.6568146      0.615795802      -47.6568146      0.741378146      37.8737174       
3.82             0.782449922      34.6664328       0.570204436      -51.3081788      0.570204436      -51.3081788      0.782449922      34.6664328       
4.29             0.815284807      31.8770702       0.529185369      -54.4501905      0.529185369      -54.4501905      0.815284807      31.8770702       
4.76             0.841729207      29.4470322       0.492478131      -57.1676232      0.492478131      -57.1676232      0.841729207      29.4470322       
5.23             0.863208947      27.3223006       0.459688267      -59.5314754      0.459688267      -59.5314754      0.863208947      27.3223006       
5.7              0.880812749      25.4559165       0.430384485      -61.600216       0.430384485      -61.600216       0.880812749      25.4559165       
6.17             0.895369527      23.8081811       0.404148217      -63.4216308      0.404148217      -63.4216308      0.895369527      23.8081811       
6.64             0.907511693      22.3459737       0.380596062      -65.0346946      0.380596062      -65.0346946      0.907511693      22.3459737       
7.11             0.917724162      21.0418097       0.3593876        -66.4712371      0.3593876        -66.4712371      0.917724162      21.0418097       
7.58             0.92638125       19.8729031       0.340225784      -67.7573399      0.340225784      -67.7573399      0.92638125       19.8729031       
8.05             0.933774099      18.8203312       0.322853872      -68.9144724      0.322853872      -68.9144724      0.933774099      18.8203312       
8.52             0.940130984      17.868329        0.307051015      -69.9603996      0.307051015      -69.9603996      0.940130984      17.868329        
8.99             0.945632344      17.003708        0.292627584      -70.9099035      0.292627584      -70.9099035      0.945632344      17.003708        
9.46             0.950421957      16.2153841       0.279420734      -71.7753539      0.279420734      -71.7753539      0.950421957      16.2153841       
9.93             0.954615285      15.4939967       0.267290429      -72.567161       0.267290429      -72.567161       0.954615285      15.4939967       
10.4             0.958305758      14.8316015       0.256115991      -73.2941345      0.256115991      -73.2941345      0.958305758      14.8316015       
10.87            0.961569523      14.2214233       0.245793139      -73.9637699      0.245793139      -73.9637699      0.961569523      14.2214233       
11.34            0.96446907       13.6576562       0.236231495      -74.5824777      0.236231495      -74.5824777      0.96446907       13.6576562       
11.81            0.96705602       13.1353015       0.227352478      -75.1557678      0.227352478      -75.1557678      0.96705602       13.1353015       
12.28            0.969373285      12.6500362       0.219087542      -75.6883985      0.219087542      -75.6883985      0.969373285      12.6500362       
12.75            0.971456744      12.1981058       0.211376697      -76.1844981      0.211376697      -76.1844981      0.971456744      12.1981058       
13.22            0.973336566      11.7762353       0.20416727       -76.6476633      0.20416727       -76.6476633      0.973336566      11.7762353       
13.69            0.975038257      11.3815574       0.19741286       -77.0810406      0.19741286       -77.0810406      0.975038257      11.3815574       
14.16            0.976583485      11.0115515       0.191072468      -77.487394       0.191072468      -77.487394       0.976583485      11.0115515       
14.63            0.977990748      10.6639945       0.18510975       -77.8691599      0.18510975       -77.8691599      0.977990748      10.6639945       
15.1             0.979275911      10.3369183       0.1794924        -78.2284937      0.1794924        -78.2284937      0.979275911      10.3369183       
15.57            0.980452637      10.028575        0.174191611      -78.5673089      0.174191611      -78.5673089      0.980452637      10.028575        
16.04            0.981532742      9.73740767       0.169181632      -78.8873096      0.169181632      -78.8873096      0.981532742      9.73740767       
16.51            0.982526484      9.46202494       0.164439375      -79.1900176      0.164439375      -79.1900176      0.982526484      9.46202494       
16.98            0.983442804      9.20118001       0.159944093      -79.4767966      0.159944093      -79.4767966      0.983442804      9.20118001       
17.45            0.984289518      8.95375259       0.155677091      -79.7488714      0.155677091      -79.7488714      0.984289518      8.95375259       
17.92            0.985073486      8.71873338       0.151621485      -80.0073455      0.151621485      -80.0073455      0.985073486      8.71873338       
18.39            0.985800746      8.49521079       0.147761993      -80.2532151      0.147761993      -80.2532151      0.985800746      8.49521079       
18.86            0.986476628      8.2823596        0.14408475       -80.487382       0.14408475       -80.487382       0.986476628      8.2823596        
19.33            0.987105856      8.07943096       0.140577149      -80.7106645      0.140577149      -80.7106645      0.987105856      8.07943096       
19.8             0.98769262       7.8857439        0.137227707      -80.9238066      0.137227707      -80.9238066      0.98769262       7.8857439        
20.27            0.988240654      7.70067787       0.13402594       -81.1274862      0.13402594       -81.1274862      0.988240654      7.70067787       
20.74            0.988753291      7.5236662        0.130962263      -81.3223224      0.130962263      -81.3223224      0.988753291      7.5236662        
21.21            0.989233512      7.35419047       0.128027892      -81.5088813      0.128027892      -81.5088813      0.989233512      7.35419047       
21.68            0.989683994      7.1917755        0.125214765      -81.6876822      0.125214765      -81.6876822      0.989683994      7.1917755        
22.15            0.990107141      7.03598494       0.12251547       -81.8592016      0.12251547       -81.8592016      0.990107141      7.03598494       
22.62            0.99050512       6.88641746       0.119923181      -82.0238778      0.119923181      -82.0238778      0.99050512       6.88641746       
23.09            0.990879888      6.7427033        0.117431603      -82.1821147      0.117431603      -82.1821147      0.990879888      6.7427033        
23.56            0.991233216      6.60450122       0.115034922      -82.3342851      0.115034922      -82.3342851      0.991233216      6.60450122       
24.03            0.991566707      6.47149589       0.112727756      -82.4807333      0.112727756      -82.4807333      0.991566707      6.47149589       
24.5             0.99188182       6.34339541       0.110505122      -82.6217782      0.110505122      -82.6217782      0.99188182       6.34339541       
24.97            0.99217988       6.21992924       0.108362396      -82.7577152      0.108362396      -82.7577152      0.99217988       6.21992924       
25.44            0.992462095      6.10084627       0.106295284      -82.8888186      0.106295284      -82.8888186      0.992462095      6.10084627       
25.91            0.992729569      5.98591313       0.10429979       -83.0153433      0.10429979       -83.0153433      0.992729569      5.98591313       
26.38            0.992983311      5.87491263       0.102372196      -83.1375266      0.102372196      -83.1375266      0.992983311      5.87491263       
26.85            0.993224244      5.76764242       0.100509031      -83.2555894      0.100509031      -83.2555894      0.993224244      5.76764242       
27.32            0.993453216      5.66391374       0.0987070589     -83.3697379      0.0987070589     -83.3697379      0.993453216      5.66391374       
27.79            0.993671005      5.56355027       0.0969632535     -83.4801646      0.0969632535     -83.4801646      0.993671005      5.56355027       
28.26            0.993878326      5.46638719       0.0952747841     -83.5870497      0.0952747841     -83.5870497      0.993878326      5.46638719       
28.73            0.99407584       5.37227021       0.0936389999     -83.6905615      0.0936389999     -83.6905615      0.99407584       5.37227021       
29.2             0.994264154      5.28105476       0.0920534155     -83.7908579      0.0920534155     -83.7908579      0.994264154      5.28105476       
29.67            0.994443831      5.19260525       0.0905156987     -83.8880871      0.0905156987     -83.8880871      0.994443831      5.19260525       
30.14            0.994615388      5.10679436       0.089023659      -83.9823881      0.089023659      -83.9823881      0.994615388      5.10679436       
30.61            0.994779308      5.02350247       0.0875752366     -84.0738914      0.0875752366     -84.0738914      0.994779308      5.02350247       
31.08            0.994936036      4.94261704       0.0861684933     -84.16272        0.0861684933     -84.16272        0.994936036      4.94261704       
31.55            0.995085986      4.86403209       0.0848016034     -84.2489895      0.0848016034     -84.2489895      0.995085986      4.86403209       
32.02            0.995229541      4.78764779       0.0834728459     -84.3328089      0.0834728459     -84.3328089      0.995229541      4.78764779       
32.49            0.995367058      4.71336998       0.0821805969     -84.414281       0.0821805969     -84.414281       0.995367058      4.71336998       
32.96            0.995498871      4.64110975       0.0809233231     -84.4935029      0.0809233231     -84.4935029      0.995498871      4.64110975       
33.43            0.995625289      4.57078314       0.0796995757     -84.5705661      0.0796995757     -84.5705661      0.995625289      4.57078314       
33.9             0.995746601      4.50231076       0.0785079842     -84.6455573      0.0785079842     -84.6455573      0.995746601      4.50231076       
34.37            0.995863077      4.43561749       0.0773472516     -84.7185584      0.0773472516     -84.7185584      0.995863077      4.43561749       
34.84            0.995974969      4.37063222       0.0762161496     -84.7896469      0.0762161496     -84.7896469      0.995974969      4.37063222       
35.31            0.996082513      4.30728756       0.0751135138     -84.8588964      0.0751135138     -84.8588964      0.996082513      4.30728756       
35.78            0.996185929      4.24551959       0.07403824       -84.9263765      0.07403824       -84.9263765      0.996185929      4.24551959       
36.25            0.996285426      4.18526769       0.0729892799     -84.9921533      0.0729892799     -84.9921533      0.996285426      4.18526769       
36.72            0.996381196      4.12647429       0.0719656381     -85.0562895      0.0719656381     -85.0562895      0.996381196      4.12647429       
37.19            0.996473422      4.06908468       0.0709663686     -85.1188447      0.0709663686     -85.1188447      0.996473422      4.06908468       
37.66            0.996562274      4.01304687       0.0699905717     -85.1798755      0.0699905717     -85.1798755      0.996562274      4.01304687       
38.13            0.996647914      3.95831137       0.0690373914     -85.2394358      0.0690373914     -85.2394358      0.996647914      3.95831137       
38.6             0.996730494      3.9048311        0.0681060126     -85.2975767      0.0681060126     -85.2975767      0.996730494      3.9048311        
39.07            0.996810154      3.8525612        0.0671956588     -85.3543471      0.0671956588     -85.3543471      0.996810154      3.8525612        
39.54            0.99688703       3.80145892       0.06630559       -85.4097935      0.06630559       -85.4097935      0.99688703       3.80145892       
40.01            0.996961249      3.7514835        0.0654351002     -85.4639601      0.0654351002     -85.4639601      0.996961249      3.7514835        
40.48            0.997032928      3.70259605       0.0645835158     -85.5168891      0.0645835158     -85.5168891      0.997032928      3.70259605       
40.95            0.997102182      3.65475945       0.0637501936     -85.5686209      0.0637501936     -85.5686209      0.997102182      3.65475945       
41.42            0.997169116      3.60793823       0.0629345193     -85.6191939      0.0629345193     -85.6191939      0.997169116      3.60793823       
41.89            0.997233831      3.56209851       0.0621359056     -85.6686448      0.0621359056     -85.6686448      0.997233831      3.56209851       
42.36            0.997296422      3.51720791       0.0613537911     -85.7170087      0.0613537911     -85.7170087      0.997296422      3.51720791       
42.83            0.99735698       3.47323542       0.0605876385     -85.7643192      0.0605876385     -85.7643192      0.99735698       3.47323542       
43.3             0.99741559       3.4301514        0.0598369337     -85.8106083      0.0598369337     -85.8106083      0.99741559       3.4301514        
43.77            0.997472332      3.38792745       0.0591011843     -85.8559067      0.0591011843     -85.8559067      0.997472332      3.38792745       
44.24            0.997527283      3.34653637       0.0583799186     -85.9002438      0.0583799186     -85.9002438      0.997527283      3.34653637       
44.71            0.997580516      3.3059521        0.0576726843     -85.9436477      0.0576726843     -85.9436477      0.997580516      3.3059521        
45.18            0.997632101      3.26614964       0.056979048      -85.9861453      0.056979048      -85.9861453      0.997632101      3.26614964       
45.65            0.997682101      3.22710502       0.0562985938     -86.0277624      0.0562985938     -86.0277624      0.997682101      3.22710502       
46.12            0.997730581      3.18879525       0.0556309225     -86.0685237      0.0556309225     -86.0685237      0.997730581      3.18879525       
46.59            0.997777599      3.15119823       0.0549756508     -86.108453       0.0549756508     -86.108453       0.997777599      3.15119823       
47.06            0.997823211      3.11429276       0.0543324107     -86.147573       0.0543324107     -86.147573       0.997823211      3.11429276       
47.53            0.997867471      3.07805846       0.0537008483     -86.1859055      0.0537008483     -86.1859055      0.997867471      3.07805846       
48               0.99791043       3.04247576       0.0530806239     -86.2234714      0.0530806239     -86.2234714      0.99791043       3.04247576       
48.47            0.997952137      3.00752581       0.0524714103     -86.260291       0.0524714103     -86.260291       0.997952137      3.00752581       
48.94            0.997992639      2.97319051       0.0518728931     -86.2963834      0.0518728931     -86.2963834      0.997992639      2.97319051       
49.41            0.998031978      2.93945242       0.0512847695     -86.3317672      0.0512847695     -86.3317672      0.998031978      2.93945242       
49.88            0.998070199      2.90629478       0.0507067482     -86.3664603      0.0507067482     -86.3664603      0.998070199      2.90629478       
50.35            0.998107339      2.87370141       0.0501385486     -86.4004798      0.0501385486     -86.4004798      0.998107339      2.87370141       
50.82            0.99814344       2.84165677       0.0495799004     -86.4338422      0.0495799004     -86.4338422      0.99814344       2.84165677       
51.29            0.998178536      2.81014585       0.0490305429     -86.4665632      0.0490305429     -86.4665632      0.998178536      2.81014585       
51.76            0.998212663      2.77915421       0.0484902251     -86.4986582      0.0484902251     -86.4986582      0.998212663      2.77915421       
52.23            0.998245854      2.74866789       0.0479587048     -86.5301417      0.0479587048     -86.5301417      0.998245854      2.74866789       
52.7             0.998278143      2.71867347       0.0474357483     -86.5610279      0.0474357483     -86.5610279      0.998278143      2.71867347       
53.17            0.998309558      2.68915795       0.0469211302     -86.5913304      0.0469211302     -86.5913304      0.998309558      2.68915795       
53.64            0.99834013       2.66010884       0.0464146329     -86.6210622      0.0464146329     -86.6210622      0.99834013       2.66010884       
54.11            0.998369887      2.63151403       0.0459160463     -86.6502358      0.0459160463     -86.6502358      0.998369887      2.63151403       
54.58            0.998398856      2.60336185       0.0454251674     -86.6788634      0.0454251674     -86.6788634      0.998398856      2.60336185       
55.05            0.998427062      2.57564102       0.0449418001     -86.7069567      0.0449418001     -86.7069567      0.998427062      2.57564102       
55.52            0.998454531      2.54834065       0.0444657551     -86.7345268      0.0444657551     -86.7345268      0.998454531      2.54834065       
55.99            0.998481286      2.5214502        0.0439968491     -86.7615847      0.0439968491     -86.7615847      0.998481286      2.5214502        
56.46            0.998507349      2.49495948       0.043534905      -86.7881406      0.043534905      -86.7881406      0.998507349      2.49495948       
56.93            0.998532743      2.46885864       0.0430797515     -86.8142046      0.0430797515     -86.8142046      0.998532743      2.46885864       
57.4             0.998557489      2.44313815       0.0426312228     -86.8397865      0.0426312228     -86.8397865      0.998557489      2.44313815       
57.87            0.998581606      2.41778879       0.0421891586     -86.8648954      0.0421891586     -86.8648954      0.998581606      2.41778879       
58.34            0.998605115      2.39280162       0.0417534035     -86.8895405      0.0417534035     -86.8895405      0.998605115      2.39280162       
58.81            0.998628033      2.36816802       0.0413238073     -86.9137302      0.0413238073     -86.9137302      0.998628033      2.36816802       
59.28            0.998650379      2.34387959       0.0409002242     -86.9374731      0.0409002242     -86.9374731      0.998650379      2.34387959       
59.75            0.99867217       2.31992824       0.0404825134     -86.960777       0.0404825134     -86.960777       0.99867217       2.31992824       
60.22            0.998693422      2.29630611       0.040070538      -86.9836498      0.040070538      -86.9836498      0.998693422      2.29630611       
60.69            0.998714151      2.27300558       0.0396641656     -87.0060988      0.0396641656     -87.0060988      0.998714151      2.27300558       
