! Coilcraft 1812CS-122 Chip Inductor				
! 31 July 2002			
# MHZ S MA R 50
!Freq             MagS11           AngS11           MagS21           AngS21           MagS12           AngS12           MagS22           AngS22
1                0.0770257979     72.9871376       0.980234449      -4.30928183      0.980234449      -4.30928183      0.0770257979     72.9871376       
2.04             0.152789279      74.1568195       0.969494707      -8.72024631      0.969494707      -8.72024631      0.152789279      74.1568195       
3.08             0.22616613       71.8352072       0.954010498      -13.0178263      0.954010498      -13.0178263      0.22616613       71.8352072       
4.12             0.295849341      68.7229969       0.934244531      -17.16275        0.934244531      -17.16275        0.295849341      68.7229969       
5.16             0.361044565      65.4049578       0.910943552      -21.1236645      0.910943552      -21.1236645      0.361044565      65.4049578       
6.2              0.421281735      62.0927692       0.884942802      -24.8783611      0.884942802      -24.8783611      0.421281735      62.0927692       
7.24             0.476363119      58.8827316       0.85706541       -28.413591       0.85706541       -28.413591       0.476363119      58.8827316       
8.28             0.526311109      55.8225187       0.828060472      -31.7240451      0.828060472      -31.7240451      0.526311109      55.8225187       
9.32             0.571311929      52.9349177       0.798569349      -34.810904       0.798569349      -34.810904       0.571311929      52.9349177       
10.36            0.61166197       50.2284478       0.769113509      -37.6802726      0.769113509      -37.6802726      0.61166197       50.2284478       
11.4             0.647721955      47.7030012       0.740097264      -40.3417108      0.740097264      -40.3417108      0.647721955      47.7030012       
12.44            0.679881128      45.3532145       0.711819405      -42.806977       0.711819405      -42.806977       0.679881128      45.3532145       
13.48            0.708531433      43.1706233       0.684489001      -45.0890239      0.684489001      -45.0890239      0.708531433      43.1706233       
14.52            0.734050331      41.1450835       0.658242132      -47.2012438      0.658242132      -47.2012438      0.734050331      41.1450835       
15.56            0.756790429      39.2657133       0.633157602      -49.1569303      0.633157602      -49.1569303      0.756790429      39.2657133       
16.6             0.777074129      37.52151         0.609270682      -50.9689166      0.609270682      -50.9689166      0.777074129      37.52151         
17.64            0.795191715      35.9017421       0.586584535      -52.6493498      0.586584535      -52.6493498      0.795191715      35.9017421       
18.68            0.81140169       34.3961873       0.565079395      -54.2095654      0.565079395      -54.2095654      0.81140169       34.3961873       
19.72            0.825932461      32.9952641       0.544719724      -55.660033       0.544719724      -55.660033       0.825932461      32.9952641       
20.76            0.838984737      31.6900926       0.52545968       -57.0103498      0.52545968       -57.0103498      0.838984737      31.6900926       
21.8             0.850734245      30.4725092       0.507247196      -58.2692662      0.507247196      -58.2692662      0.850734245      30.4725092       
22.84            0.861334485      29.335051        0.490026977      -59.4447294      0.490026977      -59.4447294      0.861334485      29.335051        
23.88            0.870919375      28.2709224       0.473742648      -60.543939       0.473742648      -60.543939       0.870919375      28.2709224       
24.92            0.8796057        27.2739519       0.458338263      -61.5734057      0.458338263      -61.5734057      0.8796057        27.2739519       
25.96            0.887495324      26.3385446       0.443759335      -62.5390121      0.443759335      -62.5390121      0.887495324      26.3385446       
27               0.89467716       25.4596331       0.429953502      -63.4460711      0.429953502      -63.4460711      0.89467716       25.4596331       
28.04            0.901228898      24.6326294       0.416870944      -64.2993812      0.416870944      -64.2993812      0.901228898      24.6326294       
29.08            0.907218513      23.8533797       0.404464602      -65.1032782      0.404464602      -65.1032782      0.907218513      23.8533797       
30.12            0.912705575      23.1181219       0.392690272      -65.8616824      0.392690272      -65.8616824      0.912705575      23.1181219       
31.16            0.917742378      22.4234461       0.381506601      -66.5781414      0.381506601      -66.5781414      0.917742378      22.4234461       
32.2             0.922374914      21.7662598       0.37087502       -67.2558692      0.37087502       -67.2558692      0.922374914      21.7662598       
33.24            0.926643709      21.1437546       0.360759639      -67.8977806      0.360759639      -67.8977806      0.926643709      21.1437546       
34.28            0.930584546      20.553378        0.351127117      -68.5065225      0.351127117      -68.5065225      0.930584546      20.553378        
35.32            0.934229082      19.9928072       0.341946512      -69.0845017      0.341946512      -69.0845017      0.934229082      19.9928072       
36.36            0.937605381      19.4599254       0.333189132      -69.6339094      0.333189132      -69.6339094      0.937605381      19.4599254       
37.4             0.940738375      18.9528014       0.324828381      -70.1567439      0.324828381      -70.1567439      0.940738375      18.9528014       
38.44            0.943650253      18.4696708       0.316839611      -70.6548294      0.316839611      -70.6548294      0.943650253      18.4696708       
39.48            0.946360809      18.0089194       0.309199975      -71.1298342      0.309199975      -71.1298342      0.946360809      18.0089194       
40.52            0.94888773       17.5690685       0.301888297      -71.5832857      0.301888297      -71.5832857      0.94888773       17.5690685       
41.56            0.951246854      17.1487616       0.294884935      -72.0165845      0.294884935      -72.0165845      0.951246854      17.1487616       
42.6             0.95345239       16.7467527       0.288171668      -72.4310167      0.288171668      -72.4310167      0.95345239       16.7467527       
43.64            0.955517109      16.3618955       0.28173158       -72.8277648      0.28173158       -72.8277648      0.955517109      16.3618955       
44.68            0.957452512      15.9931345       0.27554896       -73.2079176      0.27554896       -73.2079176      0.957452512      15.9931345       
45.72            0.959268973      15.6394962       0.269609201      -73.5724789      0.269609201      -73.5724789      0.959268973      15.6394962       
46.76            0.960975867      15.3000815       0.263898721      -73.9223756      0.263898721      -73.9223756      0.960975867      15.3000815       
47.8             0.962581681      14.9740591       0.258404874      -74.2584644      0.258404874      -74.2584644      0.962581681      14.9740591       
48.84            0.96409411       14.6606598       0.253115881      -74.581538       0.253115881      -74.581538       0.96409411       14.6606598       
49.88            0.965520143      14.3591701       0.24802076       -74.8923313      0.24802076       -74.8923313      0.965520143      14.3591701       
50.92            0.966866139      14.0689283       0.243109262      -75.1915261      0.243109262      -75.1915261      0.966866139      14.0689283       
51.96            0.96813789       13.7893195       0.238371821      -75.4797555      0.238371821      -75.4797555      0.96813789       13.7893195       
53               0.969340682      13.5197718       0.233799492      -75.7576085      0.233799492      -75.7576085      0.969340682      13.5197718       
54.04            0.970479344      13.2597526       0.229383912      -76.0256333      0.229383912      -76.0256333      0.970479344      13.2597526       
55.08            0.971558299      13.0087655       0.22511725       -76.2843411      0.22511725       -76.2843411      0.971558299      13.0087655       
56.12            0.972581595      12.7663472       0.220992171      -76.5342085      0.220992171      -76.5342085      0.972581595      12.7663472       
57.16            0.97355295       12.5320652       0.217001796      -76.775681       0.217001796      -76.775681       0.97355295       12.5320652       
58.2             0.97447578       12.3055147       0.213139672      -77.0091749      0.213139672      -77.0091749      0.97447578       12.3055147       
59.24            0.975353226      12.0863171       0.209399737      -77.23508        0.209399737      -77.23508        0.975353226      12.0863171       
60.28            0.976188185      11.8741175       0.205776295      -77.4537613      0.205776295      -77.4537613      0.976188185      11.8741175       
61.32            0.976983325      11.6685831       0.202263988      -77.6655612      0.202263988      -77.6655612      0.976983325      11.6685831       
62.36            0.977741112      11.4694018       0.198857772      -77.8708008      0.198857772      -77.8708008      0.977741112      11.4694018       
63.4             0.978463826      11.27628         0.195552897      -78.0697822      0.195552897      -78.0697822      0.978463826      11.27628         
64.44            0.979153576      11.0889418       0.192344883      -78.2627889      0.192344883      -78.2627889      0.979153576      11.0889418       
65.48            0.979812317      10.9071276       0.189229506      -78.4500881      0.189229506      -78.4500881      0.979812317      10.9071276       
66.52            0.980441862      10.7305929       0.186202777      -78.6319313      0.186202777      -78.6319313      0.980441862      10.7305929       
67.56            0.981043894      10.5591071       0.183260928      -78.8085556      0.183260928      -78.8085556      0.981043894      10.5591071       
68.6             0.981619978      10.3924527       0.180400397      -78.9801845      0.180400397      -78.9801845      0.981619978      10.3924527       
69.64            0.982171571      10.2304245       0.177617815      -79.1470293      0.177617815      -79.1470293      0.982171571      10.2304245       
70.68            0.982700027      10.0728282       0.17490999       -79.3092893      0.17490999       -79.3092893      0.982700027      10.0728282       
71.72            0.983206611      9.91948068       0.172273901      -79.4671531      0.172273901      -79.4671531      0.983206611      9.91948068       
72.76            0.983692502      9.77020818       0.169706684      -79.6207992      0.169706684      -79.6207992      0.983692502      9.77020818       
73.8             0.984158802      9.62484638       0.167205623      -79.7703965      0.167205623      -79.7703965      0.984158802      9.62484638       
74.84            0.984606539      9.48323955       0.16476814       -79.9161051      0.16476814       -79.9161051      0.984606539      9.48323955       
75.88            0.985036677      9.34524002       0.162391785      -80.0580767      0.162391785      -80.0580767      0.985036677      9.34524002       
76.92            0.985450117      9.21070768       0.160074234      -80.1964552      0.160074234      -80.1964552      0.985450117      9.21070768       
77.96            0.985847704      9.07950953       0.157813274      -80.3313775      0.157813274      -80.3313775      0.985847704      9.07950953       
79               0.98623023       8.95151919       0.155606802      -80.4629732      0.155606802      -80.4629732      0.98623023       8.95151919       
80.04            0.98659844       8.82661653       0.153452815      -80.5913658      0.153452815      -80.5913658      0.98659844       8.82661653       
81.08            0.986953031      8.70468731       0.151349406      -80.7166727      0.151349406      -80.7166727      0.986953031      8.70468731       
82.12            0.987294661      8.58562277       0.149294758      -80.8390056      0.149294758      -80.8390056      0.987294661      8.58562277       
83.16            0.987623946      8.46931937       0.147287139      -80.9584707      0.147287139      -80.9584707      0.987623946      8.46931937       
84.2             0.987941468      8.35567844       0.145324896      -81.0751694      0.145324896      -81.0751694      0.987941468      8.35567844       
85.24            0.988247775      8.24460593       0.143406453      -81.1891982      0.143406453      -81.1891982      0.988247775      8.24460593       
86.28            0.988543382      8.13601213       0.141530305      -81.3006494      0.141530305      -81.3006494      0.988543382      8.13601213       
87.32            0.988828777      8.0298114        0.139695012      -81.4096106      0.139695012      -81.4096106      0.988828777      8.0298114        
88.36            0.98910442       7.925922         0.1378992        -81.5161659      0.1378992        -81.5161659      0.98910442       7.925922         
89.4             0.989370743      7.82426582       0.136141555      -81.6203953      0.136141555      -81.6203953      0.989370743      7.82426582       
90.44            0.989628158      7.72476822       0.13442082       -81.7223754      0.13442082       -81.7223754      0.989628158      7.72476822       
91.48            0.989877053      7.62735782       0.132735791      -81.8221795      0.132735791      -81.8221795      0.989877053      7.62735782       
92.52            0.990117793      7.53196633       0.131085316      -81.9198776      0.131085316      -81.9198776      0.990117793      7.53196633       
93.56            0.990350728      7.43852837       0.129468291      -82.0155366      0.129468291      -82.0155366      0.990350728      7.43852837       
94.6             0.990576185      7.34698136       0.127883659      -82.1092208      0.127883659      -82.1092208      0.990576185      7.34698136       
95.64            0.990794478      7.25726533       0.126330405      -82.2009916      0.126330405      -82.2009916      0.990794478      7.25726533       
96.68            0.991005901      7.1693228        0.124807558      -82.2909079      0.124807558      -82.2909079      0.991005901      7.1693228        
97.72            0.991210736      7.08309867       0.123314183      -82.379026       0.123314183      -82.379026       0.991210736      7.08309867       
98.76            0.99140925       6.99854007       0.121849386      -82.4654003      0.121849386      -82.4654003      0.99140925       6.99854007       
99.8             0.991601695      6.91559627       0.120412305      -82.5500825      0.120412305      -82.5500825      0.991601695      6.91559627       
100.84           0.991788312      6.83421857       0.119002115      -82.6331225      0.119002115      -82.6331225      0.991788312      6.83421857       
101.88           0.99196933       6.75436019       0.117618022      -82.7145681      0.117618022      -82.7145681      0.99196933       6.75436019       
102.92           0.992144966      6.67597619       0.116259261      -82.7944654      0.116259261      -82.7944654      0.992144966      6.67597619       
103.96           0.992315429      6.59902336       0.1149251        -82.8728585      0.1149251        -82.8728585      0.992315429      6.59902336       
105              0.992480915      6.52346019       0.113614831      -82.9497898      0.113614831      -82.9497898      0.992480915      6.52346019       
106.04           0.992641612      6.44924671       0.112327775      -83.0253001      0.112327775      -83.0253001      0.992641612      6.44924671       
107.08           0.992797699      6.37634447       0.111063278      -83.0994286      0.111063278      -83.0994286      0.992797699      6.37634447       
108.12           0.992949347      6.30471648       0.109820708      -83.1722133      0.109820708      -83.1722133      0.992949347      6.30471648       
109.16           0.993096719      6.2343271        0.10859946       -83.2436902      0.10859946       -83.2436902      0.993096719      6.2343271        
110.2            0.993239971      6.165142         0.107398947      -83.3138946      0.107398947      -83.3138946      0.993239971      6.165142         
111.24           0.993379251      6.09712812       0.106218606      -83.38286        0.106218606      -83.38286        0.993379251      6.09712812       
112.28           0.993514701      6.03025357       0.105057893      -83.450619       0.105057893      -83.450619       0.993514701      6.03025357       
113.32           0.993646456      5.96448762       0.103916283      -83.5172028      0.103916283      -83.5172028      0.993646456      5.96448762       
114.36           0.993774647      5.89980062       0.102793269      -83.5826415      0.102793269      -83.5826415      0.993774647      5.89980062       
115.4            0.993899396      5.83616396       0.101688364      -83.6469643      0.101688364      -83.6469643      0.993899396      5.83616396       
116.44           0.994020823      5.77355004       0.100601094      -83.7101992      0.100601094      -83.7101992      0.994020823      5.77355004       
117.48           0.994139041      5.7119322        0.0995310056     -83.7723732      0.0995310056     -83.7723732      0.994139041      5.7119322        
118.52           0.994254158      5.65128471       0.098477657      -83.8335124      0.098477657      -83.8335124      0.994254158      5.65128471       
119.56           0.99436628       5.59158271       0.0974406232     -83.8936421      0.0974406232     -83.8936421      0.99436628       5.59158271       
120.6            0.994475504      5.53280217       0.096419493      -83.9527866      0.096419493      -83.9527866      0.994475504      5.53280217       
121.64           0.994581927      5.47491987       0.0954138688     -84.0109693      0.0954138688     -84.0109693      0.994581927      5.47491987       
122.68           0.994685641      5.41791336       0.094423366      -84.0682129      0.094423366      -84.0682129      0.994685641      5.41791336       
123.72           0.994786734      5.36176093       0.0934476126     -84.1245394      0.0934476126     -84.1245394      0.994786734      5.36176093       
124.76           0.994885289      5.30644159       0.0924862487     -84.1799699      0.0924862487     -84.1799699      0.994885289      5.30644159       
125.8            0.994981388      5.251935         0.0915389258     -84.234525       0.0915389258     -84.234525       0.994981388      5.251935         
126.84           0.995075108      5.19822149       0.0906053067     -84.2882243      0.0906053067     -84.2882243      0.995075108      5.19822149       
127.88           0.995166524      5.14528204       0.0896850646     -84.3410871      0.0896850646     -84.3410871      0.995166524      5.14528204       
128.92           0.995255708      5.0930982        0.0887778831     -84.3931319      0.0887778831     -84.3931319      0.995255708      5.0930982        
129.96           0.995342728      5.0416521        0.0878834556     -84.4443766      0.0878834556     -84.4443766      0.995342728      5.0416521        
131              0.995427652      4.99092646       0.0870014851     -84.4948385      0.0870014851     -84.4948385      0.995427652      4.99092646       
132.04           0.995510542      4.94090449       0.0861316836     -84.5445343      0.0861316836     -84.5445343      0.995510542      4.94090449       
133.08           0.99559146       4.89156994       0.0852737717     -84.5934804      0.0852737717     -84.5934804      0.99559146       4.89156994       
