! Coilcraft 1812CS-392 Chip Inductor				
! 31 July 2002			
# MHZ S MA R 50
!Freq             MagS11           AngS11           MagS21           AngS21           MagS12           AngS12           MagS22           AngS22
1                0.23455308       62.9844142       0.917568371      -13.1635606      0.917568371      -13.1635606      0.23455308       62.9844142       
1.6              0.354154962      60.3570689       0.880397889      -20.4640795      0.880397889      -20.4640795      0.354154962      60.3570689       
2.2              0.459083924      55.9343415       0.834537683      -27.1103345      0.834537683      -27.1103345      0.459083924      55.9343415       
2.8              0.547833606      51.3145747       0.7843987        -33.036498       0.7843987        -33.036498       0.547833606      51.3145747       
3.4              0.621246365      46.965333        0.733498046      -38.2490241      0.733498046      -38.2490241      0.621246365      46.965333        
4                0.68123425       43.0301736       0.684195297      -42.7991338      0.684195297      -42.7991338      0.68123425       43.0301736       
4.6              0.730008207      39.5317724       0.637842132      -46.7590364      0.637842132      -46.7590364      0.730008207      39.5317724       
5.2              0.769665098      36.4446977       0.595063047      -50.2059896      0.595063047      -50.2059896      0.769665098      36.4446977       
5.8              0.802015566      33.7262509       0.556018486      -53.2134341      0.556018486      -53.2134341      0.802015566      33.7262509       
6.4              0.828546606      31.3302246       0.520601464      -55.8469895      0.520601464      -55.8469895      0.828546606      31.3302246       
7                0.850446503      29.2128585       0.488567765      -58.1632902      0.488567765      -58.1632902      0.850446503      29.2128585       
7.6              0.86865158       27.3350976       0.459615528      -60.2102733      0.459615528      -60.2102733      0.86865158       27.3350976       
8.2              0.883895219      25.6631162       0.43343078       -62.0280957      0.43343078       -62.0280957      0.883895219      25.6631162       
8.8              0.896751309      24.1680709       0.409711662      -63.6502384      0.409711662      -63.6502384      0.896751309      24.1680709       
9.4              0.907669929      22.8255552       0.388179995      -65.1045849      0.388179995      -65.1045849      0.907669929      22.8255552       
10               0.917005542      21.6149796       0.368585612      -66.414384       0.368585612      -66.414384       0.917005542      21.6149796       
10.6             0.925038815      20.518978        0.350706782      -67.5990717      0.350706782      -67.5990717      0.925038815      20.518978        
11.2             0.931993337      19.5228804       0.334348643      -68.6749538      0.334348643      -68.6749538      0.931993337      19.5228804       
11.8             0.938048372      18.6142608       0.319340751      -69.6557664      0.319340751      -69.6557664      0.938048372      18.6142608       
12.4             0.94334859       17.7825591       0.305534353      -70.5531321      0.305534353      -70.5531321      0.94334859       17.7825591       
13               0.94801151       17.0187672       0.292799699      -71.3769298      0.292799699      -71.3769298      0.94801151       17.0187672       
13.6             0.952133207      16.3151702       0.281023551      -72.135595       0.281023551      -72.135595       0.952133207      16.3151702       
14.2             0.955792716      15.6651342       0.27010695       -72.8363632      0.27010695       -72.8363632      0.955792716      15.6651342       
14.8             0.95905545       15.0629318       0.259963257      -73.4854684      0.259963257      -73.4854684      0.95905545       15.0629318       
15.4             0.96197586       14.5035981       0.250516452      -74.0883048      0.250516452      -74.0883048      0.96197586       14.5035981       
16               0.964599526      13.9828128       0.241699674      -74.6495598      0.241699674      -74.6495598      0.964599526      13.9828128       
16.6             0.966964803      13.4968016       0.233453966      -75.1733224      0.233453966      -75.1733224      0.966964803      13.4968016       
17.2             0.969104135      13.0422555       0.225727205      -75.6631739      0.225727205      -75.6631739      0.969104135      13.0422555       
17.8             0.971045093      12.6162628       0.218473187      -76.1222623      0.218473187      -76.1222623      0.971045093      12.6162628       
18.4             0.972811221      12.216253        0.211650848      -76.5533647      0.211650848      -76.5533647      0.972811221      12.216253        
19               0.974422708      11.8399489       0.205223599      -76.9589393      0.205223599      -76.9589393      0.974422708      11.8399489       
19.6             0.975896942      11.485327        0.199158748      -77.3411688      0.199158748      -77.3411688      0.975896942      11.485327        
20.2             0.977248958      11.150584        0.193427019      -77.7019979      0.193427019      -77.7019979      0.977248958      11.150584        
20.8             0.978491806      10.8341079       0.188002125      -78.0431637      0.188002125      -78.0431637      0.978491806      10.8341079       
21.4             0.979636852      10.5344536       0.18286041       -78.3662227      0.18286041       -78.3662227      0.979636852      10.5344536       
22               0.980694034      10.2503226       0.177980534      -78.6725733      0.177980534      -78.6725733      0.980694034      10.2503226       
22.6             0.981672068      9.9805447        0.173343207      -78.963475       0.173343207      -78.963475       0.981672068      9.9805447        
23.2             0.982578621      9.72406306       0.168930948      -79.2400651      0.168930948      -79.2400651      0.982578621      9.72406306       
23.8             0.98342046       9.47992083       0.164727888      -79.5033731      0.164727888      -79.5033731      0.98342046       9.47992083       
24.4             0.984203576      9.24724976       0.16071959       -79.7543328      0.16071959       -79.7543328      0.984203576      9.24724976       
25               0.984933285      9.02526032       0.156892891      -79.9937933      0.156892891      -79.9937933      0.984933285      9.02526032       
25.6             0.985614316      8.81323305       0.153235773      -80.222528       0.153235773      -80.222528       0.985614316      8.81323305       
26.2             0.986250892      8.61051107       0.149737237      -80.4412432      0.149737237      -80.4412432      0.986250892      8.61051107       
26.8             0.986846787      8.41649345       0.146387204      -80.6505848      0.146387204      -80.6505848      0.986846787      8.41649345       
27.4             0.987405386      8.23062945       0.143176418      -80.8511447      0.143176418      -80.8511447      0.987405386      8.23062945       
28               0.987929729      8.05241343       0.140096369      -81.0434662      0.140096369      -81.0434662      0.987929729      8.05241343       
28.6             0.988422554      7.88138039       0.137139215      -81.228049       0.137139215      -81.228049       0.988422554      7.88138039       
29.2             0.988886333      7.71710195       0.134297725      -81.4053534      0.134297725      -81.4053534      0.988886333      7.71710195       
29.8             0.989323299      7.5591829        0.131565215      -81.5758039      0.131565215      -81.5758039      0.989323299      7.5591829        
30.4             0.989735477      7.40725804       0.128935504      -81.739793       0.128935504      -81.739793       0.989735477      7.40725804       
31               0.990124703      7.26098939       0.126402862      -81.8976836      0.126402862      -81.8976836      0.990124703      7.26098939       
31.6             0.990492647      7.12006379       0.123961973      -82.0498123      0.123961973      -82.0498123      0.990492647      7.12006379       
32.2             0.990840831      6.98419057       0.121607902      -82.1964911      0.121607902      -82.1964911      0.990840831      6.98419057       
32.8             0.991170643      6.85309969       0.119336055      -82.3380103      0.119336055      -82.3380103      0.991170643      6.85309969       
33.4             0.991483351      6.72653988       0.117142154      -82.4746396      0.117142154      -82.4746396      0.991483351      6.72653988       
34               0.991780117      6.60427705       0.115022212      -82.6066305      0.115022212      -82.6066305      0.991780117      6.60427705       
34.6             0.992062004      6.48609291       0.112972506      -82.7342175      0.112972506      -82.7342175      0.992062004      6.48609291       
35.2             0.99232999       6.3717836        0.110989557      -82.8576194      0.110989557      -82.8576194      0.99232999       6.3717836        
35.8             0.992584972      6.26115857       0.10907011       -82.9770411      0.10907011       -82.9770411      0.992584972      6.26115857       
36.4             0.992827778      6.15403948       0.107211116      -83.092674       0.107211116      -83.092674       0.992827778      6.15403948       
37               0.993059169      6.05025929       0.105409719      -83.2046974      0.105409719      -83.2046974      0.993059169      6.05025929       
37.6             0.99327985       5.94966134       0.103663238      -83.3132798      0.103663238      -83.3132798      0.99327985       5.94966134       
38.2             0.993490469      5.85209856       0.101969153      -83.4185789      0.101969153      -83.4185789      0.993490469      5.85209856       
38.8             0.99369163       5.75743279       0.100325096      -83.5207432      0.100325096      -83.5207432      0.99369163       5.75743279       
39.4             0.993883889      5.66553409       0.0987288402     -83.6199122      0.0987288402     -83.6199122      0.993883889      5.66553409       
40               0.994067762      5.57628013       0.0971782861     -83.7162174      0.0971782861     -83.7162174      0.994067762      5.57628013       
40.6             0.99424373       5.48955566       0.0956714555     -83.8097823      0.0956714555     -83.8097823      0.99424373       5.48955566       
41.2             0.994412238      5.40525202       0.0942064823     -83.9007239      0.0942064823     -83.9007239      0.994412238      5.40525202       
41.8             0.994573702      5.32326665       0.0927816042     -83.9891521      0.0927816042     -83.9891521      0.994573702      5.32326665       
42.4             0.994728508      5.24350268       0.091395156      -84.075171       0.091395156      -84.075171       0.994728508      5.24350268       
43               0.994877016      5.16586855       0.0900455631     -84.1588789      0.0900455631     -84.1588789      0.994877016      5.16586855       
43.6             0.995019562      5.09027764       0.0887313351     -84.2403688      0.0887313351     -84.2403688      0.995019562      5.09027764       
44.2             0.99515646       5.01664795       0.0874510608     -84.3197288      0.0874510608     -84.3197288      0.99515646       5.01664795       
44.8             0.995288005      4.9449018        0.0862034025     -84.3970422      0.0862034025     -84.3970422      0.995288005      4.9449018        
45.4             0.99541447       4.87496554       0.0849870916     -84.4723881      0.0849870916     -84.4723881      0.99541447       4.87496554       
46               0.995536114      4.8067693        0.0838009242     -84.5458416      0.0838009242     -84.5458416      0.995536114      4.8067693        
46.6             0.995653176      4.74024674       0.082643757      -84.6174737      0.082643757      -84.6174737      0.995653176      4.74024674       
47.2             0.995765884      4.67533487       0.0815145035     -84.6873522      0.0815145035     -84.6873522      0.995765884      4.67533487       
47.8             0.99587445       4.61197377       0.0804121306     -84.7555413      0.0804121306     -84.7555413      0.99587445       4.61197377       
48.4             0.995979073      4.55010649       0.0793356554     -84.8221022      0.0793356554     -84.8221022      0.995979073      4.55010649       
49               0.996079941      4.4896788        0.078284142      -84.887093       0.078284142      -84.887093       0.996079941      4.4896788        
49.6             0.996177231      4.43063906       0.077256699      -84.9505691      0.077256699      -84.9505691      0.996177231      4.43063906       
50.2             0.99627111       4.37293806       0.0762524769     -85.0125833      0.0762524769     -85.0125833      0.99627111       4.37293806       
50.8             0.996361733      4.31652891       0.0752706654     -85.073186       0.0752706654     -85.073186       0.996361733      4.31652891       
51.4             0.996449249      4.26136685       0.0743104913     -85.1324251      0.0743104913     -85.1324251      0.996449249      4.26136685       
52               0.996533797      4.20740916       0.0733712166     -85.1903464      0.0733712166     -85.1903464      0.996533797      4.20740916       
52.6             0.996615509      4.15461506       0.0724521362     -85.2469937      0.0724521362     -85.2469937      0.996615509      4.15461506       
53.2             0.996694509      4.10294559       0.0715525765     -85.3024087      0.0715525765     -85.3024087      0.996694509      4.10294559       
53.8             0.996770915      4.05236348       0.0706718931     -85.3566313      0.0706718931     -85.3566313      0.996770915      4.05236348       
54.4             0.996844839      4.00283311       0.0698094698     -85.4096997      0.0698094698     -85.4096997      0.996844839      4.00283311       
55               0.996916386      3.95432038       0.0689647168     -85.4616505      0.0689647168     -85.4616505      0.996916386      3.95432038       
55.6             0.996985656      3.90679266       0.0681370693     -85.5125185      0.0681370693     -85.5125185      0.996985656      3.90679266       
56.2             0.997052742      3.86021868       0.0673259864     -85.5623373      0.0673259864     -85.5623373      0.997052742      3.86021868       
56.8             0.997117736      3.81456849       0.0665309494     -85.6111389      0.0665309494     -85.6111389      0.997117736      3.81456849       
57.4             0.997180723      3.76981338       0.0657514614     -85.6589541      0.0657514614     -85.6589541      0.997180723      3.76981338       
58               0.997241782      3.7259258        0.0649870453     -85.7058122      0.0649870453     -85.7058122      0.997241782      3.7259258        
58.6             0.997300991      3.68287933       0.0642372435     -85.7517416      0.0642372435     -85.7517416      0.997300991      3.68287933       
59.2             0.997358424      3.6406486        0.0635016168     -85.7967694      0.0635016168     -85.7967694      0.997358424      3.6406486        
59.8             0.997414149      3.59920927       0.0627797431     -85.8409215      0.0627797431     -85.8409215      0.997414149      3.59920927       
60.4             0.997468232      3.55853793       0.0620712171     -85.8842231      0.0620712171     -85.8842231      0.997468232      3.55853793       
61               0.997520736      3.5186121        0.061375649      -85.926698       0.061375649      -85.926698       0.997520736      3.5186121        
61.6             0.997571722      3.47941016       0.0606926643     -85.9683694      0.0606926643     -85.9683694      0.997571722      3.47941016       
62.2             0.997621245      3.44091132       0.0600219024     -86.0092594      0.0600219024     -86.0092594      0.997621245      3.44091132       
62.8             0.997669361      3.40309557       0.0593630166     -86.0493894      0.0593630166     -86.0493894      0.997669361      3.40309557       
63.4             0.997716122      3.36594366       0.058715673      -86.0887799      0.058715673      -86.0887799      0.997716122      3.36594366       
64               0.997761576      3.32943705       0.0580795501     -86.1274505      0.0580795501     -86.1274505      0.997761576      3.32943705       
64.6             0.997805772      3.29355789       0.0574543384     -86.1654205      0.0574543384     -86.1654205      0.997805772      3.29355789       
65.2             0.997848753      3.25828897       0.0568397392     -86.2027079      0.0568397392     -86.2027079      0.997848753      3.25828897       
65.8             0.997890564      3.22361372       0.0562354651     -86.2393305      0.0562354651     -86.2393305      0.997890564      3.22361372       
66.4             0.997931245      3.18951613       0.0556412387     -86.2753052      0.0556412387     -86.2753052      0.997931245      3.18951613       
67               0.997970836      3.15598081       0.0550567923     -86.3106484      0.0550567923     -86.3106484      0.997970836      3.15598081       
67.6             0.998009374      3.12299287       0.0544818679     -86.3453759      0.0544818679     -86.3453759      0.998009374      3.12299287       
68.2             0.998046895      3.09053795       0.0539162163     -86.3795029      0.0539162163     -86.3795029      0.998046895      3.09053795       
68.8             0.998083434      3.05860219       0.0533595969     -86.413044       0.0533595969     -86.413044       0.998083434      3.05860219       
69.4             0.998119024      3.02717222       0.0528117774     -86.4460135      0.0528117774     -86.4460135      0.998119024      3.02717222       
70               0.998153696      2.99623509       0.0522725334     -86.478425       0.0522725334     -86.478425       0.998153696      2.99623509       
70.6             0.998187481      2.96577833       0.051741648      -86.5102916      0.051741648      -86.5102916      0.998187481      2.96577833       
71.2             0.998220408      2.93578986       0.0512189116     -86.5416262      0.0512189116     -86.5416262      0.998220408      2.93578986       
71.8             0.998252504      2.906258         0.0507041213     -86.5724409      0.0507041213     -86.5724409      0.998252504      2.906258         
72.4             0.998283797      2.87717147       0.0501970813     -86.6027478      0.0501970813     -86.6027478      0.998283797      2.87717147       
73               0.998314312      2.84851935       0.0496976018     -86.6325583      0.0496976018     -86.6325583      0.998314312      2.84851935       
73.6             0.998344073      2.82029106       0.0492054993     -86.6618834      0.0492054993     -86.6618834      0.998344073      2.82029106       
74.2             0.998373105      2.79247639       0.0487205961     -86.6907339      0.0487205961     -86.6907339      0.998373105      2.79247639       
74.8             0.99840143       2.76506542       0.0482427203     -86.7191201      0.0482427203     -86.7191201      0.99840143       2.76506542       
75.4             0.998429069      2.73804859       0.0477717052     -86.7470522      0.0477717052     -86.7470522      0.998429069      2.73804859       
76               0.998456044      2.71141659       0.0473073895     -86.7745397      0.0473073895     -86.7745397      0.998456044      2.71141659       
76.6             0.998482375      2.68516043       0.0468496169     -86.8015921      0.0468496169     -86.8015921      0.998482375      2.68516043       
77.2             0.998508082      2.65927139       0.0463982358     -86.8282185      0.0463982358     -86.8282185      0.998508082      2.65927139       
