! Coilcraft 1812CS-682 Chip Inductor				
! 31 July 2002			
# MHZ S MA R 50
!Freq             MagS11           AngS11           MagS21           AngS21           MagS12           AngS12           MagS22           AngS22
1                0.372752041      56.5012263       0.852927965      -21.3728333      0.852927965      -21.3728333      0.372752041      56.5012263       
1.42             0.490205008      51.9874184       0.797828702      -28.9528393      0.797828702      -28.9528393      0.490205008      51.9874184       
1.84             0.585934047      47.1476017       0.739132678      -35.5320487      0.739132678      -35.5320487      0.585934047      47.1476017       
2.26             0.66202702       42.6469574       0.681456005      -41.1599548      0.681456005      -41.1599548      0.66202702       42.6469574       
2.68             0.72186835       38.6560954       0.627428494      -45.9443906      0.627428494      -45.9443906      0.72186835       38.6560954       
3.1              0.768862686      35.1815637       0.578204318      -50.0100075      0.578204318      -50.0100075      0.768862686      35.1815637       
3.52             0.805926486      32.1744671       0.534037362      -53.4757574      0.534037362      -53.4757574      0.805926486      32.1744671       
3.94             0.835378957      29.5717136       0.494707209      -56.445621       0.494707209      -56.445621       0.835378957      29.5717136       
4.36             0.85899883       27.3118675       0.459782452      -59.0065437      0.459782452      -59.0065437      0.85899883       27.3118675       
4.78             0.878128428      25.3406004       0.428766377      -61.2296161      0.428766377      -61.2296161      0.878128428      25.3406004       
5.2              0.893775718      23.6118547       0.40117032       -63.1723777      0.40117032       -63.1723777      0.893775718      23.6118547       
5.62             0.906698734      22.0873388       0.376546412      -64.881258       0.376546412      -64.881258       0.906698734      22.0873388       
6.04             0.917470533      20.7354788       0.354498902      -66.3937642      0.354498902      -66.3937642      0.917470533      20.7354788       
6.46             0.926527504      19.5302968       0.334684937      -67.7403061      0.334684937      -67.7403061      0.926527504      19.5302968       
6.88             0.934204768      18.4503925       0.31681059       -68.9456639      0.31681059       -68.9456639      0.934204768      18.4503925       
7.3              0.94076197       17.4780789       0.300625139      -70.030148       0.300625139      -70.030148       0.94076197       17.4780789       
7.72             0.946402091      16.5986746       0.28591508       -71.0105094      0.28591508       -71.0105094      0.946402091      16.5986746       
8.14             0.951285229      15.7999322       0.272498523      -71.9006501      0.272498523      -71.9006501      0.951285229      15.7999322       
8.56             0.955538744      15.0715808       0.26022024       -72.7121807      0.26022024       -72.7121807      0.955538744      15.0715808       
8.98             0.959264799      14.4049614       0.248947412      -73.4548572      0.248947412      -73.4548572      0.959264799      14.4049614       
9.4              0.962545992      13.7927346       0.23856604       -74.1369258      0.23856604       -74.1369258      0.962545992      13.7927346       
9.82             0.965449603      13.2286473       0.22897794       -74.7653962      0.22897794       -74.7653962      0.965449603      13.2286473       
10.24            0.968030831      12.7073451       0.220098251      -75.3462595      0.220098251      -75.3462595      0.968030831      12.7073451       
10.66            0.970335265      12.2242209       0.211853352      -75.8846622      0.211853352      -75.8846622      0.970335265      12.2242209       
11.08            0.972400799      11.7752918       0.204179145      -76.3850475      0.204179145      -76.3850475      0.972400799      11.7752918       
11.5             0.974259123      11.3570996       0.19701962       -76.851269       0.19701962       -76.851269       0.974259123      11.3570996       
11.92            0.975936887      10.9666289       0.190325663      -77.2866839      0.190325663      -77.2866839      0.975936887      10.9666289       
12.34            0.977456626      10.6012394       0.184054056      -77.694229       0.184054056      -77.694229       0.977456626      10.6012394       
12.76            0.978837491      10.2586107       0.178166645      -78.0764837      0.178166645      -78.0764837      0.978837491      10.2586107       
13.18            0.980095837      9.93669584       0.172629637      -78.435722       0.172629637      -78.435722       0.980095837      9.93669584       
13.6             0.981245693      9.63368283       0.167413012      -78.7739561      0.167413012      -78.7739561      0.981245693      9.63368283       
14.02            0.98229915       9.34796238       0.162490015      -79.0929721      0.162490015      -79.0929721      0.98229915       9.34796238       
14.44            0.983266665      9.07810065       0.157836741      -79.3943609      0.157836741      -79.3943609      0.983266665      9.07810065       
14.86            0.984157324      8.82281628       0.153431768      -79.679544       0.153431768      -79.679544       0.984157324      8.82281628       
15.28            0.984979046      8.58096083       0.149255846      -79.9497949      0.149255846      -79.9497949      0.984979046      8.58096083       
15.7             0.985738759      8.35150224       0.145291639      -80.2062578      0.145291639      -80.2062578      0.985738759      8.35150224       
16.12            0.986442545      8.13351053       0.141523491      -80.4499638      0.141523491      -80.4499638      0.986442545      8.13351053       
16.54            0.987095762      7.92614565       0.137937236      -80.6818439      0.137937236      -80.6818439      0.987095762      7.92614565       
16.96            0.98770314       7.72864693       0.134520019      -80.9027413      0.134520019      -80.9027413      0.98770314       7.72864693       
17.38            0.988268872      7.54032402       0.131260158      -81.113421       0.131260158      -81.113421       0.988268872      7.54032402       
17.8             0.988796681      7.36054903       0.12814701       -81.3145788      0.12814701       -81.3145788      0.988796681      7.36054903       
18.22            0.989289886      7.18874963       0.12517086       -81.5068491      0.12517086       -81.5068491      0.989289886      7.18874963       
18.64            0.98975145       7.02440312       0.122322825      -81.6908109      0.122322825      -81.6908109      0.98975145       7.02440312       
19.06            0.990184024      6.86703118       0.119594764      -81.8669943      0.119594764      -81.8669943      0.990184024      6.86703118       
19.48            0.990589991      6.71619533       0.116979209      -82.0358854      0.116979209      -82.0358854      0.990589991      6.71619533       
19.9             0.99097149       6.57149282       0.11446929       -82.1979302      0.11446929       -82.1979302      0.99097149       6.57149282       
20.32            0.991330453      6.43255317       0.112058683      -82.3535395      0.112058683      -82.3535395      0.991330453      6.43255317       
20.74            0.991668622      6.29903494       0.109741552      -82.5030916      0.109741552      -82.5030916      0.991668622      6.29903494       
21.16            0.991987576      6.17062303       0.10751251       -82.6469357      0.10751251       -82.6469357      0.991987576      6.17062303       
21.58            0.992288746      6.04702615       0.10536657       -82.7853948      0.10536657       -82.7853948      0.992288746      6.04702615       
22               0.992573431      5.92797462       0.103299112      -82.9187676      0.103299112      -82.9187676      0.992573431      5.92797462       
22.42            0.992842815      5.81321847       0.101305852      -83.0473313      0.101305852      -83.0473313      0.992842815      5.81321847       
22.84            0.993097978      5.70252562       0.0993828076     -83.1713432      0.0993828076     -83.1713432      0.993097978      5.70252562       
23.26            0.993339903      5.59568035       0.0975262765     -83.2910423      0.0975262765     -83.2910423      0.993339903      5.59568035       
23.68            0.993569493      5.49248186       0.0957328097     -83.4066513      0.0957328097     -83.4066513      0.993569493      5.49248186       
24.1             0.993787573      5.39274304       0.0939991912     -83.5183776      0.0939991912     -83.5183776      0.993787573      5.39274304       
24.52            0.993994901      5.29628931       0.0923224192     -83.6264149      0.0923224192     -83.6264149      0.993994901      5.29628931       
24.94            0.994192173      5.2029576        0.0906996879     -83.7309437      0.0906996879     -83.7309437      0.994192173      5.2029576        
25.36            0.99438003       5.1125954        0.0891283724     -83.8321334      0.0891283724     -83.8321334      0.99438003       5.1125954        
25.78            0.994559061      5.02505997       0.087606014      -83.9301421      0.087606014      -83.9301421      0.994559061      5.02505997       
26.2             0.994729812      4.9402175        0.0861303077     -84.0251183      0.0861303077     -84.0251183      0.994729812      4.9402175        
26.62            0.994892785      4.85794249       0.0846990902     -84.117201       0.0846990902     -84.117201       0.994892785      4.85794249       
27.04            0.995048446      4.77811709       0.0833103293     -84.206521       0.0833103293     -84.206521       0.995048446      4.77811709       
27.46            0.995197226      4.70063054       0.0819621143     -84.2932011      0.0819621143     -84.2932011      0.995197226      4.70063054       
27.88            0.995339525      4.62537861       0.0806526467     -84.3773568      0.0806526467     -84.3773568      0.995339525      4.62537861       
28.3             0.995475712      4.55226318       0.0793802325     -84.459097       0.0793802325     -84.459097       0.995475712      4.55226318       
28.72            0.995606133      4.48119176       0.0781432747     -84.5385241      0.0781432747     -84.5385241      0.995606133      4.48119176       
29.14            0.995731108      4.41207712       0.0769402664     -84.615735       0.0769402664     -84.615735       0.995731108      4.41207712       
29.56            0.995850936      4.3448369        0.0757697843     -84.6908208      0.0757697843     -84.6908208      0.995850936      4.3448369        
29.98            0.995965896      4.27939328       0.0746304837     -84.7638679      0.0746304837     -84.7638679      0.995965896      4.27939328       
30.4             0.996076245      4.21567269       0.0735210923     -84.8349578      0.0735210923     -84.8349578      0.996076245      4.21567269       
30.82            0.996182228      4.15360551       0.0724404062     -84.9041677      0.0724404062     -84.9041677      0.996182228      4.15360551       
31.24            0.996284071      4.09312581       0.0713872849     -84.9715707      0.0713872849     -84.9715707      0.996284071      4.09312581       
31.66            0.996381985      4.0341711        0.0703606472     -85.0372359      0.0703606472     -85.0372359      0.996381985      4.0341711        
32.08            0.996476169      3.97668214       0.0693594677     -85.1012289      0.0693594677     -85.1012289      0.996476169      3.97668214       
32.5             0.99656681       3.92060269       0.0683827731     -85.1636122      0.0683827731     -85.1636122      0.99656681       3.92060269       
32.92            0.996654082      3.86587937       0.0674296389     -85.2244447      0.0674296389     -85.2244447      0.996654082      3.86587937       
33.34            0.996738148      3.81246144       0.0664991863     -85.2837827      0.0664991863     -85.2837827      0.996738148      3.81246144       
33.76            0.996819163      3.76030065       0.0655905796     -85.3416795      0.0655905796     -85.3416795      0.996819163      3.76030065       
34.18            0.996897272      3.7093511        0.0647030238     -85.398186       0.0647030238     -85.398186       0.996897272      3.7093511        
34.6             0.996972611      3.65956909       0.0638357614     -85.4533505      0.0638357614     -85.4533505      0.996972611      3.65956909       
35.02            0.997045308      3.61091301       0.0629880712     -85.5072189      0.0629880712     -85.5072189      0.997045308      3.61091301       
35.44            0.997115484      3.56334318       0.0621592655     -85.5598352      0.0621592655     -85.5598352      0.997115484      3.56334318       
35.86            0.997183253      3.51682176       0.0613486882     -85.6112412      0.0613486882     -85.6112412      0.997183253      3.51682176       
36.28            0.997248723      3.47131265       0.0605557133     -85.6614766      0.0605557133     -85.6614766      0.997248723      3.47131265       
36.7             0.997311994      3.4267814        0.0597797432     -85.7105796      0.0597797432     -85.7105796      0.997311994      3.4267814        
37.12            0.997373165      3.38319508       0.0590202069     -85.7585865      0.0590202069     -85.7585865      0.997373165      3.38319508       
37.54            0.997432324      3.34052222       0.0582765584     -85.8055319      0.0582765584     -85.8055319      0.997432324      3.34052222       
37.96            0.997489558      3.29873275       0.0575482759     -85.8514491      0.0575482759     -85.8514491      0.997489558      3.29873275       
38.38            0.997544948      3.25779788       0.0568348599     -85.8963696      0.0568348599     -85.8963696      0.997544948      3.25779788       
38.8             0.997598571      3.21769008       0.0561358324     -85.9403239      0.0561358324     -85.9403239      0.997598571      3.21769008       
39.22            0.997650501      3.17838297       0.0554507357     -85.9833409      0.0554507357     -85.9833409      0.997650501      3.17838297       
39.64            0.997700806      3.13985128       0.054779131      -86.0254484      0.054779131      -86.0254484      0.997700806      3.13985128       
40.06            0.997749552      3.10207079       0.0541205979     -86.066673       0.0541205979     -86.066673       0.997749552      3.10207079       
40.48            0.997796802      3.06501829       0.0534747334     -86.1070401      0.0534747334     -86.1070401      0.997796802      3.06501829       
40.9             0.997842615      3.02867151       0.0528411505     -86.1465741      0.0528411505     -86.1465741      0.997842615      3.02867151       
41.32            0.997887047      2.99300905       0.052219478      -86.1852986      0.052219478      -86.1852986      0.997887047      2.99300905       
41.74            0.997930151      2.95801042       0.0516093594     -86.2232358      0.0516093594     -86.2232358      0.997930151      2.95801042       
42.16            0.997971979      2.92365588       0.0510104524     -86.2604074      0.0510104524     -86.2604074      0.997971979      2.92365588       
42.58            0.99801258       2.88992651       0.0504224279     -86.296834       0.0504224279     -86.296834       0.99801258       2.88992651       
43               0.998051998      2.8568041        0.0498449696     -86.3325355      0.0498449696     -86.3325355      0.998051998      2.8568041        
43.42            0.998090279      2.82427114       0.0492777733     -86.3675308      0.0492777733     -86.3675308      0.998090279      2.82427114       
43.84            0.998127464      2.79231079       0.0487205464     -86.4018384      0.0487205464     -86.4018384      0.998127464      2.79231079       
44.26            0.998163594      2.76090686       0.0481730073     -86.4354758      0.0481730073     -86.4354758      0.998163594      2.76090686       
44.68            0.998198706      2.73004373       0.0476348847     -86.4684598      0.0476348847     -86.4684598      0.998198706      2.73004373       
45.1             0.998232837      2.69970638       0.0471059176     -86.5008068      0.0471059176     -86.5008068      0.998232837      2.69970638       
45.52            0.998266022      2.66988035       0.0465858544     -86.5325324      0.0465858544     -86.5325324      0.998266022      2.66988035       
45.94            0.998298293      2.64055169       0.0460744527     -86.5636515      0.0460744527     -86.5636515      0.998298293      2.64055169       
46.36            0.998329684      2.61170694       0.0455714786     -86.5941787      0.0455714786     -86.5941787      0.998329684      2.61170694       
46.78            0.998360223      2.58333316       0.0450767067     -86.624128       0.0450767067     -86.624128       0.998360223      2.58333316       
47.2             0.998389941      2.55541782       0.0445899196     -86.6535125      0.0445899196     -86.6535125      0.998389941      2.55541782       
47.62            0.998418865      2.52794887       0.0441109075     -86.6823454      0.0441109075     -86.6823454      0.998418865      2.52794887       
48.04            0.998447022      2.50091465       0.0436394676     -86.7106389      0.0436394676     -86.7106389      0.998447022      2.50091465       
48.46            0.998474437      2.47430392       0.0431754045     -86.7384051      0.0431754045     -86.7384051      0.998474437      2.47430392       
48.88            0.998501134      2.44810581       0.0427185292     -86.7656554      0.0427185292     -86.7656554      0.998501134      2.44810581       
49.3             0.998527138      2.42230983       0.0422686591     -86.792401       0.0422686591     -86.792401       0.998527138      2.42230983       
49.72            0.99855247       2.39690585       0.0418256178     -86.8186526      0.0418256178     -86.8186526      0.99855247       2.39690585       
50.14            0.998577152      2.37188404       0.0413892348     -86.8444204      0.0413892348     -86.8444204      0.998577152      2.37188404       
50.56            0.998601204      2.34723494       0.040959345      -86.8697143      0.040959345      -86.8697143      0.998601204      2.34723494       
50.98            0.998624648      2.32294937       0.040535789      -86.8945441      0.040535789      -86.8945441      0.998624648      2.32294937       
51.4             0.9986475        2.29901846       0.0401184125     -86.9189188      0.0401184125     -86.9189188      0.9986475        2.29901846       
51.82            0.998669781      2.27543364       0.039707066      -86.9428473      0.039707066      -86.9428473      0.998669781      2.27543364       
52.24            0.998691507      2.25218657       0.0393016048     -86.9663384      0.0393016048     -86.9663384      0.998691507      2.25218657       
52.66            0.998712695      2.22926923       0.0389018891     -86.9894001      0.0389018891     -86.9894001      0.998712695      2.22926923       
53.08            0.998733362      2.20667381       0.038507783      -87.0120404      0.038507783      -87.0120404      0.998733362      2.20667381       
53.5             0.998753523      2.18439277       0.0381191553     -87.0342672      0.0381191553     -87.0342672      0.998753523      2.18439277       
53.92            0.998773193      2.16241879       0.0377358787     -87.0560877      0.0377358787     -87.0560877      0.998773193      2.16241879       
54.34            0.998792387      2.14074478       0.0373578296     -87.0775091      0.0373578296     -87.0775091      0.998792387      2.14074478       
