! Coilcraft 1812CS-182 Chip Inductor				
! 31 July 2002			
# MHZ S MA R 50
!Freq             MagS11           AngS11           MagS21           AngS21           MagS12           AngS12           MagS22           AngS22
1                0.113620531      70.7323202       0.968464856      -6.35848304      0.968464856      -6.35848304      0.113620531      70.7323202       
1.92             0.210521947      70.527692        0.95077021       -12.049564       0.95077021       -12.049564       0.210521947      70.527692        
2.84             0.301928012      67.1469111       0.925549137      -17.4941444      0.925549137      -17.4941444      0.301928012      67.1469111       
3.76             0.385687681      63.1180728       0.894413218      -22.6202302      0.894413218      -22.6202302      0.385687681      63.1180728       
4.68             0.460824945      59.0428374       0.859223854      -27.3824845      0.859223854      -27.3824845      0.460824945      59.0428374       
5.6              0.52714698       55.1380522       0.821734993      -31.760857       0.821734993      -31.760857       0.52714698       55.1380522       
6.52             0.585006461      51.4910137       0.783414824      -35.7557547      0.783414824      -35.7557547      0.585006461      51.4910137       
7.44             0.635086989      48.1319427       0.745385236      -39.3821175      0.745385236      -39.3821175      0.635086989      48.1319427       
8.36             0.678230426      45.0625741       0.708436264      -42.6639042      0.708436264      -42.6639042      0.678230426      45.0625741       
9.28             0.71531575       42.270056        0.673078024      -45.629697       0.673078024      -45.629697       0.71531575       42.270056        
10.2             0.747184562      39.7345067       0.639603724      -48.3095657      0.639603724      -48.3095657      0.747184562      39.7345067       
11.12            0.774601918      37.433301        0.608148873      -50.733035       0.608148873      -50.733035       0.774601918      37.433301        
12.04            0.798240775      35.343494        0.578740372      -52.9278951      0.578740372      -52.9278951      0.798240775      35.343494        
12.96            0.818680612      33.4431369       0.55133421       -54.9196011      0.55133421       -54.9196011      0.818680612      33.4431369       
13.88            0.83641365       31.711929        0.525842929      -56.7310566      0.525842929      -56.7310566      0.83641365       31.711929        
14.8             0.85185446       30.1314787       0.502154837      -58.3826271      0.502154837      -58.3826271      0.85185446       30.1314787       
15.72            0.865350525      28.6853394       0.480146988      -59.8922854      0.480146988      -59.8922854      0.865350525      28.6853394       
16.64            0.877192421      27.3589233       0.459693669      -61.2758179      0.459693669      -61.2758179      0.877192421      27.3589233       
17.56            0.887623022      26.1393551       0.440671707      -62.5470554      0.440671707      -62.5470554      0.887623022      26.1393551       
18.48            0.896845497      25.0153021       0.42296364       -63.7181018      0.42296364       -63.7181018      0.896845497      25.0153021       
19.4             0.905030094      23.9768017       0.406459418      -64.7995497      0.406459418      -64.7995497      0.905030094      23.9768017       
20.32            0.912319815      23.0150964       0.391057177      -65.8006761      0.391057177      -65.8006761      0.912319815      23.0150964       
21.24            0.918835116      22.1224834       0.376663404      -66.7296165      0.376663404      -66.7296165      0.918835116      22.1224834       
22.16            0.924677783      21.292179        0.363192734      -67.593518       0.363192734      -67.593518       0.924677783      21.292179        
23.08            0.92993411       20.5181997       0.350567532      -68.3986716      0.350567532      -68.3986716      0.92993411       20.5181997       
24               0.934677506      19.7952578       0.338717367      -69.150627       0.338717367      -69.150627       0.934677506      19.7952578       
24.92            0.938970642      19.1186706       0.327578433      -69.8542915      0.327578433      -69.8542915      0.938970642      19.1186706       
25.84            0.942867205      18.4842828       0.317092963      -70.5140146      0.317092963      -70.5140146      0.942867205      18.4842828       
26.76            0.946413348      17.8883981       0.30720867       -71.1336606      0.30720867       -71.1336606      0.946413348      17.8883981       
27.68            0.949648881      17.3277215       0.297878212      -71.7166716      0.297878212      -71.7166716      0.949648881      17.3277215       
28.6             0.952608259      16.7993085       0.289058695      -72.2661204      0.289058695      -72.2661204      0.952608259      16.7993085       
29.52            0.955321401      16.3005222       0.280711229      -72.7847571      0.280711229      -72.7847571      0.955321401      16.3005222       
30.44            0.957814368      15.8289956       0.272800513      -73.2750488      0.272800513      -73.2750488      0.957814368      15.8289956       
31.36            0.960109932      15.3825994       0.265294473      -73.7392136      0.265294473      -73.7392136      0.960109932      15.3825994       
32.28            0.962228052      14.9594137       0.258163924      -74.1792505      0.258163924      -74.1792505      0.962228052      14.9594137       
33.2             0.964186272      14.557704        0.251382281      -74.5969645      0.251382281      -74.5969645      0.964186272      14.557704        
34.12            0.966000053      14.1758997       0.244925293      -74.9939895      0.244925293      -74.9939895      0.966000053      14.1758997       
35.04            0.967683066      13.8125762       0.238770803      -75.3718073      0.238770803      -75.3718073      0.967683066      13.8125762       
35.96            0.96924742       13.4664381       0.232898548      -75.7317643      0.232898548      -75.7317643      0.96924742       13.4664381       
36.88            0.970703878      13.1363061       0.227289961      -76.0750865      0.227289961      -76.0750865      0.970703878      13.1363061       
37.8             0.972062024      12.8211037       0.221928012      -76.4028924      0.221928012      -76.4028924      0.972062024      12.8211037       
38.72            0.973330413      12.5198471       0.216797059      -76.716204       0.216797059      -76.716204       0.973330413      12.5198471       
39.64            0.974516702      12.2316355       0.211882708      -77.015957       0.211882708      -77.015957       0.974516702      12.2316355       
40.56            0.975627758      11.9556426       0.207171705      -77.3030096      0.207171705      -77.3030096      0.975627758      11.9556426       
41.48            0.976669749      11.6911091       0.202651823      -77.5781501      0.202651823      -77.5781501      0.976669749      11.6911091       
42.4             0.977648233      11.4373365       0.19831177       -77.8421037      0.19831177       -77.8421037      0.977648233      11.4373365       
43.32            0.978568224      11.193681        0.194141102      -78.0955387      0.194141102      -78.0955387      0.978568224      11.193681        
44.24            0.979434255      10.9595484       0.190130151      -78.339072       0.190130151      -78.339072       0.979434255      10.9595484       
45.16            0.980250431      10.7343893       0.186269951      -78.5732735      0.186269951      -78.5732735      0.980250431      10.7343893       
46.08            0.98102048       10.5176954       0.182552182      -78.7986709      0.182552182      -78.7986709      0.98102048       10.5176954       
47               0.981747787      10.3089954       0.178969112      -79.0157531      0.178969112      -79.0157531      0.981747787      10.3089954       
47.92            0.982435437      10.1078522       0.175513546      -79.2249738      0.175513546      -79.2249738      0.982435437      10.1078522       
48.84            0.983086241      9.9138592        0.172178784      -79.4267547      0.172178784      -79.4267547      0.983086241      9.9138592        
49.76            0.983702769      9.72663843       0.168958578      -79.621488       0.168958578      -79.621488       0.983702769      9.72663843       
50.68            0.984287372      9.54583765       0.165847095      -79.809539       0.165847095      -79.809539       0.984287372      9.54583765       
51.6             0.984842202      9.37112841       0.162838887      -79.9912485      0.162838887      -79.9912485      0.984842202      9.37112841       
52.52            0.985369236      9.20220406       0.159928855      -80.1669346      0.159928855      -80.1669346      0.985369236      9.20220406       
53.44            0.985870288      9.03877797       0.157112227      -80.3368945      0.157112227      -80.3368945      0.985870288      9.03877797       
54.36            0.98634703       8.88058196       0.15438453       -80.5014063      0.15438453       -80.5014063      0.98634703       8.88058196       
55.28            0.986801         8.72736485       0.151741568      -80.6607306      0.151741568      -80.6607306      0.986801         8.72736485       
56.2             0.987233617      8.57889113       0.1491794        -80.8151117      0.1491794        -80.8151117      0.987233617      8.57889113       
57.12            0.987646193      8.4349398        0.146694325      -80.9647786      0.146694325      -80.9647786      0.987646193      8.4349398        
58.04            0.98803994       8.29530326       0.144282859      -81.1099467      0.144282859      -81.1099467      0.98803994       8.29530326       
58.96            0.98841598       8.1597863        0.141941723      -81.2508184      0.141941723      -81.2508184      0.98841598       8.1597863        
59.88            0.988775353      8.02820525       0.139667828      -81.387584       0.139667828      -81.387584       0.988775353      8.02820525       
60.8             0.989119025      7.90038709       0.137458261      -81.5204231      0.137458261      -81.5204231      0.989119025      7.90038709       
61.72            0.989447891      7.77616872       0.135310273      -81.6495047      0.135310273      -81.6495047      0.989447891      7.77616872       
62.64            0.989762786      7.65539627       0.133221266      -81.7749883      0.133221266      -81.7749883      0.989762786      7.65539627       
63.56            0.990064485      7.53792445       0.131188787      -81.8970245      0.131188787      -81.8970245      0.990064485      7.53792445       
64.48            0.990353711      7.42361598       0.129210515      -82.0157557      0.129210515      -82.0157557      0.990353711      7.42361598       
65.4             0.990631139      7.31234101       0.127284251      -82.1313163      0.127284251      -82.1313163      0.990631139      7.31234101       
66.32            0.990897397      7.20397669       0.125407916      -82.2438339      0.125407916      -82.2438339      0.990897397      7.20397669       
67.24            0.991153073      7.09840665       0.123579536      -82.3534289      0.123579536      -82.3534289      0.991153073      7.09840665       
68.16            0.991398718      6.9955206        0.121797241      -82.4602156      0.121797241      -82.4602156      0.991398718      6.9955206        
69.08            0.991634845      6.89521397       0.120059253      -82.5643024      0.120059253      -82.5643024      0.991634845      6.89521397       
70               0.991861938      6.7973875        0.118363887      -82.6657922      0.118363887      -82.6657922      0.991861938      6.7973875        
70.92            0.992080446      6.70194694       0.11670954       -82.7647826      0.11670954       -82.7647826      0.992080446      6.70194694       
71.84            0.992290796      6.60880271       0.115094688      -82.8613663      0.115094688      -82.8613663      0.992290796      6.60880271       
72.76            0.992493385      6.51786966       0.11351788       -82.9556317      0.11351788       -82.9556317      0.992493385      6.51786966       
73.68            0.992688586      6.42906676       0.111977737      -83.0476625      0.111977737      -83.0476625      0.992688586      6.42906676       
74.6             0.992876753      6.34231687       0.110472942      -83.1375388      0.110472942      -83.1375388      0.992876753      6.34231687       
75.52            0.993058216      6.25754654       0.109002243      -83.2253364      0.109002243      -83.2253364      0.993058216      6.25754654       
76.44            0.993233287      6.17468573       0.107564443      -83.3111281      0.107564443      -83.3111281      0.993233287      6.17468573       
77.36            0.993402259      6.09366766       0.106158404      -83.3949828      0.106158404      -83.3949828      0.993402259      6.09366766       
78.28            0.993565412      6.01442862       0.104783036      -83.4769665      0.104783036      -83.4769665      0.993565412      6.01442862       
79.2             0.993723005      5.93690779       0.103437299      -83.5571421      0.103437299      -83.5571421      0.993723005      5.93690779       
80.12            0.993875286      5.86104708       0.102120199      -83.6355698      0.102120199      -83.6355698      0.993875286      5.86104708       
81.04            0.994022489      5.78679097       0.100830787      -83.7123069      0.100830787      -83.7123069      0.994022489      5.78679097       
81.96            0.994164834      5.71408638       0.0995681535     -83.7874084      0.0995681535     -83.7874084      0.994164834      5.71408638       
82.88            0.994302531      5.64288255       0.0983314293     -83.8609267      0.0983314293     -83.8609267      0.994302531      5.64288255       
83.8             0.994435776      5.57313087       0.0971197816     -83.9329122      0.0971197816     -83.9329122      0.994435776      5.57313087       
84.72            0.994564758      5.50478483       0.0959324128     -84.0034127      0.0959324128     -84.0034127      0.994564758      5.50478483       
85.64            0.994689654      5.43779987       0.0947685588     -84.0724744      0.0947685588     -84.0724744      0.994689654      5.43779987       
86.56            0.994810632      5.37213327       0.0936274868     -84.1401414      0.0936274868     -84.1401414      0.994810632      5.37213327       
87.48            0.994927852      5.3077441        0.092508494      -84.206456       0.092508494      -84.206456       0.994927852      5.3077441        
88.4             0.995041466      5.24459308       0.0914109063     -84.2714587      0.0914109063     -84.2714587      0.995041466      5.24459308       
89.32            0.995151618      5.18264252       0.0903340763     -84.3351883      0.0903340763     -84.3351883      0.995151618      5.18264252       
90.24            0.995258444      5.12185624       0.0892773826     -84.3976823      0.0892773826     -84.3976823      0.995258444      5.12185624       
91.16            0.995362076      5.06219952       0.0882402279     -84.4589764      0.0882402279     -84.4589764      0.995362076      5.06219952       
92.08            0.995462636      5.00363895       0.0872220385     -84.5191049      0.0872220385     -84.5191049      0.995462636      5.00363895       
93               0.995560244      4.94614247       0.0862222626     -84.5781011      0.0862222626     -84.5781011      0.995560244      4.94614247       
93.92            0.99565501       4.88967924       0.0852403697     -84.6359965      0.0852403697     -84.6359965      0.99565501       4.88967924       
94.84            0.995747043      4.83421957       0.0842758492     -84.6928218      0.0842758492     -84.6928218      0.995747043      4.83421957       
95.76            0.995836443      4.77973493       0.0833282098     -84.7486063      0.0833282098     -84.7486063      0.995836443      4.77973493       
96.68            0.995923309      4.72619785       0.0823969784     -84.8033783      0.0823969784     -84.8033783      0.995923309      4.72619785       
97.6             0.996007733      4.67358185       0.0814816994     -84.8571649      0.0814816994     -84.8571649      0.996007733      4.67358185       
98.52            0.996089803      4.62186146       0.0805819338     -84.9099924      0.0805819338     -84.9099924      0.996089803      4.62186146       
99.44            0.996169604      4.57101213       0.0796972584     -84.9618858      0.0796972584     -84.9618858      0.996169604      4.57101213       
100.36           0.996247217      4.52101018       0.0788272654     -85.0128696      0.0788272654     -85.0128696      0.996247217      4.52101018       
101.28           0.996322719      4.47183279       0.0779715613     -85.062967       0.0779715613     -85.062967       0.996322719      4.47183279       
102.2            0.996396184      4.42345796       0.0771297666     -85.1122006      0.0771297666     -85.1122006      0.996396184      4.42345796       
103.12           0.996467681      4.37586444       0.076301515      -85.1605922      0.076301515      -85.1605922      0.996467681      4.37586444       
104.04           0.99653728       4.32903175       0.075486453      -85.2081627      0.075486453      -85.2081627      0.99653728       4.32903175       
104.96           0.996605044      4.28294008       0.0746842392     -85.2549324      0.0746842392     -85.2549324      0.996605044      4.28294008       
105.88           0.996671035      4.23757035       0.0738945438     -85.3009206      0.0738945438     -85.3009206      0.996671035      4.23757035       
106.8            0.996735313      4.19290408       0.0731170482     -85.3461463      0.0731170482     -85.3461463      0.996735313      4.19290408       
107.72           0.996797934      4.14892344       0.0723514444     -85.3906276      0.0723514444     -85.3906276      0.996797934      4.14892344       
108.64           0.996858953      4.10561119       0.0715974347     -85.434382       0.0715974347     -85.434382       0.996858953      4.10561119       
109.56           0.996918421      4.06295067       0.0708547313     -85.4774266      0.0708547313     -85.4774266      0.996918421      4.06295067       
110.48           0.99697639       4.02092575       0.0701230557     -85.5197776      0.0701230557     -85.5197776      0.99697639       4.02092575       
111.4            0.997032906      3.97952084       0.0694021386     -85.5614509      0.0694021386     -85.5614509      0.997032906      3.97952084       
112.32           0.997088017      3.93872086       0.068691719      -85.6024617      0.068691719      -85.6024617      0.997088017      3.93872086       
113.24           0.997141766      3.89851119       0.0679915447     -85.6428249      0.0679915447     -85.6428249      0.997141766      3.89851119       
114.16           0.997194196      3.8588777        0.0673013713     -85.6825547      0.0673013713     -85.6825547      0.997194196      3.8588777        
115.08           0.997245348      3.8198067        0.066620962      -85.7216649      0.066620962      -85.7216649      0.997245348      3.8198067        
116              0.997295261      3.78128493       0.0659500875     -85.7601689      0.0659500875     -85.7601689      0.997295261      3.78128493       
116.92           0.997343972      3.74329953       0.0652885255     -85.7980796      0.0652885255     -85.7980796      0.997343972      3.74329953       
117.84           0.997391519      3.70583806       0.0646360608     -85.8354095      0.0646360608     -85.8354095      0.997391519      3.70583806       
