! Coilcraft 1812CS-272 Chip Inductor				
! 31 July 2002			
# MHZ S MA R 50
!Freq             MagS11           AngS11           MagS21           AngS21           MagS12           AngS12           MagS22           AngS22
1                0.165531256      66.9094477       0.947397857      -9.24894317      0.947397857      -9.24894317      0.165531256      66.9094477       
1.77             0.279258057      65.4382436       0.919687199      -16.0316879      0.919687199      -16.0316879      0.279258057      65.4382436       
2.54             0.382736257      61.3343081       0.882774754      -22.3597334      0.882774754      -22.3597334      0.382736257      61.3343081       
3.31             0.473550993      56.7845633       0.839904059      -28.1445454      0.839904059      -28.1445454      0.473550993      56.7845633       
4.08             0.551336759      52.3673923       0.794156294      -33.3532722      0.794156294      -33.3532722      0.551336759      52.3673923       
4.85             0.616908502      48.2783274       0.747967365      -37.9958674      0.747967365      -37.9958674      0.616908502      48.2783274       
5.62             0.671671519      44.5753621       0.703023388      -42.1093282      0.703023388      -42.1093282      0.671671519      44.5753621       
6.39             0.717213649      41.2579811       0.66035417       -45.7442745      0.66035417       -45.7442745      0.717213649      41.2579811       
7.16             0.755066328      38.3003268       0.620495022      -48.9555604      0.620495022      -48.9555604      0.755066328      38.3003268       
7.93             0.786590977      35.6669504       0.583644493      -51.7966133      0.583644493      -51.7966133      0.786590977      35.6669504       
8.7              0.812942885      33.3205345       0.54978982       -54.3165093      0.54978982       -54.3165093      0.812942885      33.3205345       
9.47             0.835076091      31.225555        0.518796321      -56.5587973      0.518796321      -56.5587973      0.835076091      31.225555        
10.24            0.85376627       29.3498314       0.490466633      -58.5613288      0.490466633      -58.5613288      0.85376627       29.3498314       
11.01            0.86963894       27.6649898       0.464577877      -60.3566026      0.464577877      -60.3566026      0.86963894       27.6649898       
11.78            0.883196844      26.1463905       0.440903777      -61.9723339      0.440903777      -61.9723339      0.883196844      26.1463905       
12.55            0.894843975      24.7728141       0.419227049      -63.4320832      0.419227049      -63.4320832      0.894843975      24.7728141       
13.32            0.904905597      23.526062        0.399345693      -64.7558641      0.399345693      -64.7558641      0.904905597      23.526062        
14.09            0.913644456      22.3905485       0.381075628      -65.960692       0.381075628      -65.960692       0.913644456      22.3905485       
14.86            0.921273682      21.3529216       0.364251182      -67.0610615      0.364251182      -67.0610615      0.921273682      21.3529216       
15.63            0.927966982      20.4017251       0.348724418      -68.0693525      0.348724418      -68.0693525      0.927966982      20.4017251       
16.4             0.93386664       19.5271078       0.334363854      -68.9961723      0.334363854      -68.9961723      0.93386664       19.5271078       
17.17            0.939089814      18.7205754       0.321052939      -69.8506397      0.321052939      -69.8506397      0.939089814      18.7205754       
17.94            0.943733472      17.9747808       0.30868848       -70.6406226      0.30868848       -70.6406226      0.943733472      17.9747808       
18.71            0.947878289      17.2833493       0.297179121      -71.3729339      0.297179121      -71.3729339      0.947878289      17.2833493       
19.48            0.951591727      16.6407309       0.28644394       -72.0534942      0.28644394       -72.0534942      0.951591727      16.6407309       
20.25            0.954930478      16.0420781       0.276411181      -72.687468       0.276411181      -72.687468       0.954930478      16.0420781       
21.02            0.957942413      15.4831423       0.267017119      -73.2793752      0.267017119      -73.2793752      0.957942413      15.4831423       
21.79            0.960668142      14.960188        0.258205065      -73.8331861      0.258205065      -73.8331861      0.960668142      14.960188        
22.56            0.963142268      14.4699205       0.249924497      -74.3523994      0.249924497      -74.3523994      0.963142268      14.4699205       
23.33            0.965394406      14.0094241       0.242130299      -74.8401083      0.242130299      -74.8401083      0.965394406      14.0094241       
24.1             0.967450002      13.5761116       0.234782095      -75.2990562      0.234782095      -75.2990562      0.967450002      13.5761116       
24.87            0.969331012      13.1676799       0.227843684      -75.7316834      0.227843684      -75.7316834      0.969331012      13.1676799       
25.64            0.971056446      12.7820733       0.221282529      -76.1401672      0.221282529      -76.1401672      0.971056446      12.7820733       
26.41            0.972642829      12.4174518       0.215069336      -76.5264553      0.215069336      -76.5264553      0.972642829      12.4174518       
27.18            0.974104573      12.0721641       0.209177668      -76.892295       0.209177668      -76.892295       0.974104573      12.0721641       
27.95            0.975454289      11.7447249       0.20358362       -77.2392577      0.20358362       -77.2392577      0.975454289      11.7447249       
28.72            0.976703049      11.4337944       0.198265535      -77.5687601      0.198265535      -77.5687601      0.976703049      11.4337944       
29.49            0.977860602      11.1381614       0.193203753      -77.8820827      0.193203753      -77.8820827      0.977860602      11.1381614       
30.26            0.978935558      10.8567288       0.18838039       -78.1803851      0.18838039       -78.1803851      0.978935558      10.8567288       
31.03            0.979935545      10.5885002       0.183779153      -78.4647203      0.183779153      -78.4647203      0.979935545      10.5885002       
31.8             0.980867332      10.3325691       0.179385165      -78.736046       0.179385165      -78.736046       0.980867332      10.3325691       
32.57            0.981736951      10.0881091       0.175184822      -78.9952354      0.175184822      -78.9952354      0.981736951      10.0881091       
33.34            0.982549784      9.85436518       0.171165664      -79.2430858      0.171165664      -79.2430858      0.982549784      9.85436518       
34.11            0.983310646      9.63064647       0.167316255      -79.4803271      0.167316255      -79.4803271      0.983310646      9.63064647       
34.88            0.984023856      9.41631952       0.163626087      -79.7076281      0.163626087      -79.7076281      0.984023856      9.41631952       
35.65            0.984693296      9.21080257       0.160085484      -79.9256032      0.160085484      -79.9256032      0.984693296      9.21080257       
36.42            0.985322462      9.01356044       0.156685529      -80.1348174      0.156685529      -80.1348174      0.985322462      9.01356044       
37.19            0.985914509      8.82410002       0.153417988      -80.3357915      0.153417988      -80.3357915      0.985914509      8.82410002       
37.96            0.986472292      8.64196623       0.150275247      -80.5290059      0.150275247      -80.5290059      0.986472292      8.64196623       
38.73            0.986998396      8.46673848       0.147250259      -80.7149046      0.147250259      -80.7149046      0.986998396      8.46673848       
39.5             0.987495169      8.29802748       0.144336489      -80.8938986      0.144336489      -80.8938986      0.987495169      8.29802748       
40.27            0.987964745      8.13547242       0.141527871      -81.0663689      0.141527871      -81.0663689      0.987964745      8.13547242       
41.04            0.988409069      7.97873842       0.138818767      -81.232669       0.138818767      -81.232669       0.988409069      7.97873842       
41.81            0.988829914      7.82751428       0.136203929      -81.3931273      0.136203929      -81.3931273      0.988829914      7.82751428       
42.58            0.989228904      7.68151041       0.133678469      -81.5480496      0.133678469      -81.5480496      0.989228904      7.68151041       
43.35            0.989607522      7.54045702       0.131237828      -81.6977208      0.131237828      -81.6977208      0.989607522      7.54045702       
44.12            0.989967128      7.40410248       0.128877746      -81.8424063      0.128877746      -81.8424063      0.989967128      7.40410248       
44.89            0.990308972      7.27221181       0.126594243      -81.9823544      0.126594243      -81.9823544      0.990308972      7.27221181       
45.66            0.990634203      7.14456534       0.124383595      -82.1177969      0.124383595      -82.1177969      0.990634203      7.14456534       
46.43            0.990943877      7.02095746       0.12224231       -82.2489508      0.12224231       -82.2489508      0.990943877      7.02095746       
47.2             0.99123897       6.9011956        0.120167116      -82.3760194      0.120167116      -82.3760194      0.99123897       6.9011956        
47.97            0.99152038       6.78509913       0.118154943      -82.4991935      0.118154943      -82.4991935      0.99152038       6.78509913       
48.74            0.991788939      6.67249851       0.116202903      -82.618652       0.116202903      -82.618652       0.991788939      6.67249851       
49.51            0.992045416      6.56323443       0.114308284      -82.734563       0.114308284      -82.734563       0.992045416      6.56323443       
50.28            0.992290523      6.45715708       0.112468531      -82.8470848      0.112468531      -82.8470848      0.992290523      6.45715708       
51.05            0.992524922      6.35412541       0.110681238      -82.9563661      0.110681238      -82.9563661      0.992524922      6.35412541       
51.82            0.992749226      6.25400656       0.108944137      -83.0625474      0.108944137      -83.0625474      0.992749226      6.25400656       
52.59            0.992964005      6.15667524       0.107255088      -83.1657608      0.107255088      -83.1657608      0.992964005      6.15667524       
53.36            0.99316979       6.06201319       0.105612068      -83.2661312      0.105612068      -83.2661312      0.99316979       6.06201319       
54.13            0.993367073      5.96990875       0.104013168      -83.3637764      0.104013168      -83.3637764      0.993367073      5.96990875       
54.9             0.993556317      5.88025635       0.102456581      -83.458808       0.102456581      -83.458808       0.993556317      5.88025635       
55.67            0.993737951      5.79295614       0.100940597      -83.5513312      0.100940597      -83.5513312      0.993737951      5.79295614       
56.44            0.993912376      5.70791357       0.0994635969     -83.6414459      0.0994635969     -83.6414459      0.993912376      5.70791357       
57.21            0.994079968      5.62503911       0.0980240445     -83.7292467      0.0980240445     -83.7292467      0.994079968      5.62503911       
57.98            0.994241077      5.54424784       0.0966204842     -83.814823       0.0966204842     -83.814823       0.994241077      5.54424784       
58.75            0.994396033      5.46545924       0.095251534      -83.89826        0.095251534      -83.89826        0.994396033      5.46545924       
59.52            0.994545144      5.38859684       0.0939158812     -83.9796383      0.0939158812     -83.9796383      0.994545144      5.38859684       
60.29            0.994688698      5.31358802       0.0926122785     -84.0590346      0.0926122785     -84.0590346      0.994688698      5.31358802       
61.06            0.994826968      5.24036373       0.0913395398     -84.1365216      0.0913395398     -84.1365216      0.994826968      5.24036373       
61.83            0.994960208      5.16885833       0.0900965364     -84.2121688      0.0900965364     -84.2121688      0.994960208      5.16885833       
62.6             0.995088659      5.09900931       0.0888821938     -84.286042       0.0888821938     -84.286042       0.995088659      5.09900931       
63.37            0.995212545      5.03075717       0.0876954882     -84.358204       0.0876954882     -84.358204       0.995212545      5.03075717       
64.14            0.99533208       4.96404521       0.086535444      -84.4287146      0.086535444      -84.4287146      0.99533208       4.96404521       
64.91            0.995447463      4.89881937       0.0854011307     -84.4976308      0.0854011307     -84.4976308      0.995447463      4.89881937       
65.68            0.995558884      4.83502809       0.0842916604     -84.565007       0.0842916604     -84.565007       0.995558884      4.83502809       
66.45            0.99566652       4.77262217       0.0832061852     -84.6308952      0.0832061852     -84.6308952      0.99566652       4.77262217       
67.22            0.99577054       4.71155459       0.0821438955     -84.6953448      0.0821438955     -84.6953448      0.99577054       4.71155459       
67.99            0.995871103      4.65178047       0.0811040174     -84.7584031      0.0811040174     -84.7584031      0.995871103      4.65178047       
68.76            0.995968359      4.59325689       0.0800858109     -84.8201155      0.0800858109     -84.8201155      0.995968359      4.59325689       
69.53            0.996062451      4.53594279       0.0790885682     -84.8805252      0.0790885682     -84.8805252      0.996062451      4.53594279       
70.3             0.996153512      4.47979892       0.0781116118     -84.9396735      0.0781116118     -84.9396735      0.996153512      4.47979892       
71.07            0.996241671      4.42478767       0.0771542929     -84.9976         0.0771542929     -84.9976         0.996241671      4.42478767       
71.84            0.996327048      4.37087303       0.0762159901     -85.0543427      0.0762159901     -85.0543427      0.996327048      4.37087303       
72.61            0.996409757      4.31802051       0.0752961077     -85.1099378      0.0752961077     -85.1099378      0.996409757      4.31802051       
73.38            0.996489909      4.26619703       0.0743940748     -85.1644203      0.0743940748     -85.1644203      0.996489909      4.26619703       
74.15            0.996567605      4.21537088       0.0735093434     -85.2178234      0.0735093434     -85.2178234      0.996567605      4.21537088       
74.92            0.996642944      4.16551162       0.0726413879     -85.2701792      0.0726413879     -85.2701792      0.996642944      4.16551162       
75.69            0.996716019      4.11659006       0.0717897036     -85.3215183      0.0717897036     -85.3215183      0.996716019      4.11659006       
76.46            0.996786918      4.06857814       0.0709538058     -85.3718704      0.0709538058     -85.3718704      0.996786918      4.06857814       
77.23            0.996855726      4.02144893       0.0701332289     -85.4212635      0.0701332289     -85.4212635      0.996855726      4.02144893       
78               0.996922524      3.97517654       0.0693275251     -85.4697251      0.0693275251     -85.4697251      0.996922524      3.97517654       
78.77            0.996987386      3.92973607       0.068536264      -85.5172811      0.068536264      -85.5172811      0.996987386      3.92973607       
79.54            0.997050387      3.8851036        0.0677590317     -85.5639568      0.0677590317     -85.5639568      0.997050387      3.8851036        
80.31            0.997111596      3.84125609       0.0669954298     -85.6097762      0.0669954298     -85.6097762      0.997111596      3.84125609       
81.08            0.997171078      3.79817138       0.0662450747     -85.6547626      0.0662450747     -85.6547626      0.997171078      3.79817138       
81.85            0.997228896      3.75582813       0.0655075973     -85.6989383      0.0655075973     -85.6989383      0.997228896      3.75582813       
82.62            0.997285112      3.7142058        0.0647826417     -85.742325       0.0647826417     -85.742325       0.997285112      3.7142058        
83.39            0.997339782      3.67328457       0.0640698652     -85.7849432      0.0640698652     -85.7849432      0.997339782      3.67328457       
84.16            0.997392962      3.63304537       0.0633689374     -85.826813       0.0633689374     -85.826813       0.997392962      3.63304537       
84.93            0.997444703      3.5934698        0.0626795397     -85.8679536      0.0626795397     -85.8679536      0.997444703      3.5934698        
85.7             0.997495057      3.55454012       0.0620013648     -85.9083835      0.0620013648     -85.9083835      0.997495057      3.55454012       
86.47            0.997544071      3.5162392        0.0613341162     -85.9481206      0.0613341162     -85.9481206      0.997544071      3.5162392        
87.24            0.99759179       3.47855054       0.0606775077     -85.9871822      0.0606775077     -85.9871822      0.99759179       3.47855054       
88.01            0.997638259      3.44145817       0.060031263      -86.0255847      0.060031263      -86.0255847      0.997638259      3.44145817       
88.78            0.997683521      3.40494671       0.0593951153     -86.0633444      0.0593951153     -86.0633444      0.997683521      3.40494671       
89.55            0.997727615      3.36900128       0.0587688067     -86.1004765      0.0587688067     -86.1004765      0.997727615      3.36900128       
90.32            0.997770579      3.33360751       0.0581520883     -86.1369962      0.0581520883     -86.1369962      0.997770579      3.33360751       
91.09            0.997812452      3.2987515        0.0575447192     -86.1729177      0.0575447192     -86.1729177      0.997812452      3.2987515        
91.86            0.997853268      3.26441984       0.0569464665     -86.208255       0.0569464665     -86.208255       0.997853268      3.26441984       
92.63            0.997893062      3.23059954       0.0563571053     -86.2430216      0.0563571053     -86.2430216      0.997893062      3.23059954       
93.4             0.997931866      3.19727803       0.0557764175     -86.2772305      0.0557764175     -86.2772305      0.997931866      3.19727803       
94.17            0.997969711      3.16444317       0.0552041926     -86.3108941      0.0552041926     -86.3108941      0.997969711      3.16444317       
94.94            0.998006628      3.13208318       0.0546402264     -86.3440247      0.0546402264     -86.3440247      0.998006628      3.13208318       
95.71            0.998042646      3.10018669       0.0540843213     -86.376634       0.0540843213     -86.376634       0.998042646      3.10018669       
96.48            0.998077793      3.06874267       0.0535362863     -86.4087333      0.0535362863     -86.4087333      0.998077793      3.06874267       
97.25            0.998112094      3.03774044       0.0529959359     -86.4403336      0.0529959359     -86.4403336      0.998112094      3.03774044       
98.02            0.998145577      3.00716965       0.0524630905     -86.4714456      0.0524630905     -86.4714456      0.998145577      3.00716965       
98.79            0.998178265      2.97702028       0.0519375763     -86.5020793      0.0519375763     -86.5020793      0.998178265      2.97702028       
