! Coilcraft 1812CS-472 Chip Inductor				
! 31 July 2002			
# MHZ S MA R 50
!Freq             MagS11           AngS11           MagS21           AngS21           MagS12           AngS12           MagS22           AngS22
1                0.277172826      60.8696319       0.898315191      -15.6357408      0.898315191      -15.6357408      0.277172826      60.8696319       
1.55             0.4019304        57.3027312       0.85282019       -23.3665772      0.85282019       -23.3665772      0.4019304        57.3027312       
2.1              0.507959654      52.4975703       0.799710161      -30.2587261      0.799710161      -30.2587261      0.507959654      52.4975703       
2.65             0.594969383      47.7390514       0.744140402      -36.2799156      0.744140402      -36.2799156      0.594969383      47.7390514       
3.2              0.665011286      43.3906519       0.689731986      -41.4791369      0.689731986      -41.4791369      0.665011286      43.3906519       
3.75             0.720923456      39.5384851       0.638578409      -45.9460867      0.638578409      -45.9460867      0.720923456      39.5384851       
4.3              0.765508449      36.1686896       0.591641245      -49.7824121      0.591641245      -49.7824121      0.765508449      36.1686896       
4.85             0.801188517      33.232487        0.549171037      -53.0857131      0.549171037      -53.0857131      0.801188517      33.232487        
5.4              0.829923996      30.6727072       0.511024721      -55.9425284      0.511024721      -55.9425284      0.829923996      30.6727072       
5.95             0.853248764      28.4345337       0.476869809      -58.4264289      0.476869809      -58.4264289      0.853248764      28.4345337       
6.5              0.872343652      26.4693544       0.44630334       -60.5985814      0.44630334       -60.5985814      0.872343652      26.4693544       
7.05             0.888112185      24.7356051       0.418915789      -62.5092808      0.418915789      -62.5092808      0.888112185      24.7356051       
7.6              0.901245676      23.1983735       0.394322345      -64.1997057      0.394322345      -64.1997057      0.901245676      23.1983735       
8.15             0.912274979      21.8285697       0.372175948      -65.7035635      0.372175948      -65.7035635      0.912274979      21.8285697       
8.7              0.921610077      20.6020177       0.352170657      -67.0485107      0.352170657      -67.0485107      0.921610077      20.6020177       
9.25             0.929569815      19.4986135       0.334040223      -68.2573265      0.334040223      -68.2573265      0.929569815      19.4986135       
9.8              0.936404047      18.5015971       0.317554542      -69.3488617      0.317554542      -69.3488617      0.936404047      18.5015971       
10.35            0.9423101        17.5969456       0.30251539       -70.3387985      0.30251539       -70.3387985      0.9423101        17.5969456       
10.9             0.947445046      16.7728757       0.288752159      -71.2402542      0.288752159      -71.2402542      0.947445046      16.7728757       
11.45            0.951934877      16.0194402       0.276117913      -72.0642611      0.276117913      -72.0642611      0.951934877      16.0194402       
12               0.955881415      15.328202        0.264485895      -72.8201485      0.264485895      -72.8201485      0.955881415      15.328202        
12.55            0.959367544      14.6919702       0.253746507      -73.5158482      0.253746507      -73.5158482      0.959367544      14.6919702       
13.1             0.962461196      14.1045871       0.243804724      -74.1581378      0.243804724      -74.1581378      0.962461196      14.1045871       
13.65            0.965218416      13.5607553       0.234577917      -74.7528381      0.234577917      -74.7528381      0.965218416      13.5607553       
14.2             0.967685733      13.0558972       0.225994008      -75.3049717      0.225994008      -75.3049717      0.967685733      13.0558972       
14.75            0.969902005      12.58604         0.217989923      -75.8188921      0.217989923      -75.8188921      0.969902005      12.58604         
15.3             0.971899866      12.1477215       0.210510296      -76.2983893      0.210510296      -76.2983893      0.971899866      12.1477215       
15.85            0.973706873      11.7379124       0.203506367      -76.7467765      0.203506367      -76.7467765      0.973706873      11.7379124       
16.4             0.975346411      11.3539523       0.196935065      -77.166961       0.196935065      -77.166961       0.975346411      11.3539523       
16.95            0.976838424      10.9934961       0.190758228      -77.5615043      0.190758228      -77.5615043      0.976838424      10.9934961       
17.5             0.978199995      10.6544695       0.184941942      -77.9326704      0.184941942      -77.9326704      0.978199995      10.6544695       
18.05            0.979445824      10.3350316       0.179455984      -78.2824678      0.179455984      -78.2824678      0.979445824      10.3350316       
18.6             0.980588612      10.0335436       0.174273343      -78.6126837      0.174273343      -78.6126837      0.980588612      10.0335436       
19.15            0.981639373      9.7485421        0.169369819      -78.9249137      0.169369819      -78.9249137      0.981639373      9.7485421        
19.7             0.982607697      9.47871665       0.164723668      -79.2205859      0.164723668      -79.2205859      0.982607697      9.47871665       
20.25            0.983501966      9.22289039       0.160315311      -79.5009828      0.160315311      -79.5009828      0.983501966      9.22289039       
20.8             0.984329524      8.98000378       0.156127069      -79.7672586      0.156127069      -79.7672586      0.984329524      8.98000378       
21.35            0.985096833      8.74910042       0.15214295       -80.0204551      0.15214295       -80.0204551      0.985096833      8.74910042       
21.9             0.985809594      8.52931497       0.148348449      -80.2615147      0.148348449      -80.2615147      0.985809594      8.52931497       
22.45            0.986472852      8.31986267       0.144730385      -80.491292       0.144730385      -80.491292       0.986472852      8.31986267       
23               0.987091082      8.12003025       0.141276754      -80.7105636      0.141276754      -80.7105636      0.987091082      8.12003025       
23.55            0.987668269      7.92916802       0.137976605      -80.9200371      0.137976605      -80.9200371      0.987668269      7.92916802       
24.1             0.988207965      7.74668307       0.134819924      -81.1203579      0.134819924      -81.1203579      0.988207965      7.74668307       
24.65            0.988713348      7.57203319       0.131797543      -81.3121163      0.131797543      -81.3121163      0.988713348      7.57203319       
25.2             0.989187268      7.40472161       0.128901048      -81.4958533      0.128901048      -81.4958533      0.989187268      7.40472161       
25.75            0.989632284      7.24429242       0.126122706      -81.6720652      0.126122706      -81.6720652      0.989632284      7.24429242       
26.3             0.9900507        7.09032641       0.123455399      -81.8412084      0.123455399      -81.8412084      0.9900507        7.09032641       
26.85            0.990444598      6.94243756       0.120892566      -82.0037033      0.120892566      -82.0037033      0.990444598      6.94243756       
27.4             0.990815858      6.80026976       0.118428145      -82.1599376      0.118428145      -82.1599376      0.990815858      6.80026976       
27.95            0.991166183      6.66349404       0.116056531      -82.3102695      0.116056531      -82.3102695      0.991166183      6.66349404       
28.5             0.991497122      6.53180602       0.113772535      -82.4550304      0.113772535      -82.4550304      0.991497122      6.53180602       
29.05            0.99181008       6.4049237        0.111571342      -82.5945275      0.111571342      -82.5945275      0.99181008       6.4049237        
29.6             0.992106338      6.2825854        0.109448483      -82.7290458      0.109448483      -82.7290458      0.992106338      6.2825854        
30.15            0.992387066      6.16454803       0.107399802      -82.8588499      0.107399802      -82.8588499      0.992387066      6.16454803       
30.7             0.992653333      6.05058543       0.105421427      -82.9841864      0.105421427      -82.9841864      0.992653333      6.05058543       
31.25            0.992906116      5.94048695       0.103509753      -83.1052846      0.103509753      -83.1052846      0.992906116      5.94048695       
31.8             0.993146313      5.83405615       0.101661414      -83.2223585      0.101661414      -83.2223585      0.993146313      5.83405615       
32.35            0.993374747      5.73110962       0.099873265      -83.335608       0.099873265      -83.335608       0.993374747      5.73110962       
32.9             0.993592175      5.63147594       0.0981423646     -83.4452198      0.0981423646     -83.4452198      0.993592175      5.63147594       
33.45            0.993799295      5.53499467       0.0964659591     -83.5513687      0.0964659591     -83.5513687      0.993799295      5.53499467       
34               0.993996749      5.44151557       0.0948414677     -83.6542186      0.0948414677     -83.6542186      0.993996749      5.44151557       
34.55            0.99418513       5.35089772       0.0932664689     -83.7539229      0.0932664689     -83.7539229      0.99418513       5.35089772       
35.1             0.994364986      5.26300888       0.0917386888     -83.8506258      0.0917386888     -83.8506258      0.994364986      5.26300888       
35.65            0.994536827      5.17772477       0.0902559898     -83.9444628      0.0902559898     -83.9444628      0.994536827      5.17772477       
36.2             0.994701121      5.09492856       0.0888163609     -84.0355612      0.0888163609     -84.0355612      0.994701121      5.09492856       
36.75            0.994858305      5.01451025       0.0874179083     -84.124041       0.0874179083     -84.124041       0.994858305      5.01451025       
37.3             0.995008784      4.93636621       0.0860588471     -84.210015       0.0860588471     -84.210015       0.995008784      4.93636621       
37.85            0.995152935      4.86039873       0.0847374936     -84.2935899      0.0847374936     -84.2935899      0.995152935      4.86039873       
38.4             0.995291107      4.78651561       0.0834522584     -84.3748663      0.0834522584     -84.3748663      0.995291107      4.78651561       
38.95            0.995423629      4.71462976       0.0822016396     -84.4539389      0.0822016396     -84.4539389      0.995423629      4.71462976       
39.5             0.995550803      4.64465886       0.0809842171     -84.5308978      0.0809842171     -84.5308978      0.995550803      4.64465886       
40.05            0.995672915      4.57652504       0.0797986474     -84.6058276      0.0797986474     -84.6058276      0.995672915      4.57652504       
40.6             0.995790229      4.51015458       0.0786436578     -84.678809       0.0786436578     -84.678809       0.995790229      4.51015458       
41.15            0.995902994      4.44547764       0.0775180426     -84.7499179      0.0775180426     -84.7499179      0.995902994      4.44547764       
41.7             0.996011442      4.38242803       0.0764206581     -84.8192267      0.0764206581     -84.8192267      0.996011442      4.38242803       
42.25            0.996115791      4.32094294       0.0753504194     -84.8868039      0.0753504194     -84.8868039      0.996115791      4.32094294       
42.8             0.996216245      4.26096272       0.0743062959     -84.9527144      0.0743062959     -84.9527144      0.996216245      4.26096272       
43.35            0.996312996      4.20243076       0.0732873085     -85.0170201      0.0732873085     -85.0170201      0.996312996      4.20243076       
43.9             0.996406223      4.1452932        0.0722925263     -85.0797796      0.0722925263     -85.0797796      0.996406223      4.1452932        
44.45            0.996496095      4.08949884       0.0713210637     -85.141049       0.0713210637     -85.141049       0.996496095      4.08949884       
45               0.996582771      4.03499893       0.0703720774     -85.2008812      0.0703720774     -85.2008812      0.996582771      4.03499893       
45.55            0.996666401      3.98174706       0.0694447643     -85.259327       0.0694447643     -85.259327       0.996666401      3.98174706       
46.1             0.996747125      3.92969901       0.0685383592     -85.3164346      0.0685383592     -85.3164346      0.996747125      3.92969901       
46.65            0.996825078      3.8788126        0.0676521319     -85.37225        0.0676521319     -85.37225        0.996825078      3.8788126        
47.2             0.996900382      3.82904761       0.0667853862     -85.4268171      0.0667853862     -85.4268171      0.996900382      3.82904761       
47.75            0.996973158      3.78036565       0.0659374572     -85.4801776      0.0659374572     -85.4801776      0.996973158      3.78036565       
48.3             0.997043517      3.73273006       0.0651077099     -85.5323717      0.0651077099     -85.5323717      0.997043517      3.73273006       
48.85            0.997111564      3.68610581       0.0642955374     -85.5834374      0.0642955374     -85.5834374      0.997111564      3.68610581       
49.4             0.9971774        3.64045941       0.0635003597     -85.6334114      0.0635003597     -85.6334114      0.9971774        3.64045941       
49.95            0.997241117      3.59575883       0.0627216216     -85.6823284      0.0627216216     -85.6823284      0.997241117      3.59575883       
50.5             0.997302808      3.55197343       0.061958792      -85.730222       0.061958792      -85.730222       0.997302808      3.55197343       
51.05            0.997362554      3.50907387       0.0612113624     -85.7771242      0.0612113624     -85.7771242      0.997362554      3.50907387       
51.6             0.997420438      3.46703205       0.0604788455     -85.8230654      0.0604788455     -85.8230654      0.997420438      3.46703205       
52.15            0.997476536      3.42582104       0.0597607745     -85.8680751      0.0597607745     -85.8680751      0.997476536      3.42582104       
52.7             0.997530919      3.38541503       0.0590567017     -85.9121814      0.0590567017     -85.9121814      0.997530919      3.38541503       
53.25            0.997583657      3.34578927       0.0583661977     -85.9554112      0.0583661977     -85.9554112      0.997583657      3.34578927       
53.8             0.997634815      3.30691999       0.0576888505     -85.9977905      0.0576888505     -85.9977905      0.997634815      3.30691999       
54.35            0.997684454      3.26878441       0.0570242645     -86.0393439      0.0570242645     -86.0393439      0.997684454      3.26878441       
54.9             0.997732634      3.23136063       0.0563720598     -86.0800955      0.0563720598     -86.0800955      0.997732634      3.23136063       
55.45            0.997779411      3.19462761       0.0557318715     -86.1200679      0.0557318715     -86.1200679      0.997779411      3.19462761       
56               0.997824838      3.15856513       0.0551033486     -86.1592833      0.0551033486     -86.1592833      0.997824838      3.15856513       
56.55            0.997868967      3.12315378       0.0544861538     -86.1977628      0.0544861538     -86.1977628      0.997868967      3.12315378       
57.1             0.997911846      3.08837485       0.0538799627     -86.2355266      0.0538799627     -86.2355266      0.997911846      3.08837485       
57.65            0.99795352       3.05421035       0.0532844631     -86.2725944      0.0532844631     -86.2725944      0.99795352       3.05421035       
58.2             0.997994035      3.02064299       0.0526993544     -86.3089848      0.0526993544     -86.3089848      0.997994035      3.02064299       
58.75            0.998033432      2.9876561        0.0521243472     -86.3447161      0.0521243472     -86.3447161      0.998033432      2.9876561        
59.3             0.998071751      2.95523362       0.0515591627     -86.3798056      0.0515591627     -86.3798056      0.998071751      2.95523362       
59.85            0.998109032      2.92336009       0.0510035323     -86.41427        0.0510035323     -86.41427        0.998109032      2.92336009       
60.4             0.99814531       2.89202059       0.0504571971     -86.4481257      0.0504571971     -86.4481257      0.99814531       2.89202059       
60.95            0.998180621      2.86120077       0.0499199074     -86.4813881      0.0499199074     -86.4813881      0.998180621      2.86120077       
61.5             0.998214997      2.83088674       0.0493914223     -86.5140722      0.0493914223     -86.5140722      0.998214997      2.83088674       
62.05            0.998248472      2.80106515       0.0488715094     -86.5461925      0.0488715094     -86.5461925      0.998248472      2.80106515       
62.6             0.998281076      2.77172308       0.0483599446     -86.577763       0.0483599446     -86.577763       0.998281076      2.77172308       
63.15            0.998312838      2.74284807       0.0478565111     -86.6087972      0.0478565111     -86.6087972      0.998312838      2.74284807       
63.7             0.998343787      2.71442808       0.047361         -86.6393079      0.047361         -86.6393079      0.998343787      2.71442808       
64.25            0.998373949      2.68645151       0.0468732091     -86.6693079      0.0468732091     -86.6693079      0.998373949      2.68645151       
64.8             0.998403351      2.6589071        0.0463929433     -86.6988091      0.0463929433     -86.6988091      0.998403351      2.6589071        
65.35            0.998432016      2.63178401       0.0459200138     -86.7278233      0.0459200138     -86.7278233      0.998432016      2.63178401       
65.9             0.998459969      2.60507173       0.0454542382     -86.7563618      0.0454542382     -86.7563618      0.998459969      2.60507173       
66.45            0.998487233      2.57876013       0.0449954401     -86.7844354      0.0449954401     -86.7844354      0.998487233      2.57876013       
67               0.99851383       2.55283938       0.0445434485     -86.8120548      0.0445434485     -86.8120548      0.99851383       2.55283938       
67.55            0.99853978       2.52729997       0.0440980985     -86.8392301      0.0440980985     -86.8392301      0.99853978       2.52729997       
68.1             0.998565104      2.50213272       0.04365923       -86.8659712      0.04365923       -86.8659712      0.998565104      2.50213272       
68.65            0.998589821      2.47732872       0.0432266883     -86.8922876      0.0432266883     -86.8922876      0.998589821      2.47732872       
69.2             0.99861395       2.45287934       0.0428003234     -86.9181885      0.0428003234     -86.9181885      0.99861395       2.45287934       
69.75            0.998637508      2.42877625       0.0423799901     -86.9436829      0.0423799901     -86.9436829      0.998637508      2.42877625       
70.3             0.998660514      2.40501133       0.0419655475     -86.9687793      0.0419655475     -86.9687793      0.998660514      2.40501133       
70.85            0.998682983      2.38157677       0.0415568594     -86.9934862      0.0415568594     -86.9934862      0.998682983      2.38157677       
