! Coilcraft 1812CS-123 Chip Inductor				
! 31 July 2002			
# MHZ S MA R 50
!Freq             MagS11           AngS11           MagS21           AngS21           MagS12           AngS12           MagS22           AngS22
1                0.564713429      46.8297188       0.739041623      -33.868433       0.739041623      -33.868433       0.564713429      46.8297188       
1.27             0.652948035      42.049511        0.675741579      -40.3293465      0.675741579      -40.3293465      0.652948035      42.049511        
1.54             0.720659814      37.7729803       0.616496692      -45.7275117      0.616496692      -45.7275117      0.720659814      37.7729803       
1.81             0.772459638      34.0725937       0.563021637      -50.2325603      0.563021637      -50.2325603      0.772459638      34.0725937       
2.08             0.812289106      30.9053462       0.515652881      -54.0070053      0.515652881      -54.0070053      0.812289106      30.9053462       
2.35             0.843206087      28.1975677       0.474048315      -57.1903965      0.474048315      -57.1903965      0.843206087      28.1975677       
2.62             0.867482836      25.8747829       0.437597093      -59.8965597      0.437597093      -59.8965597      0.867482836      25.8747829       
2.89             0.886779186      23.8713161       0.405629201      -62.2161552      0.405629201      -62.2161552      0.886779186      23.8713161       
3.16             0.90230344       22.1322662       0.377510483      -64.2207279      0.377510483      -64.2207279      0.90230344       22.1322662       
3.43             0.914938671      20.6127689       0.352678553      -65.9666689      0.352678553      -65.9666689      0.914938671      20.6127689       
3.7              0.925335386      19.276475        0.330650483      -67.4985706      0.330650483      -67.4985706      0.925335386      19.276475        
3.97             0.933977549      18.0939753       0.311018235      -68.8518975      0.311018235      -68.8518975      0.933977549      18.0939753       
4.24             0.941229135      17.0414173       0.293439617      -70.0550535      0.293439617      -70.0550535      0.941229135      17.0414173       
4.51             0.947366918      16.0993678       0.277628363      -71.1309611      0.277628363      -71.1309611      0.947366918      16.0993678       
4.78             0.952603671      15.2519049       0.263344875      -72.0982637      0.263344875      -72.0982637      0.952603671      15.2519049       
5.05             0.957104702      14.4859029       0.250388152      -72.9722417      0.250388152      -72.9722417      0.957104702      14.4859029       
5.32             0.960999742      13.7904728       0.238589001      -73.7655133      0.238589001      -73.7655133      0.960999742      13.7904728       
5.59             0.964391585      13.1565239       0.227804437      -74.4885734      0.227804437      -74.4885734      0.964391585      13.1565239       
5.86             0.967362417      12.5764199       0.217913095      -75.1502109      0.217913095      -75.1502109      0.967362417      12.5764199       
6.13             0.969978512      12.0437078       0.2088115        -75.7578344      0.2088115        -75.7578344      0.969978512      12.0437078       
6.4              0.972293739      11.552903        0.200411033      -76.317727       0.200411033      -76.317727       0.972293739      11.552903        
6.67             0.974352218      11.0993191       0.192635456      -76.8352486      0.192635456      -76.8352486      0.974352218      11.0993191       
6.94             0.976190339      10.67893         0.185418895      -77.3149967      0.185418895      -77.3149967      0.976190339      10.67893         
7.21             0.977838315      10.2882606       0.178704194      -77.7609351      0.178704194      -77.7609351      0.977838315      10.2882606       
7.48             0.97932139       9.92429657       0.172441552      -78.1764981      0.172441552      -78.1764981      0.97932139       9.92429657       
7.75             0.98066078       9.58441229       0.16658741       -78.5646748      0.16658741       -78.5646748      0.98066078       9.58441229       
8.02             0.981874414      9.26631063       0.161103523      -78.9280784      0.161103523      -78.9280784      0.981874414      9.26631063       
8.29             0.982977524      8.96797403       0.15595619       -79.2690024      0.15595619       -79.2690024      0.982977524      8.96797403       
8.56             0.983983112      8.6876237        0.151115611      -79.589468       0.151115611      -79.589468       0.983983112      8.6876237        
8.83             0.984902332      8.42368577       0.146555351      -79.8912629      0.146555351      -79.8912629      0.984902332      8.42368577       
9.1              0.985744792      8.17476288       0.142251882      -80.1759735      0.142251882      -80.1759735      0.985744792      8.17476288       
9.37             0.986518806      7.9396104        0.1381842        -80.4450123      0.1381842        -80.4450123      0.986518806      7.9396104        
9.64             0.987231592      7.7171163        0.134333505      -80.6996414      0.134333505      -80.6996414      0.987231592      7.7171163        
9.91             0.987889445      7.50628414       0.130682917      -80.9409912      0.130682917      -80.9409912      0.987889445      7.50628414       
10.18            0.988497873      7.30621852       0.127217244      -81.1700773      0.127217244      -81.1700773      0.988497873      7.30621852       
10.45            0.989061711      7.1161127        0.123922778      -81.3878147      0.123922778      -81.3878147      0.989061711      7.1161127        
10.72            0.989585217      6.935238         0.120787118      -81.5950299      0.120787118      -81.5950299      0.989585217      6.935238         
10.99            0.990072154      6.76293465       0.117799022      -81.7924709      0.117799022      -81.7924709      0.990072154      6.76293465       
11.26            0.990525855      6.59860384       0.114948274      -81.9808168      0.114948274      -81.9808168      0.990525855      6.59860384       
11.53            0.990949284      6.44170094       0.112225572      -82.1606853      0.112225572      -82.1606853      0.990949284      6.44170094       
11.8             0.99134508       6.29172952       0.109622429      -82.332639       0.109622429      -82.332639       0.99134508       6.29172952       
12.07            0.991715602      6.14823618       0.107131085      -82.4971924      0.107131085      -82.4971924      0.991715602      6.14823618       
12.34            0.99206296       6.01080597       0.104744433      -82.6548157      0.104744433      -82.6548157      0.99206296       6.01080597       
12.61            0.992389051      5.87905848       0.102455951      -82.8059405      0.102455951      -82.8059405      0.992389051      5.87905848       
12.88            0.99269558       5.75264431       0.100259644      -82.9509629      0.100259644      -82.9509629      0.99269558       5.75264431       
13.15            0.992984084      5.63124197       0.0981499927     -83.0902475      0.0981499927     -83.0902475      0.992984084      5.63124197       
13.42            0.993255953      5.5145552        0.0961219065     -83.2241304      0.0961219065     -83.2241304      0.993255953      5.5145552        
13.69            0.993512444      5.40231053       0.0941706835     -83.3529216      0.0941706835     -83.3529216      0.993512444      5.40231053       
13.96            0.993754698      5.29425514       0.0922919745     -83.476908       0.0922919745     -83.476908       0.993754698      5.29425514       
14.23            0.993983752      5.19015495       0.0904817503     -83.5963551      0.0904817503     -83.5963551      0.993983752      5.19015495       
14.5             0.994200549      5.08979296       0.0887362733     -83.7115089      0.0887362733     -83.7115089      0.994200549      5.08979296       
14.77            0.994405952      4.99296766       0.0870520715     -83.8225982      0.0870520715     -83.8225982      0.994405952      4.99296766       
15.04            0.994600745      4.89949175       0.0854259156     -83.9298354      0.0854259156     -83.9298354      0.994600745      4.89949175       
15.31            0.994785648      4.80919085       0.0838547982     -84.0334183      0.0838547982     -84.0334183      0.994785648      4.80919085       
15.58            0.994961322      4.72190245       0.082335915      -84.1335313      0.082335915      -84.1335313      0.994961322      4.72190245       
15.85            0.99512837       4.63747492       0.0808666484     -84.2303465      0.0808666484     -84.2303465      0.99512837       4.63747492       
16.12            0.995287348      4.55576658       0.079444552      -84.3240245      0.079444552      -84.3240245      0.995287348      4.55576658       
16.39            0.99543877       4.47664494       0.0780673368     -84.4147157      0.0780673368     -84.4147157      0.99543877       4.47664494       
16.66            0.995583107      4.39998595       0.0767328592     -84.5025609      0.0767328592     -84.5025609      0.995583107      4.39998595       
16.93            0.995720793      4.32567335       0.0754391092     -84.587692       0.0754391092     -84.587692       0.995720793      4.32567335       
17.2             0.995852232      4.25359805       0.0741842005     -84.6702327      0.0741842005     -84.6702327      0.995852232      4.25359805       
17.47            0.995977795      4.18365761       0.0729663611     -84.7502993      0.0729663611     -84.7502993      0.995977795      4.18365761       
17.74            0.996097828      4.11575574       0.0717839248     -84.8280009      0.0717839248     -84.8280009      0.996097828      4.11575574       
18.01            0.99621265       4.04980183       0.0706353234     -84.9034405      0.0706353234     -84.9034405      0.99621265       4.04980183       
18.28            0.996322557      3.98571054       0.0695190797     -84.9767147      0.0695190797     -84.9767147      0.996322557      3.98571054       
18.55            0.996427827      3.92340145       0.0684338009     -85.0479148      0.0684338009     -85.0479148      0.996427827      3.92340145       
18.82            0.996528715      3.86279869       0.0673781728     -85.1171268      0.0673781728     -85.1171268      0.996528715      3.86279869       
19.09            0.996625461      3.80383061       0.0663509543     -85.1844321      0.0663509543     -85.1844321      0.996625461      3.80383061       
19.36            0.996718288      3.74642953       0.0653509723     -85.2499072      0.0653509723     -85.2499072      0.996718288      3.74642953       
19.63            0.996807403      3.69053142       0.0643771176     -85.3136249      0.0643771176     -85.3136249      0.996807403      3.69053142       
19.9             0.996893001      3.63607571       0.0634283397     -85.3756536      0.0634283397     -85.3756536      0.996893001      3.63607571       
20.17            0.996975264      3.58300502       0.0625036439     -85.4360586      0.0625036439     -85.4360586      0.996975264      3.58300502       
20.44            0.997054361      3.53126498       0.0616020871     -85.4949012      0.0616020871     -85.4949012      0.997054361      3.53126498       
20.71            0.997130452      3.480804         0.0607227749     -85.55224        0.0607227749     -85.55224        0.997130452      3.480804         
20.98            0.997203687      3.43157314       0.059864858      -85.6081304      0.059864858      -85.6081304      0.997203687      3.43157314       
21.25            0.997274205      3.38352592       0.0590275298     -85.6626249      0.0590275298     -85.6626249      0.997274205      3.38352592       
21.52            0.997342138      3.33661816       0.0582100239     -85.7157735      0.0582100239     -85.7157735      0.997342138      3.33661816       
21.79            0.99740761       3.29080784       0.0574116109     -85.7676238      0.0574116109     -85.7676238      0.99740761       3.29080784       
22.06            0.997470736      3.246055         0.056631597      -85.8182209      0.056631597      -85.8182209      0.997470736      3.246055         
22.33            0.997531626      3.20232157       0.0558693215     -85.8676078      0.0558693215     -85.8676078      0.997531626      3.20232157       
22.6             0.997590384      3.1595713        0.0551241549     -85.9158255      0.0551241549     -85.9158255      0.997590384      3.1595713        
22.87            0.997647106      3.11776963       0.0543954969     -85.9629129      0.0543954969     -85.9629129      0.997647106      3.11776963       
23.14            0.997701884      3.07688359       0.053682775      -86.0089072      0.053682775      -86.0089072      0.997701884      3.07688359       
23.41            0.997754804      3.03688174       0.052985443      -86.0538439      0.052985443      -86.0538439      0.997754804      3.03688174       
23.68            0.997805949      2.99773403       0.0523029791     -86.0977568      0.0523029791     -86.0977568      0.997805949      2.99773403       
23.95            0.997855394      2.95941179       0.0516348848     -86.1406781      0.0516348848     -86.1406781      0.997855394      2.95941179       
24.22            0.997903214      2.92188758       0.0509806837     -86.1826388      0.0509806837     -86.1826388      0.997903214      2.92188758       
24.49            0.997949478      2.88513519       0.0503399202     -86.2236682      0.0503399202     -86.2236682      0.997949478      2.88513519       
24.76            0.99799425       2.84912953       0.0497121582     -86.2637945      0.0497121582     -86.2637945      0.99799425       2.84912953       
25.03            0.998037593      2.8138466        0.0490969803     -86.3030447      0.0490969803     -86.3030447      0.998037593      2.8138466        
25.3             0.998079566      2.77926338       0.0484939869     -86.3414444      0.0484939869     -86.3414444      0.998079566      2.77926338       
25.57            0.998120224      2.74535787       0.047902795      -86.3790184      0.047902795      -86.3790184      0.998120224      2.74535787       
25.84            0.99815962       2.71210892       0.0473230374     -86.4157902      0.0473230374     -86.4157902      0.99815962       2.71210892       
26.11            0.998197804      2.67949631       0.046754362      -86.4517825      0.046754362      -86.4517825      0.998197804      2.67949631       
26.38            0.998234824      2.64750059       0.0461964311     -86.4870168      0.0461964311     -86.4870168      0.998234824      2.64750059       
26.65            0.998270726      2.61610314       0.0456489204     -86.521514       0.0456489204     -86.521514       0.998270726      2.61610314       
26.92            0.998305552      2.58528603       0.0451115186     -86.5552939      0.0451115186     -86.5552939      0.998305552      2.58528603       
27.19            0.998339344      2.55503209       0.0445839266     -86.5883756      0.0445839266     -86.5883756      0.998339344      2.55503209       
27.46            0.998372141      2.52532478       0.0440658569     -86.6207774      0.0440658569     -86.6207774      0.998372141      2.52532478       
27.73            0.998403979      2.49614823       0.0435570333     -86.6525168      0.0435570333     -86.6525168      0.998403979      2.49614823       
28               0.998434895      2.46748716       0.0430571901     -86.6836107      0.0430571901     -86.6836107      0.998434895      2.46748716       
28.27            0.998464922      2.43932687       0.0425660716     -86.7140753      0.0425660716     -86.7140753      0.998464922      2.43932687       
28.54            0.998494093      2.41165322       0.0420834318     -86.7439261      0.0420834318     -86.7439261      0.998494093      2.41165322       
28.81            0.998522437      2.38445259       0.0416090336     -86.773178       0.0416090336     -86.773178       0.998522437      2.38445259       
29.08            0.998549986      2.35771188       0.041142649      -86.8018454      0.041142649      -86.8018454      0.998549986      2.35771188       
29.35            0.998576766      2.33141845       0.0406840582     -86.829942       0.0406840582     -86.829942       0.998576766      2.33141845       
29.62            0.998602805      2.30556013       0.0402330492     -86.8574811      0.0402330492     -86.8574811      0.998602805      2.30556013       
29.89            0.998628128      2.28012517       0.0397894178     -86.8844754      0.0397894178     -86.8844754      0.998628128      2.28012517       
30.16            0.99865276       2.25510227       0.0393529669     -86.9109372      0.0393529669     -86.9109372      0.99865276       2.25510227       
30.43            0.998676724      2.2304805        0.0389235066     -86.9368781      0.0389235066     -86.9368781      0.998676724      2.2304805        
30.7             0.998700042      2.20624932       0.0385008533     -86.9623096      0.0385008533     -86.9623096      0.998700042      2.20624932       
30.97            0.998722737      2.18239856       0.03808483       -86.9872425      0.03808483       -86.9872425      0.998722737      2.18239856       
31.24            0.998744829      2.1589184        0.0376752658     -87.0116873      0.0376752658     -87.0116873      0.998744829      2.1589184        
31.51            0.998766337      2.13579935       0.0372719955     -87.0356541      0.0372719955     -87.0356541      0.998766337      2.13579935       
31.78            0.99878728       2.11303225       0.0368748594     -87.0591525      0.0368748594     -87.0591525      0.99878728       2.11303225       
32.05            0.998807677      2.09060824       0.0364837033     -87.0821919      0.0364837033     -87.0821919      0.998807677      2.09060824       
32.32            0.998827545      2.06851875       0.0360983782     -87.1047813      0.0360983782     -87.1047813      0.998827545      2.06851875       
32.59            0.9988469        2.0467555        0.0357187399     -87.1269292      0.0357187399     -87.1269292      0.9988469        2.0467555        
32.86            0.998865759      2.02531048       0.0353446487     -87.1486441      0.0353446487     -87.1486441      0.998865759      2.02531048       
33.13            0.998884137      2.00417595       0.0349759698     -87.1699338      0.0349759698     -87.1699338      0.998884137      2.00417595       
33.4             0.998902049      1.98334439       0.0346125726     -87.1908062      0.0346125726     -87.1908062      0.998902049      1.98334439       
33.67            0.998919509      1.96280855       0.0342543305     -87.2112685      0.0342543305     -87.2112685      0.998919509      1.96280855       
33.94            0.99893653       1.9425614        0.0339011211     -87.2313279      0.0339011211     -87.2313279      0.99893653       1.9425614        
34.21            0.998953126      1.92259613       0.0335528259     -87.2509914      0.0335528259     -87.2509914      0.998953126      1.92259613       
34.48            0.99896931       1.90290613       0.0332093298     -87.2702653      0.0332093298     -87.2702653      0.99896931       1.90290613       
34.75            0.998985093      1.88348501       0.0328705215     -87.2891562      0.0328705215     -87.2891562      0.998985093      1.88348501       
35.02            0.999000487      1.86432658       0.0325362931     -87.3076701      0.0325362931     -87.3076701      0.999000487      1.86432658       
35.29            0.999015504      1.84542483       0.0322065399     -87.3258128      0.0322065399     -87.3258128      0.999015504      1.84542483       
