! Coilcraft 1812CS-102 Chip Inductor				
! 31 July 2002			
# MHZ S MA R 50
!Freq             MagS11           AngS11           MagS21           AngS21           MagS12           AngS12           MagS22           AngS22
1                0.0640339794     72.0300204       0.982134918      -3.55566603      0.982134918      -3.55566603      0.0640339794     72.0300204       
2.17             0.134549897      74.7568282       0.97332059       -7.66464179      0.97332059       -7.66464179      0.134549897      74.7568282       
3.34             0.203436641      72.9693066       0.960322764      -11.6862475      0.960322764      -11.6862475      0.203436641      72.9693066       
4.51             0.269435631      70.198786        0.943423916      -15.5873567      0.943423916      -15.5873567      0.269435631      70.198786        
5.68             0.331804024      67.1368881       0.923180236      -19.3402318      0.923180236      -19.3402318      0.331804024      67.1368881       
6.85             0.390060048      64.0231391       0.900248797      -22.9237902      0.900248797      -22.9237902      0.390060048      64.0231391       
8.02             0.443940382      60.9652953       0.875305453      -26.3238014      0.875305453      -26.3238014      0.443940382      60.9652953       
9.19             0.493366751      58.0181516       0.84899163       -29.5324212      0.84899163       -29.5324212      0.493366751      58.0181516       
10.36            0.538408305      55.210286        0.821881016      -32.5473227      0.821881016      -32.5473227      0.538408305      55.210286        
11.53            0.579242852      52.5554336       0.794462344      -35.3706419      0.794462344      -35.3706419      0.579242852      52.5554336       
12.7             0.616121049      50.0582549       0.76713451       -38.0079015      0.76713451       -38.0079015      0.616121049      50.0582549       
13.87            0.649336137      47.7176768       0.740210182      -40.4670211      0.740210182      -40.4670211      0.649336137      47.7176768       
15.04            0.679200227      45.5290086       0.713924468      -42.7574726      0.713924468      -42.7574726      0.679200227      45.5290086       
16.21            0.706026926      43.4853516       0.688445987      -44.8895988      0.688445987      -44.8895988      0.706026926      43.4853516       
17.38            0.730119468      41.5785619       0.663888451      -46.8740914      0.663888451      -46.8740914      0.730119468      41.5785619       
18.55            0.751763267      39.7999075       0.640321633      -48.7216086      0.640321633      -48.7216086      0.751763267      39.7999075       
19.72            0.771221791      38.1405148       0.617781089      -50.4425097      0.617781089      -50.4425097      0.771221791      38.1405148       
20.89            0.788734816      36.5916624       0.596276423      -52.0466806      0.596276423      -52.0466806      0.788734816      36.5916624       
22.06            0.804518286      35.144969        0.575798067      -53.5434295      0.575798067      -53.5434295      0.804518286      35.144969        
23.23            0.818765201      33.7925046       0.556322716      -54.9414333      0.556322716      -54.9414333      0.818765201      33.7925046       
24.4             0.831647101      32.5268503       0.537817589      -56.2487205      0.537817589      -56.2487205      0.831647101      32.5268503       
25.57            0.843315863      31.3411209       0.520243707      -57.4726785      0.520243707      -57.4726785      0.843315863      31.3411209       
26.74            0.853905599      30.2289638       0.503558382      -58.6200776      0.503558382      -58.6200776      0.853905599      30.2289638       
27.91            0.863534546      29.1845433       0.487717058      -59.6971045      0.487717058      -59.6971045      0.863534546      29.1845433       
29.08            0.872306849      28.2025141       0.472674667      -60.7094009      0.472674667      -60.7094009      0.872306849      28.2025141       
30.25            0.880314224      27.2779906       0.458386599      -61.6621052      0.458386599      -61.6621052      0.880314224      27.2779906       
31.42            0.887637461      26.406513        0.444809369      -62.5598937      0.444809369      -62.5598937      0.887637461      26.406513        
32.59            0.894347763      25.5840139       0.431901077      -63.4070208      0.431901077      -63.4070208      0.894347763      25.5840139       
33.76            0.900507952      24.8067846       0.419621688      -64.2073573      0.419621688      -64.2073573      0.900507952      24.8067846       
34.93            0.906173508      24.0714435       0.407933201      -64.9644261      0.407933201      -64.9644261      0.906173508      24.0714435       
36.1             0.9113935        23.3749065       0.396799725      -65.6814352      0.396799725      -65.6814352      0.9113935        23.3749065       
37.27            0.916211389      22.7143592       0.386187487      -66.361308       0.386187487      -66.361308       0.916211389      22.7143592       
38.44            0.920665725      22.0872318       0.376064801      -67.0067106      0.376064801      -67.0067106      0.920665725      22.0872318       
39.61            0.924790764      21.4911757       0.366402005      -67.6200773      0.366402005      -67.6200773      0.924790764      21.4911757       
40.78            0.928616993      20.9240425       0.357171374      -68.2036324      0.357171374      -68.2036324      0.928616993      20.9240425       
41.95            0.932171594      20.3838651       0.34834703       -68.759411       0.34834703       -68.759411       0.932171594      20.3838651       
43.12            0.935478846      19.8688405       0.33990483       -69.2892772      0.33990483       -69.2892772      0.935478846      19.8688405       
44.29            0.93856047       19.3773141       0.331822271      -69.7949404      0.331822271      -69.7949404      0.93856047       19.3773141       
45.46            0.941435932      18.9077661       0.324078377      -70.2779699      0.324078377      -70.2779699      0.941435932      18.9077661       
46.63            0.944122712      18.4587983       0.316653604      -70.7398085      0.316653604      -70.7398085      0.944122712      18.4587983       
47.8             0.94663653       18.0291237       0.309529735      -71.181784       0.309529735      -71.181784       0.94663653       18.0291237       
48.97            0.948991549      17.6175554       0.30268979       -71.6051199      0.30268979       -71.6051199      0.948991549      17.6175554       
50.14            0.951200548      17.2229983       0.296117938      -72.0109451      0.296117938      -72.0109451      0.951200548      17.2229983       
51.31            0.953275081      16.8444403       0.289799412      -72.4003022      0.289799412      -72.4003022      0.953275081      16.8444403       
52.48            0.955225608      16.480945        0.28372043       -72.7741557      0.28372043       -72.7741557      0.955225608      16.480945        
53.65            0.957061613      16.1316454       0.277868125      -73.1333984      0.277868125      -73.1333984      0.957061613      16.1316454       
54.82            0.958791711      15.7957373       0.272230478      -73.478858       0.272230478      -73.478858       0.958791711      15.7957373       
55.99            0.96042374       15.4724745       0.266796251      -73.8113025      0.266796251      -73.8113025      0.96042374       15.4724745       
57.16            0.961964838      15.1611632       0.261554936      -74.1314457      0.261554936      -74.1314457      0.961964838      15.1611632       
58.33            0.963421518      14.8611584       0.256496696      -74.4399512      0.256496696      -74.4399512      0.963421518      14.8611584       
59.5             0.964799731      14.571859        0.251612317      -74.7374371      0.251612317      -74.7374371      0.964799731      14.571859        
60.67            0.966104922      14.2927049       0.246893165      -75.0244793      0.246893165      -75.0244793      0.966104922      14.2927049       
61.84            0.967342078      14.0231734       0.242331142      -75.3016154      0.242331142      -75.3016154      0.967342078      14.0231734       
63.01            0.968515775      13.7627762       0.237918646      -75.5693473      0.237918646      -75.5693473      0.968515775      13.7627762       
64.18            0.969630216      13.5110566       0.23364854       -75.8281442      0.23364854       -75.8281442      0.969630216      13.5110566       
65.35            0.970689268      13.2675873       0.229514114      -76.0784454      0.229514114      -76.0784454      0.970689268      13.2675873       
66.52            0.97169649       13.0319679       0.225509059      -76.3206622      0.225509059      -76.3206622      0.97169649       13.0319679       
67.69            0.972655164      12.8038231       0.221627434      -76.5551803      0.221627434      -76.5551803      0.972655164      12.8038231       
68.86            0.973568319      12.5828006       0.217863648      -76.7823616      0.217863648      -76.7823616      0.973568319      12.5828006       
70.03            0.974438757      12.3685694       0.214212427      -77.002546       0.214212427      -77.002546       0.974438757      12.3685694       
71.2             0.975269066      12.1608183       0.210668801      -77.2160531      0.210668801      -77.2160531      0.975269066      12.1608183       
72.37            0.976061646      11.9592547       0.207228076      -77.4231836      0.207228076      -77.4231836      0.976061646      11.9592547       
73.54            0.976818721      11.7636028       0.203885821      -77.6242205      0.203885821      -77.6242205      0.976818721      11.7636028       
74.71            0.977542355      11.5736028       0.200637849      -77.8194306      0.200637849      -77.8194306      0.977542355      11.5736028       
75.88            0.978234467      11.3890096       0.197480199      -78.0090655      0.197480199      -78.0090655      0.978234467      11.3890096       
77.05            0.978896839      11.2095919       0.194409125      -78.1933626      0.194409125      -78.1933626      0.978896839      11.2095919       
78.22            0.979531132      11.0351312       0.191421078      -78.3725464      0.191421078      -78.3725464      0.979531132      11.0351312       
79.39            0.980138893      10.8654209       0.188512696      -78.5468287      0.188512696      -78.5468287      0.980138893      10.8654209       
80.56            0.980721566      10.7002656       0.185680793      -78.7164101      0.185680793      -78.7164101      0.980721566      10.7002656       
81.73            0.981280495      10.5394803       0.182922345      -78.8814805      0.182922345      -78.8814805      0.981280495      10.5394803       
82.9             0.981816941      10.3828897       0.180234485      -79.0422197      0.180234485      -79.0422197      0.981816941      10.3828897       
84.07            0.982332079      10.2303278       0.177614486      -79.198798       0.177614486      -79.198798       0.982332079      10.2303278       
85.24            0.982827011      10.081637        0.17505976       -79.3513772      0.17505976       -79.3513772      0.982827011      10.081637        
86.41            0.983302768      9.93666761       0.172567844      -79.5001107      0.172567844      -79.5001107      0.983302768      9.93666761       
87.58            0.983760316      9.79527772       0.170136396      -79.6451441      0.170136396      -79.6451441      0.983760316      9.79527772       
88.75            0.984200563      9.65733228       0.167763188      -79.7866158      0.167763188      -79.7866158      0.984200563      9.65733228       
89.92            0.98462436       9.52270292       0.165446095      -79.9246576      0.165446095      -79.9246576      0.98462436       9.52270292       
91.09            0.985032507      9.39126749       0.163183096      -80.0593947      0.163183096      -80.0593947      0.985032507      9.39126749       
92.26            0.985425757      9.26290973       0.160972262      -80.1909462      0.160972262      -80.1909462      0.985425757      9.26290973       
93.43            0.985804817      9.13751886       0.158811753      -80.3194256      0.158811753      -80.3194256      0.985804817      9.13751886       
94.6             0.986170353      9.01498933       0.156699813      -80.4449413      0.156699813      -80.4449413      0.986170353      9.01498933       
95.77            0.986522993      8.89522045       0.154634768      -80.5675962      0.154634768      -80.5675962      0.986522993      8.89522045       
96.94            0.986863329      8.7781162        0.152615015      -80.6874889      0.152615015      -80.6874889      0.986863329      8.7781162        
98.11            0.987191921      8.66358488       0.150639025      -80.8047133      0.150639025      -80.8047133      0.987191921      8.66358488       
99.28            0.987509294      8.55153893       0.148705335      -80.919359       0.148705335      -80.919359       0.987509294      8.55153893       
100.45           0.987815948      8.44189468       0.146812546      -81.0315117      0.146812546      -81.0315117      0.987815948      8.44189468       
101.62           0.988112353      8.33457213       0.144959318      -81.1412534      0.144959318      -81.1412534      0.988112353      8.33457213       
102.79           0.988398954      8.22949479       0.14314437       -81.2486623      0.14314437       -81.2486623      0.988398954      8.22949479       
103.96           0.988676173      8.12658943       0.141366473      -81.3538133      0.141366473      -81.3538133      0.988676173      8.12658943       
105.13           0.988944408      8.02578597       0.139624451      -81.4567783      0.139624451      -81.4567783      0.988944408      8.02578597       
106.3            0.989204039      7.92701728       0.137917175      -81.5576259      0.137917175      -81.5576259      0.989204039      7.92701728       
107.47           0.989455424      7.83021904       0.136243564      -81.6564218      0.136243564      -81.6564218      0.989455424      7.83021904       
108.64           0.989698901      7.73532957       0.13460258       -81.7532291      0.13460258       -81.7532291      0.989698901      7.73532957       
109.81           0.989934796      7.64228975       0.132993226      -81.8481084      0.132993226      -81.8481084      0.989934796      7.64228975       
110.98           0.990163412      7.55104284       0.131414547      -81.9411174      0.131414547      -81.9411174      0.990163412      7.55104284       
112.15           0.990385043      7.46153439       0.129865622      -82.0323119      0.129865622      -82.0323119      0.990385043      7.46153439       
113.32           0.990599963      7.37371211       0.12834557       -82.1217454      0.12834557       -82.1217454      0.990599963      7.37371211       
114.49           0.990808438      7.28752576       0.126853542      -82.209469       0.126853542      -82.209469       0.990808438      7.28752576       
115.66           0.991010716      7.20292709       0.125388722      -82.295532       0.125388722      -82.295532       0.991010716      7.20292709       
116.83           0.991207036      7.11986971       0.123950324      -82.3799819      0.123950324      -82.3799819      0.991207036      7.11986971       
118              0.991397626      7.03830898       0.122537594      -82.462864       0.122537594      -82.462864       0.991397626      7.03830898       
119.17           0.9915827        6.95820198       0.121149804      -82.5442221      0.121149804      -82.5442221      0.9915827        6.95820198       
120.34           0.991762466      6.87950742       0.119786254      -82.6240984      0.119786254      -82.6240984      0.991762466      6.87950742       
121.51           0.99193712       6.80218551       0.11844627       -82.7025334      0.11844627       -82.7025334      0.99193712       6.80218551       
122.68           0.99210685       6.72619797       0.117129201      -82.779566       0.117129201      -82.779566       0.99210685       6.72619797       
123.85           0.992271834      6.6515079        0.115834421      -82.8552338      0.115834421      -82.8552338      0.992271834      6.6515079        
125.02           0.992432243      6.57807974       0.114561326      -82.929573       0.114561326      -82.929573       0.992432243      6.57807974       
126.19           0.992588241      6.50587921       0.113309334      -83.0026184      0.113309334      -83.0026184      0.992588241      6.50587921       
127.36           0.992739984      6.43487328       0.112077883      -83.0744036      0.112077883      -83.0744036      0.992739984      6.43487328       
128.53           0.99288762       6.36503005       0.110866429      -83.1449609      0.110866429      -83.1449609      0.99288762       6.36503005       
129.7            0.993031293      6.29631877       0.109674449      -83.2143216      0.109674449      -83.2143216      0.993031293      6.29631877       
130.87           0.993171138      6.22870973       0.108501439      -83.2825159      0.108501439      -83.2825159      0.993171138      6.22870973       
132.04           0.993307288      6.16217427       0.107346908      -83.3495726      0.107346908      -83.3495726      0.993307288      6.16217427       
133.21           0.993439866      6.09668471       0.106210385      -83.41552        0.106210385      -83.41552        0.993439866      6.09668471       
134.38           0.993568992      6.03221428       0.105091414      -83.480385       0.105091414      -83.480385       0.993568992      6.03221428       
135.55           0.993694782      5.96873715       0.103989555      -83.5441939      0.103989555      -83.5441939      0.993694782      5.96873715       
136.72           0.993817345      5.90622832       0.102904379      -83.6069718      0.102904379      -83.6069718      0.993817345      5.90622832       
137.89           0.993936787      5.84466365       0.101835476      -83.6687431      0.101835476      -83.6687431      0.993936787      5.84466365       
139.06           0.994053209      5.78401975       0.100782445      -83.7295314      0.100782445      -83.7295314      0.994053209      5.78401975       
140.23           0.994166709      5.72427402       0.0997449014     -83.7893595      0.0997449014     -83.7893595      0.994166709      5.72427402       
141.4            0.994277378      5.6654046        0.0987224701     -83.8482493      0.0987224701     -83.8482493      0.994277378      5.6654046        
142.57           0.994385308      5.60739031       0.0977147894     -83.9062223      0.0977147894     -83.9062223      0.994385308      5.60739031       
143.74           0.994490584      5.55021065       0.0967215087     -83.9632989      0.0967215087     -83.9632989      0.994490584      5.55021065       
144.91           0.994593288      5.49384576       0.0957422883     -84.019499       0.0957422883     -84.019499       0.994593288      5.49384576       
146.08           0.9946935        5.43827642       0.094776799      -84.0748421      0.094776799      -84.0748421      0.9946935        5.43827642       
147.25           0.994791296      5.383484         0.0938247218     -84.1293466      0.0938247218     -84.1293466      0.994791296      5.383484         
148.42           0.99488675       5.32945044       0.0928857473     -84.1830306      0.0928857473     -84.1830306      0.99488675       5.32945044       
149.59           0.994979932      5.27615824       0.0919595757     -84.2359117      0.0919595757     -84.2359117      0.994979932      5.27615824       
