! Coilcraft 1812CS-223 Chip Inductor				
! 31 July 2002			
# MHZ S MA R 50
!Freq             MagS11           AngS11           MagS21           AngS21           MagS12           AngS12           MagS22           AngS22
1                0.762702738      32.688254        0.545803441      -48.9980959      0.545803441      -48.9980959      0.762702738      32.688254        
1.17             0.807682569      29.4059839       0.495081347      -53.2271967      0.495081347      -53.2271967      0.807682569      29.4059839       
1.34             0.841778831      26.6241436       0.451164238      -56.7335239      0.451164238      -56.7335239      0.841778831      26.6241436       
1.51             0.867984891      24.2626957       0.413236543      -59.6688275      0.413236543      -59.6688275      0.867984891      24.2626957       
1.68             0.888424526      22.247369        0.380422763      -62.1510256      0.380422763      -62.1510256      0.888424526      22.247369        
1.85             0.904598901      20.5155361       0.351917278      -64.2708747      0.351917278      -64.2708747      0.904598901      20.5155361       
2.02             0.91757508       19.0163066       0.327025341      -66.0982355      0.327025341      -66.0982355      0.91757508       19.0163066       
2.19             0.928119392      17.7088981       0.305165665      -67.6871647      0.305165665      -67.6871647      0.928119392      17.7088981       
2.36             0.93678908       16.5607312       0.285858541      -69.0798183      0.285858541      -69.0798183      0.93678908       16.5607312       
2.53             0.943994735      15.5457224       0.268710103      -70.3093696      0.268710103      -70.3093696      0.943994735      15.5457224       
2.7              0.950042929      14.6428848       0.253397041      -71.4021706      0.253397041      -71.4021706      0.950042929      14.6428848       
2.87             0.955165532      13.8352247       0.239653306      -72.3793534      0.239653306      -72.3793534      0.955165532      13.8352247       
3.04             0.959540083      13.1088857       0.227259077      -73.2580194      0.227259077      -73.2580194      0.959540083      13.1088857       
3.21             0.963304106      12.4524879       0.216031834      -74.0521306      0.216031834      -74.0521306      0.963304106      12.4524879       
3.38             0.9665653        11.8566192       0.205819217      -74.773181       0.205819217      -74.773181       0.9665653        11.8566192       
3.55             0.969408873      11.3134406       0.19649334       -75.4307072      0.19649334       -75.4307072      0.969408873      11.3134406       
3.72             0.971902882      10.8163799       0.187946264      -76.0326802      0.187946264      -76.0326802      0.971902882      10.8163799       
3.89             0.974102174      10.3598917       0.180086394      -76.585809       0.180086394      -76.585809       0.974102174      10.3598917       
4.06             0.976051318      9.9392689        0.17283559       -77.0957769      0.17283559       -77.0957769      0.976051318      9.9392689        
4.23             0.977786815      9.55049321       0.166126857      -77.5674276      0.166126857      -77.5674276      0.977786815      9.55049321       
4.4              0.979338776      9.19011557       0.159902469      -78.0049129      0.159902469      -78.0049129      0.979338776      9.19011557       
4.57             0.980732208      8.8551605        0.154112459      -78.4118107      0.154112459      -78.4118107      0.980732208      8.8551605        
4.74             0.981988017      8.5430487        0.148713385      -78.7912197      0.148713385      -78.7912197      0.981988017      8.5430487        
4.91             0.983123779      8.2515341        0.143667315      -79.1458365      0.143667315      -79.1458365      0.983123779      8.2515341        
5.08             0.984154361      7.97865238       0.138940995      -79.4780178      0.138940995      -79.4780178      0.984154361      7.97865238       
5.25             0.985092398      7.72267866       0.134505164      -79.7898325      0.134505164      -79.7898325      0.985092398      7.72267866       
5.42             0.985948688      7.48209247       0.130333979      -80.0831035      0.130333979      -80.0831035      0.985948688      7.48209247       
5.59             0.986732497      7.25554865       0.126404534      -80.3594432      0.126404534      -80.3594432      0.986732497      7.25554865       
5.76             0.987451817      7.04185301       0.122696465      -80.6202828      0.122696465      -80.6202828      0.987451817      7.04185301       
5.93             0.988113568      6.83994191       0.119191605      -80.8668969      0.119191605      -80.8668969      0.988113568      6.83994191       
6.1              0.988723763      6.64886506       0.115873704      -81.1004242      0.115873704      -81.1004242      0.988723763      6.64886506       
6.27             0.989287652      6.46777091       0.112728181      -81.3218852      0.112728181      -81.3218852      0.989287652      6.46777091       
6.44             0.98980983       6.29589426       0.109741922      -81.532197       0.109741922      -81.532197       0.98980983       6.29589426       
6.61             0.990294337      6.13254564       0.106903095      -81.7321859      0.106903095      -81.7321859      0.990294337      6.13254564       
6.78             0.990744735      5.97710225       0.104201005      -81.9225984      0.104201005      -81.9225984      0.990744735      5.97710225       
6.95             0.99116417       5.82900011       0.101625958      -82.1041107      0.101625958      -82.1041107      0.99116417       5.82900011       
7.12             0.991555437      5.68772735       0.0991691483     -82.2773364      0.0991691483     -82.2773364      0.991555437      5.68772735       
7.29             0.991921019      5.55281836       0.0968225602     -82.4428342      0.0968225602     -82.4428342      0.991921019      5.55281836       
7.46             0.992263131      5.42384867       0.0945788815     -82.601113       0.0945788815     -82.601113       0.992263131      5.42384867       
7.63             0.992583755      5.30043057       0.0924314286     -82.7526382      0.0924314286     -82.7526382      0.992583755      5.30043057       
7.8              0.992884665      5.1822092        0.0903740811     -82.8978355      0.0903740811     -82.8978355      0.992884665      5.1822092        
7.97             0.993167457      5.0688592        0.0884012235     -83.0370956      0.0884012235     -83.0370956      0.993167457      5.0688592        
8.14             0.993433567      4.96008168       0.0865076951     -83.1707774      0.0865076951     -83.1707774      0.993433567      4.96008168       
8.31             0.993684291      4.85560161       0.0846887446     -83.2992111      0.0846887446     -83.2992111      0.993684291      4.85560161       
8.48             0.993920801      4.7551655        0.0829399909     -83.4227012      0.0829399909     -83.4227012      0.993920801      4.7551655        
8.65             0.994144159      4.65853932       0.0812573877     -83.541529       0.0812573877     -83.541529       0.994144159      4.65853932       
8.82             0.99435533       4.56550671       0.0796371924     -83.6559546      0.0796371924     -83.6559546      0.99435533       4.56550671       
8.99             0.99455519       4.47586733       0.078075938      -83.7662188      0.078075938      -83.7662188      0.99455519       4.47586733       
9.16             0.994744538      4.38943538       0.0765704088     -83.8725449      0.0765704088     -83.8725449      0.994744538      4.38943538       
9.33             0.994924104      4.30603838       0.0751176176     -83.9751406      0.0751176176     -83.9751406      0.994924104      4.30603838       
9.5              0.995094555      4.22551591       0.0737147862     -84.0741986      0.0737147862     -84.0741986      0.995094555      4.22551591       
9.67             0.995256501      4.14771866       0.0723593274     -84.1698988      0.0723593274     -84.1698988      0.995256501      4.14771866       
9.84             0.995410502      4.07250745       0.0710488288     -84.2624087      0.0710488288     -84.2624087      0.995410502      4.07250745       
10.01            0.995557073      3.99975238       0.0697810386     -84.3518846      0.0697810386     -84.3518846      0.995557073      3.99975238       
10.18            0.995696686      3.92933209       0.0685538522     -84.4384726      0.0685538522     -84.4384726      0.995696686      3.92933209       
10.35            0.995829779      3.86113306       0.0673653009     -84.5223095      0.0673653009     -84.5223095      0.995829779      3.86113306       
10.52            0.995956751      3.79504899       0.0662135404     -84.6035232      0.0662135404     -84.6035232      0.995956751      3.79504899       
10.69            0.996077976      3.73098025       0.0650968419     -84.6822338      0.0650968419     -84.6822338      0.996077976      3.73098025       
10.86            0.996193796      3.66883334       0.0640135826     -84.758554       0.0640135826     -84.758554       0.996193796      3.66883334       
11.03            0.996304529      3.60852046       0.0629622383     -84.8325894      0.0629622383     -84.8325894      0.996304529      3.60852046       
11.2             0.99641047       3.54995905       0.0619413757     -84.9044397      0.0619413757     -84.9044397      0.99641047       3.54995905       
11.37            0.996511892      3.49307144       0.0609496457     -84.9741983      0.0609496457     -84.9741983      0.996511892      3.49307144       
11.54            0.99660905       3.43778444       0.0599857774     -85.0419535      0.0599857774     -85.0419535      0.99660905       3.43778444       
11.71            0.996702179      3.3840291        0.0590485729     -85.1077883      0.0590485729     -85.1077883      0.996702179      3.3840291        
11.88            0.9967915        3.33174033       0.0581369014     -85.1717812      0.0581369014     -85.1717812      0.9967915        3.33174033       
12.05            0.996877217      3.28085669       0.0572496952     -85.2340062      0.0572496952     -85.2340062      0.996877217      3.28085669       
12.22            0.996959523      3.23132012       0.0563859452     -85.2945333      0.0563859452     -85.2945333      0.996959523      3.23132012       
12.39            0.997038596      3.18307569       0.0555446968     -85.3534286      0.0555446968     -85.3534286      0.997038596      3.18307569       
12.56            0.997114602      3.13607143       0.0547250465     -85.4107547      0.0547250465     -85.4107547      0.997114602      3.13607143       
12.73            0.997187698      3.0902581        0.0539261383     -85.466571       0.0539261383     -85.466571       0.997187698      3.0902581        
12.9             0.997258031      3.04558904       0.0531471608     -85.5209335      0.0531471608     -85.5209335      0.997258031      3.04558904       
13.07            0.997325738      3.00201999       0.0523873443     -85.5738955      0.0523873443     -85.5738955      0.997325738      3.00201999       
13.24            0.997390946      2.95950894       0.051645958      -85.6255077      0.051645958      -85.6255077      0.997390946      2.95950894       
13.41            0.997453778      2.91801598       0.0509223081     -85.675818       0.0509223081     -85.675818       0.997453778      2.91801598       
13.58            0.997514346      2.87750318       0.0502157346     -85.7248719      0.0502157346     -85.7248719      0.997514346      2.87750318       
13.75            0.997572758      2.83793449       0.0495256102     -85.7727129      0.0495256102     -85.7727129      0.997572758      2.83793449       
13.92            0.997629113      2.79927557       0.0488513378     -85.8193821      0.0488513378     -85.8193821      0.997629113      2.79927557       
14.09            0.997683507      2.76149375       0.0481923486     -85.8649188      0.0481923486     -85.8649188      0.997683507      2.76149375       
14.26            0.997736029      2.72455789       0.0475481009     -85.9093603      0.0475481009     -85.9093603      0.997736029      2.72455789       
14.43            0.997786761      2.68843832       0.0469180781     -85.9527423      0.0469180781     -85.9527423      0.997786761      2.68843832       
14.6             0.997835785      2.65310671       0.0463017874     -85.9950985      0.0463017874     -85.9950985      0.997835785      2.65310671       
14.77            0.997883175      2.61853605       0.0456987587     -86.0364614      0.0456987587     -86.0364614      0.997883175      2.61853605       
14.94            0.997929001      2.58470054       0.0451085427     -86.0768618      0.0451085427     -86.0768618      0.997929001      2.58470054       
15.11            0.997973331      2.55157554       0.0445307105     -86.1163292      0.0445307105     -86.1163292      0.997973331      2.55157554       
15.28            0.998016228      2.51913748       0.0439648519     -86.1548916      0.0439648519     -86.1548916      0.998016228      2.51913748       
15.45            0.998057752      2.48736384       0.0434105746     -86.1925759      0.0434105746     -86.1925759      0.998057752      2.48736384       
15.62            0.99809796       2.45623306       0.0428675033     -86.2294078      0.0428675033     -86.2294078      0.99809796       2.45623306       
15.79            0.998136906      2.4257245        0.0423352787     -86.2654118      0.0423352787     -86.2654118      0.998136906      2.4257245        
15.96            0.998174641      2.39581841       0.0418135567     -86.3006113      0.0418135567     -86.3006113      0.998174641      2.39581841       
16.13            0.998211213      2.36649584       0.0413020074     -86.3350289      0.0413020074     -86.3350289      0.998211213      2.36649584       
16.3             0.998246668      2.33773865       0.0408003149     -86.368686       0.0408003149     -86.368686       0.998246668      2.33773865       
16.47            0.998281051      2.30952942       0.0403081758     -86.4016031      0.0403081758     -86.4016031      0.998281051      2.30952942       
16.64            0.998314403      2.28185147       0.0398252994     -86.4338         0.0398252994     -86.4338         0.998314403      2.28185147       
16.81            0.998346764      2.25468876       0.0393514065     -86.4652955      0.0393514065     -86.4652955      0.998346764      2.25468876       
16.98            0.99837817       2.2280259        0.0388862289     -86.4961077      0.0388862289     -86.4961077      0.99837817       2.2280259        
17.15            0.998408658      2.2018481        0.0384295091     -86.5262539      0.0384295091     -86.5262539      0.998408658      2.2018481        
17.32            0.998438263      2.17614116       0.0379809996     -86.5557507      0.0379809996     -86.5557507      0.998438263      2.17614116       
17.49            0.998467016      2.15089142       0.0375404624     -86.5846141      0.0375404624     -86.5846141      0.998467016      2.15089142       
17.66            0.998494949      2.12608574       0.0371076687     -86.6128593      0.0371076687     -86.6128593      0.998494949      2.12608574       
17.83            0.998522092      2.10171149       0.0366823983     -86.6405011      0.0366823983     -86.6405011      0.998522092      2.10171149       
18               0.998548472      2.0777565        0.0362644391     -86.6675533      0.0362644391     -86.6675533      0.998548472      2.0777565        
18.17            0.998574117      2.05420905       0.0358535873     -86.6940296      0.0358535873     -86.6940296      0.998574117      2.05420905       
18.34            0.998599052      2.03105788       0.0354496462     -86.7199429      0.0354496462     -86.7199429      0.998599052      2.03105788       
18.51            0.998623302      2.00829212       0.0350524265     -86.7453056      0.0350524265     -86.7453056      0.998623302      2.00829212       
18.68            0.99864689       1.98590128       0.0346617457     -86.7701297      0.0346617457     -86.7701297      0.99864689       1.98590128       
18.85            0.99866984       1.96387528       0.0342774277     -86.7944266      0.0342774277     -86.7944266      0.99866984       1.96387528       
19.02            0.998692172      1.94220437       0.0338993029     -86.8182073      0.0338993029     -86.8182073      0.998692172      1.94220437       
19.19            0.998713907      1.92087917       0.0335272076     -86.8414825      0.0335272076     -86.8414825      0.998713907      1.92087917       
19.36            0.998735065      1.89989059       0.0331609836     -86.8642622      0.0331609836     -86.8642622      0.998735065      1.89989059       
19.53            0.998755666      1.8792299        0.0328004785     -86.8865562      0.0328004785     -86.8865562      0.998755666      1.8792299        
19.7             0.998775726      1.85888863       0.032445545      -86.9083739      0.032445545      -86.9083739      0.998775726      1.85888863       
19.87            0.998795263      1.83885862       0.0320960406     -86.9297242      0.0320960406     -86.9297242      0.998795263      1.83885862       
20.04            0.998814295      1.81913199       0.031751828      -86.9506159      0.031751828      -86.9506159      0.998814295      1.81913199       
20.21            0.998832836      1.79970111       0.0314127742     -86.9710571      0.0314127742     -86.9710571      0.998832836      1.79970111       
20.38            0.998850903      1.7805586        0.0310787507     -86.9910559      0.0310787507     -86.9910559      0.998850903      1.7805586        
20.55            0.99886851       1.76169735       0.0307496332     -87.0106199      0.0307496332     -87.0106199      0.99886851       1.76169735       
20.72            0.998885671      1.74311045       0.0304253017     -87.0297565      0.0304253017     -87.0297565      0.998885671      1.74311045       
20.89            0.9989024        1.72479123       0.0301056396     -87.0484726      0.0301056396     -87.0484726      0.9989024        1.72479123       
21.06            0.99891871       1.70673324       0.0297905346     -87.0667751      0.0297905346     -87.0667751      0.99891871       1.70673324       
21.23            0.998934613      1.68893022       0.0294798775     -87.0846705      0.0294798775     -87.0846705      0.998934613      1.68893022       
21.4             0.998950122      1.67137612       0.0291735629     -87.1021648      0.0291735629     -87.1021648      0.998950122      1.67137612       
21.57            0.998965248      1.65406508       0.0288714885     -87.1192642      0.0288714885     -87.1192642      0.998965248      1.65406508       
21.74            0.998980001      1.63699141       0.0285735552     -87.1359744      0.0285735552     -87.1359744      0.998980001      1.63699141       
21.91            0.998994394      1.62014961       0.0282796671     -87.1523007      0.0282796671     -87.1523007      0.998994394      1.62014961       
22.08            0.999008437      1.60353434       0.0279897311     -87.1682485      0.0279897311     -87.1682485      0.999008437      1.60353434       
22.25            0.999022138      1.58714043       0.0277036571     -87.1838227      0.0277036571     -87.1838227      0.999022138      1.58714043       
22.42            0.999035509      1.57096286       0.0274213575     -87.1990282      0.0274213575     -87.1990282      0.999035509      1.57096286       
22.59            0.999048557      1.55499676       0.0271427474     -87.2138695      0.0271427474     -87.2138695      0.999048557      1.55499676       
