! Coilcraft 1206CS-060 Chip Inductor				
! 29 July 2002			
# MHZ S MA R 50
!Freq             MagS11           AngS11           MagS21           AngS21           MagS12           AngS12           MagS22           AngS22
1                0.0012132468     20.5705318       0.9988642        -0.0244521966    0.9988642        -0.0244521966    0.0012132468     20.5705318       
28.18            0.0121415957     81.1474733       0.998203604      -0.688628861     0.998203604      -0.688628861     0.0121415957     81.1474733       
55.36            0.0236852091     83.768006        0.99770673       -1.35226933      0.99770673       -1.35226933      0.0236852091     83.768006        
82.54            0.0352384209     84.3426589       0.997143028      -2.01535084      0.997143028      -2.01535084      0.0352384209     84.3426589       
109.72           0.046781908      84.3486953       0.99648128       -2.67777171      0.99648128       -2.67777171      0.046781908      84.3486953       
136.9            0.0583083842     84.1124121       0.995709628      -3.33941123      0.995709628      -3.33941123      0.0583083842     84.1124121       
164.08           0.0698127733     83.7493056       0.994822368      -4.00014071      0.994822368      -4.00014071      0.0698127733     83.7493056       
191.26           0.0812906728     83.3112063       0.993816517      -4.65982774      0.993816517      -4.65982774      0.0812906728     83.3112063       
218.44           0.0927379597     82.8250606       0.992690546      -5.31833819      0.992690546      -5.31833819      0.0927379597     82.8250606       
245.62           0.104150662      82.3063746       0.991443809      -5.97553745      0.991443809      -5.97553745      0.104150662      82.3063746       
272.8            0.115524911      81.7647654       0.990076254      -6.63129116      0.990076254      -6.63129116      0.115524911      81.7647654       
299.98           0.126856926      81.2065538       0.988588253      -7.28546585      0.988588253      -7.28546585      0.126856926      81.2065538       
327.16           0.138143006      80.6360921       0.986980508      -7.93792931      0.986980508      -7.93792931      0.138143006      80.6360921       
354.34           0.149379531      80.0564948       0.985253982      -8.58855094      0.985253982      -8.58855094      0.149379531      80.0564948       
381.52           0.160562967      79.470064        0.983409858      -9.23720207      0.983409858      -9.23720207      0.160562967      79.470064        
408.7            0.171689864      78.8785498       0.981449502      -9.88375621      0.981449502      -9.88375621      0.171689864      78.8785498       
435.88           0.182756867      78.2833149       0.979374446      -10.5280892      0.979374446      -10.5280892      0.182756867      78.2833149       
463.06           0.193760713      77.6854438       0.977186362      -11.1700795      0.977186362      -11.1700795      0.193760713      77.6854438       
490.24           0.204698241      77.0858159       0.974887054      -11.8096084      0.974887054      -11.8096084      0.204698241      77.0858159       
517.42           0.21556639       76.4851563       0.972478439      -12.4465598      0.972478439      -12.4465598      0.21556639       76.4851563       
544.6            0.226362209      75.8840723       0.969962539      -13.080821       0.969962539      -13.080821       0.226362209      75.8840723       
571.78           0.237082853      75.2830793       0.967341471      -13.7122823      0.967341471      -13.7122823      0.237082853      75.2830793       
598.96           0.247725589      74.6826199       0.964617435      -14.3408371      0.964617435      -14.3408371      0.247725589      74.6826199       
626.14           0.258287801      74.0830784       0.961792711      -14.9663826      0.961792711      -14.9663826      0.258287801      74.0830784       
653.32           0.268766988      73.4847914       0.958869644      -15.5888189      0.958869644      -15.5888189      0.268766988      73.4847914       
680.5            0.279160764      72.8880565       0.955850644      -16.2080501      0.955850644      -16.2080501      0.279160764      72.8880565       
707.68           0.289466866      72.2931388       0.952738173      -16.8239837      0.952738173      -16.8239837      0.289466866      72.2931388       
734.86           0.299683148      71.7002753       0.949534743      -17.4365308      0.949534743      -17.4365308      0.299683148      71.7002753       
762.04           0.309807586      71.1096799       0.946242905      -18.0456062      0.946242905      -18.0456062      0.309807586      71.1096799       
789.22           0.319838276      70.521546        0.942865245      -18.6511285      0.942865245      -18.6511285      0.319838276      70.521546        
816.4            0.329773434      69.9360493       0.939404379      -19.2530199      0.939404379      -19.2530199      0.329773434      69.9360493       
843.58           0.339611397      69.3533499       0.935862945      -19.8512064      0.935862945      -19.8512064      0.339611397      69.3533499       
870.76           0.349350619      68.7735941       0.9322436        -20.4456177      0.9322436        -20.4456177      0.349350619      68.7735941       
897.94           0.358989675      68.1969159       0.928549012      -21.0361874      0.928549012      -21.0361874      0.358989675      68.1969159       
925.12           0.368527254      67.6234381       0.924781855      -21.6228527      0.924781855      -21.6228527      0.368527254      67.6234381       
952.3            0.377962164      67.0532733       0.920944808      -22.2055543      0.920944808      -22.2055543      0.377962164      67.0532733       
979.48           0.387293322      66.486525        0.917040546      -22.7842371      0.917040546      -22.7842371      0.387293322      66.486525        
1006.66          0.39651976       65.9232882       0.913071735      -23.358849       0.913071735      -23.358849       0.39651976       65.9232882       
1033.84          0.40564062       65.36365         0.909041033      -23.9293421      0.909041033      -23.9293421      0.40564062       65.36365         
1061.02          0.414655147      64.8076901       0.904951081      -24.4956715      0.904951081      -24.4956715      0.414655147      64.8076901       
1088.2           0.423562694      64.2554817       0.900804501      -25.0577963      0.900804501      -25.0577963      0.423562694      64.2554817       
1115.38          0.432362717      63.7070914       0.896603893      -25.6156787      0.896603893      -25.6156787      0.432362717      63.7070914       
1142.56          0.441054766      63.16258         0.892351831      -26.1692843      0.892351831      -26.1692843      0.441054766      63.16258         
1169.74          0.449638493      62.6220026       0.888050858      -26.7185823      0.888050858      -26.7185823      0.449638493      62.6220026       
1196.92          0.45811364       62.0854091       0.883703488      -27.2635447      0.883703488      -27.2635447      0.45811364       62.0854091       
1224.1           0.46648004       61.5528442       0.879312198      -27.804147       0.879312198      -27.804147       0.46648004       61.5528442       
1251.28          0.474737612      61.0243481       0.874879428      -28.3403677      0.874879428      -28.3403677      0.474737612      61.0243481       
1278.46          0.482886361      60.4999564       0.87040758       -28.8721882      0.87040758       -28.8721882      0.482886361      60.4999564       
1305.64          0.490926372      59.9797005       0.865899014      -29.3995929      0.865899014      -29.3995929      0.490926372      59.9797005       
1332.82          0.498857805      59.4636076       0.861356045      -29.9225692      0.861356045      -29.9225692      0.498857805      59.4636076       
1360             0.506680896      58.9517013       0.856780945      -30.4411069      0.856780945      -30.4411069      0.506680896      58.9517013       
1387.18          0.514395954      58.4440013       0.852175938      -30.9551988      0.852175938      -30.9551988      0.514395954      58.4440013       
1414.36          0.522003351      57.940524        0.8475432        -31.4648401      0.8475432        -31.4648401      0.522003351      57.940524        
1441.54          0.529503526      57.4412824       0.84288486       -31.9700285      0.84288486       -31.9700285      0.529503526      57.4412824       
1468.72          0.536896979      56.9462863       0.838202995      -32.4707643      0.838202995      -32.4707643      0.536896979      56.9462863       
1495.9           0.544184266      56.4555425       0.833499631      -32.9670497      0.833499631      -32.9670497      0.544184266      56.4555425       
1523.08          0.551366002      55.9690551       0.828776745      -33.4588896      0.828776745      -33.4588896      0.551366002      55.9690551       
1550.26          0.558442848      55.4868254       0.82403626       -33.9462907      0.82403626       -33.9462907      0.558442848      55.4868254       
1577.44          0.565415517      55.0088521       0.819280047      -34.4292619      0.819280047      -34.4292619      0.565415517      55.0088521       
1604.62          0.572284768      54.5351314       0.814509924      -34.907814       0.814509924      -34.907814       0.572284768      54.5351314       
1631.8           0.5790514        54.0656574       0.809727659      -35.3819596      0.809727659      -35.3819596      0.5790514        54.0656574       
1658.98          0.585716254      53.6004216       0.804934963      -35.8517134      0.804934963      -35.8517134      0.585716254      53.6004216       
1686.16          0.592280208      53.1394139       0.800133497      -36.3170914      0.800133497      -36.3170914      0.592280208      53.1394139       
1713.34          0.598744172      52.6826218       0.795324871      -36.7781114      0.795324871      -36.7781114      0.598744172      52.6826218       
1740.52          0.605109091      52.2300312       0.79051064       -37.2347927      0.79051064       -37.2347927      0.605109091      52.2300312       
1767.7           0.611375937      51.7816262       0.785692308      -37.6871563      0.785692308      -37.6871563      0.611375937      51.7816262       
1794.88          0.617545709      51.337389        0.78087133       -38.1352241      0.78087133       -38.1352241      0.617545709      51.337389        
1822.06          0.623619431      50.8973006       0.776049108      -38.5790198      0.776049108      -38.5790198      0.623619431      50.8973006       
1849.24          0.629598148      50.4613403       0.771226995      -39.018568       0.771226995      -39.018568       0.629598148      50.4613403       
1876.42          0.635482927      50.0294861       0.766406293      -39.4538946      0.766406293      -39.4538946      0.635482927      50.0294861       
1903.6           0.64127485       49.6017145       0.761588258      -39.8850264      0.761588258      -39.8850264      0.64127485       49.6017145       
1930.78          0.646975017      49.178001        0.756774097      -40.3119916      0.756774097      -40.3119916      0.646975017      49.178001        
1957.96          0.65258454       48.75832         0.751964968      -40.7348189      0.751964968      -40.7348189      0.65258454       48.75832         
1985.14          0.658104544      48.3426447       0.747161986      -41.1535382      0.747161986      -41.1535382      0.658104544      48.3426447       
2012.32          0.663536165      47.9309473       0.742366218      -41.5681801      0.742366218      -41.5681801      0.663536165      47.9309473       
2039.5           0.668880545      47.5231993       0.737578688      -41.9787759      0.737578688      -41.9787759      0.668880545      47.5231993       
2066.68          0.674138836      47.1193709       0.732800377      -42.3853578      0.732800377      -42.3853578      0.674138836      47.1193709       
2093.86          0.679312192      46.7194321       0.728032222      -42.7879585      0.728032222      -42.7879585      0.679312192      46.7194321       
2121.04          0.684401774      46.3233518       0.723275119      -43.1866112      0.723275119      -43.1866112      0.684401774      46.3233518       
2148.22          0.689408744      45.9310982       0.718529924      -43.5813498      0.718529924      -43.5813498      0.689408744      45.9310982       
2175.4           0.694334265      45.5426392       0.713797454      -43.9722087      0.713797454      -43.9722087      0.694334265      45.5426392       
2202.58          0.699179501      45.1579419       0.709078485      -44.3592227      0.709078485      -44.3592227      0.699179501      45.1579419       
2229.76          0.703945614      44.7769731       0.704373759      -44.7424269      0.704373759      -44.7424269      0.703945614      44.7769731       
2256.94          0.708633764      44.3996989       0.69968398       -45.1218568      0.69968398       -45.1218568      0.708633764      44.3996989       
2284.12          0.713245108      44.0260851       0.695009815      -45.4975483      0.695009815      -45.4975483      0.713245108      44.0260851       
2311.3           0.7177808        43.6560974       0.690351899      -45.8695375      0.690351899      -45.8695375      0.7177808        43.6560974       
2338.48          0.722241986      43.2897008       0.685710832      -46.2378606      0.685710832      -46.2378606      0.722241986      43.2897008       
2365.66          0.726629809      42.9268604       0.681087184      -46.6025542      0.681087184      -46.6025542      0.726629809      42.9268604       
2392.84          0.730945403      42.5675407       0.676481491      -46.963655       0.676481491      -46.963655       0.730945403      42.5675407       
2420.02          0.735189897      42.2117063       0.671894259      -47.3211997      0.671894259      -47.3211997      0.735189897      42.2117063       
2447.2           0.73936441       41.8593216       0.667325966      -47.6752251      0.667325966      -47.6752251      0.73936441       41.8593216       
2474.38          0.743470053      41.5103507       0.662777061      -48.0257683      0.662777061      -48.0257683      0.743470053      41.5103507       
2501.56          0.747507928      41.1647578       0.658247965      -48.3728661      0.658247965      -48.3728661      0.747507928      41.1647578       
2528.74          0.751479127      40.822507        0.653739072      -48.7165555      0.653739072      -48.7165555      0.751479127      40.822507        
2555.92          0.755384731      40.4835624       0.649250753      -49.0568735      0.649250753      -49.0568735      0.755384731      40.4835624       
2583.1           0.759225811      40.147888        0.644783351      -49.3938568      0.644783351      -49.3938568      0.759225811      40.147888        
2610.28          0.763003428      39.8154478       0.640337187      -49.7275424      0.640337187      -49.7275424      0.763003428      39.8154478       
2637.46          0.76671863       39.4862061       0.635912558      -50.0579668      0.635912558      -50.0579668      0.76671863       39.4862061       
2664.64          0.770372453      39.160127        0.63150974       -50.3851666      0.63150974       -50.3851666      0.770372453      39.160127        
2691.82          0.773965923      38.8371747       0.627128988      -50.7091784      0.627128988      -50.7091784      0.773965923      38.8371747       
2719             0.777500051      38.5173138       0.622770534      -51.0300384      0.622770534      -51.0300384      0.777500051      38.5173138       
2746.18          0.780975837      38.2005088       0.618434592      -51.3477827      0.618434592      -51.3477827      0.780975837      38.2005088       
2773.36          0.784394268      37.8867242       0.614121359      -51.6624472      0.614121359      -51.6624472      0.784394268      37.8867242       
2800.54          0.787756319      37.5759251       0.609831009      -51.9740677      0.609831009      -51.9740677      0.787756319      37.5759251       
2827.72          0.79106295       37.2680763       0.605563704      -52.2826797      0.605563704      -52.2826797      0.79106295       37.2680763       
2854.9           0.79431511       36.9631432       0.601319584      -52.5883184      0.601319584      -52.5883184      0.79431511       36.9631432       
2882.08          0.797513733      36.6610912       0.597098778      -52.8910188      0.597098778      -52.8910188      0.797513733      36.6610912       
2909.26          0.800659739      36.361886        0.592901395      -53.1908158      0.592901395      -53.1908158      0.800659739      36.361886        
2936.44          0.803754038      36.0654934       0.588727532      -53.4877439      0.588727532      -53.4877439      0.803754038      36.0654934       
2963.62          0.806797524      35.7718795       0.584577272      -53.7818372      0.584577272      -53.7818372      0.806797524      35.7718795       
2990.8           0.809791077      35.4810109       0.580450683      -54.0731298      0.580450683      -54.0731298      0.809791077      35.4810109       
3017.98          0.812735565      35.1928542       0.57634782       -54.3616553      0.57634782       -54.3616553      0.812735565      35.1928542       
3045.16          0.815631843      34.9073762       0.572268728      -54.6474471      0.572268728      -54.6474471      0.815631843      34.9073762       
3072.34          0.81848075       34.6245442       0.568213437      -54.9305381      0.568213437      -54.9305381      0.81848075       34.6245442       
3099.52          0.821283115      34.3443257       0.564181968      -55.2109612      0.564181968      -55.2109612      0.821283115      34.3443257       
3126.7           0.824039751      34.0666885       0.560174332      -55.4887487      0.560174332      -55.4887487      0.824039751      34.0666885       
3153.88          0.82675146       33.7916007       0.556190526      -55.7639328      0.556190526      -55.7639328      0.82675146       33.7916007       
3181.06          0.829419028      33.5190307       0.552230541      -56.0365453      0.552230541      -56.0365453      0.829419028      33.5190307       
3208.24          0.832043231      33.2489472       0.548294358      -56.3066175      0.548294358      -56.3066175      0.832043231      33.2489472       
3235.42          0.834624829      32.9813192       0.544381946      -56.5741805      0.544381946      -56.5741805      0.834624829      32.9813192       
3262.6           0.837164572      32.716116        0.540493271      -56.8392652      0.540493271      -56.8392652      0.837164572      32.716116        
3289.78          0.839663196      32.4533074       0.536628286      -57.101902       0.536628286      -57.101902       0.839663196      32.4533074       
3316.96          0.842121424      32.1928632       0.53278694       -57.3621208      0.53278694       -57.3621208      0.842121424      32.1928632       
3344.14          0.844539966      31.9347538       0.528969173      -57.6199516      0.528969173      -57.6199516      0.844539966      31.9347538       
3371.32          0.846919521      31.6789499       0.525174917      -57.8754235      0.525174917      -57.8754235      0.846919521      31.6789499       
3398.5           0.849260775      31.4254223       0.521404101      -58.1285657      0.521404101      -58.1285657      0.849260775      31.4254223       
3425.68          0.851564401      31.1741424       0.517656646      -58.3794069      0.517656646      -58.3794069      0.851564401      31.1741424       
3452.86          0.853831063      30.9250818       0.513932466      -58.6279754      0.513932466      -58.6279754      0.853831063      30.9250818       
