! Coilcraft 1206CS-330 Chip Inductor				
! 29 July 2002			
# MHZ S MA R 50
!Freq             MagS11           AngS11           MagS21           AngS21           MagS12           AngS12           MagS22           AngS22
1                0.00265518436    55.6655807       0.998504824      -0.125811731     0.998504824      -0.125811731     0.00265518436    55.6655807       
7.48             0.016575847      80.9164036       0.99751738       -0.94019183      0.99751738       -0.94019183      0.016575847      80.9164036       
13.96            0.0307306791     82.9435944       0.996691561      -1.75347591      0.996691561      -1.75347591      0.0307306791     82.9435944       
20.44            0.044879276      83.3141426       0.995773045      -2.5656045       0.995773045      -2.5656045       0.044879276      83.3141426       
26.92            0.0590018561     83.1740909       0.994714093      -3.37638624      0.994714093      -3.37638624      0.0590018561     83.1740909       
33.4             0.0730882116     82.8052678       0.993496078      -4.18559387      0.993496078      -4.18559387      0.0730882116     82.8052678       
39.88            0.0871300714     82.3130656       0.992110164      -4.99298534      0.992110164      -4.99298534      0.0871300714     82.3130656       
46.36            0.101119812      81.7465468       0.990551998      -5.79831222      0.990551998      -5.79831222      0.101119812      81.7465468       
52.84            0.115050128      81.1319406       0.988819684      -6.60132395      0.988819684      -6.60132395      0.115050128      81.1319406       
59.32            0.128913938      80.4846933       0.986912862      -7.40177044      0.986912862      -7.40177044      0.128913938      80.4846933       
65.8             0.142704354      79.8145824       0.984832219      -8.19940377      0.984832219      -8.19940377      0.142704354      79.8145824       
72.28            0.156414682      79.1281565       0.982579214      -8.99397948      0.982579214      -8.99397948      0.156414682      79.1281565       
78.76            0.170038431      78.4300065       0.980155903      -9.78525756      0.980155903      -9.78525756      0.170038431      78.4300065       
85.24            0.183569319      77.7234751       0.977564824      -10.5730032      0.977564824      -10.5730032      0.183569319      77.7234751       
91.72            0.197001292      77.0110761       0.974808919      -11.3569876      0.974808919      -11.3569876      0.197001292      77.0110761       
98.2             0.210328527      76.2947525       0.971891467      -12.1369883      0.971891467      -12.1369883      0.210328527      76.2947525       
104.68           0.22354545       75.5760424       0.96881604       -12.9127899      0.96881604       -12.9127899      0.22354545       75.5760424       
111.16           0.23664674       74.8561886       0.965586465      -13.6841843      0.965586465      -13.6841843      0.23664674       74.8561886       
117.64           0.24962734       74.1362143       0.962206786      -14.4509711      0.962206786      -14.4509711      0.24962734       74.1362143       
124.12           0.262482462      73.4169746       0.958681242      -15.2129582      0.958681242      -15.2129582      0.262482462      73.4169746       
130.6            0.275207591      72.6991942       0.955014231      -15.9699614      0.955014231      -15.9699614      0.275207591      72.6991942       
137.08           0.287798493      71.9834944       0.951210297      -16.7218051      0.951210297      -16.7218051      0.287798493      71.9834944       
143.56           0.300251212      71.2704133       0.947274098      -17.4683226      0.947274098      -17.4683226      0.300251212      71.2704133       
150.04           0.312562077      70.5604208       0.943210393      -18.2093555      0.943210393      -18.2093555      0.312562077      70.5604208       
156.52           0.324727697      69.8539303       0.939024018      -18.9447547      0.939024018      -18.9447547      0.324727697      69.8539303       
163              0.336744965      69.1513073       0.93471987       -19.6743798      0.93471987       -19.6743798      0.336744965      69.1513073       
169.48           0.34861105       68.4528769       0.930302888      -20.3980991      0.930302888      -20.3980991      0.34861105       68.4528769       
175.96           0.360323398      67.7589286       0.92577804       -21.1157902      0.92577804       -21.1157902      0.360323398      67.7589286       
182.44           0.371879728      67.0697214       0.921150305      -21.8273392      0.921150305      -21.8273392      0.371879728      67.0697214       
188.92           0.383278023      66.3854873       0.916424659      -22.532641       0.916424659      -22.532641       0.383278023      66.3854873       
195.4            0.39451653       65.7064339       0.911606063      -23.2315994      0.911606063      -23.2315994      0.39451653       65.7064339       
201.88           0.405593749      65.0327472       0.906699447      -23.9241265      0.906699447      -23.9241265      0.405593749      65.0327472       
208.36           0.416508426      64.3645937       0.901709705      -24.6101428      0.901709705      -24.6101428      0.416508426      64.3645937       
214.84           0.42725955       63.7021218       0.896641677      -25.2895771      0.896641677      -25.2895771      0.42725955       63.7021218       
221.32           0.437846339      63.0454637       0.891500143      -25.9623661      0.891500143      -25.9623661      0.437846339      63.0454637       
227.8            0.448268234      62.3947366       0.886289814      -26.6284544      0.886289814      -26.6284544      0.448268234      62.3947366       
234.28           0.458524893      61.7500437       0.88101532       -27.2877943      0.88101532       -27.2877943      0.458524893      61.7500437       
240.76           0.468616175      61.1114755       0.87568121       -27.9403452      0.87568121       -27.9403452      0.468616175      61.1114755       
247.24           0.478542139      60.4791102       0.870291936      -28.586074       0.870291936      -28.586074       0.478542139      60.4791102       
253.72           0.488303027      59.8530153       0.864851854      -29.2249543      0.864851854      -29.2249543      0.488303027      59.8530153       
260.2            0.497899259      59.2332475       0.859365216      -29.8569663      0.859365216      -29.8569663      0.497899259      59.2332475       
266.68           0.507331422      58.6198542       0.853836166      -30.4820968      0.853836166      -30.4820968      0.507331422      58.6198542       
273.16           0.516600261      58.0128733       0.848268736      -31.1003384      0.848268736      -31.1003384      0.516600261      58.0128733       
279.64           0.525706669      57.4123344       0.842666844      -31.71169        0.842666844      -31.71169        0.525706669      57.4123344       
286.12           0.534651677      56.8182593       0.837034288      -32.3161557      0.837034288      -32.3161557      0.534651677      56.8182593       
292.6            0.543436447      56.2306622       0.831374748      -32.9137451      0.831374748      -32.9137451      0.543436447      56.2306622       
299.08           0.55206226       55.6495501       0.825691782      -33.504473       0.825691782      -33.504473       0.55206226       55.6495501       
305.56           0.56053051       55.0749239       0.819988826      -34.0883589      0.819988826      -34.0883589      0.56053051       55.0749239       
312.04           0.568842691      54.5067781       0.814269193      -34.6654267      0.814269193      -34.6654267      0.568842691      54.5067781       
318.52           0.577000396      53.9451017       0.808536073      -35.2357048      0.808536073      -35.2357048      0.577000396      53.9451017       
325              0.585005301      53.3898782       0.802792534      -35.7992256      0.802792534      -35.7992256      0.585005301      53.3898782       
331.48           0.592859161      52.8410863       0.797041521      -36.3560253      0.797041521      -36.3560253      0.592859161      52.8410863       
337.96           0.600563804      52.2987001       0.791285858      -36.9061437      0.791285858      -36.9061437      0.600563804      52.2987001       
344.44           0.608121119      51.7626891       0.785528252      -37.4496237      0.785528252      -37.4496237      0.608121119      51.7626891       
350.92           0.615533054      51.2330193       0.779771288      -37.9865117      0.779771288      -37.9865117      0.615533054      51.2330193       
357.4            0.622801607      50.7096527       0.774017437      -38.5168566      0.774017437      -38.5168566      0.622801607      50.7096527       
363.88           0.629928819      50.1925481       0.768269054      -39.0407102      0.768269054      -39.0407102      0.629928819      50.1925481       
370.36           0.63691677       49.6816608       0.762528385      -39.5581267      0.762528385      -39.5581267      0.63691677       49.6816608       
376.84           0.64376757       49.1769436       0.756797563      -40.0691624      0.756797563      -40.0691624      0.64376757       49.1769436       
383.32           0.650483359      48.6783466       0.751078616      -40.573876       0.751078616      -40.573876       0.650483359      48.6783466       
389.8            0.657066296      48.1858173       0.745373466      -41.0723278      0.745373466      -41.0723278      0.657066296      48.1858173       
396.28           0.663518559      47.6993012       0.739683934      -41.5645799      0.739683934      -41.5645799      0.663518559      47.6993012       
402.76           0.669842337      47.2187417       0.734011741      -42.0506959      0.734011741      -42.0506959      0.669842337      47.2187417       
409.24           0.676039829      46.7440804       0.728358513      -42.5307409      0.728358513      -42.5307409      0.676039829      46.7440804       
415.72           0.682113236      46.2752572       0.722725783      -43.004781       0.722725783      -43.004781       0.682113236      46.2752572       
422.2            0.688064763      45.8122109       0.717114993      -43.4728837      0.717114993      -43.4728837      0.688064763      45.8122109       
428.68           0.693896609      45.3548786       0.711527498      -43.9351172      0.711527498      -43.9351172      0.693896609      45.3548786       
435.16           0.699610968      44.9031966       0.705964569      -44.3915506      0.705964569      -44.3915506      0.699610968      44.9031966       
441.64           0.705210028      44.4571          0.700427395      -44.8422536      0.700427395      -44.8422536      0.705210028      44.4571          
448.12           0.710695963      44.0165233       0.694917086      -45.2872964      0.694917086      -45.2872964      0.710695963      44.0165233       
454.6            0.716070932      43.5814          0.68943468       -45.72675        0.68943468       -45.72675        0.716070932      43.5814          
461.08           0.721337082      43.1516632       0.683981138      -46.1606854      0.683981138      -46.1606854      0.721337082      43.1516632       
467.56           0.726496537      42.7272455       0.678557355      -46.5891739      0.678557355      -46.5891739      0.726496537      42.7272455       
474.04           0.731551405      42.3080791       0.673164158      -47.0122871      0.673164158      -47.0122871      0.731551405      42.3080791       
480.52           0.736503771      41.894096        0.667802308      -47.4300967      0.667802308      -47.4300967      0.736503771      41.894096        
487              0.741355695      41.485228        0.662472508      -47.842674       0.662472508      -47.842674       0.741355695      41.485228        
493.48           0.746109214      41.0814068       0.657175401      -48.2500908      0.657175401      -48.2500908      0.746109214      41.0814068       
499.96           0.75076634       40.682564        0.651911573      -48.6524182      0.651911573      -48.6524182      0.75076634       40.682564        
506.44           0.755329055      40.2886315       0.646681557      -49.0497274      0.646681557      -49.0497274      0.755329055      40.2886315       
512.92           0.759799318      39.8995411       0.641485837      -49.4420892      0.641485837      -49.4420892      0.759799318      39.8995411       
519.4            0.764179054      39.515225        0.636324844      -49.829574       0.636324844      -49.829574       0.764179054      39.515225        
525.88           0.768470162      39.1356155       0.631198966      -50.2122521      0.631198966      -50.2122521      0.768470162      39.1356155       
532.36           0.772674511      38.7606453       0.626108547      -50.5901929      0.626108547      -50.5901929      0.772674511      38.7606453       
538.84           0.776793938      38.3902476       0.621053887      -50.9634657      0.621053887      -50.9634657      0.776793938      38.3902476       
545.32           0.78083025       38.0243558       0.616035248      -51.332139       0.616035248      -51.332139       0.78083025       38.0243558       
551.8            0.784785222      37.6629038       0.611052852      -51.6962809      0.611052852      -51.6962809      0.784785222      37.6629038       
558.28           0.7886606        37.3058262       0.606106888      -52.0559589      0.606106888      -52.0559589      0.7886606        37.3058262       
564.76           0.792458096      36.953058        0.601197509      -52.4112397      0.601197509      -52.4112397      0.792458096      36.953058        
571.24           0.79617939       36.6045346       0.596324836      -52.7621895      0.596324836      -52.7621895      0.79617939       36.6045346       
577.72           0.799826133      36.2601924       0.59148896       -53.1088737      0.59148896       -53.1088737      0.799826133      36.2601924       
584.2            0.803399942      35.9199681       0.586689944      -53.4513572      0.586689944      -53.4513572      0.803399942      35.9199681       
590.68           0.806902404      35.5837991       0.581927823      -53.7897039      0.581927823      -53.7897039      0.806902404      35.5837991       
597.16           0.810335073      35.2516236       0.577202606      -54.1239771      0.577202606      -54.1239771      0.810335073      35.2516236       
603.64           0.813699473      34.9233805       0.572514279      -54.4542394      0.572514279      -54.4542394      0.813699473      34.9233805       
610.12           0.816997096      34.5990092       0.567862805      -54.7805524      0.567862805      -54.7805524      0.816997096      34.5990092       
616.6            0.820229405      34.2784501       0.563248124      -55.1029771      0.563248124      -55.1029771      0.820229405      34.2784501       
623.08           0.82339783       33.961644        0.558670159      -55.4215737      0.558670159      -55.4215737      0.82339783       33.961644        
629.56           0.826503772      33.6485328       0.554128811      -55.7364015      0.554128811      -55.7364015      0.826503772      33.6485328       
636.04           0.829548604      33.339059        0.549623967      -56.047519       0.549623967      -56.047519       0.829548604      33.339059        
642.52           0.832533665      33.0331659       0.545155495      -56.354984       0.545155495      -56.354984       0.832533665      33.0331659       
649              0.83546027       32.7307974       0.540723247      -56.6588533      0.540723247      -56.6588533      0.83546027       32.7307974       
655.48           0.838329702      32.4318984       0.536327064      -56.959183       0.536327064      -56.959183       0.838329702      32.4318984       
661.96           0.841143216      32.1364144       0.53196677       -57.2560284      0.53196677       -57.2560284      0.841143216      32.1364144       
668.44           0.843902041      31.844292        0.527642178      -57.5494438      0.527642178      -57.5494438      0.843902041      31.844292        
674.92           0.846607376      31.5554781       0.52335309       -57.8394829      0.52335309       -57.8394829      0.846607376      31.5554781       
681.4            0.849260396      31.2699207       0.519099297      -58.1261984      0.519099297      -58.1261984      0.849260396      31.2699207       
687.88           0.851862246      30.9875686       0.514880579      -58.4096422      0.514880579      -58.4096422      0.851862246      30.9875686       
694.36           0.854414049      30.7083713       0.510696709      -58.6898656      0.510696709      -58.6898656      0.854414049      30.7083713       
700.84           0.856916898      30.4322789       0.50654745       -58.9669188      0.50654745       -58.9669188      0.856916898      30.4322789       
707.32           0.859371865      30.1592426       0.502432557      -59.2408513      0.502432557      -59.2408513      0.859371865      30.1592426       
713.8            0.861779994      29.8892142       0.49835178       -59.5117118      0.49835178       -59.5117118      0.861779994      29.8892142       
720.28           0.864142308      29.6221461       0.49430486       -59.7795483      0.49430486       -59.7795483      0.864142308      29.6221461       
726.76           0.866459804      29.3579918       0.490291533      -60.0444078      0.490291533      -60.0444078      0.866459804      29.3579918       
733.24           0.868733456      29.0967054       0.486311531      -60.3063367      0.486311531      -60.3063367      0.868733456      29.0967054       
739.72           0.870964217      28.8382415       0.48236458       -60.5653805      0.48236458       -60.5653805      0.870964217      28.8382415       
746.2            0.873153016      28.5825559       0.478450401      -60.8215841      0.478450401      -60.8215841      0.873153016      28.5825559       
752.68           0.87530076       28.3296048       0.474568713      -61.0749914      0.474568713      -61.0749914      0.87530076       28.3296048       
759.16           0.877408337      28.0793452       0.470719231      -61.3256458      0.470719231      -61.3256458      0.877408337      28.0793452       
765.64           0.879476612      27.8317348       0.466901666      -61.5735897      0.466901666      -61.5735897      0.879476612      27.8317348       
772.12           0.88150643       27.5867321       0.463115728      -61.8188649      0.463115728      -61.8188649      0.88150643       27.5867321       
778.6            0.883498617      27.3442963       0.459361123      -62.0615126      0.459361123      -62.0615126      0.883498617      27.3442963       
785.08           0.885453978      27.1043871       0.455637557      -62.3015731      0.455637557      -62.3015731      0.885453978      27.1043871       
791.56           0.887373301      26.866965        0.451944734      -62.539086       0.451944734      -62.539086       0.887373301      26.866965        
798.04           0.889257354      26.6319913       0.448282356      -62.7740903      0.448282356      -62.7740903      0.889257354      26.6319913       
804.52           0.891106886      26.3994278       0.444650125      -63.0066243      0.444650125      -63.0066243      0.891106886      26.3994278       
811              0.89292263       26.1692369       0.441047741      -63.2367254      0.441047741      -63.2367254      0.89292263       26.1692369       
817.48           0.8947053        25.941382        0.437474906      -63.4644307      0.437474906      -63.4644307      0.8947053        25.941382        
823.96           0.896455596      25.7158266       0.43393132       -63.6897764      0.43393132       -63.6897764      0.896455596      25.7158266       
