! Coilcraft 1206CS-120 Chip Inductor				
! 29 July 2002			
# MHZ S MA R 50
!Freq             MagS11           AngS11           MagS21           AngS21           MagS12           AngS12           MagS22           AngS22
1                0.00156991129    36.7861585       0.998743138      -0.05393214      0.998743138      -0.05393214      0.00156991129    36.7861585       
13.22            0.0125841354     80.4460906       0.997988499      -0.712468696     0.997988499      -0.712468696     0.0125841354     80.4460906       
25.44            0.0240254339     83.147072        0.997418535      -1.37038937      0.997418535      -1.37038937      0.0240254339     83.147072        
37.66            0.0354762275     83.8094957       0.996798592      -2.02769886      0.996798592      -2.02769886      0.0354762275     83.8094957       
49.88            0.0469172791     83.880109        0.996091159      -2.68431281      0.996091159      -2.68431281      0.0469172791     83.880109        
62.1             0.058341341      83.693047        0.995281641      -3.34012381      0.995281641      -3.34012381      0.058341341      83.693047        
74.32            0.0697434578     83.369212        0.994362845      -3.99501455      0.994362845      -3.99501455      0.0697434578     83.369212        
86.54            0.0811193817     82.9636314       0.993330868      -4.64886282      0.993330868      -4.64886282      0.0811193817     82.9636314       
98.76            0.092465156      82.5052041       0.992183556      -5.30154393      0.992183556      -5.30154393      0.092465156      82.5052041       
110.98           0.103776978      82.0106867       0.99091981       -5.95293214      0.99091981       -5.95293214      0.103776978      82.0106867       
123.2            0.115051147      81.490533        0.989539226      -6.60290153      0.989539226      -6.60290153      0.115051147      81.490533        
135.42           0.126284047      80.9516448       0.988041896      -7.25132668      0.988041896      -7.25132668      0.126284047      80.9516448       
147.64           0.137472137      80.3987908       0.986428282      -7.89808311      0.986428282      -7.89808311      0.137472137      80.3987908       
159.86           0.148611953      79.8353917       0.984699141      -8.54304763      0.984699141      -8.54304763      0.148611953      79.8353917       
172.08           0.159700109      79.2639798       0.982855469      -9.18609873      0.982855469      -9.18609873      0.159700109      79.2639798       
184.3            0.170733301      78.6864815       0.980898462      -9.82711676      0.980898462      -9.82711676      0.170733301      78.6864815       
196.52           0.181708308      78.1043973       0.978829492      -10.4659842      0.978829492      -10.4659842      0.181708308      78.1043973       
208.74           0.192621999      77.51892         0.976650078      -11.1025858      0.976650078      -11.1025858      0.192621999      77.51892         
220.96           0.203471337      76.9310161       0.974361877      -11.7368089      0.974361877      -11.7368089      0.203471337      76.9310161       
233.18           0.214253378      76.341481        0.971966663      -12.3685433      0.971966663      -12.3685433      0.214253378      76.341481        
245.4            0.22496528       75.7509793       0.969466318      -12.9976817      0.969466318      -12.9976817      0.22496528       75.7509793       
257.62           0.2356043        75.1600738       0.96686282       -13.6241197      0.96686282       -13.6241197      0.2356043        75.1600738       
269.84           0.246167801      74.5692463       0.964158234      -14.2477559      0.964158234      -14.2477559      0.246167801      74.5692463       
282.06           0.256653255      73.9789141       0.961354703      -14.868492       0.961354703      -14.868492       0.256653255      73.9789141       
294.28           0.26705824       73.3894414       0.958454441      -15.4862328      0.958454441      -15.4862328      0.26705824       73.3894414       
306.5            0.277380445      72.8011495       0.955459723      -16.1008863      0.955459723      -16.1008863      0.277380445      72.8011495       
318.72           0.287617671      72.2143232       0.952372881      -16.7123642      0.952372881      -16.7123642      0.287617671      72.2143232       
330.94           0.297767832      71.6292172       0.949196295      -17.3205811      0.949196295      -17.3205811      0.297767832      71.6292172       
343.16           0.307828954      71.04606         0.945932388      -17.9254553      0.945932388      -17.9254553      0.307828954      71.04606         
355.38           0.317799177      70.4650581       0.942583619      -18.5269085      0.942583619      -18.5269085      0.317799177      70.4650581       
367.6            0.327676755      69.8863985       0.939152477      -19.1248658      0.939152477      -19.1248658      0.327676755      69.8863985       
379.82           0.337460053      69.3102514       0.935641477      -19.7192557      0.935641477      -19.7192557      0.337460053      69.3102514       
392.04           0.34714755       68.736772        0.932053153      -20.3100104      0.932053153      -20.3100104      0.34714755       68.736772        
404.26           0.356737838      68.1661022       0.928390052      -20.8970655      0.928390052      -20.8970655      0.356737838      68.1661022       
416.48           0.366229616      67.5983719       0.924654732      -21.48036        0.924654732      -21.48036        0.366229616      67.5983719       
428.7            0.375621695      67.0337004       0.920849756      -22.0598365      0.920849756      -22.0598365      0.375621695      67.0337004       
440.92           0.384912993      66.4721971       0.916977686      -22.6354409      0.916977686      -22.6354409      0.384912993      66.4721971       
453.14           0.394102535      65.9139623       0.913041079      -23.2071226      0.913041079      -23.2071226      0.394102535      65.9139623       
465.36           0.403189446      65.3590884       0.909042487      -23.7748343      0.909042487      -23.7748343      0.403189446      65.3590884       
477.58           0.412172959      64.8076599       0.904984447      -24.3385321      0.904984447      -24.3385321      0.412172959      64.8076599       
489.8            0.421052401      64.2597544       0.900869481      -24.8981754      0.900869481      -24.8981754      0.421052401      64.2597544       
502.02           0.429827199      63.7154428       0.896700091      -25.4537268      0.896700091      -25.4537268      0.429827199      63.7154428       
514.24           0.438496876      63.1747899       0.892478759      -26.005152       0.892478759      -26.005152       0.438496876      63.1747899       
526.46           0.447061045      62.6378549       0.888207939      -26.5524199      0.888207939      -26.5524199      0.447061045      62.6378549       
538.68           0.455519409      62.1046913       0.883890057      -27.0955026      0.883890057      -27.0955026      0.455519409      62.1046913       
550.9            0.463871758      61.5753477       0.87952751       -27.6343749      0.87952751       -27.6343749      0.463871758      61.5753477       
563.12           0.472117964      61.0498679       0.875122658      -28.1690147      0.875122658      -28.1690147      0.472117964      61.0498679       
575.34           0.480257984      60.5282908       0.870677829      -28.6994028      0.870677829      -28.6994028      0.480257984      60.5282908       
587.56           0.488291847      60.0106515       0.866195311      -29.2255226      0.866195311      -29.2255226      0.488291847      60.0106515       
599.78           0.496219662      59.4969806       0.861677353      -29.7473604      0.861677353      -29.7473604      0.496219662      59.4969806       
612              0.504041608      58.987305        0.857126163      -30.264905       0.857126163      -30.264905       0.504041608      58.987305        
624.22           0.511757931      58.4816478       0.852543905      -30.7781477      0.852543905      -30.7781477      0.511757931      58.4816478       
636.44           0.519368945      57.9800287       0.847932701      -31.2870824      0.847932701      -31.2870824      0.519368945      57.9800287       
648.66           0.526875027      57.4824641       0.843294627      -31.7917053      0.843294627      -31.7917053      0.526875027      57.4824641       
660.88           0.534276612      56.988967        0.83863171       -32.2920149      0.83863171       -32.2920149      0.534276612      56.988967        
673.1            0.541574192      56.4995477       0.833945934      -32.7880119      0.833945934      -32.7880119      0.541574192      56.4995477       
685.32           0.548768314      56.0142133       0.829239232      -33.2796992      0.829239232      -33.2796992      0.548768314      56.0142133       
697.54           0.555859574      55.5329684       0.824513491      -33.7670817      0.824513491      -33.7670817      0.555859574      55.5329684       
709.76           0.562848619      55.0558149       0.819770546      -34.2501664      0.819770546      -34.2501664      0.562848619      55.0558149       
721.98           0.569736139      54.5827524       0.815012186      -34.728962       0.815012186      -34.728962       0.569736139      54.5827524       
734.2            0.576522865      54.113778        0.810240147      -35.2034792      0.810240147      -35.2034792      0.576522865      54.113778        
746.42           0.583209572      53.6488867       0.805456119      -35.6737302      0.805456119      -35.6737302      0.583209572      53.6488867       
758.64           0.589797068      53.1880712       0.80066174       -36.139729       0.80066174       -36.139729       0.589797068      53.1880712       
770.86           0.596286198      52.7313224       0.7958586        -36.6014913      0.7958586        -36.6014913      0.596286198      52.7313224       
783.08           0.602677838      52.2786292       0.791048239      -37.0590341      0.791048239      -37.0590341      0.602677838      52.2786292       
795.3            0.608972894      51.8299789       0.786232147      -37.5123759      0.786232147      -37.5123759      0.608972894      51.8299789       
807.52           0.6151723        51.3853569       0.781411768      -37.9615366      0.781411768      -37.9615366      0.6151723        51.3853569       
819.74           0.621277014      50.9447471       0.776588495      -38.4065373      0.776588495      -38.4065373      0.621277014      50.9447471       
831.96           0.627288017      50.5081319       0.771763675      -38.8474002      0.771763675      -38.8474002      0.627288017      50.5081319       
844.18           0.633206312      50.0754923       0.766938607      -39.2841491      0.766938607      -39.2841491      0.633206312      50.0754923       
856.4            0.639032918      49.646808        0.762114546      -39.7168083      0.762114546      -39.7168083      0.639032918      49.646808        
868.62           0.644768873      49.2220572       0.757292697      -40.1454035      0.757292697      -40.1454035      0.644768873      49.2220572       
880.84           0.65041523       48.8012174       0.752474222      -40.5699611      0.752474222      -40.5699611      0.65041523       48.8012174       
893.06           0.655973054      48.3842646       0.747660239      -40.9905087      0.747660239      -40.9905087      0.655973054      48.3842646       
905.28           0.661443422      47.9711739       0.742851823      -41.4070744      0.742851823      -41.4070744      0.661443422      47.9711739       
917.5            0.66682742       47.5619196       0.738050004      -41.8196872      0.738050004      -41.8196872      0.66682742       47.5619196       
929.72           0.672126143      47.156475        0.733255772      -42.2283769      0.733255772      -42.2283769      0.672126143      47.156475        
941.94           0.677340693      46.7548124       0.728470075      -42.6331739      0.728470075      -42.6331739      0.677340693      46.7548124       
954.16           0.682472175      46.3569036       0.723693821      -43.034109       0.723693821      -43.034109       0.682472175      46.3569036       
966.38           0.6875217        45.9627197       0.718927879      -43.4312139      0.718927879      -43.4312139      0.6875217        45.9627197       
978.6            0.692490381      45.572231        0.71417308       -43.8245207      0.71417308       -43.8245207      0.692490381      45.572231        
990.82           0.697379333      45.1854073       0.709430217      -44.2140617      0.709430217      -44.2140617      0.697379333      45.1854073       
1003.04          0.702189671      44.8022178       0.704700046      -44.59987        0.704700046      -44.59987        0.702189671      44.8022178       
1015.26          0.706922508      44.4226313       0.699983289      -44.9819788      0.699983289      -44.9819788      0.706922508      44.4226313       
1027.48          0.711578956      44.0466162       0.695280633      -45.3604218      0.695280633      -45.3604218      0.711578956      44.0466162       
1039.7           0.716160124      43.6741402       0.69059273       -45.7352328      0.69059273       -45.7352328      0.716160124      43.6741402       
1051.92          0.720667119      43.3051711       0.685920201      -46.1064462      0.685920201      -46.1064462      0.720667119      43.3051711       
1064.14          0.725101041      42.9396761       0.681263635      -46.4740962      0.681263635      -46.4740962      0.725101041      42.9396761       
1076.36          0.729462985      42.5776222       0.67662359       -46.8382174      0.67662359       -46.8382174      0.729462985      42.5776222       
1088.58          0.733754041      42.2189761       0.672000594      -47.1988446      0.672000594      -47.1988446      0.733754041      42.2189761       
1100.8           0.737975293      41.8637044       0.667395145      -47.5560127      0.667395145      -47.5560127      0.737975293      41.8637044       
1113.02          0.742127815      41.5117736       0.662807716      -47.9097564      0.662807716      -47.9097564      0.742127815      41.5117736       
1125.24          0.746212676      41.1631497       0.65823875       -48.2601109      0.65823875       -48.2601109      0.746212676      41.1631497       
1137.46          0.750230933      40.8177992       0.653688664      -48.6071112      0.653688664      -48.6071112      0.750230933      40.8177992       
1149.68          0.754183637      40.4756879       0.649157851      -48.9507923      0.649157851      -48.9507923      0.754183637      40.4756879       
1161.9           0.75807183       40.136782        0.644646679      -49.2911892      0.644646679      -49.2911892      0.75807183       40.136782        
1174.12          0.76189654       39.8010476       0.640155492      -49.6283369      0.640155492      -49.6283369      0.76189654       39.8010476       
1186.34          0.765658789      39.4684505       0.635684612      -49.9622703      0.635684612      -49.9622703      0.765658789      39.4684505       
1198.56          0.769359586      39.138957        0.631234337      -50.2930242      0.631234337      -50.2930242      0.769359586      39.138957        
1210.78          0.77299993       38.812533        0.626804945      -50.6206333      0.626804945      -50.6206333      0.77299993       38.812533        
1223             0.776580808      38.4891449       0.622396694      -50.9451323      0.622396694      -50.9451323      0.776580808      38.4891449       
1235.22          0.780103198      38.1687589       0.618009821      -51.2665556      0.618009821      -51.2665556      0.780103198      38.1687589       
1247.44          0.783568062      37.8513413       0.613644546      -51.5849375      0.613644546      -51.5849375      0.783568062      37.8513413       
1259.66          0.786976353      37.5368587       0.609301068      -51.9003121      0.609301068      -51.9003121      0.786976353      37.5368587       
1271.88          0.790329013      37.2252777       0.604979571      -52.2127135      0.604979571      -52.2127135      0.790329013      37.2252777       
1284.1           0.793626968      36.9165651       0.600680221      -52.5221753      0.600680221      -52.5221753      0.793626968      36.9165651       
1296.32          0.796871135      36.6106879       0.596403167      -52.828731       0.596403167      -52.828731       0.796871135      36.6106879       
1308.54          0.800062417      36.3076134       0.592148544      -53.132414       0.592148544      -53.132414       0.800062417      36.3076134       
1320.76          0.803201706      36.0073087       0.587916471      -53.4332574      0.587916471      -53.4332574      0.803201706      36.0073087       
1332.98          0.806289879      35.7097416       0.583707053      -53.731294       0.583707053      -53.731294       0.806289879      35.7097416       
1345.2           0.809327802      35.4148798       0.579520381      -54.0265564      0.579520381      -54.0265564      0.809327802      35.4148798       
1357.42          0.812316328      35.1226913       0.575356533      -54.3190768      0.575356533      -54.3190768      0.812316328      35.1226913       
1369.64          0.815256298      34.8331444       0.571215575      -54.6088873      0.571215575      -54.6088873      0.815256298      34.8331444       
1381.86          0.818148539      34.5462075       0.56709756       -54.8960198      0.56709756       -54.8960198      0.818148539      34.5462075       
1394.08          0.820993866      34.2618495       0.56300253       -55.1805056      0.56300253       -55.1805056      0.820993866      34.2618495       
1406.3           0.823793081      33.9800393       0.558930516      -55.4623759      0.558930516      -55.4623759      0.823793081      33.9800393       
1418.52          0.826546975      33.7007462       0.554881539      -55.7416617      0.554881539      -55.7416617      0.826546975      33.7007462       
1430.74          0.829256326      33.4239398       0.550855608      -56.0183936      0.550855608      -56.0183936      0.829256326      33.4239398       
1442.96          0.831921896      33.14959         0.546852725      -56.2926017      0.546852725      -56.2926017      0.831921896      33.14959         
1455.18          0.834544441      32.8776667       0.54287288       -56.5643161      0.54287288       -56.5643161      0.834544441      32.8776667       
1467.4           0.837124698      32.6081405       0.538916058      -56.8335665      0.538916058      -56.8335665      0.837124698      32.6081405       
1479.62          0.839663397      32.340982        0.534982232      -57.1003821      0.534982232      -57.1003821      0.839663397      32.340982        
1491.84          0.842161253      32.0761622       0.53107137       -57.364792       0.53107137       -57.364792       0.842161253      32.0761622       
1504.06          0.844618971      31.8136524       0.52718343       -57.6268249      0.52718343       -57.6268249      0.844618971      31.8136524       
1516.28          0.847037242      31.5534242       0.523318365      -57.8865091      0.523318365      -57.8865091      0.847037242      31.5534242       
1528.5           0.849416746      31.2954495       0.51947612       -58.1438727      0.51947612       -58.1438727      0.849416746      31.2954495       
1540.72          0.851758151      31.0397004       0.515656634      -58.3989434      0.515656634      -58.3989434      0.851758151      31.0397004       
1552.94          0.854062116      30.7861494       0.511859839      -58.6517486      0.511859839      -58.6517486      0.854062116      30.7861494       
