! Coilcraft 1206CS-621 Chip Inductor				
! 29 July 2002			
# MHZ S MA R 50
!Freq             MagS11           AngS11           MagS21           AngS21           MagS12           AngS12           MagS22           AngS22
1                0.0433499159     58.5055092       0.978052036      -2.16592666      0.978052036      -2.16592666      0.0433499159     58.5055092       
2.99             0.114766262      70.6122771       0.967975157      -6.42139218      0.967975157      -6.42139218      0.114766262      70.6122771       
4.98             0.18587891       70.563398        0.954381209      -10.583266       0.954381209      -10.583266       0.18587891       70.563398        
6.97             0.254232775      68.4560766       0.93697302       -14.6182598      0.93697302       -14.6182598      0.254232775      68.4560766       
8.96             0.318879945      65.7165362       0.916190393      -18.4970068      0.916190393      -18.4970068      0.318879945      65.7165362       
10.95            0.379247802      62.7780378       0.892672147      -22.1968655      0.892672147      -22.1968655      0.379247802      62.7780378       
12.94            0.435025481      59.8216799       0.867109419      -25.7025269      0.867109419      -25.7025269      0.435025481      59.8216799       
14.93            0.486114542      56.9361371       0.840169584      -29.005638       0.840169584      -29.005638       0.486114542      56.9361371       
16.92            0.532583289      54.1675946       0.812452509      -32.1038843      0.812452509      -32.1038843      0.532583289      54.1675946       
18.91            0.574621721      51.53959         0.784468545      -34.9998248      0.784468545      -34.9998248      0.574621721      51.53959         
20.9             0.612500517      49.0624428       0.756631974      -37.6996896      0.756631974      -37.6996896      0.612500517      49.0624428       
22.89            0.646536743      46.738389        0.729264669      -40.2122752      0.729264669      -40.2122752      0.646536743      46.738389        
24.88            0.677067228      44.564659        0.702605677      -42.5480055      0.702605677      -42.5480055      0.677067228      44.564659        
26.87            0.704429324      42.5354395       0.676823499      -44.718182       0.676823499      -44.718182       0.704429324      42.5354395       
28.86            0.72894796       40.643164        0.652028875      -46.7344147      0.652028875      -46.7344147      0.72894796       40.643164        
30.85            0.750927691      38.8793731       0.628286786      -48.6082133      0.628286786      -48.6082133      0.750927691      38.8793731       
32.84            0.770648457      37.235285        0.605626991      -50.350706       0.605626991      -50.350706       0.770648457      37.235285        
34.83            0.78836395       35.7021679       0.58405289       -51.9724616      0.58405289       -51.9724616      0.78836395       35.7021679       
36.82            0.804301705      34.2715759       0.563548718      -53.4833863      0.563548718      -53.4833863      0.804301705      34.2715759       
38.81            0.818664278      32.9354897       0.544085251      -54.8926755      0.544085251      -54.8926755      0.818664278      32.9354897       
40.8             0.831631022      31.6863935       0.525624217      -56.2088037      0.525624217      -56.2088037      0.831631022      31.6863935       
42.79            0.843360166      30.5173084       0.508121661      -57.4395404      0.508121661      -57.4395404      0.843360166      30.5173084       
44.78            0.853990958      29.4217958       0.491530452      -58.5919812      0.491530452      -58.5919812      0.853990958      29.4217958       
46.77            0.863645772      28.3939446       0.475802123      -59.6725892      0.475802123      -59.6725892      0.863645772      28.3939446       
48.76            0.872432081      27.4283452       0.460888195      -60.6872405      0.460888195      -60.6872405      0.872432081      27.4283452       
50.75            0.880444264      26.5200585       0.446741102      -61.6412721      0.446741102      -61.6412721      0.880444264      26.5200585       
52.74            0.887765241      25.6645815       0.433314823      -62.5395281      0.433314823      -62.5395281      0.887765241      25.6645815       
54.73            0.894467917      24.8578124       0.420565285      -63.3864049      0.420565285      -63.3864049      0.894467917      24.8578124       
56.72            0.900616464      24.0960159       0.408450607      -64.1858932      0.408450607      -64.1858932      0.900616464      24.0960159       
58.71            0.906267439      23.3757908       0.396931222      -64.9416173      0.396931222      -64.9416173      0.906267439      23.3757908       
60.7             0.911470762      22.6940389       0.385969918      -65.6568711      0.385969918      -65.6568711      0.911470762      22.6940389       
62.69            0.916270566      22.0479366       0.375531811      -66.3346503      0.375531811      -66.3346503      0.916270566      22.0479366       
64.68            0.92070593       21.4349088       0.365584285      -66.9776824      0.365584285      -66.9776824      0.92070593       21.4349088       
66.67            0.924811523      20.8526047       0.356096903      -67.5884534      0.356096903      -67.5884534      0.924811523      20.8526047       
68.66            0.928618153      20.2988767       0.347041297      -68.1692316      0.347041297      -68.1692316      0.928618153      20.2988767       
70.65            0.932153253      19.7717605       0.338391057      -68.7220892      0.338391057      -68.7220892      0.932153253      19.7717605       
72.64            0.935441287      19.2694574       0.330121605      -69.2489216      0.330121605      -69.2489216      0.935441287      19.2694574       
74.63            0.93850412       18.7903187       0.322210083      -69.7514648      0.322210083      -69.7514648      0.93850412       18.7903187       
76.62            0.941361323      18.3328312       0.314635231      -70.2313105      0.314635231      -70.2313105      0.941361323      18.3328312       
78.61            0.944030452      17.8956044       0.307377275      -70.6899203      0.307377275      -70.6899203      0.944030452      17.8956044       
80.6             0.946527277      17.4773593       0.300417822      -71.1286381      0.300417822      -71.1286381      0.946527277      17.4773593       
82.59            0.948865994      17.0769178       0.293739754      -71.5487009      0.293739754      -71.5487009      0.948865994      17.0769178       
84.58            0.951059402      16.6931932       0.287327138      -71.9512487      0.287327138      -71.9512487      0.951059402      16.6931932       
86.57            0.953119061      16.3251824       0.281165133      -72.3373339      0.281165133      -72.3373339      0.953119061      16.3251824       
88.56            0.955055429      15.971958        0.27523991       -72.7079287      0.27523991       -72.7079287      0.955055429      15.971958        
90.55            0.956877982      15.6326618       0.269538575      -73.0639325      0.269538575      -73.0639325      0.956877982      15.6326618       
92.54            0.958595322      15.3064986       0.264049095      -73.4061787      0.264049095      -73.4061787      0.958595322      15.3064986       
94.53            0.960215268      14.9927307       0.25876024       -73.7354398      0.25876024       -73.7354398      0.960215268      14.9927307       
96.52            0.961744938      14.6906729       0.253661514      -74.0524332      0.253661514      -74.0524332      0.961744938      14.6906729       
98.51            0.963190825      14.3996884       0.248743104      -74.3578256      0.248743104      -74.3578256      0.963190825      14.3996884       
100.5            0.964558854      14.1191844       0.243995832      -74.6522374      0.243995832      -74.6522374      0.964558854      14.1191844       
102.49           0.965854447      13.8486085       0.239411102      -74.9362466      0.239411102      -74.9362466      0.965854447      13.8486085       
104.48           0.967082567      13.5874457       0.234980858      -75.2103921      0.234980858      -75.2103921      0.967082567      13.5874457       
106.47           0.968247765      13.3352149       0.230697549      -75.4751771      0.230697549      -75.4751771      0.968247765      13.3352149       
108.46           0.969354221      13.0914668       0.226554086      -75.7310715      0.226554086      -75.7310715      0.969354221      13.0914668       
110.45           0.970405777      12.8557808       0.222543816      -75.9785151      0.222543816      -75.9785151      0.970405777      12.8557808       
112.44           0.971405969      12.6277633       0.218660481      -76.2179197      0.218660481      -76.2179197      0.971405969      12.6277633       
114.43           0.972358058      12.4070452       0.2148982        -76.4496709      0.2148982        -76.4496709      0.972358058      12.4070452       
116.42           0.973265051      12.1932804       0.211251436      -76.6741308      0.211251436      -76.6741308      0.973265051      12.1932804       
118.41           0.974129728      11.9861438       0.207714974      -76.8916391      0.207714974      -76.8916391      0.974129728      11.9861438       
120.4            0.974954658      11.78533         0.204283899      -77.1025151      0.204283899      -77.1025151      0.974954658      11.78533         
122.39           0.975742222      11.5905517       0.200953576      -77.3070591      0.200953576      -77.3070591      0.975742222      11.5905517       
124.38           0.976494625      11.4015384       0.197719629      -77.5055537      0.197719629      -77.5055537      0.976494625      11.4015384       
126.37           0.977213915      11.2180353       0.194577926      -77.6982652      0.194577926      -77.6982652      0.977213915      11.2180353       
128.36           0.977901993      11.0398023       0.191524562      -77.8854448      0.191524562      -77.8854448      0.977901993      11.0398023       
130.35           0.978560626      10.8666127       0.188555842      -78.0673293      0.188555842      -78.0673293      0.978560626      10.8666127       
132.34           0.97919146       10.6982523       0.185668272      -78.2441423      0.185668272      -78.2441423      0.97919146       10.6982523       
134.33           0.979796028      10.5345189       0.182858541      -78.4160954      0.182858541      -78.4160954      0.979796028      10.5345189       
136.32           0.980375759      10.3752211       0.180123512      -78.5833884      0.180123512      -78.5833884      0.980375759      10.3752211       
138.31           0.980931988      10.220178        0.177460212      -78.7462105      0.177460212      -78.7462105      0.980931988      10.220178        
140.3            0.981465959      10.0692181       0.17486582       -78.9047409      0.17486582       -78.9047409      0.981465959      10.0692181       
142.29           0.981978839      9.92217894       0.172337656      -79.0591493      0.172337656      -79.0591493      0.981978839      9.92217894       
144.28           0.982471718      9.77890637       0.169873177      -79.2095967      0.169873177      -79.2095967      0.982471718      9.77890637       
146.27           0.982945616      9.63925421       0.167469965      -79.356236       0.167469965      -79.356236       0.982945616      9.63925421       
148.26           0.983401492      9.50308363       0.165125721      -79.4992122      0.165125721      -79.4992122      0.983401492      9.50308363       
150.25           0.983840242      9.37026273       0.162838257      -79.6386631      0.162838257      -79.6386631      0.983840242      9.37026273       
152.24           0.984262709      9.24066613       0.160605489      -79.7747198      0.160605489      -79.7747198      0.984262709      9.24066613       
154.23           0.984669685      9.11417453       0.158425435      -79.9075068      0.158425435      -79.9075068      0.984669685      9.11417453       
156.22           0.985061915      8.99067441       0.156296203      -80.0371429      0.156296203      -80.0371429      0.985061915      8.99067441       
158.21           0.985440099      8.87005764       0.154215992      -80.163741       0.154215992      -80.163741       0.985440099      8.87005764       
160.2            0.985804897      8.75222121       0.15218308       -80.2874087      0.15218308       -80.2874087      0.985804897      8.75222121       
162.19           0.986156929      8.63706689       0.150195827      -80.4082486      0.150195827      -80.4082486      0.986156929      8.63706689       
164.18           0.986496781      8.52450099       0.148252665      -80.5263588      0.148252665      -80.5263588      0.986496781      8.52450099       
166.17           0.986825006      8.41443409       0.146352096      -80.6418325      0.146352096      -80.6418325      0.986825006      8.41443409       
168.16           0.987142126      8.3067808        0.144492689      -80.754759       0.144492689      -80.754759       0.987142126      8.3067808        
170.15           0.987448634      8.20145955       0.142673076      -80.8652236      0.142673076      -80.8652236      0.987448634      8.20145955       
172.14           0.987744995      8.09839237       0.140891945      -80.9733078      0.140891945      -80.9733078      0.987744995      8.09839237       
174.13           0.98803165       7.99750469       0.139148044      -81.0790893      0.139148044      -81.0790893      0.98803165       7.99750469       
176.12           0.988309016      7.89872519       0.137440172      -81.1826427      0.137440172      -81.1826427      0.988309016      7.89872519       
178.11           0.988577488      7.80198557       0.13576718       -81.2840395      0.13576718       -81.2840395      0.988577488      7.80198557       
180.1            0.98883744       7.70722045       0.134127964      -81.3833478      0.134127964      -81.3833478      0.98883744       7.70722045       
182.09           0.989089226      7.61436719       0.132521469      -81.4806332      0.132521469      -81.4806332      0.989089226      7.61436719       
184.08           0.989333183      7.52336574       0.13094668       -81.5759583      0.13094668       -81.5759583      0.989333183      7.52336574       
186.07           0.989569631      7.43415852       0.129402626      -81.6693833      0.129402626      -81.6693833      0.989569631      7.43415852       
188.06           0.989798872      7.34669032       0.127888371      -81.7609659      0.127888371      -81.7609659      0.989798872      7.34669032       
190.05           0.990021195      7.26090813       0.12640302       -81.8507614      0.12640302       -81.8507614      0.990021195      7.26090813       
192.04           0.990236873      7.17676107       0.124945711      -81.938823       0.124945711      -81.938823       0.990236873      7.17676107       
194.03           0.990446166      7.09420026       0.123515616      -82.0252017      0.123515616      -82.0252017      0.990446166      7.09420026       
196.02           0.990649323      7.01317876       0.122111939      -82.1099466      0.122111939      -82.1099466      0.990649323      7.01317876       
198.01           0.990846579      6.93365143       0.120733915      -82.1931047      0.120733915      -82.1931047      0.990846579      6.93365143       
200              0.991038159      6.85557487       0.119380807      -82.2747214      0.119380807      -82.2747214      0.991038159      6.85557487       
201.99           0.991224276      6.77890735       0.118051906      -82.3548402      0.118051906      -82.3548402      0.991224276      6.77890735       
203.98           0.991405135      6.70360869       0.11674653       -82.4335032      0.11674653       -82.4335032      0.991405135      6.70360869       
205.97           0.99158093       6.62964024       0.115464021      -82.5107505      0.115464021      -82.5107505      0.99158093       6.62964024       
207.96           0.991751847      6.55696477       0.114203747      -82.5866211      0.114203747      -82.5866211      0.991751847      6.55696477       
209.95           0.991918064      6.48554641       0.112965097      -82.6611524      0.112965097      -82.6611524      0.991918064      6.48554641       
211.94           0.992079748      6.41535062       0.111747482      -82.7343805      0.111747482      -82.7343805      0.992079748      6.41535062       
213.93           0.992237062      6.34634408       0.110550336      -82.80634        0.110550336      -82.80634        0.992237062      6.34634408       
215.92           0.992390161      6.27849468       0.10937311       -82.8770645      0.10937311       -82.8770645      0.992390161      6.27849468       
217.91           0.992539191      6.21177146       0.108215278      -82.9465862      0.108215278      -82.9465862      0.992539191      6.21177146       
219.9            0.992684294      6.14614451       0.107076328      -83.0149364      0.107076328      -83.0149364      0.992684294      6.14614451       
221.89           0.992825606      6.08158501       0.105955769      -83.0821451      0.105955769      -83.0821451      0.992825606      6.08158501       
223.88           0.992963256      6.01806511       0.104853126      -83.1482412      0.104853126      -83.1482412      0.992963256      6.01806511       
225.87           0.993097367      5.95555792       0.103767939      -83.2132529      0.103767939      -83.2132529      0.993097367      5.95555792       
227.86           0.993228059      5.89403747       0.102699765      -83.2772071      0.102699765      -83.2772071      0.993228059      5.89403747       
229.85           0.993355444      5.83347865       0.101648174      -83.34013        0.101648174      -83.34013        0.993355444      5.83347865       
231.84           0.993479633      5.77385722       0.100612752      -83.4020469      0.100612752      -83.4020469      0.993479633      5.77385722       
233.83           0.993600729      5.71514971       0.0995930972     -83.4629821      0.0995930972     -83.4629821      0.993600729      5.71514971       
235.82           0.993718833      5.65733346       0.0985888219     -83.5229593      0.0985888219     -83.5229593      0.993718833      5.65733346       
237.81           0.993834041      5.60038651       0.0975995506     -83.5820012      0.0975995506     -83.5820012      0.993834041      5.60038651       
239.8            0.993946445      5.54428765       0.0966249197     -83.6401299      0.0966249197     -83.6401299      0.993946445      5.54428765       
241.79           0.994056134      5.48901633       0.0956645772     -83.6973668      0.0956645772     -83.6973668      0.994056134      5.48901633       
243.78           0.994163194      5.43455265       0.0947181825     -83.7537325      0.0947181825     -83.7537325      0.994163194      5.43455265       
245.77           0.994267706      5.38087736       0.0937854053     -83.8092471      0.0937854053     -83.8092471      0.994267706      5.38087736       
247.76           0.994369749      5.32797181       0.0928659258     -83.8639299      0.0928659258     -83.8639299      0.994369749      5.32797181       
249.75           0.994469398      5.27581791       0.091959434      -83.9177996      0.091959434      -83.9177996      0.994469398      5.27581791       
251.74           0.994566727      5.22439816       0.0910656295     -83.9708744      0.0910656295     -83.9708744      0.994566727      5.22439816       
253.73           0.994661804      5.17369557       0.090184221      -84.0231719      0.090184221      -84.0231719      0.994661804      5.17369557       
