! Coilcraft 1206CS-331 Chip Inductor				
! 29 July 2002			
# MHZ S MA R 50
!Freq             MagS11           AngS11           MagS21           AngS21           MagS12           AngS12           MagS22           AngS22
1                0.0227353988     62.9895038       0.989881895      -1.17249899      0.989881895      -1.17249899      0.0227353988     62.9895038       
3.99             0.0822350831     75.709495        0.982936952      -4.65029164      0.982936952      -4.65029164      0.0822350831     75.709495        
6.98             0.141457053      75.3607183       0.973913978      -8.07855645      0.973913978      -8.07855645      0.141457053      75.3607183       
9.97             0.19913142       73.3871688       0.962179189      -11.4387352      0.962179189      -11.4387352      0.19913142       73.3871688       
12.96            0.254707626      70.9250552       0.94783791       -14.7125441      0.94783791       -14.7125441      0.254707626      70.9250552       
15.95            0.307775951      68.2955562       0.931173109      -17.8840694      0.931173109      -17.8840694      0.307775951      68.2955562       
18.94            0.358038384      65.6311432       0.912541234      -20.9404599      0.912541234      -20.9404599      0.358038384      65.6311432       
21.93            0.405301326      62.9985122       0.892325337      -23.8721383      0.892325337      -23.8721383      0.405301326      62.9985122       
24.92            0.449466198      60.4350103       0.870905967      -26.6727243      0.870905967      -26.6727243      0.449466198      60.4350103       
27.91            0.490516495      57.962438        0.848641765      -29.3387706      0.848641765      -29.3387706      0.490516495      57.962438        
30.9             0.528502771      55.593309        0.825857179      -31.8693854      0.825857179      -31.8693854      0.528502771      55.593309        
33.89            0.563527226      53.3341345       0.802835803      -34.265803       0.802835803      -34.265803       0.563527226      53.3341345       
36.88            0.595729228      51.1873663       0.779818041      -36.5309493      0.779818041      -36.5309493      0.595729228      51.1873663       
39.87            0.625272594      49.1526563       0.757001901      -38.6690327      0.757001901      -38.6690327      0.625272594      49.1526563       
42.86            0.652335022      47.2277269       0.734545859      -40.6851795      0.734545859      -40.6851795      0.652335022      47.2277269       
45.85            0.67709973       45.408996        0.712572918      -42.585124       0.712572918      -42.585124       0.67709973       45.408996        
48.84            0.699749149      43.6920348       0.691175213      -44.3749542      0.691175213      -44.3749542      0.699749149      43.6920348       
51.83            0.720460399      42.0719056       0.670418683      -46.0609094      0.670418683      -46.0609094      0.720460399      42.0719056       
54.82            0.739402233      40.5434089       0.650347506      -47.6492253      0.650347506      -47.6492253      0.739402233      40.5434089       
57.81            0.756733148      39.1012644       0.630988145      -49.1460192      0.630988145      -49.1460192      0.756733148      39.1012644       
60.8             0.772600377      37.7402385       0.612352893      -50.557208       0.612352893      -50.557208       0.772600377      37.7402385       
63.79            0.787139523      36.4552348       0.594442915      -51.8884526      0.594442915      -51.8884526      0.787139523      36.4552348       
66.78            0.800474667      35.2413528       0.577250816      -53.1451237      0.577250816      -53.1451237      0.800474667      35.2413528       
69.77            0.812718764      34.0939268       0.560762748      -54.3322831      0.560762748      -54.3322831      0.812718764      34.0939268       
72.76            0.823974249      33.008546        0.544960135      -55.4546766      0.544960135      -55.4546766      0.823974249      33.008546        
75.75            0.834333749      31.9810652       0.529821067      -56.5167359      0.529821067      -56.5167359      0.834333749      31.9810652       
78.74            0.843880844      31.0076048       0.515321392      -57.5225867      0.515321392      -57.5225867      0.843880844      31.0076048       
81.73            0.852690839      30.0845459       0.501435592      -58.4760604      0.501435592      -58.4760604      0.852690839      30.0845459       
84.72            0.860831523      29.2085219       0.488137452      -59.380709       0.488137452      -59.380709       0.860831523      29.2085219       
87.71            0.868363885      28.3764058       0.475400574      -60.2398208      0.475400574      -60.2398208      0.868363885      28.3764058       
90.7             0.875342785      27.5852979       0.463198769      -61.0564378      0.463198769      -61.0564378      0.875342785      27.5852979       
93.69            0.88181758       26.8325115       0.451506344      -61.8333718      0.451506344      -61.8333718      0.88181758       26.8325115       
96.68            0.887832687      26.1155588       0.440298309      -62.5732218      0.440298309      -62.5732218      0.887832687      26.1155588       
99.67            0.893428103      25.432137        0.429550523      -63.2783893      0.429550523      -63.2783893      0.893428103      25.432137        
102.66           0.898639866      24.7801146       0.419239789      -63.9510938      0.419239789      -63.9510938      0.898639866      24.7801146       
105.65           0.903500478      24.1575188       0.409343914      -64.5933871      0.409343914      -64.5933871      0.903500478      24.1575188       
108.64           0.908039273      23.562523        0.399841735      -65.2071668      0.399841735      -65.2071668      0.908039273      23.562523        
111.63           0.912282759      22.9934356       0.390713129      -65.7941884      0.390713129      -65.7941884      0.912282759      22.9934356       
114.62           0.916254911      22.4486889       0.381939002      -66.3560773      0.381939002      -66.3560773      0.916254911      22.4486889       
117.61           0.91997744       21.9268298       0.373501268      -66.8943391      0.373501268      -66.8943391      0.91997744       21.9268298       
120.6            0.923470028      21.4265102       0.36538282       -67.4103696      0.36538282       -67.4103696      0.923470028      21.4265102       
123.59           0.926750538      20.9464787       0.357567493      -67.9054633      0.357567493      -67.9054633      0.926750538      20.9464787       
126.58           0.929835206      20.4855729       0.350040025      -68.3808225      0.350040025      -68.3808225      0.929835206      20.4855729       
129.57           0.932738799      20.0427121       0.342786015      -68.837564       0.342786015      -68.837564       0.932738799      20.0427121       
132.56           0.935474774      19.6168911       0.335791881      -69.2767263      0.335791881      -69.2767263      0.935474774      19.6168911       
135.55           0.938055402      19.2071738       0.329044816      -69.699276       0.329044816      -69.699276       0.938055402      19.2071738       
138.54           0.940491887      18.812688        0.322532744      -70.1061135      0.322532744      -70.1061135      0.940491887      18.812688        
141.53           0.942794476      18.4326203       0.316244283      -70.4980779      0.316244283      -70.4980779      0.942794476      18.4326203       
144.52           0.944972546      18.0662116       0.310168701      -70.8759525      0.310168701      -70.8759525      0.944972546      18.0662116       
147.51           0.947034691      17.7127527       0.304295877      -71.2404685      0.304295877      -71.2404685      0.947034691      17.7127527       
150.5            0.948988796      17.3715808       0.298616269      -71.5923093      0.298616269      -71.5923093      0.948988796      17.3715808       
153.49           0.950842106      17.0420755       0.293120873      -71.9321143      0.293120873      -71.9321143      0.950842106      17.0420755       
156.48           0.952601282      16.7236562       0.287801194      -72.2604821      0.287801194      -72.2604821      0.952601282      16.7236562       
159.47           0.954272457      16.4157784       0.282649215      -72.5779733      0.282649215      -72.5779733      0.954272457      16.4157784       
162.46           0.955861285      16.1179317       0.277657363      -72.8851139      0.277657363      -72.8851139      0.955861285      16.1179317       
165.45           0.957372979      15.8296368       0.272818486      -73.1823974      0.272818486      -73.1823974      0.957372979      15.8296368       
168.44           0.95881236       15.5504438       0.268125824      -73.4702874      0.268125824      -73.4702874      0.95881236       15.5504438       
171.43           0.960183882      15.2799294       0.263572989      -73.7492194      0.263572989      -73.7492194      0.960183882      15.2799294       
174.42           0.961491667      15.0176955       0.259153935      -74.0196034      0.259153935      -74.0196034      0.961491667      15.0176955       
177.41           0.962739538      14.7633672       0.254862943      -74.2818253      0.254862943      -74.2818253      0.962739538      14.7633672       
180.4            0.963931037      14.5165914       0.250694598      -74.5362485      0.250694598      -74.5362485      0.963931037      14.5165914       
183.39           0.965069454      14.277035        0.246643772      -74.7832158      0.246643772      -74.7832158      0.965069454      14.277035        
186.38           0.966157847      14.0443838       0.242705605      -75.0230505      0.242705605      -75.0230505      0.966157847      14.0443838       
189.37           0.967199059      13.8183411       0.238875488      -75.256058       0.238875488      -75.256058       0.967199059      13.8183411       
192.36           0.968195736      13.5986265       0.235149051      -75.4825267      0.235149051      -75.4825267      0.968195736      13.5986265       
195.35           0.969150347      13.3849749       0.231522145      -75.7027292      0.231522145      -75.7027292      0.969150347      13.3849749       
198.34           0.970065191      13.1771354       0.227990832      -75.9169238      0.227990832      -75.9169238      0.970065191      13.1771354       
201.33           0.970942415      12.9748706       0.224551371      -76.1253545      0.224551371      -76.1253545      0.970942415      12.9748706       
204.32           0.971784027      12.7779554       0.221200205      -76.328253       0.221200205      -76.328253       0.971784027      12.7779554       
207.31           0.972591901      12.5861765       0.217933953      -76.5258384      0.217933953      -76.5258384      0.972591901      12.5861765       
210.3            0.973367794      12.3993317       0.214749399      -76.7183189      0.214749399      -76.7183189      0.973367794      12.3993317       
213.29           0.974113349      12.2172287       0.211643479      -76.9058921      0.211643479      -76.9058921      0.974113349      12.2172287       
216.28           0.974830107      12.0396853       0.208613279      -77.0887453      0.208613279      -77.0887453      0.974830107      12.0396853       
219.27           0.975519512      11.866528        0.205656022      -77.2670569      0.205656022      -77.2670569      0.975519512      11.866528        
222.26           0.976182922      11.6975921       0.202769058      -77.4409963      0.202769058      -77.4409963      0.976182922      11.6975921       
225.25           0.97682161       11.5327207       0.199949864      -77.6107247      0.199949864      -77.6107247      0.97682161       11.5327207       
228.24           0.977436775      11.3717646       0.197196031      -77.7763955      0.197196031      -77.7763955      0.977436775      11.3717646       
231.23           0.978029542      11.2145815       0.19450526       -77.9381549      0.19450526       -77.9381549      0.978029542      11.2145815       
234.22           0.978600973      11.0610361       0.191875355      -78.096142       0.191875355      -78.096142       0.978600973      11.0610361       
237.21           0.979152067      10.9109991       0.189304219      -78.2504896      0.189304219      -78.2504896      0.979152067      10.9109991       
240.2            0.979683764      10.7643474       0.186789848      -78.4013243      0.186789848      -78.4013243      0.979683764      10.7643474       
243.19           0.980196953      10.6209632       0.184330325      -78.548767       0.184330325      -78.548767       0.980196953      10.6209632       
246.18           0.980692473      10.4807344       0.181923818      -78.692933       0.181923818      -78.692933       0.980692473      10.4807344       
249.17           0.981171115      10.3435537       0.179568571      -78.8339324      0.179568571      -78.8339324      0.981171115      10.3435537       
252.16           0.981633626      10.2093184       0.177262906      -78.9718707      0.177262906      -78.9718707      0.981633626      10.2093184       
255.15           0.982080714      10.0779306       0.175005213      -79.1068484      0.175005213      -79.1068484      0.982080714      10.0779306       
258.14           0.982513049      9.94929651       0.172793952      -79.238962       0.172793952      -79.238962       0.982513049      9.94929651       
261.13           0.982931263      9.82332625       0.170627646      -79.3683036      0.170627646      -79.3683036      0.982931263      9.82332625       
264.12           0.983335957      9.6999339        0.168504878      -79.4949615      0.168504878      -79.4949615      0.983335957      9.6999339        
267.11           0.983727699      9.5790371        0.166424289      -79.6190201      0.166424289      -79.6190201      0.983727699      9.5790371        
270.1            0.984107027      9.46055693       0.164384575      -79.7405606      0.164384575      -79.7405606      0.984107027      9.46055693       
273.09           0.984474454      9.34441771       0.162384486      -79.8596604      0.162384486      -79.8596604      0.984474454      9.34441771       
276.08           0.984830465      9.23054688       0.160422818      -79.9763942      0.160422818      -79.9763942      0.984830465      9.23054688       
279.07           0.985175521      9.11887479       0.158498417      -80.0908333      0.158498417      -80.0908333      0.985175521      9.11887479       
282.06           0.98551006       9.00933458       0.156610173      -80.2030462      0.156610173      -80.2030462      0.98551006       9.00933458       
285.05           0.985834498      8.90186207       0.15475702       -80.3130989      0.15475702       -80.3130989      0.985834498      8.90186207       
288.04           0.986149231      8.79639556       0.152937932      -80.4210545      0.152937932      -80.4210545      0.986149231      8.79639556       
291.03           0.986454637      8.69287581       0.151151921      -80.5269737      0.151151921      -80.5269737      0.986454637      8.69287581       
294.02           0.986751073      8.59124582       0.149398038      -80.6309151      0.149398038      -80.6309151      0.986751073      8.59124582       
297.01           0.987038883      8.49145081       0.147675368      -80.7329346      0.147675368      -80.7329346      0.987038883      8.49145081       
300              0.98731839       8.39343804       0.14598303       -80.8330862      0.14598303       -80.8330862      0.98731839       8.39343804       
302.99           0.987589906      8.29715678       0.144320178      -80.931422       0.144320178      -80.931422       0.987589906      8.29715678       
305.98           0.987853727      8.20255817       0.142685992      -81.0279919      0.142685992      -81.0279919      0.987853727      8.20255817       
308.97           0.988110135      8.10959518       0.141079686      -81.1228441      0.141079686      -81.1228441      0.988110135      8.10959518       
311.96           0.9883594        8.01822248       0.1395005        -81.2160249      0.1395005        -81.2160249      0.9883594        8.01822248       
314.95           0.988601779      7.9283964        0.137947701      -81.3075789      0.137947701      -81.3075789      0.988601779      7.9283964        
317.94           0.988837519      7.84007481       0.136420582      -81.3975492      0.136420582      -81.3975492      0.988837519      7.84007481       
320.93           0.989066854      7.75321713       0.134918461      -81.4859773      0.134918461      -81.4859773      0.989066854      7.75321713       
323.92           0.989290008      7.66778417       0.13344068       -81.5729032      0.13344068       -81.5729032      0.989290008      7.66778417       
326.91           0.989507198      7.58373815       0.131986602      -81.6583655      0.131986602      -81.6583655      0.989507198      7.58373815       
329.9            0.989718628      7.50104259       0.130555615      -81.7424013      0.130555615      -81.7424013      0.989718628      7.50104259       
332.89           0.989924496      7.41966226       0.129147123      -81.8250466      0.129147123      -81.8250466      0.989924496      7.41966226       
335.88           0.99012499       7.33956315       0.127760554      -81.906336       0.127760554      -81.906336       0.99012499       7.33956315       
338.87           0.99032029       7.26071239       0.126395354      -81.9863031      0.126395354      -81.9863031      0.99032029       7.26071239       
341.86           0.99051057       7.18307823       0.125050985      -82.0649802      0.125050985      -82.0649802      0.99051057       7.18307823       
344.85           0.990695995      7.10662998       0.123726931      -82.1423985      0.123726931      -82.1423985      0.990695995      7.10662998       
347.84           0.990876725      7.03133794       0.122422689      -82.2185881      0.122422689      -82.2185881      0.990876725      7.03133794       
350.83           0.991052912      6.95717343       0.121137774      -82.2935782      0.121137774      -82.2935782      0.991052912      6.95717343       
353.82           0.991224702      6.88410867       0.119871715      -82.3673971      0.119871715      -82.3673971      0.991224702      6.88410867       
356.81           0.991392236      6.81211678       0.118624059      -82.440072       0.118624059      -82.440072       0.991392236      6.81211678       
359.8            0.991555649      6.74117178       0.117394365      -82.5116292      0.117394365      -82.5116292      0.991555649      6.74117178       
362.79           0.991715071      6.67124847       0.116182206      -82.5820943      0.116182206      -82.5820943      0.991715071      6.67124847       
365.78           0.991870625      6.60232247       0.114987168      -82.6514919      0.114987168      -82.6514919      0.991870625      6.60232247       
368.77           0.992022431      6.53437017       0.113808851      -82.7198459      0.113808851      -82.7198459      0.992022431      6.53437017       
371.76           0.992170606      6.46736868       0.112646866      -82.7871795      0.112646866      -82.7871795      0.992170606      6.46736868       
374.75           0.992315258      6.40129583       0.111500838      -82.8535149      0.111500838      -82.8535149      0.992315258      6.40129583       
377.74           0.992456495      6.33613012       0.110370401      -82.9188739      0.110370401      -82.9188739      0.992456495      6.33613012       
380.73           0.992594419      6.27185071       0.1092552        -82.9832775      0.1092552        -82.9832775      0.992594419      6.27185071       
