! Coilcraft 1206CS-121 Chip Inductor				
! 29 July 2002			
# MHZ S MA R 50
!Freq             MagS11           AngS11           MagS21           AngS21           MagS12           AngS12           MagS22           AngS22
1                0.00826849114    62.8702078       0.996256682      -0.423213784     0.996256682      -0.423213784     0.00826849114    62.8702078       
6.36             0.0472292113     79.6322782       0.992588226      -2.68270957      0.992588226      -2.68270957      0.0472292113     79.6322782       
11.72            0.0862514111     79.8628677       0.988472556      -4.92749969      0.988472556      -4.92749969      0.0862514111     79.8628677       
17.08            0.124842338      78.7142913       0.983220185      -7.15290495      0.983220185      -7.15290495      0.124842338      78.7142913       
22.44            0.162829298      77.1396624       0.976744502      -9.35345151      0.976744502      -9.35345151      0.162829298      77.1396624       
27.8             0.200064713      75.3872924       0.969061219      -11.5237454      0.969061219      -11.5237454      0.200064713      75.3872924       
33.16            0.236417651      73.5552117       0.960227973      -13.6587255      0.960227973      -13.6587255      0.236417651      73.5552117       
38.52            0.271774142      71.6919371       0.950325472      -15.7537905      0.950325472      -15.7537905      0.271774142      71.6919371       
43.88            0.306038048      69.8252216       0.939448454      -17.8048734      0.939448454      -17.8048734      0.306038048      69.8252216       
49.24            0.339131482      67.9725641       0.927699993      -19.8084811      0.927699993      -19.8084811      0.339131482      67.9725641       
54.6             0.37099465       66.1457309       0.915187328      -21.7617095      0.915187328      -21.7617095      0.37099465       66.1457309       
59.96            0.401585159      64.3529495       0.902018571      -23.6622394      0.902018571      -23.6622394      0.401585159      64.3529495       
65.32            0.430876895      62.6000802       0.888300096      -25.508316       0.888300096      -25.508316       0.430876895      62.6000802       
70.68            0.45885858       60.891296        0.874134464      -27.2987161      0.874134464      -27.2987161      0.45885858       60.891296        
76.04            0.48553213       59.2295094       0.859618859      -29.0327077      0.859618859      -29.0327077      0.48553213       59.2295094       
81.4             0.510910901      57.6166579       0.844843952      -30.7100029      0.844843952      -30.7100029      0.510910901      57.6166579       
86.76            0.535017926      56.0539089       0.829893157      -32.3307083      0.829893157      -32.3307083      0.535017926      56.0539089       
92.12            0.557884191      54.5418127       0.814842219      -33.8952742      0.814842219      -33.8952742      0.557884191      54.5418127       
97.48            0.579547028      53.0804234       0.799759077      -35.4044447      0.799759077      -35.4044447      0.579547028      53.0804234       
102.84           0.600048627      51.6693959       0.784703949      -36.8592108      0.784703949      -36.8592108      0.600048627      51.6693959       
108.2            0.619434721      50.3080655       0.769729583      -38.2607651      0.769729583      -38.2607651      0.619434721      50.3080655       
113.56           0.637753421      48.995515        0.754881643      -39.6104616      0.754881643      -39.6104616      0.637753421      48.995515        
118.92           0.655054231      47.7306303       0.740199167      -40.9097794      0.740199167      -40.9097794      0.655054231      47.7306303       
124.28           0.671387206      46.5121472       0.725715089      -42.1602895      0.725715089      -42.1602895      0.671387206      46.5121472       
129.64           0.686802273      45.3386912       0.711456777      -43.3636273      0.711456777      -43.3636273      0.686802273      45.3386912       
135              0.701348671      44.2088103       0.697446585      -44.521468       0.697446585      -44.521468       0.701348671      44.2088103       
140.36           0.715074519      43.121002        0.683702385      -45.6355057      0.683702385      -45.6355057      0.715074519      43.121002        
145.72           0.72802648       42.0737366       0.670238083      -46.7074363      0.670238083      -46.7074363      0.72802648       42.0737366       
151.08           0.740249521      41.0654753       0.657064097      -47.7389435      0.657064097      -47.7389435      0.740249521      41.0654753       
156.44           0.751786734      40.0946852       0.644187811      -48.7316865      0.644187811      -48.7316865      0.751786734      40.0946852       
161.8            0.762679233      39.1598516       0.63161398       -49.6872915      0.63161398       -49.6872915      0.762679233      39.1598516       
167.16           0.772966092      38.2594873       0.619345102      -50.6073439      0.619345102      -50.6073439      0.772966092      38.2594873       
172.52           0.782684323      37.3921402       0.607381756      -51.4933833      0.607381756      -51.4933833      0.782684323      37.3921402       
177.88           0.791868888      36.5563986       0.595722895      -52.3468992      0.595722895      -52.3468992      0.791868888      36.5563986       
183.24           0.80055274       35.7508951       0.584366112      -53.169328       0.584366112      -53.169328       0.80055274       35.7508951       
188.6            0.808766872      34.9743099       0.573307874      -53.962052       0.573307874      -53.962052       0.808766872      34.9743099       
193.96           0.816540389      34.2253724       0.562543722      -54.726398       0.562543722      -54.726398       0.816540389      34.2253724       
199.32           0.823900582      33.5028619       0.552068447      -55.4636369      0.552068447      -55.4636369      0.823900582      33.5028619       
204.68           0.830873019      32.8056082       0.541876249      -56.1749849      0.541876249      -56.1749849      0.830873019      32.8056082       
210.04           0.837481623      32.1324914       0.531960861      -56.8616034      0.531960861      -56.8616034      0.837481623      32.1324914       
215.4            0.843748769      31.4824408       0.522315669      -57.5246008      0.522315669      -57.5246008      0.843748769      31.4824408       
220.76           0.849695367      30.8544343       0.512933805      -58.1650336      0.512933805      -58.1650336      0.849695367      30.8544343       
226.12           0.855340954      30.2474971       0.50380823       -58.7839081      0.50380823       -58.7839081      0.855340954      30.2474971       
231.48           0.860703773      29.6607002       0.494931802      -59.3821823      0.494931802      -59.3821823      0.860703773      29.6607002       
236.84           0.86580086       29.0931586       0.486297336      -59.9607675      0.486297336      -59.9607675      0.86580086       29.0931586       
242.2            0.870648121      28.54403         0.477897654      -60.5205303      0.477897654      -60.5205303      0.870648121      28.54403         
247.56           0.875260406      28.0125131       0.469725621      -61.0622947      0.469725621      -61.0622947      0.875260406      28.0125131       
252.92           0.87965158       27.4978454       0.46177418       -61.5868437      0.46177418       -61.5868437      0.87965158       27.4978454       
258.28           0.88383459       26.999302        0.45403638       -62.0949214      0.45403638       -62.0949214      0.88383459       26.999302        
263.64           0.887821529      26.5161935       0.446505397      -62.5872348      0.446505397      -62.5872348      0.887821529      26.5161935       
269              0.891623691      26.0478647       0.43917455       -63.0644559      0.43917455       -63.0644559      0.891623691      26.0478647       
274.36           0.895251634      25.5936923       0.432037315      -63.527223       0.432037315      -63.527223       0.895251634      25.5936923       
279.72           0.898715223      25.1530842       0.425087335      -63.9761426      0.425087335      -63.9761426      0.898715223      25.1530842       
285.08           0.902023684      24.725477        0.418318428      -64.4117912      0.418318428      -64.4117912      0.902023684      24.725477        
290.44           0.905185646      24.3103352       0.411724589      -64.8347167      0.411724589      -64.8347167      0.905185646      24.3103352       
295.8            0.908209183      23.9071495       0.405299995      -65.24544        0.405299995      -65.24544        0.908209183      23.9071495       
301.16           0.911101856      23.5154356       0.399039007      -65.6444562      0.399039007      -65.6444562      0.911101856      23.5154356       
306.52           0.913870744      23.1347325       0.392936167      -66.0322364      0.392936167      -66.0322364      0.913870744      23.1347325       
311.88           0.916522481      22.7646018       0.386986202      -66.4092286      0.386986202      -66.4092286      0.916522481      22.7646018       
317.24           0.919063284      22.404626        0.381184013      -66.7758589      0.381184013      -66.7758589      0.919063284      22.404626        
322.6            0.921498987      22.0544078       0.375524684      -67.1325333      0.375524684      -67.1325333      0.921498987      22.0544078       
327.96           0.923835061      21.7135688       0.370003466      -67.4796378      0.370003466      -67.4796378      0.923835061      21.7135688       
333.32           0.926076643      21.3817486       0.364615785      -67.8175404      0.364615785      -67.8175404      0.926076643      21.3817486       
338.68           0.92822856       21.0586036       0.359357227      -68.1465914      0.359357227      -68.1465914      0.92822856       21.0586036       
344.04           0.930295344      20.7438066       0.354223543      -68.4671249      0.354223543      -68.4671249      0.930295344      20.7438066       
349.4            0.932281261      20.4370453       0.349210636      -68.7794591      0.349210636      -68.7794591      0.932281261      20.4370453       
354.76           0.934190319      20.1380222       0.344314563      -69.0838976      0.344314563      -69.0838976      0.934190319      20.1380222       
360.12           0.936026294      19.8464532       0.339531525      -69.3807298      0.339531525      -69.3807298      0.936026294      19.8464532       
365.48           0.937792739      19.5620673       0.334857865      -69.6702322      0.334857865      -69.6702322      0.937792739      19.5620673       
370.84           0.939493003      19.2846057       0.330290064      -69.9526684      0.330290064      -69.9526684      0.939493003      19.2846057       
376.2            0.941130243      19.0138211       0.325824731      -70.2282903      0.325824731      -70.2282903      0.941130243      19.0138211       
381.56           0.942707435      18.7494776       0.321458606      -70.4973385      0.321458606      -70.4973385      0.942707435      18.7494776       
386.92           0.944227388      18.4913494       0.317188547      -70.7600428      0.317188547      -70.7600428      0.944227388      18.4913494       
392.28           0.945692754      18.2392208       0.313011533      -71.016623       0.313011533      -71.016623       0.945692754      18.2392208       
397.64           0.947106036      17.9928856       0.308924652      -71.2672892      0.308924652      -71.2672892      0.947106036      17.9928856       
403              0.948469602      17.7521461       0.304925104      -71.5122424      0.304925104      -71.5122424      0.948469602      17.7521461       
408.36           0.949785689      17.5168137       0.301010192      -71.751675       0.301010192      -71.751675       0.949785689      17.5168137       
413.72           0.951056414      17.2867074       0.297177318      -71.9857711      0.297177318      -71.9857711      0.951056414      17.2867074       
419.08           0.952283779      17.0616539       0.293423982      -72.214707       0.293423982      -72.214707       0.952283779      17.0616539       
424.44           0.953469682      16.8414874       0.289747777      -72.4386517      0.289747777      -72.4386517      0.953469682      16.8414874       
429.8            0.954615919      16.6260488       0.286146381      -72.657767       0.286146381      -72.657767       0.954615919      16.6260488       
435.16           0.955724193      16.4151856       0.282617561      -72.8722081      0.282617561      -72.8722081      0.955724193      16.4151856       
440.52           0.956796118      16.2087517       0.279159164      -73.0821237      0.279159164      -73.0821237      0.956796118      16.2087517       
445.88           0.957833225      16.0066066       0.275769114      -73.2876565      0.275769114      -73.2876565      0.957833225      16.0066066       
451.24           0.958836969      15.8086159       0.272445413      -73.4889436      0.272445413      -73.4889436      0.958836969      15.8086159       
456.6            0.959808728      15.6146503       0.269186134      -73.6861164      0.269186134      -73.6861164      0.959808728      15.6146503       
461.96           0.960749815      15.4245856       0.265989418      -73.8793011      0.265989418      -73.8793011      0.960749815      15.4245856       
467.32           0.961661474      15.2383027       0.262853473      -74.068619       0.262853473      -74.068619       0.961661474      15.2383027       
472.68           0.962544891      15.055687        0.259776571      -74.2541865      0.259776571      -74.2541865      0.962544891      15.055687        
478.04           0.963401191      14.8766284       0.256757046      -74.4361157      0.256757046      -74.4361157      0.963401191      14.8766284       
483.4            0.964231446      14.701021        0.25379329       -74.6145141      0.25379329       -74.6145141      0.964231446      14.701021        
488.76           0.965036678      14.5287629       0.250883749      -74.7894854      0.250883749      -74.7894854      0.965036678      14.5287629       
494.12           0.965817857      14.3597561       0.248026927      -74.9611291      0.248026927      -74.9611291      0.965817857      14.3597561       
499.48           0.96657591       14.1939065       0.245221377      -75.1295411      0.245221377      -75.1295411      0.96657591       14.1939065       
504.84           0.967311719      14.031123        0.242465703      -75.2948137      0.242465703      -75.2948137      0.967311719      14.031123        
510.2            0.968026126      13.8713184       0.239758556      -75.4570357      0.239758556      -75.4570357      0.968026126      13.8713184       
515.56           0.968719933      13.7144084       0.237098634      -75.6162927      0.237098634      -75.6162927      0.968719933      13.7144084       
520.92           0.969393906      13.5603118       0.234484678      -75.7726672      0.234484678      -75.7726672      0.969393906      13.5603118       
526.28           0.970048777      13.4089503       0.231915472      -75.9262387      0.231915472      -75.9262387      0.970048777      13.4089503       
531.64           0.970685243      13.2602486       0.22938984       -76.0770836      0.22938984       -76.0770836      0.970685243      13.2602486       
537              0.971303971      13.114134        0.226906646      -76.2252761      0.226906646      -76.2252761      0.971303971      13.114134        
542.36           0.971905599      12.9705361       0.224464791      -76.3708872      0.224464791      -76.3708872      0.971905599      12.9705361       
547.72           0.972490737      12.8293874       0.222063211      -76.5139858      0.222063211      -76.5139858      0.972490737      12.8293874       
553.08           0.973059967      12.6906223       0.219700879      -76.6546382      0.219700879      -76.6546382      0.973059967      12.6906223       
558.44           0.973613847      12.554178        0.217376801      -76.7929085      0.217376801      -76.7929085      0.973613847      12.554178        
563.8            0.974152911      12.4199933       0.215090012      -76.9288585      0.215090012      -76.9288585      0.974152911      12.4199933       
569.16           0.974677669      12.2880094       0.212839582      -77.062548       0.212839582      -77.062548       0.974677669      12.2880094       
574.52           0.975188611      12.1581694       0.210624608      -77.1940347      0.210624608      -77.1940347      0.975188611      12.1581694       
579.88           0.975686206      12.0304183       0.208444217      -77.3233744      0.208444217      -77.3233744      0.975686206      12.0304183       
585.24           0.976170903      11.904703        0.206297562      -77.450621       0.206297562      -77.450621       0.976170903      11.904703        
590.6            0.976643133      11.780972        0.204183824      -77.5758266      0.204183824      -77.5758266      0.976643133      11.780972        
595.96           0.977103308      11.6591757       0.202102208      -77.6990417      0.202102208      -77.6990417      0.977103308      11.6591757       
601.32           0.977551825      11.5392659       0.200051945      -77.820315       0.200051945      -77.820315       0.977551825      11.5392659       
606.68           0.977989065      11.4211961       0.198032289      -77.9396936      0.198032289      -77.9396936      0.977989065      11.4211961       
612.04           0.978415391      11.3049211       0.196042517      -78.0572232      0.196042517      -78.0572232      0.978415391      11.3049211       
617.4            0.978831156      11.1903975       0.194081927      -78.1729481      0.194081927      -78.1729481      0.978831156      11.1903975       
622.76           0.979236694      11.0775829       0.192149839      -78.286911       0.192149839      -78.286911       0.979236694      11.0775829       
628.12           0.97963233       10.9664364       0.190245593      -78.3991534      0.190245593      -78.3991534      0.97963233       10.9664364       
633.48           0.980018374      10.8569184       0.188368549      -78.5097153      0.188368549      -78.5097153      0.980018374      10.8569184       
638.84           0.980395125      10.7489904       0.186518085      -78.6186357      0.186518085      -78.6186357      0.980395125      10.7489904       
644.2            0.98076287       10.6426153       0.1846936        -78.7259522      0.1846936        -78.7259522      0.98076287       10.6426153       
649.56           0.981121886      10.5377568       0.182894507      -78.8317014      0.182894507      -78.8317014      0.981121886      10.5377568       
654.92           0.981472438      10.43438         0.181120237      -78.9359187      0.181120237      -78.9359187      0.981472438      10.43438         
660.28           0.981814782      10.3324509       0.17937024       -79.0386383      0.17937024       -79.0386383      0.981814782      10.3324509       
665.64           0.982149164      10.2319366       0.177643978      -79.1398937      0.177643978      -79.1398937      0.982149164      10.2319366       
671              0.982475823      10.1328051       0.175940932      -79.239717       0.175940932      -79.239717       0.982475823      10.1328051       
676.36           0.982794985      10.0350253       0.174260594      -79.3381395      0.174260594      -79.3381395      0.982794985      10.0350253       
681.72           0.983106872      9.93856725       0.172602473      -79.4351918      0.172602473      -79.4351918      0.983106872      9.93856725       
