! Coilcraft 1206CS-911 Chip Inductor				
! 29 July 2002			
# MHZ S MA R 50
!Freq             MagS11           AngS11           MagS21           AngS21           MagS12           AngS12           MagS22           AngS22
1                0.0611683854     50.374112        0.962142711      -2.806736        0.962142711      -2.806736        0.0611683854     50.374112        
2.82             0.142590598      64.785313        0.948072618      -7.82049871      0.948072618      -7.82049871      0.142590598      64.785313        
4.64             0.224297286      65.4235066       0.929373619      -12.6784017      0.929373619      -12.6784017      0.224297286      65.4235066       
6.46             0.301828423      63.397923        0.905973505      -17.3306385      0.905973505      -17.3306385      0.301828423      63.397923        
8.28             0.373732919      60.5509613       0.87874074       -21.7373799      0.87874074       -21.7373799      0.373732919      60.5509613       
10.1             0.439341583      57.4589058       0.8487482        -25.872447       0.8487482        -25.872447       0.439341583      57.4589058       
11.92            0.49846263       54.3601021       0.817048089      -29.722981       0.817048089      -29.722981       0.49846263       54.3601021       
13.74            0.551237522      51.3661485       0.784564966      -33.2874258      0.784564966      -33.2874258      0.551237522      51.3661485       
15.56            0.598027443      48.5302862       0.752050861      -36.5728681      0.752050861      -36.5728681      0.598027443      48.5302862       
17.38            0.639320648      45.8753949       0.72007903       -39.592381       0.72007903       -39.592381       0.639320648      45.8753949       
19.2             0.675662067      43.4075361       0.689059846      -42.3627216      0.689059846      -42.3627216      0.675662067      43.4075361       
21.02            0.707604238      41.1232935       0.65926684       -44.9025192      0.65926684       -44.9025192      0.707604238      41.1232935       
22.84            0.735676198      39.0140373       0.630865108      -47.2309563      0.630865108      -47.2309563      0.735676198      39.0140373       
24.66            0.760365988      37.0684904       0.603937712      -49.3668715      0.603937712      -49.3668715      0.760365988      37.0684904       
26.48            0.782112656      35.2742888       0.578508114      -51.3281971      0.578508114      -51.3281971      0.782112656      35.2742888       
28.3             0.80130443       33.6189204       0.554558173      -53.1316412      0.554558173      -53.1316412      0.80130443       33.6189204       
30.12            0.818280566      32.0902742       0.532041982      -54.7925403      0.532041982      -54.7925403      0.818280566      32.0902742       
31.94            0.83333517       30.6769413       0.51089617       -56.3248262      0.51089617       -56.3248262      0.83333517       30.6769413       
33.76            0.846721891      29.368361        0.491047368      -57.7410628      0.491047368      -57.7410628      0.846721891      29.368361        
35.58            0.858658805      28.1548709       0.472417486      -59.0525248      0.472417486      -59.0525248      0.858658805      28.1548709       
37.4             0.86933311       27.0276986       0.454927338      -60.2692975      0.454927338      -60.2692975      0.86933311       27.0276986       
39.22            0.878905423      25.9789208       0.438499067      -61.4003852      0.438499067      -61.4003852      0.878905423      25.9789208       
41.04            0.887513613      25.0014047       0.423057689      -62.4538191      0.423057689      -62.4538191      0.887513613      25.0014047       
42.86            0.895276148      24.0887417       0.408532026      -63.4367612      0.408532026      -63.4367612      0.895276148      24.0887417       
44.68            0.902294981      23.2351796       0.394855205      -64.3556003      0.394855205      -64.3556003      0.902294981      23.2351796       
46.5             0.908658018      22.435557        0.381964863      -65.2160399      0.381964863      -65.2160399      0.908658018      22.435557        
48.32            0.914441211      21.6852414       0.369803152      -66.0231771      0.369803152      -66.0231771      0.914441211      21.6852414       
50.14            0.91971034       20.9800722       0.35831662       -66.7815732      0.35831662       -66.7815732      0.91971034       20.9800722       
51.96            0.924522511      20.3163092       0.347456012      -67.4953157      0.347456012      -67.4953157      0.924522511      20.3163092       
53.78            0.928927424      19.6905863       0.337176023      -68.1680737      0.337176023      -68.1680737      0.928927424      19.6905863       
55.6             0.932968446      19.0998699       0.32743503       -68.8031462      0.32743503       -68.8031462      0.932968446      19.0998699       
57.42            0.936683511      18.5414222       0.318194824      -69.4035045      0.318194824      -69.4035045      0.936683511      18.5414222       
59.24            0.940105889      18.0127685       0.309420336      -69.9718298      0.309420336      -69.9718298      0.940105889      18.0127685       
61.06            0.943264833      17.5116685       0.301079379      -70.5105456      0.301079379      -70.5105456      0.943264833      17.5116685       
62.88            0.946186126      17.0360909       0.293142406      -71.0218462      0.293142406      -71.0218462      0.946186126      17.0360909       
64.7             0.948892551      16.5841906       0.285582278      -71.5077227      0.285582278      -71.5077227      0.948892551      16.5841906       
66.52            0.951404288      16.1542893       0.278374053      -71.9699841      0.278374053      -71.9699841      0.951404288      16.1542893       
68.34            0.953739253      15.7448576       0.271494794      -72.4102774      0.271494794      -72.4102774      0.953739253      15.7448576       
70.16            0.955913391      15.3544999       0.264923389      -72.8301046      0.264923389      -72.8301046      0.955913391      15.3544999       
71.98            0.95794092       14.9819401       0.258640385      -73.2308376      0.258640385      -73.2308376      0.95794092       14.9819401       
73.8             0.959834552      14.6260102       0.25262785       -73.6137316      0.25262785       -73.6137316      0.959834552      14.6260102       
75.62            0.961605672      14.2856391       0.246869227      -73.9799369      0.246869227      -73.9799369      0.961605672      14.2856391       
77.44            0.963264498      13.9598431       0.241349222      -74.3305094      0.241349222      -74.3305094      0.963264498      13.9598431       
79.26            0.964820223      13.6477177       0.236053687      -74.6664196      0.236053687      -74.6664196      0.964820223      13.6477177       
81.08            0.966281128      13.3484297       0.230969525      -74.9885612      0.230969525      -74.9885612      0.966281128      13.3484297       
82.9             0.967654694      13.0612106       0.226084597      -75.2977581      0.226084597      -75.2977581      0.967654694      13.0612106       
84.72            0.968947683      12.7853508       0.221387641      -75.5947708      0.221387641      -75.5947708      0.968947683      12.7853508       
86.54            0.970166226      12.5201938       0.216868196      -75.8803028      0.216868196      -75.8803028      0.970166226      12.5201938       
88.36            0.971315887      12.2651319       0.212516537      -76.155005       0.212516537      -76.155005       0.971315887      12.2651319       
90.18            0.972401726      12.0196015       0.208323616      -76.4194812      0.208323616      -76.4194812      0.972401726      12.0196015       
92               0.973428349      11.7830794       0.204281001      -76.6742914      0.204281001      -76.6742914      0.973428349      11.7830794       
93.82            0.974399961      11.5550794       0.200380831      -76.9199564      0.200380831      -76.9199564      0.974399961      11.5550794       
95.64            0.9753204        11.335149        0.196615766      -77.1569606      0.196615766      -77.1569606      0.9753204        11.335149        
97.46            0.97619318       11.1228664       0.192978951      -77.3857553      0.192978951      -77.3857553      0.97619318       11.1228664       
99.28            0.977021521      10.9178387       0.189463973      -77.6067612      0.189463973      -77.6067612      0.977021521      10.9178387       
101.1            0.977808377      10.7196986       0.186064831      -77.8203712      0.186064831      -77.8203712      0.977808377      10.7196986       
102.92           0.978556461      10.528103        0.1827759        -78.0269526      0.1827759        -78.0269526      0.978556461      10.528103        
104.74           0.979268271      10.3427309       0.179591906      -78.2268488      0.179591906      -78.2268488      0.979268271      10.3427309       
106.56           0.979946107      10.1632815       0.1765079        -78.4203817      0.1765079        -78.4203817      0.979946107      10.1632815       
108.38           0.980592092      9.98947307       0.173519232      -78.6078529      0.173519232      -78.6078529      0.980592092      9.98947307       
110.2            0.981208185      9.82104102       0.170621529      -78.7895452      0.170621529      -78.7895452      0.981208185      9.82104102       
112.02           0.981796199      9.65773695       0.167810678      -78.9657247      0.167810678      -78.9657247      0.981796199      9.65773695       
113.84           0.98235781       9.49932729       0.165082805      -79.1366411      0.165082805      -79.1366411      0.98235781       9.49932729       
115.66           0.982894574      9.3455923        0.162434259      -79.3025296      0.162434259      -79.3025296      0.982894574      9.3455923        
117.48           0.983407933      9.19632506       0.159861595      -79.4636116      0.159861595      -79.4636116      0.983407933      9.19632506       
119.3            0.983899226      9.05133052       0.157361562      -79.6200959      0.157361562      -79.6200959      0.983899226      9.05133052       
121.12           0.984369699      8.91042472       0.154931091      -79.7721792      0.154931091      -79.7721792      0.984369699      8.91042472       
122.94           0.984820511      8.77343399       0.152567278      -79.9200474      0.152567278      -79.9200474      0.984820511      8.77343399       
124.76           0.985252742      8.64019426       0.150267377      -80.0638762      0.150267377      -80.0638762      0.985252742      8.64019426       
126.58           0.985667398      8.51055042       0.148028789      -80.2038314      0.148028789      -80.2038314      0.985667398      8.51055042       
128.4            0.986065419      8.38435571       0.145849051      -80.3400702      0.145849051      -80.3400702      0.986065419      8.38435571       
130.22           0.986447683      8.26147117       0.143725829      -80.4727414      0.143725829      -80.4727414      0.986447683      8.26147117       
132.04           0.986815011      8.14176513       0.14165691       -80.6019858      0.14165691       -80.6019858      0.986815011      8.14176513       
133.86           0.987168171      8.02511277       0.139640191      -80.7279371      0.139640191      -80.7279371      0.987168171      8.02511277       
135.68           0.987507882      7.91139566       0.137673678      -80.850722       0.137673678      -80.850722       0.987507882      7.91139566       
137.5            0.987834819      7.80050136       0.135755474      -80.970461       0.135755474      -80.970461       0.987834819      7.80050136       
139.32           0.988149615      7.69232305       0.133883774      -81.0872685      0.133883774      -81.0872685      0.988149615      7.69232305       
141.14           0.988452864      7.5867592        0.132056865      -81.201253       0.132056865      -81.201253       0.988452864      7.5867592        
142.96           0.988745123      7.48371323       0.130273112      -81.3125181      0.130273112      -81.3125181      0.988745123      7.48371323       
144.78           0.989026919      7.38309323       0.128530959      -81.4211622      0.128530959      -81.4211622      0.989026919      7.38309323       
146.6            0.989298744      7.28481168       0.126828925      -81.527279       0.126828925      -81.527279       0.989298744      7.28481168       
148.42           0.989561065      7.18878519       0.125165594      -81.6309579      0.125165594      -81.6309579      0.989561065      7.18878519       
150.24           0.989814318      7.09493424       0.123539619      -81.732284       0.123539619      -81.732284       0.989814318      7.09493424       
152.06           0.990058918      7.003183         0.121949712      -81.8313385      0.121949712      -81.8313385      0.990058918      7.003183         
153.88           0.990295255      6.91345911       0.120394643      -81.928199       0.120394643      -81.928199       0.990295255      6.91345911       
155.7            0.990523698      6.82569345       0.118873238      -82.0229396      0.118873238      -82.0229396      0.990523698      6.82569345       
157.52           0.990744593      6.73982          0.117384373      -82.1156309      0.117384373      -82.1156309      0.990744593      6.73982          
159.34           0.99095827       6.65577565       0.115926974      -82.2063406      0.115926974      -82.2063406      0.99095827       6.65577565       
161.16           0.99116504       6.57350006       0.114500014      -82.2951333      0.114500014      -82.2951333      0.99116504       6.57350006       
162.98           0.991365199      6.4929355        0.113102508      -82.382071       0.113102508      -82.382071       0.991365199      6.4929355        
164.8            0.991559025      6.4140267        0.111733515      -82.4672129      0.111733515      -82.4672129      0.991559025      6.4140267        
166.62           0.991746782      6.33672072       0.110392131      -82.5506157      0.110392131      -82.5506157      0.991746782      6.33672072       
168.44           0.991928722      6.26096688       0.109077491      -82.6323337      0.109077491      -82.6323337      0.991928722      6.26096688       
170.26           0.992105081      6.18671657       0.107788765      -82.7124191      0.107788765      -82.7124191      0.992105081      6.18671657       
172.08           0.992276088      6.11392318       0.106525156      -82.7909218      0.106525156      -82.7909218      0.992276088      6.11392318       
173.9            0.992441955      6.04254201       0.105285902      -82.8678897      0.105285902      -82.8678897      0.992441955      6.04254201       
175.72           0.992602887      5.97253016       0.104070267      -82.9433689      0.104070267      -82.9433689      0.992602887      5.97253016       
177.54           0.992759077      5.90384643       0.102877547      -83.0174035      0.102877547      -83.0174035      0.992759077      5.90384643       
179.36           0.99291071       5.83645125       0.101707066      -83.0900359      0.101707066      -83.0900359      0.99291071       5.83645125       
181.18           0.993057962      5.77030661       0.100558171      -83.1613069      0.100558171      -83.1613069      0.993057962      5.77030661       
183              0.993200999      5.70537597       0.0994302376     -83.2312557      0.0994302376     -83.2312557      0.993200999      5.70537597       
184.82           0.993339981      5.64162419       0.0983226629     -83.29992        0.0983226629     -83.29992        0.993339981      5.64162419       
186.64           0.99347506       5.57901747       0.0972348676     -83.367336       0.0972348676     -83.367336       0.99347506       5.57901747       
188.46           0.99360638       5.51752327       0.0961662939     -83.4335386      0.0961662939     -83.4335386      0.99360638       5.51752327       
190.28           0.993734079      5.45711028       0.0951164047     -83.4985613      0.0951164047     -83.4985613      0.993734079      5.45711028       
192.1            0.993858289      5.39774836       0.0940846825     -83.5624366      0.0940846825     -83.5624366      0.993858289      5.39774836       
193.92           0.993979135      5.33940845       0.0930706286     -83.6251955      0.0930706286     -83.6251955      0.993979135      5.33940845       
195.74           0.994096739      5.28206257       0.0920737623     -83.6868682      0.0920737623     -83.6868682      0.994096739      5.28206257       
197.56           0.994211214      5.22568373       0.0910936203     -83.7474834      0.0910936203     -83.7474834      0.994211214      5.22568373       
199.38           0.99432267       5.1702459        0.0901297554     -83.8070692      0.0901297554     -83.8070692      0.99432267       5.1702459        
201.2            0.994431213      5.11572401       0.0891817362     -83.8656524      0.0891817362     -83.8656524      0.994431213      5.11572401       
203.02           0.994536942      5.06209382       0.0882491464     -83.923259       0.0882491464     -83.923259       0.994536942      5.06209382       
204.84           0.994639954      5.00933197       0.0873315841     -83.9799141      0.0873315841     -83.9799141      0.994639954      5.00933197       
206.66           0.994740341      4.95741589       0.086428661      -84.0356419      0.086428661      -84.0356419      0.994740341      4.95741589       
208.48           0.994838191      4.90632379       0.0855400022     -84.0904656      0.0855400022     -84.0904656      0.994838191      4.90632379       
210.3            0.994933588      4.85603462       0.0846652453     -84.144408       0.0846652453     -84.144408       0.994933588      4.85603462       
212.12           0.995026614      4.80652802       0.08380404       -84.1974908      0.08380404       -84.1974908      0.995026614      4.80652802       
213.94           0.995117345      4.75778433       0.0829560477     -84.249735       0.0829560477     -84.249735       0.995117345      4.75778433       
215.76           0.995205857      4.70978455       0.0821209409     -84.3011612      0.0821209409     -84.3011612      0.995205857      4.70978455       
217.58           0.995292221      4.66251027       0.0812984026     -84.3517889      0.0812984026     -84.3517889      0.995292221      4.66251027       
219.4            0.995376505      4.6159437        0.0804881265     -84.4016372      0.0804881265     -84.4016372      0.995376505      4.6159437        
221.22           0.995458775      4.57006764       0.0796898157     -84.4507246      0.0796898157     -84.4507246      0.995458775      4.57006764       
223.04           0.995539095      4.52486542       0.0789031829     -84.499069       0.0789031829     -84.499069       0.995539095      4.52486542       
224.86           0.995617525      4.4803209        0.07812795       -84.5466875      0.07812795       -84.5466875      0.995617525      4.4803209        
226.68           0.995694124      4.43641846       0.0773638475     -84.5935971      0.0773638475     -84.5935971      0.995694124      4.43641846       
228.5            0.995768947      4.39314297       0.0766106144     -84.6398137      0.0766106144     -84.6398137      0.995768947      4.39314297       
230.32           0.995842049      4.35047976       0.0758679975     -84.6853532      0.0758679975     -84.6853532      0.995842049      4.35047976       
232.14           0.995913482      4.30841462       0.0751357516     -84.7302307      0.0751357516     -84.7302307      0.995913482      4.30841462       
