! Coilcraft 1206CS-821 Chip Inductor				
! 29 July 2002			
# MHZ S MA R 50
!Freq             MagS11           AngS11           MagS21           AngS21           MagS12           AngS12           MagS22           AngS22
1                0.0544509982     57.6538278       0.971956127      -2.71277581      0.971956127      -2.71277581      0.0544509982     57.6538278       
2.89             0.138785478      68.4823664       0.957837061      -7.74683473      0.957837061      -7.74683473      0.138785478      68.4823664       
4.78             0.22165125       67.8133667       0.939003338      -12.6251777      0.939003338      -12.6251777      0.22165125       67.8133667       
6.67             0.299929047      65.152117        0.915363707      -17.2972094      0.915363707      -17.2972094      0.299929047      65.152117        
8.56             0.372394388      61.9282819       0.887804913      -21.7224125      0.887804913      -21.7224125      0.372394388      61.9282819       
10.45            0.438443922      58.5855027       0.857424453      -25.874138       0.857424453      -25.874138       0.438443922      58.5855027       
12.34            0.497913664      55.3073017       0.825298885      -29.739281       0.825298885      -29.739281       0.497913664      55.3073017       
14.23            0.55096189       52.1785493       0.792373788      -33.3162274      0.792373788      -33.3162274      0.55096189       52.1785493       
16.12            0.597962871      49.2378407       0.759417641      -36.6121429      0.759417641      -36.6121429      0.597962871      49.2378407       
18.01            0.639416144      46.4992963       0.727015512      -39.6402646      0.727015512      -39.6402646      0.639416144      46.4992963       
19.9             0.675876491      43.963373        0.695585537      -42.4175571      0.695585537      -42.4175571      0.675876491      43.963373        
21.79            0.70790491       41.6228752       0.665405783      -44.9628708      0.665405783      -44.9628708      0.70790491       41.6228752       
23.68            0.736037521      39.4665173       0.636643499      -47.2956022      0.636643499      -47.2956022      0.736037521      39.4665173       
25.57            0.760768165      37.4810945       0.609382234      -49.4347872      0.609382234      -49.4347872      0.760768165      37.4810945       
27.46            0.782540551      35.6528072       0.583644853      -51.3985323      0.583644853      -51.3985323      0.782540551      35.6528072       
29.35            0.801746597      33.9680523       0.559411954      -53.2036962      0.559411954      -53.2036962      0.801746597      33.9680523       
31.24            0.818728444      32.413875        0.536636005      -54.8657435      0.536636005      -54.8657435      0.818728444      32.413875        
33.13            0.833782436      30.9782049       0.515251848      -56.398713       0.515251848      -56.398713       0.833782436      30.9782049       
35.02            0.847163942      29.6499563       0.495184304      -57.8152576      0.495184304      -57.8152576      0.847163942      29.6499563       
36.91            0.859092354      28.4190454       0.476353519      -59.1267252      0.476353519      -59.1267252      0.859092354      28.4190454       
38.8             0.86975587       27.2763589       0.458678646      -60.3432618      0.458678646      -60.3432618      0.86975587       27.2763589       
40.69            0.879315863      26.2136948       0.44208029       -61.4739208      0.44208029       -61.4739208      0.879315863      26.2136948       
42.58            0.887910772      25.2236913       0.426482059      -62.5267739      0.426482059      -62.5267739      0.887910772      25.2236913       
44.47            0.89565949       24.2997495       0.4118115        -63.509016       0.4118115        -63.509016       0.89565949       24.2997495       
46.36            0.902664285      23.435959        0.398000593      -64.4270628      0.398000593      -64.4270628      0.902664285      23.435959        
48.25            0.909013294      22.6270251       0.384985943      -65.2866396      0.384985943      -65.2866396      0.909013294      22.6270251       
50.14            0.914782637      21.868203        0.37270878       -66.0928613      0.37270878       -66.0928613      0.914782637      21.868203        
52.03            0.920038213      21.1552365       0.361114828      -66.8503036      0.361114828      -66.8503036      0.920038213      21.1552365       
53.92            0.924837211      20.4843042       0.350154094      -67.5630656      0.350154094      -67.5630656      0.924837211      20.4843042       
55.81            0.929229385      19.8519699       0.339780613      -68.2348262      0.339780613      -68.2348262      0.929229385      19.8519699       
57.7             0.933258135      19.2551397       0.329952177      -68.8688918      0.329952177      -68.8688918      0.933258135      19.2551397       
59.59            0.936961415      18.6910239       0.320630048      -69.4682401      0.320630048      -69.4682401      0.936961415      18.6910239       
61.48            0.940372502      18.1571024       0.311778685      -70.0355571      0.311778685      -70.0355571      0.940372502      18.1571024       
63.37            0.943520647      17.6510955       0.303365478      -70.5732702      0.303365478      -70.5732702      0.943520647      17.6510955       
65.26            0.946431625      17.170937        0.295360501      -71.0835771      0.295360501      -71.0835771      0.946431625      17.170937        
67.15            0.949128207      16.7147516       0.28773627       -71.5684713      0.28773627       -71.5684713      0.949128207      16.7147516       
69.04            0.951630559      16.2808339       0.280467539      -72.0297637      0.280467539      -72.0297637      0.951630559      16.2808339       
70.93            0.95395658       15.867631        0.273531089      -72.4691028      0.273531089      -72.4691028      0.95395658       15.867631        
72.82            0.956122196      15.4737259       0.266905557      -72.8879918      0.266905557      -72.8879918      0.956122196      15.4737259       
74.71            0.958141608      15.0978239       0.260571266      -73.2878032      0.260571266      -73.2878032      0.958141608      15.0978239       
76.6             0.960027507      14.7387401       0.254510071      -73.669793       0.254510071      -73.669793       0.960027507      14.7387401       
78.49            0.961791259      14.3953884       0.248705232      -74.0351118      0.248705232      -74.0351118      0.961791259      14.3953884       
80.38            0.963443066      14.0667716       0.243141282      -74.3848156      0.243141282      -74.3848156      0.963443066      14.0667716       
82.27            0.964992101      13.751973        0.237803918      -74.7198752      0.237803918      -74.7198752      0.964992101      13.751973        
84.16            0.96644663       13.4501484       0.232679899      -75.0411841      0.232679899      -75.0411841      0.96644663       13.4501484       
86.05            0.967814115      13.1605195       0.227756957      -75.349566       0.227756957      -75.349566       0.967814115      13.1605195       
87.94            0.969101305      12.8823674       0.223023709      -75.6457814      0.223023709      -75.6457814      0.969101305      12.8823674       
89.83            0.970314313      12.6150277       0.218469586      -75.9305334      0.218469586      -75.9305334      0.970314313      12.6150277       
91.72            0.971458691      12.3578852       0.214084763      -76.2044728      0.214084763      -76.2044728      0.971458691      12.3578852       
93.61            0.972539484      12.1103694       0.209860097      -76.4682028      0.209860097      -76.4682028      0.972539484      12.1103694       
95.5             0.973561286      11.871951        0.205787071      -76.7222833      0.205787071      -76.7222833      0.973561286      11.871951        
97.39            0.974528289      11.642138        0.201857745      -76.9672347      0.201857745      -76.9672347      0.974528289      11.642138        
99.28            0.975444321      11.4204727       0.198064708      -77.2035408      0.198064708      -77.2035408      0.975444321      11.4204727       
101.17           0.976312885      11.2065287       0.194401035      -77.4316527      0.194401035      -77.4316527      0.976312885      11.2065287       
103.06           0.97713719       10.9999083       0.190860253      -77.6519907      0.190860253      -77.6519907      0.97713719       10.9999083       
104.95           0.977920181      10.8002405       0.1874363        -77.8649474      0.1874363        -77.8649474      0.977920181      10.8002405       
106.84           0.978664562      10.6071782       0.184123499      -78.0708896      0.184123499      -78.0708896      0.978664562      10.6071782       
108.73           0.979372823      10.420397        0.180916526      -78.2701603      0.180916526      -78.2701603      0.979372823      10.420397        
110.62           0.980047255      10.239593        0.177810384      -78.463081       0.177810384      -78.463081       0.980047255      10.239593        
112.51           0.980689975      10.0644813       0.17480038       -78.6499529      0.17480038       -78.6499529      0.980689975      10.0644813       
114.4            0.981302933      9.8947947        0.171882102      -78.8310586      0.171882102      -78.8310586      0.981302933      9.8947947        
116.29           0.981887937      9.73028208       0.169051396      -79.0066637      0.169051396      -79.0066637      0.981887937      9.73028208       
118.18           0.982446657      9.57070754       0.166304355      -79.1770176      0.166304355      -79.1770176      0.982446657      9.57070754       
120.07           0.982980642      9.4158491        0.163637292      -79.3423552      0.163637292      -79.3423552      0.982980642      9.4158491        
121.96           0.983491329      9.26549774       0.161046734      -79.5028974      0.161046734      -79.5028974      0.983491329      9.26549774       
123.85           0.983980052      9.11945647       0.1585294        -79.6588528      0.1585294        -79.6588528      0.983980052      9.11945647       
125.74           0.984448051      8.97753951       0.156082192      -79.8104178      0.156082192      -79.8104178      0.984448051      8.97753951       
127.63           0.984896481      8.83957147       0.153702181      -79.957778       0.153702181      -79.957778       0.984896481      8.83957147       
129.52           0.985326418      8.7053867        0.151386597      -80.1011087      0.151386597      -80.1011087      0.985326418      8.7053867        
131.41           0.985738864      8.57482857       0.149132817      -80.2405756      0.149132817      -80.2405756      0.985738864      8.57482857       
133.3            0.986134755      8.44774892       0.146938359      -80.3763354      0.146938359      -80.3763354      0.986134755      8.44774892       
135.19           0.986514965      8.32400745       0.144800867      -80.5085368      0.144800867      -80.5085368      0.986514965      8.32400745       
137.08           0.986880311      8.20347127       0.142718108      -80.6373203      0.142718108      -80.6373203      0.986880311      8.20347127       
138.97           0.987231559      8.08601436       0.140687963      -80.7628192      0.140687963      -80.7628192      0.987231559      8.08601436       
140.86           0.987569425      7.9715172        0.138708418      -80.8851603      0.138708418      -80.8851603      0.987569425      7.9715172        
142.75           0.98789458       7.8598663        0.136777563      -81.0044636      0.136777563      -81.0044636      0.98789458       7.8598663        
144.64           0.988207654      7.75095385       0.134893576      -81.1208432      0.134893576      -81.1208432      0.988207654      7.75095385       
146.53           0.988509239      7.6446774        0.13305473       -81.2344076      0.13305473       -81.2344076      0.988509239      7.6446774        
148.42           0.98879989       7.54093949       0.131259375      -81.3452602      0.131259375      -81.3452602      0.98879989       7.54093949       
150.31           0.98908013       7.43964736       0.129505944      -81.453499       0.129505944      -81.453499       0.98908013       7.43964736       
152.2            0.989350451      7.34071272       0.127792942      -81.5592176      0.127792942      -81.5592176      0.989350451      7.34071272       
154.09           0.989611315      7.24405142       0.126118942      -81.6625053      0.126118942      -81.6625053      0.989611315      7.24405142       
155.98           0.98986316       7.14958323       0.124482586      -81.7634469      0.124482586      -81.7634469      0.98986316       7.14958323       
157.87           0.990106396      7.05723167       0.122882574      -81.8621234      0.122882574      -81.8621234      0.990106396      7.05723167       
159.76           0.990341412      6.9669237        0.121317667      -81.9586124      0.121317667      -81.9586124      0.990341412      6.9669237        
161.65           0.990568574      6.87858963       0.119786681      -82.0529877      0.119786681      -82.0529877      0.990568574      6.87858963       
163.54           0.990788228      6.79216284       0.118288484      -82.1453197      0.118288484      -82.1453197      0.990788228      6.79216284       
165.43           0.991000703      6.70757969       0.116821992      -82.2356761      0.116821992      -82.2356761      0.991000703      6.70757969       
167.32           0.991206307      6.62477931       0.11538617       -82.3241214      0.11538617       -82.3241214      0.991206307      6.62477931       
169.21           0.991405335      6.54370345       0.113980025      -82.4107172      0.113980025      -82.4107172      0.991405335      6.54370345       
171.1            0.991598064      6.46429639       0.112602608      -82.4955227      0.112602608      -82.4955227      0.991598064      6.46429639       
172.99           0.991784757      6.38650473       0.111253008      -82.5785944      0.111253008      -82.5785944      0.991784757      6.38650473       
174.88           0.991965663      6.31027736       0.109930353      -82.6599866      0.109930353      -82.6599866      0.991965663      6.31027736       
176.77           0.99214102       6.23556525       0.108633807      -82.7397513      0.108633807      -82.7397513      0.99214102       6.23556525       
178.66           0.992311052      6.16232141       0.107362567      -82.8179383      0.107362567      -82.8179383      0.992311052      6.16232141       
180.55           0.992475972      6.09050075       0.106115863      -82.8945954      0.106115863      -82.8945954      0.992475972      6.09050075       
182.44           0.992635985      6.02006001       0.104892954      -82.9697685      0.104892954      -82.9697685      0.992635985      6.02006001       
184.33           0.992791282      5.95095765       0.103693132      -83.0435017      0.103693132      -83.0435017      0.992791282      5.95095765       
186.22           0.992942047      5.88315377       0.102515713      -83.1158373      0.102515713      -83.1158373      0.992942047      5.88315377       
188.11           0.993088454      5.81661006       0.101360041      -83.1868159      0.101360041      -83.1868159      0.993088454      5.81661006       
190              0.99323067       5.75128965       0.100225486      -83.2564767      0.100225486      -83.2564767      0.99323067       5.75128965       
191.89           0.993368854      5.68715711       0.0991114395     -83.3248572      0.0991114395     -83.3248572      0.993368854      5.68715711       
193.78           0.993503156      5.62417838       0.098017319      -83.3919936      0.098017319      -83.3919936      0.993503156      5.62417838       
195.67           0.99363372       5.56232066       0.0969425618     -83.4579207      0.0969425618     -83.4579207      0.99363372       5.56232066       
197.56           0.993760683      5.50155236       0.0958866266     -83.522672       0.0958866266     -83.522672       0.993760683      5.50155236       
199.45           0.993884177      5.44184311       0.0948489919     -83.5862797      0.0948489919     -83.5862797      0.993884177      5.44184311       
201.34           0.994004327      5.38316361       0.0938291552     -83.6487749      0.0938291552     -83.6487749      0.994004327      5.38316361       
203.23           0.994121251      5.32548564       0.0928266322     -83.7101876      0.0928266322     -83.7101876      0.994121251      5.32548564       
205.12           0.994235065      5.26878201       0.0918409556     -83.7705466      0.0918409556     -83.7705466      0.994235065      5.26878201       
207.01           0.994345877      5.21302648       0.0908716751     -83.8298797      0.0908716751     -83.8298797      0.994345877      5.21302648       
208.9            0.994453793      5.15819376       0.089918356      -83.8882138      0.089918356      -83.8882138      0.994453793      5.15819376       
210.79           0.994558911      5.10425944       0.0889805787     -83.9455749      0.0889805787     -83.9455749      0.994558911      5.10425944       
212.68           0.994661327      5.05119996       0.0880579382     -84.0019878      0.0880579382     -84.0019878      0.994661327      5.05119996       
214.57           0.994761133      4.99899257       0.0871500434     -84.0574767      0.0871500434     -84.0574767      0.994761133      4.99899257       
216.46           0.994858417      4.94761531       0.0862565163     -84.1120649      0.0862565163     -84.1120649      0.994858417      4.94761531       
218.35           0.994953262      4.89704695       0.0853769919     -84.1657751      0.0853769919     -84.1657751      0.994953262      4.89704695       
220.24           0.995045749      4.84726699       0.0845111172     -84.2186287      0.0845111172     -84.2186287      0.995045749      4.84726699       
222.13           0.995135955      4.79825561       0.083658551      -84.2706471      0.083658551      -84.2706471      0.995135955      4.79825561       
224.02           0.995223955      4.74999364       0.0828189634     -84.3218503      0.0828189634     -84.3218503      0.995223955      4.74999364       
225.91           0.995309819      4.70246255       0.081992035      -84.3722582      0.081992035      -84.3722582      0.995309819      4.70246255       
227.8            0.995393615      4.65564441       0.081177457      -84.4218897      0.081177457      -84.4218897      0.995393615      4.65564441       
229.69           0.995475409      4.60952186       0.0803749305     -84.4707632      0.0803749305     -84.4707632      0.995475409      4.60952186       
231.58           0.995555265      4.56407812       0.079584166      -84.5188965      0.079584166      -84.5188965      0.995555265      4.56407812       
233.47           0.995633241      4.51929692       0.0788048832     -84.5663069      0.0788048832     -84.5663069      0.995633241      4.51929692       
235.36           0.995709397      4.47516251       0.0780368107     -84.6130111      0.0780368107     -84.6130111      0.995709397      4.47516251       
237.25           0.995783789      4.43165966       0.0772796853     -84.6590251      0.0772796853     -84.6590251      0.995783789      4.43165966       
239.14           0.995856469      4.38877357       0.0765332522     -84.7043647      0.0765332522     -84.7043647      0.995856469      4.38877357       
241.03           0.99592749       4.34648993       0.0757972644     -84.7490451      0.0757972644     -84.7490451      0.99592749       4.34648993       
