! Coilcraft 1206CS-151 Chip Inductor				
! 29 July 2002			
# MHZ S MA R 50
!Freq             MagS11           AngS11           MagS21           AngS21           MagS12           AngS12           MagS22           AngS22
1                0.0100244147     60.3291345       0.995075866      -0.501524876     0.995075866      -0.501524876     0.0100244147     60.3291345       
4.99             0.0441294332     78.1047657       0.991844364      -2.49526787      0.991844364      -2.49526787      0.0441294332     78.1047657       
8.98             0.0785477524     79.2200929       0.988325404      -4.47781512      0.988325404      -4.47781512      0.0785477524     79.2200929       
12.97            0.112689033      78.605017        0.983956572      -6.44612655      0.983956572      -6.44612655      0.112689033      78.605017        
16.96            0.146409522      77.4375396       0.978645236      -8.39650489      0.978645236      -8.39650489      0.146409522      77.4375396       
20.95            0.179598847      76.028556        0.97238453       -10.325221       0.97238453       -10.325221       0.179598847      76.028556        
24.94            0.212160059      74.4996849       0.965202063      -12.228695       0.965202063      -12.228695       0.212160059      74.4996849       
28.93            0.2440071        72.910005        0.957144222      -14.1035864      0.957144222      -14.1035864      0.2440071        72.910005        
32.92            0.27506471       71.2925667       0.948269136      -15.9468481      0.948269136      -15.9468481      0.27506471       71.2925667       
36.91            0.305268638      69.6677853       0.938642569      -17.7557605      0.938642569      -17.7557605      0.305268638      69.6677853       
40.9             0.334565741      68.0492          0.928335073      -19.5279498      0.928335073      -19.5279498      0.334565741      68.0492          
44.89            0.362913842      66.4462526       0.917419788      -21.2613968      0.917419788      -21.2613968      0.362913842      66.4462526       
48.88            0.390281369      64.8657532       0.905970663      -22.9544343      0.905970663      -22.9544343      0.390281369      64.8657532       
52.87            0.416646786      63.3127111       0.894061002      -24.6057386      0.894061002      -24.6057386      0.416646786      63.3127111       
56.86            0.44199787       61.7908391       0.881762267      -26.2143143      0.881762267      -26.2143143      0.44199787       61.7908391       
60.85            0.466330876      60.302875        0.869143134      -27.7794738      0.869143134      -27.7794738      0.466330876      60.302875        
64.84            0.489649629      58.8508008       0.856268763      -29.3008148      0.856268763      -29.3008148      0.489649629      58.8508008       
68.83            0.511964584      57.4359975       0.843200261      -30.7781946      0.843200261      -30.7781946      0.511964584      57.4359975       
72.82            0.533291892      56.0593605       0.829994326      -32.2117034      0.829994326      -32.2117034      0.533291892      56.0593605       
76.81            0.553652488      54.7213884       0.816703038      -33.6016379      0.816703038      -33.6016379      0.553652488      54.7213884       
80.8             0.573071231      53.4222542       0.803373782      -34.9484745      0.803373782      -34.9484745      0.573071231      53.4222542       
84.79            0.591576106      52.1618631       0.79004927       -36.2528442      0.79004927       -36.2528442      0.591576106      52.1618631       
88.78            0.609197496      50.9399007       0.776767659      -37.5155082      0.776767659      -37.5155082      0.609197496      50.9399007       
92.77            0.625967532      49.7558731       0.763562725      -38.7373361      0.763562725      -38.7373361      0.625967532      49.7558731       
96.76            0.641919522      48.6091419       0.750464087      -39.9192848      0.750464087      -39.9192848      0.641919522      48.6091419       
100.75           0.657087454      47.4989527       0.737497466      -41.0623802      0.737497466      -41.0623802      0.657087454      47.4989527       
104.74           0.671505572      46.4244609       0.724684965      -42.1677007      0.724684965      -42.1677007      0.671505572      46.4244609       
108.73           0.68520802       45.3847525       0.712045355      -43.2363623      0.712045355      -43.2363623      0.68520802       45.3847525       
112.72           0.69822855       44.3788624       0.699594365      -44.2695055      0.699594365      -44.2695055      0.69822855       44.3788624       
116.71           0.710600281      43.4057896       0.687344969      -45.2682848      0.687344969      -45.2682848      0.710600281      43.4057896       
120.7            0.722355513      42.4645108       0.67530766       -46.2338585      0.67530766       -46.2338585      0.722355513      42.4645108       
124.69           0.733525576      41.5539905       0.663490711      -47.1673807      0.663490711      -47.1673807      0.733525576      41.5539905       
128.68           0.744140728      40.6731907       0.651900424      -48.0699948      0.651900424      -48.0699948      0.744140728      40.6731907       
132.67           0.754230074      39.8210784       0.640541357      -48.9428276      0.640541357      -48.9428276      0.754230074      39.8210784       
136.66           0.763821514      38.9966315       0.629416536      -49.786985       0.629416536      -49.786985       0.763821514      38.9966315       
140.65           0.772941719      38.1988438       0.61852765       -50.6035478      0.61852765       -50.6035478      0.772941719      38.1988438       
144.64           0.781616118      37.4267293       0.607875224      -51.3935694      0.607875224      -51.3935694      0.781616118      37.4267293       
148.63           0.789868905      36.6793251       0.597458784      -52.1580735      0.597458784      -52.1580735      0.789868905      36.6793251       
152.62           0.797723056      35.9556939       0.587276995      -52.8980522      0.587276995      -52.8980522      0.797723056      35.9556939       
156.61           0.805200353      35.2549256       0.57732779       -53.6144654      0.57732779       -53.6144654      0.805200353      35.2549256       
160.6            0.812321421      34.5761387       0.567608489      -54.3082397      0.567608489      -54.3082397      0.812321421      34.5761387       
164.59           0.819105763      33.918481        0.558115892      -54.9802685      0.558115892      -54.9802685      0.819105763      33.918481        
168.58           0.825571804      33.2811303       0.548846378      -55.6314117      0.548846378      -55.6314117      0.825571804      33.2811303       
172.57           0.831736937      32.6632942       0.539795974      -56.2624961      0.539795974      -56.2624961      0.831736937      32.6632942       
176.56           0.83761757       32.0642099       0.530960433      -56.8743159      0.530960433      -56.8743159      0.83761757       32.0642099       
180.55           0.843229168      31.4831445       0.522335287      -57.4676331      0.522335287      -57.4676331      0.843229168      31.4831445       
184.54           0.848586306      30.9193939       0.513915907      -58.0431785      0.513915907      -58.0431785      0.848586306      30.9193939       
188.53           0.853702713      30.3722824       0.50569754       -58.6016524      0.50569754       -58.6016524      0.853702713      30.3722824       
192.52           0.858591316      29.8411622       0.497675356      -59.1437255      0.497675356      -59.1437255      0.858591316      29.8411622       
196.51           0.86326429       29.3254122       0.489844476      -59.6700397      0.489844476      -59.6700397      0.86326429       29.3254122       
200.5            0.867733091      28.8244377       0.482200005      -60.1812094      0.482200005      -60.1812094      0.867733091      28.8244377       
204.49           0.872008508      28.3376689       0.474737055      -60.6778223      0.474737055      -60.6778223      0.872008508      28.3376689       
208.48           0.876100695      27.8645606       0.467450766      -61.1604407      0.467450766      -61.1604407      0.876100695      27.8645606       
212.47           0.880019209      27.404591        0.460336322      -61.6296019      0.460336322      -61.6296019      0.880019209      27.404591        
216.46           0.883773051      26.9572608       0.453388968      -62.0858199      0.453388968      -62.0858199      0.883773051      26.9572608       
220.45           0.887370693      26.5220922       0.446604021      -62.5295861      0.446604021      -62.5295861      0.887370693      26.5220922       
224.44           0.890820117      26.0986283       0.439976881      -62.96137        0.439976881      -62.96137        0.890820117      26.0986283       
228.43           0.894128836      25.686432        0.433503036      -63.3816208      0.433503036      -63.3816208      0.894128836      25.686432        
232.42           0.897303935      25.2850852       0.427178071      -63.7907677      0.427178071      -63.7907677      0.897303935      25.2850852       
236.41           0.900352084      24.894188        0.420997673      -64.1892211      0.420997673      -64.1892211      0.900352084      24.894188        
240.4            0.903279575      24.5133579       0.41495763       -64.5773734      0.41495763       -64.5773734      0.903279575      24.5133579       
244.39           0.906092338      24.1422287       0.409053843      -64.9555997      0.409053843      -64.9555997      0.906092338      24.1422287       
248.38           0.908795967      23.7804503       0.403282315      -65.3242591      0.403282315      -65.3242591      0.908795967      23.7804503       
252.37           0.91139574       23.4276877       0.397639165      -65.6836945      0.397639165      -65.6836945      0.91139574       23.4276877       
256.36           0.913896638      23.0836202       0.392120616      -66.0342346      0.392120616      -66.0342346      0.913896638      23.0836202       
260.35           0.916303364      22.7479409       0.386723003      -66.3761933      0.386723003      -66.3761933      0.916303364      22.7479409       
264.34           0.91862036       22.4203558       0.381442771      -66.7098715      0.381442771      -66.7098715      0.91862036       22.4203558       
268.33           0.920851821      22.1005837       0.37627647       -67.0355569      0.37627647       -67.0355569      0.920851821      22.1005837       
272.32           0.923001714      21.7883551       0.371220755      -67.3535251      0.371220755      -67.3535251      0.923001714      21.7883551       
276.31           0.925073788      21.4834119       0.366272386      -67.6640399      0.366272386      -67.6640399      0.925073788      21.4834119       
280.3            0.927071592      21.1855067       0.361428226      -67.9673542      0.361428226      -67.9673542      0.927071592      21.1855067       
284.29           0.928998481      20.8944026       0.356685236      -68.26371        0.356685236      -68.26371        0.928998481      20.8944026       
288.28           0.930857633      20.6098723       0.352040474      -68.5533396      0.352040474      -68.5533396      0.930857633      20.6098723       
292.27           0.932652055      20.3316981       0.347491094      -68.8364653      0.347491094      -68.8364653      0.932652055      20.3316981       
296.26           0.9343846        20.059671        0.343034342      -69.1133005      0.343034342      -69.1133005      0.9343846        20.059671        
300.25           0.936057966      19.7935907       0.338667552      -69.3840497      0.338667552      -69.3840497      0.936057966      19.7935907       
304.24           0.937674717      19.5332649       0.334388147      -69.6489091      0.334388147      -69.6489091      0.937674717      19.5332649       
308.23           0.939237281      19.2785089       0.330193634      -69.9080672      0.330193634      -69.9080672      0.939237281      19.2785089       
312.22           0.940747962      19.0291457       0.326081604      -70.1617045      0.326081604      -70.1617045      0.940747962      19.0291457       
316.21           0.94220895       18.7850051       0.322049723      -70.4099948      0.322049723      -70.4099948      0.94220895       18.7850051       
320.2            0.94362232       18.5459237       0.318095737      -70.6531046      0.318095737      -70.6531046      0.94362232       18.5459237       
324.19           0.944990048      18.3117445       0.314217466      -70.891194       0.314217466      -70.891194       0.944990048      18.3117445       
328.18           0.946314008      18.0823165       0.310412802      -71.1244168      0.310412802      -71.1244168      0.946314008      18.0823165       
332.17           0.947595985      17.8574947       0.306679707      -71.352921       0.306679707      -71.352921       0.947595985      17.8574947       
336.16           0.948837673      17.6371396       0.303016207      -71.5768485      0.303016207      -71.5768485      0.948837673      17.6371396       
340.15           0.950040687      17.4211171       0.299420397      -71.7963362      0.299420397      -71.7963362      0.950040687      17.4211171       
344.14           0.951206563      17.2092981       0.295890432      -72.0115155      0.295890432      -72.0115155      0.951206563      17.2092981       
348.13           0.952336763      17.0015583       0.292424529      -72.222513       0.292424529      -72.222513       0.952336763      17.0015583       
352.12           0.95343268       16.7977782       0.289020962      -72.4294503      0.289020962      -72.4294503      0.95343268       16.7977782       
356.11           0.954495642      16.5978427       0.285678062      -72.6324447      0.285678062      -72.6324447      0.954495642      16.5978427       
360.1            0.955526914      16.4016408       0.282394215      -72.8316091      0.282394215      -72.8316091      0.955526914      16.4016408       
364.09           0.956527702      16.2090657       0.279167857      -73.0270522      0.279167857      -73.0270522      0.956527702      16.2090657       
368.08           0.957499159      16.0200146       0.275997478      -73.2188787      0.275997478      -73.2188787      0.957499159      16.0200146       
372.07           0.958442383      15.834388        0.272881613      -73.4071897      0.272881613      -73.4071897      0.958442383      15.834388        
376.06           0.959358421      15.6520905       0.269818846      -73.5920823      0.269818846      -73.5920823      0.959358421      15.6520905       
380.05           0.960248276      15.4730297       0.266807806      -73.7736504      0.266807806      -73.7736504      0.960248276      15.4730297       
384.04           0.961112905      15.2971166       0.263847167      -73.9519846      0.263847167      -73.9519846      0.961112905      15.2971166       
388.03           0.961953221      15.1242654       0.260935642      -74.127172       0.260935642      -74.127172       0.961953221      15.1242654       
392.02           0.962770099      14.9543931       0.258071988      -74.299297       0.258071988      -74.299297       0.962770099      14.9543931       
396.01           0.963564375      14.7874198       0.255254998      -74.4684408      0.255254998      -74.4684408      0.963564375      14.7874198       
400              0.964336847      14.6232682       0.252483505      -74.634682       0.252483505      -74.634682       0.964336847      14.6232682       
403.99           0.965088282      14.4618636       0.249756377      -74.7980962      0.249756377      -74.7980962      0.965088282      14.4618636       
407.98           0.965819411      14.3031341       0.247072519      -74.9587567      0.247072519      -74.9587567      0.965819411      14.3031341       
411.97           0.966530937      14.1470098       0.244430867      -75.1167343      0.244430867      -75.1167343      0.966530937      14.1470098       
415.96           0.967223529      13.9934235       0.241830392      -75.2720972      0.241830392      -75.2720972      0.967223529      13.9934235       
419.95           0.967897834      13.8423101       0.239270096      -75.4249116      0.239270096      -75.4249116      0.967897834      13.8423101       
423.94           0.968554466      13.6936067       0.236749011      -75.5752412      0.236749011      -75.5752412      0.968554466      13.6936067       
427.93           0.969194019      13.5472522       0.234266198      -75.7231478      0.234266198      -75.7231478      0.969194019      13.5472522       
431.92           0.969817059      13.4031879       0.231820747      -75.8686911      0.231820747      -75.8686911      0.969817059      13.4031879       
435.91           0.97042413       13.2613567       0.229411775      -76.011929       0.229411775      -76.011929       0.97042413       13.2613567       
439.9            0.971015755      13.1217035       0.227038425      -76.1529173      0.227038425      -76.1529173      0.971015755      13.1217035       
443.89           0.971592435      12.9841747       0.224699866      -76.29171        0.224699866      -76.29171        0.971592435      12.9841747       
447.88           0.972154651      12.8487187       0.222395292      -76.4283597      0.222395292      -76.4283597      0.972154651      12.8487187       
451.87           0.972702867      12.7152855       0.220123918      -76.562917       0.220123918      -76.562917       0.972702867      12.7152855       
455.86           0.973237526      12.5838263       0.217884986      -76.695431       0.217884986      -76.695431       0.973237526      12.5838263       
459.85           0.973759055      12.4542943       0.215677756      -76.8259492      0.215677756      -76.8259492      0.973759055      12.4542943       
463.84           0.974267865      12.3266437       0.213501513      -76.9545179      0.213501513      -76.9545179      0.974267865      12.3266437       
467.83           0.97476435       12.2008305       0.211355559      -77.0811815      0.211355559      -77.0811815      0.97476435       12.2008305       
471.82           0.97524889       12.0768118       0.209239219      -77.2059834      0.209239219      -77.2059834      0.97524889       12.0768118       
475.81           0.975721851      11.954546        0.207151836      -77.3289656      0.207151836      -77.3289656      0.975721851      11.954546        
479.8            0.976183583      11.8339928       0.205092771      -77.4501687      0.205092771      -77.4501687      0.976183583      11.8339928       
483.79           0.976634425      11.7151131       0.203061404      -77.5696322      0.203061404      -77.5696322      0.976634425      11.7151131       
487.78           0.977074704      11.597869        0.201057132      -77.6873943      0.201057132      -77.6873943      0.977074704      11.597869        
491.77           0.977504732      11.4822237       0.199079368      -77.8034921      0.199079368      -77.8034921      0.977504732      11.4822237       
495.76           0.977924812      11.3681413       0.197127542      -77.9179617      0.197127542      -77.9179617      0.977924812      11.3681413       
499.75           0.978335235      11.2555871       0.195201099      -78.030838       0.195201099      -78.030838       0.978335235      11.2555871       
503.74           0.978736282      11.1445275       0.193299501      -78.1421548      0.193299501      -78.1421548      0.978736282      11.1445275       
507.73           0.979128224      11.0349297       0.191422224      -78.2519452      0.191422224      -78.2519452      0.979128224      11.0349297       
