! Coilcraft 1206CS-102 Chip Inductor				
! 29 July 2002			
# MHZ S MA R 50
!Freq             MagS11           AngS11           MagS21           AngS21           MagS12           AngS12           MagS22           AngS22
1                0.0622792379     51.2622068       0.962255334      -2.89377506      0.962255334      -2.89377506      0.0622792379     51.2622068       
2.82             0.146472487      65.1543266       0.947821641      -8.06130077      0.947821641      -8.06130077      0.146472487      65.1543266       
4.64             0.230591931      65.4841361       0.928335403      -13.0616533      0.928335403      -13.0616533      0.230591931      65.4841361       
6.46             0.310108116      63.2452643       0.903860005      -17.8401319      0.903860005      -17.8401319      0.310108116      63.2452643       
8.28             0.383530498      60.237176        0.875396065      -22.3540355      0.875396065      -22.3540355      0.383530498      60.237176        
10.1             0.450197036      57.020888        0.844134432      -26.576281       0.844134432      -26.576281       0.450197036      57.020888        
11.92            0.509960746      53.8270035       0.811219152      -30.4946839      0.811219152      -30.4946839      0.509960746      53.8270035       
13.74            0.563029331      50.7618073       0.777636436      -34.1094201      0.777636436      -34.1094201      0.563029331      50.7618073       
15.56            0.609836975      47.8742328       0.74417226       -37.4298697      0.74417226       -37.4298697      0.609836975      47.8742328       
17.38            0.650941492      45.1834704       0.711412026      -40.4715719      0.711412026      -40.4715719      0.650941492      45.1834704       
19.2             0.686948323      42.6924144       0.679763162      -43.2536626      0.679763162      -43.2536626      0.686948323      42.6924144       
21.02            0.718459391      40.3949716       0.649487083      -45.7969164      0.649487083      -45.7969164      0.718459391      40.3949716       
22.84            0.746042128      38.2802917       0.62073212       -48.1223634      0.62073212       -48.1223634      0.746042128      38.2802917       
24.66            0.770213261      36.3352875       0.59356302       -50.2503829      0.59356302       -50.2503829      0.770213261      36.3352875       
26.48            0.791432522      34.5461405       0.567985312      -52.2001615      0.567985312      -52.2001615      0.791432522      34.5461405       
28.3             0.810102526      32.899184        0.543964358      -53.9894102      0.543964358      -53.9894102      0.810102526      32.899184        
30.12            0.826572133      31.3813991       0.521439679      -55.634256       0.521439679      -55.634256       0.826572133      31.3813991       
31.94            0.841141518      29.9806685       0.500335378      -57.1492465      0.500335378      -57.1492465      0.841141518      29.9806685       
33.76            0.854067847      28.685883        0.480567531      -58.5474203      0.480567531      -58.5474203      0.854067847      28.685883        
35.58            0.865570914      27.4869578       0.462049279      -59.8404148      0.462049279      -59.8404148      0.865570914      27.4869578       
37.4             0.875838387      26.3747979       0.444694229      -61.0385891      0.444694229      -61.0385891      0.875838387      26.3747979       
39.22            0.885030525      25.3412346       0.428418648      -62.1511524      0.428418648      -62.1511524      0.885030525      25.3412346       
41.04            0.8932843        24.3789505       0.413142801      -63.1862866      0.413142801      -63.1862866      0.8932843        24.3789505       
42.86            0.900716954      23.4813995       0.398791686      -64.1512629      0.398791686      -64.1512629      0.900716954      23.4813995       
44.68            0.907429033      22.6427282       0.38529537       -65.0525471      0.38529537       -65.0525471      0.907429033      22.6427282       
46.5             0.91350695       21.8577023       0.372589056      -65.895895       0.372589056      -65.895895       0.91350695       21.8577023       
48.32            0.919025159      21.1216379       0.36061297       -66.6864372      0.36061297       -66.6864372      0.919025159      21.1216379       
50.14            0.924047968      20.4303399       0.349312146      -67.4287542      0.349312146      -67.4287542      0.924047968      20.4303399       
51.96            0.928631071      19.7800461       0.338636147      -68.1269419      0.338636147      -68.1269419      0.928631071      19.7800461       
53.78            0.932822834      19.1673783       0.328538756      -68.7846699      0.328538756      -68.7846699      0.932822834      19.1673783       
55.6             0.936665374      18.5892982       0.318977655      -69.4052315      0.318977655      -69.4052315      0.936665374      18.5892982       
57.42            0.940195464      18.0430687       0.309914112      -69.9915882      0.309914112      -69.9915882      0.940195464      18.0430687       
59.24            0.943445299      17.5262199       0.301312675      -70.5464081      0.301312675      -70.5464081      0.943445299      17.5262199       
61.06            0.946443143      17.0365195       0.293140886      -71.0720995      0.293140886      -71.0720995      0.946443143      17.0365195       
62.88            0.94921387       16.5719462       0.285369013      -71.5708404      0.285369013      -71.5708404      0.94921387       16.5719462       
64.7             0.951779433      16.1306664       0.277969807      -72.0446042      0.277969807      -72.0446042      0.951779433      16.1306664       
66.52            0.954159248      15.7110143       0.270918268      -72.4951825      0.270918268      -72.4951825      0.954159248      15.7110143       
68.34            0.956370535      15.3114737       0.264191447      -72.9242042      0.264191447      -72.9242042      0.956370535      15.3114737       
70.16            0.958428602      14.9306621       0.257768252      -73.3331535      0.257768252      -73.3331535      0.958428602      14.9306621       
71.98            0.960347088      14.5673173       0.251629283      -73.723385       0.251629283      -73.723385       0.960347088      14.5673173       
73.8             0.96213817       14.2202844       0.245756671      -74.0961369      0.245756671      -74.0961369      0.96213817       14.2202844       
75.62            0.963812749      13.8885056       0.240133948      -74.4525431      0.240133948      -74.4525431      0.963812749      13.8885056       
77.44            0.9653806        13.5710101       0.234745912      -74.7936434      0.234745912      -74.7936434      0.9653806        13.5710101       
79.26            0.966850508      13.2669056       0.229578521      -75.1203933      0.229578521      -75.1203933      0.966850508      13.2669056       
81.08            0.968230384      12.9753712       0.224618786      -75.4336717      0.224618786      -75.4336717      0.968230384      12.9753712       
82.9             0.969527365      12.69565         0.219854681      -75.7342884      0.219854681      -75.7342884      0.969527365      12.69565         
84.72            0.970747903      12.4270435       0.215275056      -76.0229908      0.215275056      -76.0229908      0.970747903      12.4270435       
86.54            0.971897843      12.1689058       0.210869567      -76.3004695      0.210869567      -76.3004695      0.971897843      12.1689058       
88.36            0.972982484      11.9206396       0.206628603      -76.5673633      0.206628603      -76.5673633      0.972982484      11.9206396       
90.18            0.974006643      11.6816909       0.202543227      -76.8242643      0.202543227      -76.8242643      0.974006643      11.6816909       
92               0.974974707      11.4515459       0.198605119      -77.0717219      0.198605119      -77.0717219      0.974974707      11.4515459       
93.82            0.975890671      11.2297271       0.194806525      -77.3102461      0.194806525      -77.3102461      0.975890671      11.2297271       
95.64            0.976758189      11.0157905       0.191140212      -77.5403116      0.191140212      -77.5403116      0.976758189      11.0157905       
97.46            0.977580597      10.8093225       0.187599427      -77.7623601      0.187599427      -77.7623601      0.977580597      10.8093225       
99.28            0.978360955      10.6099376       0.184177856      -77.9768035      0.184177856      -77.9768035      0.978360955      10.6099376       
101.1            0.979102067      10.4172758       0.180869594      -78.1840262      0.180869594      -78.1840262      0.979102067      10.4172758       
102.92           0.979806509      10.231001        0.177669109      -78.3843874      0.177669109      -78.3843874      0.979806509      10.231001        
104.74           0.980476652      10.0507986       0.174571217      -78.5782229      0.174571217      -78.5782229      0.980476652      10.0507986       
106.56           0.981114677      9.8763743        0.171571053      -78.7658471      0.171571053      -78.7658471      0.981114677      9.8763743        
108.38           0.981722596      9.70745204       0.168664051      -78.9475548      0.168664051      -78.9475548      0.981722596      9.70745204       
110.2            0.982302267      9.54377297       0.165845918      -79.1236223      0.165845918      -79.1236223      0.982302267      9.54377297       
112.02           0.982855408      9.38509402       0.163112616      -79.2943091      0.163112616      -79.2943091      0.982855408      9.38509402       
113.84           0.983383607      9.23118674       0.160460345      -79.4598593      0.160460345      -79.4598593      0.983383607      9.23118674       
115.66           0.983888336      9.08183624       0.157885524      -79.6205021      0.157885524      -79.6205021      0.983888336      9.08183624       
117.48           0.984370963      8.93684019       0.155384776      -79.7764537      0.155384776      -79.7764537      0.984370963      8.93684019       
119.3            0.984832754      8.79600794       0.152954915      -79.9279176      0.152954915      -79.9279176      0.984832754      8.79600794       
121.12           0.985274888      8.65915972       0.150592932      -80.0750856      0.150592932      -80.0750856      0.985274888      8.65915972       
122.94           0.985698462      8.52612584       0.148295984      -80.2181389      0.148295984      -80.2181389      0.985698462      8.52612584       
124.76           0.986104497      8.39674603       0.146061382      -80.3572486      0.146061382      -80.3572486      0.986104497      8.39674603       
126.58           0.986493945      8.27086877       0.143886581      -80.4925765      0.143886581      -80.4925765      0.986493945      8.27086877       
128.4            0.986867695      8.14835077       0.14176917       -80.6242754      0.14176917       -80.6242754      0.986867695      8.14835077       
130.22           0.987226577      8.02905634       0.139706866      -80.7524903      0.139706866      -80.7524903      0.987226577      8.02905634       
132.04           0.987571367      7.91285696       0.137697503      -80.8773582      0.137697503      -80.8773582      0.987571367      7.91285696       
133.86           0.98790279       7.79963081       0.135739026      -80.9990093      0.135739026      -80.9990093      0.98790279       7.79963081       
135.68           0.988221527      7.68926229       0.133829482      -81.1175668      0.133829482      -81.1175668      0.988221527      7.68926229       
137.5            0.988528214      7.58164171       0.131967019      -81.2331479      0.131967019      -81.2331479      0.988528214      7.58164171       
139.32           0.988823449      7.47666485       0.130149873      -81.3458637      0.130149873      -81.3458637      0.988823449      7.47666485       
141.14           0.989107794      7.37423268       0.128376367      -81.4558199      0.128376367      -81.4558199      0.989107794      7.37423268       
142.96           0.989381775      7.274251         0.126644906      -81.563117       0.126644906      -81.563117       0.989381775      7.274251         
144.78           0.989645887      7.17663019       0.12495397       -81.6678508      0.12495397       -81.6678508      0.989645887      7.17663019       
146.6            0.989900598      7.08128489       0.12330211       -81.7701121      0.12330211       -81.7701121      0.989900598      7.08128489       
148.42           0.990146346      6.9881338        0.121687946      -81.8699877      0.121687946      -81.8699877      0.990146346      6.9881338        
150.24           0.990383544      6.89709942       0.120110161      -81.9675604      0.120110161      -81.9675604      0.990383544      6.89709942       
152.06           0.990612584      6.80810784       0.118567497      -82.0629089      0.118567497      -82.0629089      0.990612584      6.80810784       
153.88           0.990833832      6.7210885        0.117058755      -82.1561084      0.117058755      -82.1561084      0.990833832      6.7210885        
155.7            0.991047636      6.63597407       0.115582789      -82.2472308      0.115582789      -82.2472308      0.991047636      6.63597407       
157.52           0.991254325      6.5527002        0.114138501      -82.3363447      0.114138501      -82.3363447      0.991254325      6.5527002        
159.34           0.991454209      6.47120543       0.112724844      -82.4235156      0.112724844      -82.4235156      0.991454209      6.47120543       
161.16           0.991647581      6.39143094       0.111340815      -82.5088061      0.111340815      -82.5088061      0.991647581      6.39143094       
162.98           0.991834719      6.31332051       0.109985454      -82.5922762      0.109985454      -82.5922762      0.991834719      6.31332051       
164.8            0.992015886      6.23682029       0.108657843      -82.6739833      0.108657843      -82.6739833      0.992015886      6.23682029       
166.62           0.992191332      6.16187874       0.1073571        -82.7539822      0.1073571        -82.7539822      0.992191332      6.16187874       
168.44           0.992361293      6.08844648       0.106082382      -82.8323255      0.106082382      -82.8323255      0.992361293      6.08844648       
170.26           0.992525994      6.01647618       0.10483288       -82.9090637      0.10483288       -82.9090637      0.992525994      6.01647618       
172.08           0.992685646      5.94592246       0.103607817      -82.984245       0.103607817      -82.984245       0.992685646      5.94592246       
173.9            0.992840453      5.87674179       0.102406448      -83.0579157      0.102406448      -83.0579157      0.992840453      5.87674179       
175.72           0.992990607      5.80889239       0.101228058      -83.1301204      0.101228058      -83.1301204      0.992990607      5.80889239       
177.54           0.99313629       5.74233418       0.100071961      -83.2009015      0.100071961      -83.2009015      0.99313629       5.74233418       
179.36           0.993277675      5.67702862       0.0989374957     -83.2703002      0.0989374957     -83.2703002      0.993277675      5.67702862       
181.18           0.993414929      5.61293872       0.0978240284     -83.3383557      0.0978240284     -83.3383557      0.993414929      5.61293872       
183              0.993548209      5.5500289        0.0967309492     -83.4051058      0.0967309492     -83.4051058      0.993548209      5.5500289        
184.82           0.993677664      5.48826497       0.0956576712     -83.4705868      0.0956576712     -83.4705868      0.993677664      5.48826497       
186.64           0.993803437      5.42761402       0.0946036301     -83.5348336      0.0946036301     -83.5348336      0.993803437      5.42761402       
188.46           0.993925666      5.36804441       0.0935682824     -83.5978799      0.0935682824     -83.5978799      0.993925666      5.36804441       
190.28           0.994044479      5.30952567       0.0925511049     -83.6597579      0.0925511049     -83.6597579      0.994044479      5.30952567       
192.1            0.994160001      5.25202844       0.0915515935     -83.7204988      0.0915515935     -83.7204988      0.994160001      5.25202844       
193.92           0.99427235       5.19552448       0.0905692627     -83.7801324      0.0905692627     -83.7801324      0.99427235       5.19552448       
195.74           0.994381639      5.13998654       0.0896036443     -83.8386877      0.0896036443     -83.8386877      0.994381639      5.13998654       
197.56           0.994487976      5.08538838       0.0886542871     -83.8961923      0.0886542871     -83.8961923      0.994487976      5.08538838       
199.38           0.994591466      5.03170468       0.0877207557     -83.9526732      0.0877207557     -83.9526732      0.994591466      5.03170468       
201.2            0.994692205      4.97891103       0.0868026301     -84.008156       0.0868026301     -84.008156       0.994692205      4.97891103       
203.02           0.99479029       4.92698387       0.0858995049     -84.0626656      0.0858995049     -84.0626656      0.99479029       4.92698387       
204.84           0.994885809      4.87590047       0.085010989      -84.1162261      0.085010989      -84.1162261      0.994885809      4.87590047       
206.66           0.994978851      4.82563889       0.0841367043     -84.1688606      0.0841367043     -84.1688606      0.994978851      4.82563889       
208.48           0.995069498      4.77617791       0.0832762859     -84.2205914      0.0832762859     -84.2205914      0.995069498      4.77617791       
210.3            0.995157829      4.72749708       0.082429381      -84.2714401      0.082429381      -84.2714401      0.995157829      4.72749708       
212.12           0.99524392       4.67957659       0.0815956488     -84.3214274      0.0815956488     -84.3214274      0.99524392       4.67957659       
213.94           0.995327845      4.63239733       0.0807747597     -84.3705735      0.0807747597     -84.3705735      0.995327845      4.63239733       
215.76           0.995409674      4.58594081       0.0799663949     -84.4188979      0.0799663949     -84.4188979      0.995409674      4.58594081       
217.58           0.995489473      4.54018914       0.0791702461     -84.4664191      0.0791702461     -84.4664191      0.995489473      4.54018914       
219.4            0.995567308      4.49512503       0.0783860151     -84.5131554      0.0783860151     -84.5131554      0.995567308      4.49512503       
221.22           0.99564324       4.45073173       0.077613413      -84.5591243      0.077613413      -84.5591243      0.99564324       4.45073173       
223.04           0.995717329      4.40699304       0.0768521605     -84.6043427      0.0768521605     -84.6043427      0.995717329      4.40699304       
224.86           0.995789631      4.36389327       0.0761019867     -84.6488269      0.0761019867     -84.6488269      0.995789631      4.36389327       
226.68           0.995860203      4.32141725       0.0753626296     -84.6925929      0.0753626296     -84.6925929      0.995860203      4.32141725       
228.5            0.995929096      4.27955025       0.0746338353     -84.7356559      0.0746338353     -84.7356559      0.995929096      4.27955025       
230.32           0.995996361      4.23827801       0.0739153574     -84.7780306      0.0739153574     -84.7780306      0.995996361      4.23827801       
232.14           0.996062048      4.19758673       0.0732069576     -84.8197316      0.0732069576     -84.8197316      0.996062048      4.19758673       
