! Coilcraft 1206CS-221 Chip Inductor				
! 29 July 2002			
# MHZ S MA R 50
!Freq             MagS11           AngS11           MagS21           AngS21           MagS12           AngS12           MagS22           AngS22
1                0.0160768214     59.0186815       0.991820095      -0.796259349     0.991820095      -0.796259349     0.0160768214     59.0186815       
4.24             0.0597196879     75.6958839       0.986943118      -3.36139904      0.986943118      -3.36139904      0.0597196879     75.6958839       
7.48             0.103718215      76.6946661       0.981334795      -5.90353713      0.981334795      -5.90353713      0.103718215      76.6946661       
10.72            0.147115398      75.7626691       0.974310074      -8.41584982      0.974310074      -8.41584982      0.147115398      75.7626691       
13.96            0.189628839      74.2088994       0.96579056       -10.8906784      0.96579056       -10.8906784      0.189628839      74.2088994       
17.2             0.23104716       72.3923415       0.955824517      -13.3206649      0.955824517      -13.3206649      0.23104716       72.3923415       
20.44            0.2711958        70.4567007       0.944514052      -15.6991181      0.944514052      -15.6991181      0.2711958        70.4567007       
23.68            0.309932462      68.4730113       0.931989933      -18.0201911      0.931989933      -18.0201911      0.309932462      68.4730113       
26.92            0.347146149      66.4814376       0.918398485      -20.2789706      0.918398485      -20.2789706      0.347146149      66.4814376       
30.16            0.382756101      64.5067817       0.90389298       -22.4715061      0.90389298       -22.4715061      0.382756101      64.5067817       
33.4             0.416710015      62.5652285       0.888627338      -24.5947966      0.888627338      -24.5947966      0.416710015      62.5652285       
36.64            0.448981562      60.6676512       0.872751393      -26.6467448      0.872751393      -26.6467448      0.448981562      60.6676512       
39.88            0.479567398      58.8213988       0.856407379      -28.6260886      0.856407379      -28.6260886      0.479567398      58.8213988       
43.12            0.508483908      57.0313472       0.839727474      -30.5323171      0.839727474      -30.5323171      0.508483908      57.0313472       
46.36            0.53576387       55.3005671       0.822832208      -32.3655789      0.822832208      -32.3655789      0.53576387       55.3005671       
49.6             0.56145322       53.6307755       0.805829633      -34.1265876      0.805829633      -34.1265876      0.56145322       53.6307755       
52.84            0.585608034      52.0226591       0.788815067      -35.816529       0.788815067      -35.816529       0.585608034      52.0226591       
56.08            0.608291813      50.4761156       0.771871312      -37.4369736      0.771871312      -37.4369736      0.608291813      50.4761156       
59.32            0.629573103      48.9904397       0.755069203      -38.9897953      0.755069203      -38.9897953      0.629573103      48.9904397       
62.56            0.649523472      47.5644688       0.738468391      -40.4770998      0.738468391      -40.4770998      0.649523472      47.5644688       
65.8             0.66821583       46.1966999       0.722118265      -41.9011602      0.722118265      -41.9011602      0.66821583       46.1966999       
69.04            0.685723073      44.8853826       0.706058956      -43.2643627      0.706058956      -43.2643627      0.685723073      44.8853826       
72.28            0.702117011      43.6285938       0.690322343      -44.5691598      0.690322343      -44.5691598      0.702117011      43.6285938       
75.52            0.717467558      42.4242983       0.674933055      -45.8180323      0.674933055      -45.8180323      0.717467558      42.4242983       
78.76            0.731842126      41.2703963       0.65990941       -47.0134573      0.65990941       -47.0134573      0.731842126      41.2703963       
82               0.745305208      40.1647613       0.645264298      -48.1578835      0.645264298      -48.1578835      0.745305208      40.1647613       
85.24            0.757918108      39.1052699       0.631005978      -49.2537111      0.631005978      -49.2537111      0.757918108      39.1052699       
88.48            0.769738786      38.0898247       0.617138805      -50.3032766      0.617138805      -50.3032766      0.769738786      38.0898247       
91.72            0.7808218        37.1163719       0.603663868      -51.3088421      0.603663868      -51.3088421      0.7808218        37.1163719       
94.96            0.791218313      36.1829138       0.590579559      -52.2725869      0.590579559      -52.2725869      0.791218313      36.1829138       
98.2             0.800976166      35.2875185       0.577882061      -53.1966026      0.577882061      -53.1966026      0.800976166      35.2875185       
101.44           0.810139976      34.4283262       0.565565777      -54.0828898      0.565565777      -54.0828898      0.810139976      34.4283262       
104.68           0.818751271      33.603553        0.553623691      -54.9333572      0.553623691      -54.9333572      0.818751271      33.603553        
107.92           0.826848643      32.8114934       0.542047688      -55.7498211      0.542047688      -55.7498211      0.826848643      32.8114934       
111.16           0.834467905      32.0505208       0.530828807      -56.5340073      0.530828807      -56.5340073      0.834467905      32.0505208       
114.4            0.841642256      31.3190871       0.519957475      -57.2875524      0.519957475      -57.2875524      0.841642256      31.3190871       
117.64           0.848402451      30.6157216       0.509423684      -58.0120068      0.509423684      -58.0120068      0.848402451      30.6157216       
120.88           0.854776965      29.9390291       0.499217148      -58.7088377      0.499217148      -58.7088377      0.854776965      29.9390291       
124.12           0.860792147      29.2876873       0.489327434      -59.3794322      0.489327434      -59.3794322      0.860792147      29.2876873       
127.36           0.866472377      28.6604443       0.479744064      -60.0251009      0.479744064      -60.0251009      0.866472377      28.6604443       
130.6            0.871840209      28.0561159       0.470456598      -60.6470818      0.470456598      -60.6470818      0.871840209      28.0561159       
133.84           0.876916512      27.4735821       0.461454707      -61.2465433      0.461454707      -61.2465433      0.876916512      27.4735821       
137.08           0.881720591      26.9117845       0.452728222      -61.8245885      0.452728222      -61.8245885      0.881720591      26.9117845       
140.32           0.886270315      26.369723        0.444267182      -62.3822581      0.444267182      -62.3822581      0.886270315      26.369723        
143.56           0.890582224      25.8464527       0.436061861      -62.9205343      0.436061861      -62.9205343      0.890582224      25.8464527       
146.8            0.894671636      25.341081        0.428102798      -63.440344       0.428102798      -63.440344       0.894671636      25.341081        
150.04           0.898552741      24.8527648       0.420380811      -63.942562       0.420380811      -63.942562       0.898552741      24.8527648       
153.28           0.902238689      24.3807077       0.412887007      -64.4280138      0.412887007      -64.4280138      0.902238689      24.3807077       
156.52           0.905741678      23.924157        0.405612796      -64.8974788      0.405612796      -64.8974788      0.905741678      23.924157        
159.76           0.909073021      23.4824016       0.398549887      -65.3516932      0.398549887      -65.3516932      0.909073021      23.4824016       
163              0.912243221      23.0547694       0.391690294      -65.791352       0.391690294      -65.791352       0.912243221      23.0547694       
166.24           0.915262033      22.6406249       0.38502633       -66.2171123      0.38502633       -66.2171123      0.915262033      22.6406249       
169.48           0.918138525      22.2393672       0.378550607      -66.6295948      0.378550607      -66.6295948      0.918138525      22.2393672       
172.72           0.920881128      21.8504279       0.372256026      -67.0293866      0.372256026      -67.0293866      0.920881128      21.8504279       
175.96           0.923497686      21.4732689       0.366135773      -67.4170428      0.366135773      -67.4170428      0.923497686      21.4732689       
179.2            0.925995506      21.1073811       0.360183312      -67.7930889      0.360183312      -67.7930889      0.925995506      21.1073811       
182.44           0.928381394      20.752282        0.354392376      -68.1580222      0.354392376      -68.1580222      0.928381394      20.752282        
185.68           0.930661695      20.407515        0.348756955      -68.5123136      0.348756955      -68.5123136      0.930661695      20.407515        
188.92           0.932842329      20.0726469       0.343271293      -68.8564094      0.343271293      -68.8564094      0.932842329      20.0726469       
192.16           0.934928825      19.7472672       0.337929875      -69.1907326      0.337929875      -69.1907326      0.934928825      19.7472672       
195.4            0.936926345      19.4309864       0.332727417      -69.5156843      0.332727417      -69.5156843      0.936926345      19.4309864       
198.64           0.938839714      19.123435        0.32765886       -69.8316448      0.32765886       -69.8316448      0.938839714      19.123435        
201.88           0.940673449      18.824262        0.322719359      -70.1389754      0.322719359      -70.1389754      0.940673449      18.824262        
205.12           0.942431774      18.5331343       0.317904273      -70.438019       0.317904273      -70.438019       0.942431774      18.5331343       
208.36           0.944118648      18.2497351       0.313209159      -70.7291014      0.313209159      -70.7291014      0.944118648      18.2497351       
211.6            0.945737779      17.9737634       0.308629762      -71.0125322      0.308629762      -71.0125322      0.945737779      17.9737634       
214.84           0.947292647      17.7049329       0.304162006      -71.2886057      0.304162006      -71.2886057      0.947292647      17.7049329       
218.08           0.948786516      17.4429712       0.299801987      -71.5576022      0.299801987      -71.5576022      0.948786516      17.4429712       
221.32           0.950222453      17.187619        0.295545967      -71.8197881      0.295545967      -71.8197881      0.950222453      17.187619        
224.56           0.951603336      16.9386293       0.291390361      -72.0754172      0.291390361      -72.0754172      0.951603336      16.9386293       
227.8            0.952931874      16.6957668       0.287331738      -72.3247313      0.287331738      -72.3247313      0.952931874      16.6957668       
231.04           0.954210614      16.4588072       0.283366807      -72.5679609      0.283366807      -72.5679609      0.954210614      16.4588072       
234.28           0.955441955      16.2275367       0.279492413      -72.8053255      0.279492413      -72.8053255      0.955441955      16.2275367       
237.52           0.956628156      16.0017513       0.275705534      -73.0370348      0.275705534      -73.0370348      0.956628156      16.0017513       
240.76           0.957771344      15.7812562       0.27200327       -73.2632887      0.27200327       -73.2632887      0.957771344      15.7812562       
244              0.958873528      15.5658655       0.268382839      -73.4842781      0.268382839      -73.4842781      0.958873528      15.5658655       
247.24           0.959936601      15.3554016       0.264841572      -73.7001853      0.264841572      -73.7001853      0.959936601      15.3554016       
250.48           0.960962351      15.1496948       0.26137691       -73.9111845      0.26137691       -73.9111845      0.960962351      15.1496948       
253.72           0.961952468      14.9485828       0.257986395      -74.1174423      0.257986395      -74.1174423      0.961952468      14.9485828       
256.96           0.962908546      14.7519105       0.254667666      -74.3191178      0.254667666      -74.3191178      0.962908546      14.7519105       
260.2            0.963832097      14.5595293       0.251418458      -74.5163634      0.251418458      -74.5163634      0.963832097      14.5595293       
263.44           0.964724547      14.3712973       0.248236595      -74.7093249      0.248236595      -74.7093249      0.964724547      14.3712973       
266.68           0.965587249      14.1870782       0.245119984      -74.8981419      0.245119984      -74.8981419      0.965587249      14.1870782       
269.92           0.966421483      14.0067418       0.242066617      -75.0829481      0.242066617      -75.0829481      0.966421483      14.0067418       
273.16           0.967228462      13.8301631       0.23907456       -75.2638716      0.23907456       -75.2638716      0.967228462      13.8301631       
276.4            0.968009337      13.6572224       0.236141957      -75.4410351      0.236141957      -75.4410351      0.968009337      13.6572224       
279.64           0.968765199      13.4878048       0.23326702       -75.6145564      0.23326702       -75.6145564      0.968765199      13.4878048       
282.88           0.969497083      13.3218001       0.23044803       -75.7845484      0.23044803       -75.7845484      0.969497083      13.3218001       
286.12           0.970205972      13.1591027       0.227683333      -75.9511196      0.227683333      -75.9511196      0.970205972      13.1591027       
289.36           0.970892801      12.9996109       0.224971336      -76.1143739      0.224971336      -76.1143739      0.970892801      12.9996109       
292.6            0.971558456      12.8432273       0.222310506      -76.2744112      0.222310506      -76.2744112      0.971558456      12.8432273       
295.84           0.972203782      12.6898582       0.219699367      -76.4313276      0.219699367      -76.4313276      0.972203782      12.6898582       
299.08           0.972829582      12.5394136       0.217136496      -76.5852152      0.217136496      -76.5852152      0.972829582      12.5394136       
302.32           0.973436619      12.3918069       0.214620522      -76.7361627      0.214620522      -76.7361627      0.973436619      12.3918069       
305.56           0.974025621      12.2469549       0.212150124      -76.8842553      0.212150124      -76.8842553      0.974025621      12.2469549       
308.8            0.974597281      12.1047775       0.209724029      -77.0295751      0.209724029      -77.0295751      0.974597281      12.1047775       
312.04           0.975152259      11.9651976       0.207341007      -77.1722008      0.207341007      -77.1722008      0.975152259      11.9651976       
315.28           0.975691184      11.8281411       0.204999875      -77.3122085      0.204999875      -77.3122085      0.975691184      11.8281411       
318.52           0.976214657      11.6935364       0.20269949       -77.4496712      0.20269949       -77.4496712      0.976214657      11.6935364       
321.76           0.97672325       11.5613147       0.200438746      -77.5846594      0.200438746      -77.5846594      0.97672325       11.5613147       
325              0.977217509      11.4314098       0.198216581      -77.7172409      0.198216581      -77.7172409      0.977217509      11.4314098       
328.24           0.977697957      11.3037577       0.196031966      -77.8474811      0.196031966      -77.8474811      0.977697957      11.3037577       
331.48           0.978165093      11.1782968       0.193883906      -77.975443       0.193883906      -77.975443       0.978165093      11.1782968       
334.72           0.978619393      11.0549675       0.191771444      -78.1011874      0.191771444      -78.1011874      0.978619393      11.0549675       
337.96           0.979061311      10.9337126       0.189693651      -78.2247728      0.189693651      -78.2247728      0.979061311      10.9337126       
341.2            0.979491285      10.8144768       0.187649632      -78.3462559      0.187649632      -78.3462559      0.979491285      10.8144768       
344.44           0.97990973       10.6972065       0.18563852       -78.4656911      0.18563852       -78.4656911      0.97990973       10.6972065       
347.68           0.980317045      10.5818502       0.183659478      -78.5831313      0.183659478      -78.5831313      0.980317045      10.5818502       
350.92           0.980713612      10.4683581       0.181711695      -78.6986271      0.181711695      -78.6986271      0.980713612      10.4683581       
354.16           0.981099797      10.3566821       0.179794388      -78.8122278      0.179794388      -78.8122278      0.981099797      10.3566821       
357.4            0.98147595       10.2467755       0.177906799      -78.9239809      0.177906799      -78.9239809      0.98147595       10.2467755       
360.64           0.981842406      10.1385936       0.176048192      -79.0339321      0.176048192      -79.0339321      0.981842406      10.1385936       
363.88           0.982199488      10.0320926       0.174217857      -79.1421258      0.174217857      -79.1421258      0.982199488      10.0320926       
367.12           0.982547504      9.92723075       0.172415107      -79.2486049      0.172415107      -79.2486049      0.982547504      9.92723075       
370.36           0.98288675       9.82396721       0.170639274      -79.3534108      0.170639274      -79.3534108      0.98288675       9.82396721       
373.6            0.98321751       9.72226266       0.168889713      -79.4565836      0.168889713      -79.4565836      0.98321751       9.72226266       
376.84           0.983540057      9.622079         0.167165799      -79.558162       0.167165799      -79.558162       0.983540057      9.622079         
380.08           0.983854654      9.52337936       0.165466924      -79.6581837      0.165466924      -79.6581837      0.983854654      9.52337936       
383.32           0.98416155       9.42612802       0.163792501      -79.7566848      0.163792501      -79.7566848      0.98416155       9.42612802       
386.56           0.984460989      9.33029039       0.16214196       -79.8537007      0.16214196       -79.8537007      0.984460989      9.33029039       
389.8            0.984753203      9.23583295       0.160514749      -79.9492652      0.160514749      -79.9492652      0.984753203      9.23583295       
393.04           0.985038414      9.14272325       0.158910331      -80.0434115      0.158910331      -80.0434115      0.985038414      9.14272325       
396.28           0.985316837      9.05092979       0.157328186      -80.1361714      0.157328186      -80.1361714      0.985316837      9.05092979       
399.52           0.98558868       8.96042207       0.15576781       -80.227576       0.15576781       -80.227576       0.98558868       8.96042207       
402.76           0.985854141      8.87117051       0.154228712      -80.3176551      0.154228712      -80.3176551      0.985854141      8.87117051       
406              0.986113411      8.78314639       0.152710417      -80.4064379      0.152710417      -80.4064379      0.986113411      8.78314639       
409.24           0.986366675      8.69632189       0.151212464      -80.4939526      0.151212464      -80.4939526      0.986366675      8.69632189       
412.48           0.986614109      8.61066999       0.149734403      -80.5802265      0.149734403      -80.5802265      0.986614109      8.61066999       
