! Coilcraft 1206CS-220 Chip Inductor				
! 29 July 2002			
# MHZ S MA R 50
!Freq             MagS11           AngS11           MagS21           AngS21           MagS12           AngS12           MagS22           AngS22
1                0.00205274825    47.1012549       0.998603817      -0.08627941      0.998603817      -0.08627941      0.00205274825    47.1012549       
9.98             0.0151815749     80.6210673       0.997638414      -0.860276135     0.997638414      -0.860276135     0.0151815749     80.6210673       
18.96            0.0286321068     82.9149833       0.996873471      -1.63329947      0.996873471      -1.63329947      0.0286321068     82.9149833       
27.94            0.0420818336     83.3885373       0.99603244       -2.40532389      0.99603244       -2.40532389      0.0420818336     83.3885373       
36.92            0.0555106473     83.3163602       0.995067827      -3.17619474      0.995067827      -3.17619474      0.0555106473     83.3163602       
45.9             0.0689091605     83.0026263       0.993961224      -3.94572335      0.993961224      -3.94572335      0.0689091605     83.0026263       
54.88            0.082270087      82.559446        0.992703798      -4.71370688      0.992703798      -4.71370688      0.082270087      82.559446        
63.86            0.0955868156     82.0385284       0.991291038      -5.47993605      0.991291038      -5.47993605      0.0955868156     82.0385284       
72.84            0.108853045      81.467328        0.98972077       -6.24419898      0.98972077       -6.24419898      0.108853045      81.467328        
81.82            0.122062672      80.8619214       0.987992262      -7.00628348      0.987992262      -7.00628348      0.122062672      80.8619214       
90.8             0.135209753      80.2324332       0.986105754      -7.76597854      0.986105754      -7.76597854      0.135209753      80.2324332       
99.78            0.148288501      79.5856114       0.984062193      -8.52307545      0.984062193      -8.52307545      0.148288501      79.5856114       
108.76           0.161293285      78.9261645       0.981863068      -9.27736865      0.981863068      -9.27736865      0.161293285      78.9261645       
117.74           0.174218639      78.2575044       0.979510305      -10.0286564      0.979510305      -10.0286564      0.174218639      78.2575044       
126.72           0.18705927       77.5821842       0.977006188      -10.7767412      0.977006188      -10.7767412      0.18705927       77.5821842       
135.7            0.199810068      76.9021678       0.974353305      -11.5214306      0.974353305      -11.5214306      0.199810068      76.9021678       
144.68           0.212466111      76.2190024       0.971554509      -12.2625372      0.971554509      -12.2625372      0.212466111      76.2190024       
153.66           0.225022678      75.5339325       0.968612879      -12.9998795      0.968612879      -12.9998795      0.225022678      75.5339325       
162.64           0.237475253      74.8479776       0.965531694      -13.7332816      0.965531694      -13.7332816      0.237475253      74.8479776       
171.62           0.24981953       74.1619868       0.962314407      -14.462574       0.962314407      -14.462574       0.24981953       74.1619868       
180.6            0.26205142       73.4766767       0.958964624      -15.1875934      0.958964624      -15.1875934      0.26205142       73.4766767       
189.58           0.274167055      72.79266         0.955486086      -15.9081834      0.955486086      -15.9081834      0.274167055      72.79266         
198.56           0.286162789      72.1104659       0.951882647      -16.624194       0.951882647      -16.624194       0.286162789      72.1104659       
207.54           0.298035202      71.4305559       0.94815826       -17.3354824      0.94815826       -17.3354824      0.298035202      71.4305559       
216.52           0.309781102      70.7533355       0.94431696       -18.0419126      0.94431696       -18.0419126      0.309781102      70.7533355       
225.5            0.32139752       70.0791633       0.940362849      -18.7433557      0.940362849      -18.7433557      0.32139752       70.0791633       
234.48           0.332881719      69.4083583       0.936300084      -19.4396899      0.936300084      -19.4396899      0.332881719      69.4083583       
243.46           0.344231182      68.7412055       0.932132862      -20.1308005      0.932132862      -20.1308005      0.344231182      68.7412055       
252.44           0.355443618      68.0779604       0.927865406      -20.8165799      0.927865406      -20.8165799      0.355443618      68.0779604       
261.42           0.366516955      67.4188525       0.923501957      -21.4969276      0.923501957      -21.4969276      0.366516955      67.4188525       
270.4            0.377449339      66.7640886       0.91904676       -22.1717502      0.91904676       -22.1717502      0.377449339      66.7640886       
279.38           0.388239126      66.1138551       0.914504053      -22.840961       0.914504053      -22.840961       0.388239126      66.1138551       
288.36           0.398884884      65.4683199       0.909878058      -23.5044805      0.909878058      -23.5044805      0.398884884      65.4683199       
297.34           0.409385381      64.8276343       0.905172974      -24.1622359      0.905172974      -24.1622359      0.409385381      64.8276343       
306.32           0.419739584      64.1919346       0.900392963      -24.814161       0.900392963      -24.814161       0.419739584      64.1919346       
315.3            0.429946653      63.5613429       0.895542147      -25.4601962      0.895542147      -25.4601962      0.429946653      63.5613429       
324.28           0.440005931      62.9359688       0.890624598      -26.1002882      0.890624598      -26.1002882      0.440005931      62.9359688       
333.26           0.449916941      62.31591         0.88564433       -26.73439        0.88564433       -26.73439        0.449916941      62.31591         
342.24           0.45967938       61.7012532       0.880605297      -27.3624608      0.880605297      -27.3624608      0.45967938       61.7012532       
351.22           0.469293108      61.0920746       0.875511383      -27.9844656      0.875511383      -27.9844656      0.469293108      61.0920746       
360.2            0.478758144      60.4884414       0.870366399      -28.600375       0.870366399      -28.600375       0.478758144      60.4884414       
369.18           0.488074661      59.8904113       0.865174076      -29.2101654      0.865174076      -29.2101654      0.488074661      59.8904113       
378.16           0.497242971      59.2980341       0.859938066      -29.8138185      0.859938066      -29.8138185      0.497242971      59.2980341       
387.14           0.506263526      58.7113515       0.854661933      -30.411321       0.854661933      -30.411321       0.506263526      58.7113515       
396.12           0.515136907      58.1303979       0.849349152      -31.0026647      0.849349152      -31.0026647      0.515136907      58.1303979       
405.1            0.523863817      57.5552007       0.844003107      -31.5878462      0.844003107      -31.5878462      0.523863817      57.5552007       
414.08           0.532445073      56.9857809       0.838627089      -32.1668667      0.838627089      -32.1668667      0.532445073      56.9857809       
423.06           0.540881601      56.4221535       0.833224291      -32.7397316      0.833224291      -32.7397316      0.540881601      56.4221535       
432.04           0.549174428      55.8643275       0.827797812      -33.3064507      0.827797812      -33.3064507      0.549174428      55.8643275       
441.02           0.557324674      55.3123067       0.822350651      -33.8670375      0.822350651      -33.8670375      0.557324674      55.3123067       
450              0.565333549      54.7660897       0.81688571       -34.4215095      0.81688571       -34.4215095      0.565333549      54.7660897       
458.98           0.573202341      54.2256704       0.811405792      -34.9698877      0.811405792      -34.9698877      0.573202341      54.2256704       
467.96           0.580932414      53.6910384       0.805913599      -35.5121966      0.805913599      -35.5121966      0.580932414      53.6910384       
476.94           0.588525201      53.1621788       0.800411737      -36.0484637      0.800411737      -36.0484637      0.588525201      53.1621788       
485.92           0.595982196      52.6390731       0.794902714      -36.5787196      0.794902714      -36.5787196      0.595982196      52.6390731       
494.9            0.603304952      52.1216989       0.789388938      -37.1029979      0.789388938      -37.1029979      0.603304952      52.1216989       
503.88           0.610495071      51.6100307       0.783872723      -37.6213346      0.783872723      -37.6213346      0.610495071      51.6100307       
512.86           0.617554204      51.1040395       0.778356288      -38.1337683      0.778356288      -38.1337683      0.617554204      51.1040395       
521.84           0.624484039      50.6036935       0.772841758      -38.64034        0.772841758      -38.64034        0.624484039      50.6036935       
530.82           0.631286305      50.1089582       0.767331163      -39.1410927      0.767331163      -39.1410927      0.631286305      50.1089582       
539.8            0.637962758      49.6197964       0.761826446      -39.6360716      0.761826446      -39.6360716      0.637962758      49.6197964       
548.78           0.644515184      49.1361689       0.75632946       -40.1253236      0.75632946       -40.1253236      0.644515184      49.1361689       
557.76           0.650945392      48.6580339       0.750841971      -40.6088972      0.750841971      -40.6088972      0.650945392      48.6580339       
566.74           0.657255208      48.1853479       0.745365659      -41.0868428      0.745365659      -41.0868428      0.657255208      48.1853479       
575.72           0.663446476      47.7180655       0.739902123      -41.5592119      0.739902123      -41.5592119      0.663446476      47.7180655       
584.7            0.66952105       47.2561396       0.734452879      -42.0260574      0.734452879      -42.0260574      0.66952105       47.2561396       
593.68           0.675480794      46.7995217       0.729019366      -42.4874335      0.729019366      -42.4874335      0.675480794      46.7995217       
602.66           0.681327576      46.3481617       0.723602946      -42.9433952      0.723602946      -42.9433952      0.681327576      46.3481617       
611.64           0.687063267      45.9020085       0.718204906      -43.3939988      0.718204906      -43.3939988      0.687063267      45.9020085       
620.62           0.692689739      45.4610099       0.712826462      -43.839301       0.712826462      -43.839301       0.692689739      45.4610099       
629.6            0.698208859      45.0251125       0.707468761      -44.2793595      0.707468761      -44.2793595      0.698208859      45.0251125       
638.58           0.703622492      44.5942622       0.702132881      -44.7142326      0.702132881      -44.7142326      0.703622492      44.5942622       
647.56           0.708932493      44.168404        0.696819834      -45.143979       0.696819834      -45.143979       0.708932493      44.168404        
656.54           0.71414071       43.7474825       0.691530572      -45.5686581      0.691530572      -45.5686581      0.71414071       43.7474825       
665.52           0.719248978      43.3314415       0.686265985      -45.9883293      0.686265985      -45.9883293      0.719248978      43.3314415       
674.5            0.724259119      42.9202244       0.681026903      -46.4030526      0.681026903      -46.4030526      0.724259119      42.9202244       
683.48           0.729172943      42.5137742       0.675814101      -46.8128881      0.675814101      -46.8128881      0.729172943      42.5137742       
692.46           0.733992242      42.1120337       0.670628301      -47.217896       0.670628301      -47.217896       0.733992242      42.1120337       
701.44           0.738718792      41.7149454       0.665470171      -47.6181366      0.665470171      -47.6181366      0.738718792      41.7149454       
710.42           0.74335435       41.3224515       0.660340329      -48.0136701      0.660340329      -48.0136701      0.74335435       41.3224515       
719.4            0.747900653      40.9344944       0.655239347      -48.4045568      0.655239347      -48.4045568      0.747900653      40.9344944       
728.38           0.75235942       40.5510163       0.650167749      -48.7908569      0.650167749      -48.7908569      0.75235942       40.5510163       
737.36           0.756732346      40.1719594       0.645126016      -49.1726303      0.645126016      -49.1726303      0.756732346      40.1719594       
746.34           0.761021105      39.7972662       0.640114587      -49.5499368      0.640114587      -49.5499368      0.761021105      39.7972662       
755.32           0.765227348      39.426879        0.63513386       -49.9228359      0.63513386       -49.9228359      0.765227348      39.426879        
764.3            0.769352705      39.0607406       0.630184195      -50.2913868      0.630184195      -50.2913868      0.769352705      39.0607406       
773.28           0.77339878       38.6987939       0.625265916      -50.6556484      0.625265916      -50.6556484      0.77339878       38.6987939       
782.26           0.777367152      38.3409821       0.62037931       -51.0156793      0.62037931       -51.0156793      0.777367152      38.3409821       
791.24           0.781259378      37.9872487       0.615524632      -51.3715375      0.615524632      -51.3715375      0.781259378      37.9872487       
800.22           0.785076989      37.6375375       0.610702105      -51.7232807      0.610702105      -51.7232807      0.785076989      37.6375375       
809.2            0.788821491      37.2917927       0.605911922      -52.0709662      0.605911922      -52.0709662      0.788821491      37.2917927       
818.18           0.792494363      36.949959        0.601154246      -52.4146507      0.601154246      -52.4146507      0.792494363      36.949959        
827.16           0.796097063      36.6119814       0.596429214      -52.7543904      0.596429214      -52.7543904      0.796097063      36.6119814       
836.14           0.799631019      36.2778054       0.591736936      -53.0902411      0.591736936      -53.0902411      0.799631019      36.2778054       
845.12           0.803097637      35.947377        0.587077498      -53.4222579      0.587077498      -53.4222579      0.803097637      35.947377        
854.1            0.806498294      35.6206428       0.582450963      -53.7504954      0.582450963      -53.7504954      0.806498294      35.6206428       
863.08           0.809834346      35.2975497       0.577857369      -54.0750076      0.577857369      -54.0750076      0.809834346      35.2975497       
872.06           0.81310712       34.9780452       0.573296738      -54.3958478      0.573296738      -54.3958478      0.81310712       34.9780452       
881.04           0.816317921      34.6620775       0.568769067      -54.713069       0.568769067      -54.713069       0.816317921      34.6620775       
890.02           0.819468025      34.3495952       0.564274338      -55.0267233      0.564274338      -55.0267233      0.819468025      34.3495952       
899              0.822558688      34.0405476       0.559812514      -55.3368622      0.559812514      -55.3368622      0.822558688      34.0405476       
907.98           0.825591137      33.7348845       0.555383541      -55.6435367      0.555383541      -55.6435367      0.825591137      33.7348845       
916.96           0.828566578      33.4325563       0.55098735       -55.9467969      0.55098735       -55.9467969      0.828566578      33.4325563       
925.94           0.83148619       33.133514        0.546623857      -56.2466927      0.546623857      -56.2466927      0.83148619       33.133514        
934.92           0.834351131      32.8377093       0.542292962      -56.5432728      0.542292962      -56.5432728      0.834351131      32.8377093       
943.9            0.837162533      32.5450944       0.537994557      -56.8365857      0.537994557      -56.8365857      0.837162533      32.5450944       
952.88           0.839921506      32.2556221       0.533728516      -57.126679       0.533728516      -57.126679       0.839921506      32.2556221       
961.86           0.842629137      31.9692459       0.529494706      -57.4135996      0.529494706      -57.4135996      0.842629137      31.9692459       
970.84           0.845286489      31.68592         0.525292981      -57.697394       0.525292981      -57.697394       0.845286489      31.68592         
979.82           0.847894605      31.405599        0.521123185      -57.9781077      0.521123185      -57.9781077      0.847894605      31.405599        
988.8            0.850454505      31.1282383       0.516985154      -58.2557857      0.516985154      -58.2557857      0.850454505      31.1282383       
997.78           0.852967185      30.8537938       0.512878714      -58.5304724      0.512878714      -58.5304724      0.852967185      30.8537938       
1006.76          0.855433624      30.5822222       0.508803684      -58.8022115      0.508803684      -58.8022115      0.855433624      30.5822222       
1015.74          0.857854776      30.3134807       0.504759874      -59.071046       0.504759874      -59.071046       0.857854776      30.3134807       
1024.72          0.860231577      30.0475271       0.500747089      -59.3370182      0.500747089      -59.3370182      0.860231577      30.0475271       
1033.7           0.862564942      29.7843199       0.496765125      -59.6001699      0.496765125      -59.6001699      0.862564942      29.7843199       
1042.68          0.864855766      29.5238181       0.492813776      -59.8605422      0.492813776      -59.8605422      0.864855766      29.5238181       
1051.66          0.867104924      29.2659814       0.488892827      -60.1181754      0.488892827      -60.1181754      0.867104924      29.2659814       
1060.64          0.869313272      29.0107701       0.485002059      -60.3731093      0.485002059      -60.3731093      0.869313272      29.0107701       
1069.62          0.871481649      28.7581452       0.48114125       -60.6253832      0.48114125       -60.6253832      0.871481649      28.7581452       
1078.6           0.873610874      28.508068        0.477310171      -60.8750355      0.477310171      -60.8750355      0.873610874      28.508068        
1087.58          0.875701747      28.2605007       0.473508592      -61.1221041      0.473508592      -61.1221041      0.875701747      28.2605007       
1096.56          0.877755051      28.015406        0.469736279      -61.3666263      0.469736279      -61.3666263      0.877755051      28.015406        
1105.54          0.879771553      27.7727471       0.465992994      -61.6086388      0.465992994      -61.6086388      0.879771553      27.7727471       
1114.52          0.881752002      27.5324878       0.462278497      -61.8481777      0.462278497      -61.8481777      0.881752002      27.5324878       
1123.5           0.88369713       27.2945925       0.458592546      -62.0852784      0.458592546      -62.0852784      0.88369713       27.2945925       
1132.48          0.885607653      27.0590262       0.454934896      -62.3199758      0.454934896      -62.3199758      0.885607653      27.0590262       
1141.46          0.88748427       26.8257544       0.451305301      -62.5523042      0.451305301      -62.5523042      0.88748427       26.8257544       
