! Coilcraft 1206CS-390 Chip Inductor				
! 29 July 2002			
# MHZ S MA R 50
!Freq             MagS11           AngS11           MagS21           AngS21           MagS12           AngS12           MagS22           AngS22
1                0.00293331566    56.3746645       0.998378635      -0.140172518     0.998378635      -0.140172518     0.00293331566    56.3746645       
8.73             0.0215136956     81.2292647       0.996946326      -1.22205403      0.996946326      -1.22205403      0.0215136956     81.2292647       
16.46            0.0403144299     82.7113642       0.995688727      -2.301722        0.995688727      -2.301722        0.0403144299     82.7113642       
24.19            0.0590764535     82.7082086       0.994230237      -3.37889943      0.994230237      -3.37889943      0.0590764535     82.7082086       
31.92            0.0777712657     82.2477949       0.992505609      -4.45306208      0.992505609      -4.45306208      0.0777712657     82.2477949       
39.65            0.0963790568     81.5828301       0.990491338      -5.5236249       0.990491338      -5.5236249       0.0963790568     81.5828301       
47.38            0.114881893      80.8083597       0.988178139      -6.58998309      0.988178139      -6.58998309      0.114881893      80.8083597       
55.11            0.133262689      79.9690034       0.985563447      -7.65152897      0.985563447      -7.65152897      0.133262689      79.9690034       
62.84            0.151505016      79.0888752       0.982648555      -8.70766113      0.982648555      -8.70766113      0.151505016      79.0888752       
70.57            0.169593091      78.1823676       0.979437292      -9.75779032      0.979437292      -9.75779032      0.169593091      78.1823676       
78.3             0.187511818      77.2587385       0.975935303      -10.8013436      0.975935303      -10.8013436      0.187511818      77.2587385       
86.03            0.205246837      76.3243041       0.97214962       -11.8377676      0.97214962       -11.8377676      0.205246837      76.3243041       
93.76            0.222784574      75.3835845       0.968088377      -12.8665311      0.968088377      -12.8665311      0.222784574      75.3835845       
101.49           0.24011228       74.4399438       0.963760599      -13.8871268      0.963760599      -13.8871268      0.24011228       74.4399438       
109.22           0.257218068      73.4959688       0.959176039      -14.8990731      0.959176039      -14.8990731      0.257218068      73.4959688       
116.95           0.27409094       72.5537029       0.954345048      -15.9019158      0.954345048      -15.9019158      0.27409094       72.5537029       
124.68           0.290720802      71.6147966       0.949278457      -16.8952282      0.949278457      -16.8952282      0.290720802      71.6147966       
132.41           0.307098478      70.6806074       0.943987474      -17.8786128      0.943987474      -17.8786128      0.307098478      70.6806074       
140.14           0.323215712      69.752268        0.938483597      -18.851701       0.938483597      -18.851701       0.323215712      69.752268        
147.87           0.339065163      68.8307345       0.932778524      -19.8141537      0.932778524      -19.8141537      0.339065163      68.8307345       
155.6            0.354640395      67.9168203       0.926884083      -20.7656614      0.926884083      -20.7656614      0.354640395      67.9168203       
163.33           0.369935863      67.0112221       0.920812156      -21.7059438      0.920812156      -21.7059438      0.369935863      67.0112221       
171.06           0.384946889      66.114538        0.914574617      -22.6347498      0.914574617      -22.6347498      0.384946889      66.114538        
178.79           0.399669634      65.2272828       0.908183273      -23.5518565      0.908183273      -23.5518565      0.399669634      65.2272828       
186.52           0.414101073      64.349899        0.901649811      -24.4570691      0.901649811      -24.4570691      0.414101073      64.349899        
194.25           0.428238958      63.4827657       0.89498575       -25.3502199      0.89498575       -25.3502199      0.428238958      63.4827657       
201.98           0.442081782      62.6262061       0.888202396      -26.2311676      0.888202396      -26.2311676      0.442081782      62.6262061       
209.71           0.45562874       61.7804935       0.881310807      -27.0997959      0.881310807      -27.0997959      0.45562874       61.7804935       
217.44           0.46887969       60.9458564       0.874321759      -27.9560133      0.874321759      -27.9560133      0.46887969       60.9458564       
225.17           0.481835112      60.1224831       0.867245718      -28.7997512      0.867245718      -28.7997512      0.481835112      60.1224831       
232.9            0.494496064      59.3105249       0.860092815      -29.6309633      0.860092815      -29.6309633      0.494496064      59.3105249       
240.63           0.506864143      58.5100999       0.852872826      -30.4496241      0.852872826      -30.4496241      0.506864143      58.5100999       
248.36           0.518941439      57.721296        0.84559516       -31.2557283      0.84559516       -31.2557283      0.518941439      57.721296        
256.09           0.530730497      56.9441733       0.838268843      -32.0492889      0.838268843      -32.0492889      0.530730497      56.9441733       
263.82           0.542234276      56.1787665       0.830902509      -32.8303363      0.830902509      -32.8303363      0.542234276      56.1787665       
271.55           0.553456107      55.4250874       0.823504399      -33.5989174      0.823504399      -33.5989174      0.553456107      55.4250874       
279.28           0.564399658      54.6831268       0.816082354      -34.3550941      0.816082354      -34.3550941      0.564399658      54.6831268       
287.01           0.575068894      53.9528563       0.808643816      -35.0989422      0.808643816      -35.0989422      0.575068894      53.9528563       
294.74           0.585468046      53.2342302       0.801195831      -35.8305504      0.801195831      -35.8305504      0.585468046      53.2342302       
302.47           0.595601574      52.5271868       0.793745053      -36.5500192      0.793745053      -36.5500192      0.595601574      52.5271868       
310.2            0.605474136      51.8316504       0.78629775       -37.2574598      0.78629775       -37.2574598      0.605474136      51.8316504       
317.93           0.615090559      51.1475324       0.77885981       -37.9529932      0.77885981       -37.9529932      0.615090559      51.1475324       
325.66           0.624455813      50.4747324       0.771436753      -38.636749       0.771436753      -38.636749       0.624455813      50.4747324       
333.39           0.633574981      49.8131398       0.764033738      -39.3088648      0.764033738      -39.3088648      0.633574981      49.8131398       
341.12           0.642453236      49.1626349       0.756655574      -39.9694851      0.756655574      -39.9694851      0.642453236      49.1626349       
348.85           0.651095822      48.5230898       0.749306734      -40.6187607      0.749306734      -40.6187607      0.651095822      48.5230898       
356.58           0.659508029      47.8943692       0.741991367      -41.2568475      0.741991367      -41.2568475      0.659508029      47.8943692       
364.31           0.667695176      47.2763318       0.734713306      -41.8839063      0.734713306      -41.8839063      0.667695176      47.2763318       
372.04           0.675662594      46.6688308       0.727476087      -42.5001019      0.727476087      -42.5001019      0.675662594      46.6688308       
379.77           0.68341561       46.0717146       0.720282958      -43.1056021      0.720282958      -43.1056021      0.68341561       46.0717146       
387.5            0.690959533      45.4848279       0.713136894      -43.7005778      0.713136894      -43.7005778      0.690959533      45.4848279       
395.23           0.69829964       44.908012        0.70604061       -44.2852016      0.70604061       -44.2852016      0.69829964       44.908012        
402.96           0.705441167      44.3411056       0.698996571      -44.8596483      0.698996571      -44.8596483      0.705441167      44.3411056       
410.69           0.712389298      43.7839454       0.69200701       -45.4240935      0.69200701       -45.4240935      0.712389298      43.7839454       
418.42           0.719149153      43.2363663       0.685073937      -45.9787135      0.685073937      -45.9787135      0.719149153      43.2363663       
426.15           0.725725786      42.6982023       0.678199152      -46.5236851      0.678199152      -46.5236851      0.725725786      42.6982023       
433.88           0.732124173      42.1692869       0.671384256      -47.059185       0.671384256      -47.059185       0.732124173      42.1692869       
441.61           0.738349208      41.6494529       0.664630666      -47.5853895      0.664630666      -47.5853895      0.738349208      41.6494529       
449.34           0.7444057        41.1385335       0.657939623      -48.1024743      0.657939623      -48.1024743      0.7444057        41.1385335       
457.07           0.750298364      40.6363622       0.651312201      -48.610614       0.651312201      -48.610614       0.750298364      40.6363622       
464.8            0.756031823      40.1427734       0.644749324      -49.1099821      0.644749324      -49.1099821      0.756031823      40.1427734       
472.53           0.761610601      39.6576022       0.638251771      -49.6007505      0.638251771      -49.6007505      0.761610601      39.6576022       
480.26           0.767039123      39.1806851       0.631820186      -50.0830897      0.631820186      -50.0830897      0.767039123      39.1806851       
487.99           0.772321712      38.7118598       0.625455087      -50.5571681      0.625455087      -50.5571681      0.772321712      38.7118598       
495.72           0.77746259       38.250966        0.619156877      -51.0231525      0.619156877      -51.0231525      0.77746259       38.250966        
503.45           0.782465875      37.7978446       0.61292585       -51.4812072      0.61292585       -51.4812072      0.782465875      37.7978446       
511.18           0.787335581      37.3523389       0.606762201      -51.9314944      0.606762201      -51.9314944      0.787335581      37.3523389       
518.91           0.792075619      36.9142941       0.600666029      -52.3741741      0.600666029      -52.3741741      0.792075619      36.9142941       
526.64           0.796689797      36.4835575       0.594637349      -52.8094038      0.594637349      -52.8094038      0.796689797      36.4835575       
534.37           0.801181822      36.0599785       0.588676098      -53.2373383      0.588676098      -53.2373383      0.801181822      36.0599785       
542.1            0.805555297      35.6434092       0.582782137      -53.65813        0.582782137      -53.65813        0.805555297      35.6434092       
549.83           0.809813727      35.2337037       0.576955262      -54.0719288      0.576955262      -54.0719288      0.809813727      35.2337037       
557.56           0.813960516      34.8307188       0.571195207      -54.4788816      0.571195207      -54.4788816      0.813960516      34.8307188       
565.29           0.817998972      34.4343136       0.565501649      -54.879133       0.565501649      -54.879133       0.817998972      34.4343136       
573.02           0.821932307      34.0443501       0.559874215      -55.2728246      0.559874215      -55.2728246      0.821932307      34.0443501       
580.75           0.825763638      33.6606923       0.554312483      -55.6600954      0.554312483      -55.6600954      0.825763638      33.6606923       
588.48           0.82949599       33.2832071       0.548815992      -56.0410816      0.548815992      -56.0410816      0.82949599       33.2832071       
596.21           0.833132298      32.911764        0.543384239      -56.4159168      0.543384239      -56.4159168      0.833132298      32.911764        
603.94           0.836675406      32.546235        0.538016688      -56.7847316      0.538016688      -56.7847316      0.836675406      32.546235        
611.67           0.840128076      32.1864945       0.532712773      -57.1476542      0.532712773      -57.1476542      0.840128076      32.1864945       
619.4            0.843492981      31.8324199       0.527471898      -57.50481        0.527471898      -57.50481        0.843492981      31.8324199       
627.13           0.846772716      31.4838907       0.522293444      -57.8563216      0.522293444      -57.8563216      0.846772716      31.4838907       
634.86           0.849969792      31.1407891       0.517176769      -58.202309       0.517176769      -58.202309       0.849969792      31.1407891       
642.59           0.853086643      30.8029999       0.512121211      -58.5428897      0.512121211      -58.5428897      0.853086643      30.8029999       
650.32           0.856125628      30.4704104       0.507126094      -58.8781785      0.507126094      -58.8781785      0.856125628      30.4704104       
658.05           0.859089032      30.1429102       0.502190726      -59.2082877      0.502190726      -59.2082877      0.859089032      30.1429102       
665.78           0.861979067      29.8203913       0.497314401      -59.5333269      0.497314401      -59.5333269      0.861979067      29.8203913       
673.51           0.864797876      29.5027484       0.492496405      -59.8534035      0.492496405      -59.8534035      0.864797876      29.5027484       
681.24           0.867547533      29.1898783       0.487736014      -60.1686221      0.487736014      -60.1686221      0.867547533      29.1898783       
688.97           0.870230048      28.8816801       0.483032497      -60.4790853      0.483032497      -60.4790853      0.870230048      28.8816801       
696.7            0.872847367      28.5780554       0.47838512       -60.7848931      0.47838512       -60.7848931      0.872847367      28.5780554       
704.43           0.875401373      28.2789079       0.473793142      -61.086143       0.473793142      -61.086143       0.875401373      28.2789079       
712.16           0.877893889      27.9841435       0.469255821      -61.3829306      0.469255821      -61.3829306      0.877893889      27.9841435       
719.89           0.880326682      27.6936703       0.464772413      -61.675349       0.464772413      -61.675349       0.880326682      27.6936703       
727.62           0.882701461      27.4073986       0.460342174      -61.9634893      0.460342174      -61.9634893      0.882701461      27.4073986       
735.35           0.88501988       27.1252407       0.45596436       -62.2474402      0.45596436       -62.2474402      0.88501988       27.1252407       
743.08           0.887283542      26.8471109       0.45163823       -62.5272886      0.45163823       -62.5272886      0.887283542      26.8471109       
750.81           0.889493999      26.5729256       0.447363044      -62.803119       0.447363044      -62.803119       0.889493999      26.5729256       
758.54           0.89165275       26.3026032       0.443138066      -63.0750142      0.443138066      -63.0750142      0.89165275       26.3026032       
766.27           0.893761252      26.0360638       0.438962563      -63.3430548      0.438962563      -63.3430548      0.893761252      26.0360638       
774              0.89582091       25.7732297       0.434835809      -63.6073196      0.434835809      -63.6073196      0.89582091       25.7732297       
781.73           0.897833089      25.5140247       0.430757081      -63.8678856      0.430757081      -63.8678856      0.897833089      25.5140247       
789.46           0.899799109      25.2583747       0.426725662      -64.1248276      0.426725662      -64.1248276      0.899799109      25.2583747       
797.19           0.901720246      25.006207        0.422740841      -64.3782191      0.422740841      -64.3782191      0.901720246      25.006207        
804.92           0.90359774       24.757451        0.418801913      -64.6281315      0.418801913      -64.6281315      0.90359774       24.757451        
812.65           0.905432788      24.5120375       0.414908183      -64.8746345      0.414908183      -64.8746345      0.905432788      24.5120375       
820.38           0.907226551      24.2698991       0.411058959      -65.1177963      0.411058959      -65.1177963      0.907226551      24.2698991       
828.11           0.908980153      24.0309697       0.40725356       -65.3576833      0.40725356       -65.3576833      0.908980153      24.0309697       
835.84           0.910694684      23.7951853       0.40349131       -65.5943604      0.40349131       -65.5943604      0.910694684      23.7951853       
843.57           0.912371198      23.5624828       0.399771543      -65.827891       0.399771543      -65.827891       0.912371198      23.5624828       
851.3            0.914010718      23.332801        0.3960936        -66.0583368      0.3960936        -66.0583368      0.914010718      23.332801        
859.03           0.915614233      23.1060801       0.392456832      -66.2857582      0.392456832      -66.2857582      0.915614233      23.1060801       
866.76           0.917182703      22.8822615       0.388860596      -66.510214       0.388860596      -66.510214       0.917182703      22.8822615       
874.49           0.918717057      22.6612881       0.385304261      -66.7317617      0.385304261      -66.7317617      0.918717057      22.6612881       
882.22           0.920218196      22.4431043       0.381787201      -66.9504574      0.381787201      -66.9504574      0.920218196      22.4431043       
889.95           0.921686994      22.2276555       0.3783088        -67.166356       0.3783088        -67.166356       0.921686994      22.2276555       
897.68           0.923124297      22.0148886       0.374868454      -67.3795107      0.374868454      -67.3795107      0.923124297      22.0148886       
905.41           0.924530924      21.8047516       0.371465562      -67.5899739      0.371465562      -67.5899739      0.924530924      21.8047516       
913.14           0.925907672      21.5971939       0.368099538      -67.7977964      0.368099538      -67.7977964      0.925907672      21.5971939       
920.87           0.927255311      21.392166        0.3647698        -68.0030281      0.3647698        -68.0030281      0.927255311      21.392166        
928.6            0.928574589      21.1896193       0.361475778      -68.2057174      0.361475778      -68.2057174      0.928574589      21.1896193       
936.33           0.929866231      20.9895068       0.358216908      -68.4059117      0.358216908      -68.4059117      0.929866231      20.9895068       
944.06           0.931130939      20.7917821       0.354992639      -68.6036575      0.354992639      -68.6036575      0.931130939      20.7917821       
951.79           0.932369397      20.5964003       0.351802425      -68.7989998      0.351802425      -68.7989998      0.932369397      20.5964003       
959.52           0.933582266      20.4033172       0.348645729      -68.9919827      0.348645729      -68.9919827      0.933582266      20.4033172       
967.25           0.934770187      20.2124899       0.345522026      -69.1826495      0.345522026      -69.1826495      0.934770187      20.2124899       
974.98           0.935933783      20.0238762       0.342430796      -69.3710422      0.342430796      -69.3710422      0.935933783      20.0238762       
982.71           0.937073658      19.8374351       0.33937153       -69.5572018      0.33937153       -69.5572018      0.937073658      19.8374351       
