! Coilcraft 1206CS-270 Chip Inductor				
! 29 July 2002			
# MHZ S MA R 50
!Freq             MagS11           AngS11           MagS21           AngS21           MagS12           AngS12           MagS22           AngS22
1                0.00233584812    51.0580564       0.998533496      -0.104246964     0.998533496      -0.104246964     0.00233584812    51.0580564       
9.98             0.0183043334     81.2093149       0.997366694      -1.03923496      0.997366694      -1.03923496      0.0183043334     81.2093149       
18.96            0.034556173      83.0091957       0.996384696      -1.97272385      0.996384696      -1.97272385      0.034556173      83.0091957       
27.94            0.0507901489     83.197793        0.995262902      -2.90457439      0.995262902      -2.90457439      0.0507901489     83.197793        
36.92            0.0669828384     82.9004326       0.993946351      -3.83446564      0.993946351      -3.83446564      0.0669828384     82.9004326       
45.9             0.0831203053     82.387479        0.992414527      -4.76203075      0.992414527      -4.76203075      0.0831203053     82.387479        
54.88            0.0991905146     81.7592002       0.990658402      -5.68688575      0.990658402      -5.68688575      0.0991905146     81.7592002       
63.86            0.115182127      81.0621352       0.988674254      -6.60864098      0.988674254      -6.60864098      0.115182127      81.0621352       
72.84            0.131084222      80.3211669       0.986461325      -7.52690714      0.986461325      -7.52690714      0.131084222      80.3211669       
81.82            0.146886232      79.5509845       0.984020753      -8.44129895      0.984020753      -8.44129895      0.146886232      79.5509845       
90.8             0.162577938      78.7609274       0.981355004      -9.35143782      0.981355004      -9.35143782      0.162577938      78.7609274       
99.78            0.178149494      77.9572895       0.978467548      -10.2569538      0.978467548      -10.2569538      0.178149494      77.9572895       
108.76           0.193591443      77.1445175       0.975362644      -11.157487       0.975362644      -11.157487       0.193591443      77.1445175       
117.74           0.208894745      76.3258788       0.9720452        -12.052689       0.9720452        -12.052689       0.208894745      76.3258788       
126.72           0.224050797      75.5038549       0.96852066       -12.9422239      0.96852066       -12.9422239      0.224050797      75.5038549       
135.7            0.239051454      74.680384        0.964794926      -13.8257692      0.964794926      -13.8257692      0.239051454      74.680384        
144.68           0.253889043      73.8570167       0.960874283      -14.7030163      0.960874283      -14.7030163      0.253889043      73.8570167       
153.66           0.268556375      73.0350187       0.956765342      -15.5736715      0.956765342      -15.5736715      0.268556375      73.0350187       
162.64           0.283046759      72.2154413       0.952474988      -16.4374561      0.952474988      -16.4374561      0.283046759      72.2154413       
171.62           0.297354003      71.3991704       0.948010331      -17.294107       0.948010331      -17.294107       0.297354003      71.3991704       
180.6            0.311472422      70.5869611       0.943378659      -18.1433771      0.943378659      -18.1433771      0.311472422      70.5869611       
189.58           0.325396834      69.7794635       0.938587405      -18.985035       0.938587405      -18.985035       0.325396834      69.7794635       
198.56           0.33912256       68.9772418       0.933644101      -19.8188655      0.933644101      -19.8188655      0.33912256       68.9772418       
207.54           0.352645418      68.1807881       0.92855635       -20.6446696      0.92855635       -20.6446696      0.352645418      68.1807881       
216.52           0.365961717      67.3905337       0.923331787      -21.4622643      0.923331787      -21.4622643      0.365961717      67.3905337       
225.5            0.379068247      66.6068575       0.917978052      -22.2714823      0.917978052      -22.2714823      0.379068247      66.6068575       
234.48           0.391962263      65.8300928       0.912502761      -23.0721723      0.912502761      -23.0721723      0.391962263      65.8300928       
243.46           0.40464148       65.060533        0.90691348       -23.864198       0.90691348       -23.864198       0.40464148       65.060533        
252.44           0.417104052      64.2984355       0.9012177        -24.6474387      0.9012177        -24.6474387      0.417104052      64.2984355       
261.42           0.429348557      63.5440259       0.895422815      -25.4217881      0.895422815      -25.4217881      0.429348557      63.5440259       
270.4            0.441373981      62.7975007       0.889536104      -26.1871544      0.889536104      -26.1871544      0.441373981      62.7975007       
279.38           0.453179699      62.0590304       0.883564711      -26.9434597      0.883564711      -26.9434597      0.453179699      62.0590304       
288.36           0.464765457      61.3287612       0.877515629      -27.6906395      0.877515629      -27.6906395      0.464765457      61.3287612       
297.34           0.476131352      60.6068174       0.871395688      -28.4286422      0.871395688      -28.4286422      0.476131352      60.6068174       
306.32           0.487277813      59.8933029       0.86521154       -29.1574288      0.86521154       -29.1574288      0.487277813      59.8933029       
315.3            0.498205579      59.1883032       0.858969651      -29.8769721      0.858969651      -29.8769721      0.498205579      59.1883032       
324.28           0.508915683      58.4918863       0.852676289      -30.5872562      0.852676289      -30.5872562      0.508915683      58.4918863       
333.26           0.51940943       57.8041042       0.846337521      -31.2882762      0.846337521      -31.2882762      0.51940943       57.8041042       
342.24           0.529688377      57.1249943       0.839959203      -31.9800373      0.839959203      -31.9800373      0.529688377      57.1249943       
351.22           0.539754314      56.45458         0.833546979      -32.6625544      0.833546979      -32.6625544      0.539754314      56.45458         
360.2            0.549609245      55.7928725       0.827106274      -33.3358517      0.827106274      -33.3358517      0.549609245      55.7928725       
369.18           0.559255372      55.1398707       0.820642297      -33.9999618      0.820642297      -33.9999618      0.559255372      55.1398707       
378.16           0.568695075      54.4955632       0.814160036      -34.6549255      0.814160036      -34.6549255      0.568695075      54.4955632       
387.14           0.577930895      53.8599281       0.807664259      -35.3007911      0.807664259      -35.3007911      0.577930895      53.8599281       
396.12           0.586965516      53.2329347       0.801159519      -35.9376138      0.801159519      -35.9376138      0.586965516      53.2329347       
405.1            0.595801753      52.6145436       0.794650148      -36.5654556      0.794650148      -36.5654556      0.595801753      52.6145436       
414.08           0.604442536      52.0047075       0.788140269      -37.1843842      0.788140269      -37.1843842      0.604442536      52.0047075       
423.06           0.612890892      51.4033722       0.781633792      -37.7944729      0.781633792      -37.7944729      0.612890892      51.4033722       
432.04           0.621149934      50.8104768       0.775134421      -38.3958002      0.775134421      -38.3958002      0.621149934      50.8104768       
441.02           0.629222851      50.2259544       0.768645659      -38.9884492      0.768645659      -38.9884492      0.629222851      50.2259544       
450              0.63711289       49.6497329       0.762170811      -39.5725071      0.762170811      -39.5725071      0.63711289       49.6497329       
458.98           0.644823349      49.0817351       0.755712989      -40.1480649      0.755712989      -40.1480649      0.644823349      49.0817351       
467.96           0.652357565      48.5218795       0.749275121      -40.7152174      0.749275121      -40.7152174      0.652357565      48.5218795       
476.94           0.659718904      47.9700807       0.742859951      -41.2740618      0.742859951      -41.2740618      0.659718904      47.9700807       
485.92           0.666910753      47.4262496       0.736470051      -41.8246986      0.736470051      -41.8246986      0.666910753      47.4262496       
494.9            0.67393651       46.8902941       0.730107821      -42.3672302      0.730107821      -42.3672302      0.67393651       46.8902941       
503.88           0.680799576      46.3621193       0.7237755        -42.9017614      0.7237755        -42.9017614      0.680799576      46.3621193       
512.86           0.687503349      45.8416281       0.71747517       -43.4283986      0.71747517       -43.4283986      0.687503349      45.8416281       
521.84           0.694051218      45.3287209       0.711208763      -43.9472497      0.711208763      -43.9472497      0.694051218      45.3287209       
530.82           0.700446555      44.8232969       0.704978064      -44.4584238      0.704978064      -44.4584238      0.700446555      44.8232969       
539.8            0.706692711      44.3252533       0.698784724      -44.9620309      0.698784724      -44.9620309      0.706692711      44.3252533       
548.78           0.712793008      43.8344865       0.692630257      -45.4581819      0.692630257      -45.4581819      0.712793008      43.8344865       
557.76           0.71875074       43.3508917       0.686516055      -45.9469882      0.686516055      -45.9469882      0.71875074       43.3508917       
566.74           0.724569164      42.8743634       0.680443388      -46.4285614      0.680443388      -46.4285614      0.724569164      42.8743634       
575.72           0.730251501      42.4047958       0.674413411      -46.9030134      0.674413411      -46.9030134      0.730251501      42.4047958       
584.7            0.735800927      41.9420826       0.668427171      -47.3704559      0.668427171      -47.3704559      0.735800927      41.9420826       
593.68           0.741220575      41.4861173       0.66248561       -47.8310005      0.66248561       -47.8310005      0.741220575      41.4861173       
602.66           0.746513531      41.0367936       0.656589575      -48.2847586      0.656589575      -48.2847586      0.746513531      41.0367936       
611.64           0.751682832      40.5940052       0.650739817      -48.7318409      0.650739817      -48.7318409      0.751682832      40.5940052       
620.62           0.756731463      40.1576465       0.644937001      -49.1723577      0.644937001      -49.1723577      0.756731463      40.1576465       
629.6            0.761662358      39.7276119       0.639181708      -49.6064185      0.639181708      -49.6064185      0.761662358      39.7276119       
638.58           0.766478397      39.3037967       0.633474441      -50.034132       0.633474441      -50.034132       0.766478397      39.3037967       
647.56           0.771182405      38.8860966       0.627815629      -50.455606       0.627815629      -50.455606       0.771182405      38.8860966       
656.54           0.775777151      38.4744085       0.622205631      -50.8709473      0.622205631      -50.8709473      0.775777151      38.4744085       
665.52           0.780265349      38.0686297       0.616644741      -51.2802619      0.616644741      -51.2802619      0.780265349      38.0686297       
674.5            0.784649657      37.6686589       0.611133192      -51.6836542      0.611133192      -51.6836542      0.784649657      37.6686589       
683.48           0.788932674      37.2743953       0.605671157      -52.0812279      0.605671157      -52.0812279      0.788932674      37.2743953       
692.46           0.793116945      36.8857397       0.600258759      -52.4730851      0.600258759      -52.4730851      0.793116945      36.8857397       
701.44           0.797204957      36.5025938       0.594896067      -52.8593268      0.594896067      -52.8593268      0.797204957      36.5025938       
710.42           0.801199141      36.1248603       0.589583103      -53.2400526      0.589583103      -53.2400526      0.801199141      36.1248603       
719.4            0.805101871      35.7524436       0.584319846      -53.6153608      0.584319846      -53.6153608      0.805101871      35.7524436       
728.38           0.808915466      35.3852489       0.579106235      -53.9853483      0.579106235      -53.9853483      0.808915466      35.3852489       
737.36           0.812642191      35.0231829       0.573942166      -54.3501106      0.573942166      -54.3501106      0.812642191      35.0231829       
746.34           0.816284252      34.6661537       0.568827506      -54.7097415      0.568827506      -54.7097415      0.816284252      34.6661537       
755.32           0.819843807      34.3140707       0.563762082      -55.0643338      0.563762082      -55.0643338      0.819843807      34.3140707       
764.3            0.823322957      33.9668447       0.558745697      -55.4139785      0.558745697      -55.4139785      0.823322957      33.9668447       
773.28           0.82672375       33.6243876       0.553778121      -55.7587652      0.553778121      -55.7587652      0.82672375       33.6243876       
782.26           0.830048184      33.2866132       0.548859099      -56.0987821      0.548859099      -56.0987821      0.830048184      33.2866132       
791.24           0.833298206      32.9534363       0.543988353      -56.4341157      0.543988353      -56.4341157      0.833298206      32.9534363       
800.22           0.836475712      32.6247732       0.539165583      -56.7648513      0.539165583      -56.7648513      0.836475712      32.6247732       
809.2            0.839582551      32.3005417       0.534390467      -57.0910725      0.534390467      -57.0910725      0.839582551      32.3005417       
818.18           0.842620521      31.980661        0.529662665      -57.4128615      0.529662665      -57.4128615      0.842620521      31.980661        
827.16           0.845591375      31.6650517       0.524981823      -57.7302989      0.524981823      -57.7302989      0.845591375      31.6650517       
836.14           0.848496819      31.3536356       0.520347566      -58.0434641      0.520347566      -58.0434641      0.848496819      31.3536356       
845.12           0.851338514      31.0463363       0.515759511      -58.3524348      0.515759511      -58.3524348      0.851338514      31.0463363       
854.1            0.854118077      30.7430784       0.511217259      -58.6572872      0.511217259      -58.6572872      0.854118077      30.7430784       
863.08           0.856837082      30.4437881       0.506720399      -58.9580964      0.506720399      -58.9580964      0.856837082      30.4437881       
872.06           0.859497059      30.1483929       0.502268514      -59.2549357      0.502268514      -59.2549357      0.859497059      30.1483929       
881.04           0.862099498      29.8568217       0.497861174      -59.5478772      0.497861174      -59.5478772      0.862099498      29.8568217       
890.02           0.86464585       29.5690046       0.493497943      -59.8369916      0.493497943      -59.8369916      0.86464585       29.5690046       
899              0.867137526      29.2848732       0.489178377      -60.1223481      0.489178377      -60.1223481      0.867137526      29.2848732       
907.98           0.869575896      29.0043603       0.484902029      -60.4040148      0.484902029      -60.4040148      0.869575896      29.0043603       
916.96           0.871962296      28.7274          0.480668443      -60.682058       0.480668443      -60.682058       0.871962296      28.7274          
925.94           0.874298025      28.4539278       0.47647716       -60.9565433      0.47647716       -60.9565433      0.874298025      28.4539278       
934.92           0.876584346      28.1838803       0.47232772       -61.2275344      0.47232772       -61.2275344      0.876584346      28.1838803       
943.9            0.878822486      27.9171954       0.468219657      -61.4950941      0.468219657      -61.4950941      0.878822486      27.9171954       
952.88           0.881013641      27.6538122       0.464152505      -61.7592838      0.464152505      -61.7592838      0.881013641      27.6538122       
961.86           0.883158973      27.3936712       0.460125794      -62.0201637      0.460125794      -62.0201637      0.883158973      27.3936712       
970.84           0.885259612      27.1367137       0.456139055      -62.2777928      0.456139055      -62.2777928      0.885259612      27.1367137       
979.82           0.887316658      26.8828825       0.45219182       -62.5322287      0.45219182       -62.5322287      0.887316658      26.8828825       
988.8            0.889331178      26.6321215       0.448283617      -62.7835282      0.448283617      -62.7835282      0.889331178      26.6321215       
997.78           0.891304214      26.3843755       0.444413978      -63.0317465      0.444413978      -63.0317465      0.891304214      26.3843755       
1006.76          0.893236777      26.1395906       0.440582434      -63.2769379      0.440582434      -63.2769379      0.893236777      26.1395906       
1015.74          0.895129848      25.897714        0.436788519      -63.5191557      0.436788519      -63.5191557      0.895129848      25.897714        
1024.72          0.896984387      25.6586939       0.433031767      -63.7584519      0.433031767      -63.7584519      0.896984387      25.6586939       
1033.7           0.898801321      25.4224796       0.429311715      -63.9948774      0.429311715      -63.9948774      0.898801321      25.4224796       
1042.68          0.900581558      25.1890214       0.425627902      -64.2284822      0.425627902      -64.2284822      0.900581558      25.1890214       
1051.66          0.902325975      24.9582705       0.42197987       -64.4593152      0.42197987       -64.4593152      0.902325975      24.9582705       
1060.64          0.90403543       24.7301792       0.418367164      -64.6874242      0.418367164      -64.6874242      0.90403543       24.7301792       
1069.62          0.905710756      24.5047008       0.414789331      -64.9128561      0.414789331      -64.9128561      0.905710756      24.5047008       
1078.6           0.907352761      24.2817896       0.411245922      -65.1356569      0.411245922      -65.1356569      0.907352761      24.2817896       
1087.58          0.908962235      24.0614006       0.407736491      -65.3558713      0.407736491      -65.3558713      0.908962235      24.0614006       
1096.56          0.910539943      23.8434899       0.404260598      -65.5735436      0.404260598      -65.5735436      0.910539943      23.8434899       
1105.54          0.912086632      23.6280145       0.400817804      -65.7887166      0.400817804      -65.7887166      0.912086632      23.6280145       
1114.52          0.913603026      23.4149321       0.397407675      -66.0014327      0.397407675      -66.0014327      0.913603026      23.4149321       
1123.5           0.915089832      23.2042016       0.394029782      -66.2117331      0.394029782      -66.2117331      0.915089832      23.2042016       
1132.48          0.916547737      22.9957823       0.390683699      -66.4196582      0.390683699      -66.4196582      0.916547737      22.9957823       
1141.46          0.917977409      22.7896346       0.387369005      -66.6252477      0.387369005      -66.6252477      0.917977409      22.7896346       
