! Coilcraft 1206CS-150 Chip Inductor				
! 29 July 2002			
# MHZ S MA R 50
!Freq             MagS11           AngS11           MagS21           AngS21           MagS12           AngS12           MagS22           AngS22
1                0.00172237368    40.914274        0.998699056      -0.0647157147    0.998699056      -0.0647157147    0.00172237368    40.914274        
15.71            0.0178610108     81.9353447       0.997651019      -1.01567878      0.997651019      -1.01567878      0.0178610108     81.9353447       
30.42            0.0343964662     83.6042317       0.99675468       -1.96526856      0.99675468       -1.96526856      0.0343964662     83.6042317       
45.13            0.0509140036     83.690633        0.99569155       -2.91328982      0.99569155       -2.91328982      0.0509140036     83.690633        
59.84            0.0673896993     83.318363        0.99441413       -3.85937993      0.99441413       -3.85937993      0.0673896993     83.318363        
74.55            0.0838090236     82.7466299       0.992905306      -4.80313686      0.992905306      -4.80313686      0.0838090236     82.7466299       
89.26            0.100159286      82.0696726       0.991157993      -5.74414492      0.991157993      -5.74414492      0.100159286      82.0696726       
103.97           0.116428487      81.3306993       0.989169748      -6.68198508      0.989169748      -6.68198508      0.116428487      81.3306993       
118.68           0.132605059      80.5526252       0.986940766      -7.61624039      0.986940766      -7.61624039      0.132605059      80.5526252       
133.39           0.14867781       79.748906        0.984472951      -8.54649945      0.984472951      -8.54649945      0.14867781       79.748906        
148.1            0.16463593       78.928069        0.981769435      -9.47235893      0.981769435      -9.47235893      0.16463593       78.928069        
162.81           0.180469011      78.0958526       0.97883429       -10.3934254      0.97883429       -10.3934254      0.180469011      78.0958526       
177.52           0.196167071      77.2563109       0.975672348      -11.309317       0.975672348      -11.309317       0.196167071      77.2563109       
192.23           0.211720581      76.4124266       0.972289062      -12.2196646      0.972289062      -12.2196646      0.211720581      76.4124266       
206.94           0.227120489      75.5664701       0.968690417      -13.1241127      0.968690417      -13.1241127      0.227120489      75.5664701       
221.65           0.242358239      74.72022         0.964882845      -14.0223206      0.964882845      -14.0223206      0.242358239      74.72022         
236.36           0.257425788      73.8751044       0.96087316       -14.9139633      0.96087316       -14.9139633      0.257425788      73.8751044       
251.07           0.272315619      73.0322934       0.956668497      -15.7987315      0.956668497      -15.7987315      0.272315619      73.0322934       
265.78           0.287020751      72.1927627       0.952276263      -16.6763326      0.952276263      -16.6763326      0.287020751      72.1927627       
280.49           0.301534747      71.3573374       0.947704086      -17.5464908      0.947704086      -17.5464908      0.301534747      71.3573374       
295.2            0.315851711      70.5267235       0.942959769      -18.4089478      0.942959769      -18.4089478      0.315851711      70.5267235       
309.91           0.329966295      69.7015306       0.93805125       -19.2634622      0.93805125       -19.2634622      0.329966295      69.7015306       
324.62           0.343873689      68.8822887       0.932986561      -20.1098104      0.932986561      -20.1098104      0.343873689      68.8822887       
339.33           0.357569618      68.0694613       0.927773792      -20.9477859      0.927773792      -20.9477859      0.357569618      68.0694613       
354.04           0.371050333      67.2634549       0.922421057      -21.7771995      0.922421057      -21.7771995      0.371050333      67.2634549       
368.75           0.384312597      66.4646267       0.916936461      -22.5978794      0.916936461      -22.5978794      0.384312597      66.4646267       
383.46           0.397353677      65.6732907       0.91132807       -23.4096703      0.91132807       -23.4096703      0.397353677      65.6732907       
398.17           0.410171322      64.8897229       0.905603883      -24.2124337      0.905603883      -24.2124337      0.410171322      64.8897229       
412.88           0.422763751      64.1141646       0.89977181       -25.006047       0.89977181       -25.006047       0.422763751      64.1141646       
427.59           0.435129634      63.3468267       0.893839646      -25.7904037      0.893839646      -25.7904037      0.435129634      63.3468267       
442.3            0.447268071      62.5878915       0.887815048      -26.5654124      0.887815048      -26.5654124      0.447268071      62.5878915       
457.01           0.459178573      61.837516        0.881705522      -27.3309965      0.881705522      -27.3309965      0.459178573      61.837516        
471.72           0.470861042      61.0958336       0.875518405      -28.0870938      0.875518405      -28.0870938      0.470861042      61.0958336       
486.43           0.482315748      60.362956        0.869260846      -28.8336556      0.869260846      -28.8336556      0.482315748      60.362956        
501.14           0.493543307      59.638975        0.8629398        -29.5706466      0.8629398        -29.5706466      0.493543307      59.638975        
515.85           0.50454466       58.9239637       0.856562011      -30.298044       0.856562011      -30.298044       0.50454466       58.9239637       
530.56           0.515321054      58.2179785       0.850134012      -31.0158367      0.850134012      -31.0158367      0.515321054      58.2179785       
545.27           0.525874014      57.5210595       0.843662107      -31.7240254      0.843662107      -31.7240254      0.525874014      57.5210595       
559.98           0.536205328      56.8332324       0.837152374      -32.4226211      0.837152374      -32.4226211      0.536205328      56.8332324       
574.69           0.546317024      56.1545093       0.830610658      -33.1116452      0.830610658      -33.1116452      0.546317024      56.1545093       
589.4            0.556211346      55.4848895       0.824042568      -33.7911286      0.824042568      -33.7911286      0.556211346      55.4848895       
604.11           0.565890741      54.8243609       0.817453477      -34.4611109      0.817453477      -34.4611109      0.565890741      54.8243609       
618.82           0.575357834      54.1729006       0.81084852       -35.1216404      0.81084852       -35.1216404      0.575357834      54.1729006       
633.53           0.584615414      53.5304756       0.804232597      -35.7727728      0.804232597      -35.7727728      0.584615414      53.5304756       
648.24           0.593666412      52.8970439       0.797610373      -36.4145712      0.797610373      -36.4145712      0.593666412      52.8970439       
662.95           0.602513889      52.2725553       0.790986283      -37.0471054      0.790986283      -37.0471054      0.602513889      52.2725553       
677.66           0.611161016      51.6569517       0.784364531      -37.6704512      0.784364531      -37.6704512      0.611161016      51.6569517       
692.37           0.619611062      51.0501679       0.777749101      -38.2846901      0.777749101      -38.2846901      0.619611062      51.0501679       
707.08           0.627867376      50.4521327       0.771143753      -38.8899086      0.771143753      -38.8899086      0.627867376      50.4521327       
721.79           0.635933378      49.8627687       0.764552038      -39.486198       0.764552038      -39.486198       0.635933378      49.8627687       
736.5            0.643812542      49.2819935       0.757977294      -40.0736538      0.757977294      -40.0736538      0.643812542      49.2819935       
751.21           0.651508388      48.70972         0.75142266       -40.6523752      0.75142266       -40.6523752      0.651508388      48.70972         
765.92           0.659024469      48.1458566       0.744891077      -41.2224647      0.744891077      -41.2224647      0.659024469      48.1458566       
780.63           0.66636436       47.5903083       0.738385295      -41.7840279      0.738385295      -41.7840279      0.66636436       47.5903083       
795.34           0.673531652      47.0429767       0.731907882      -42.337173       0.731907882      -42.337173       0.673531652      47.0429767       
810.05           0.680529938      46.5037602       0.725461231      -42.8820104      0.725461231      -42.8820104      0.680529938      46.5037602       
824.76           0.68736281       45.972555        0.719047562      -43.4186525      0.719047562      -43.4186525      0.68736281       45.972555        
839.47           0.69403385       45.449255        0.712668934      -43.9472133      0.712668934      -43.9472133      0.69403385       45.449255        
854.18           0.700546622      44.9337522       0.706327249      -44.4678081      0.706327249      -44.4678081      0.700546622      44.9337522       
868.89           0.706904667      44.4259373       0.700024261      -44.9805532      0.700024261      -44.9805532      0.706904667      44.4259373       
883.6            0.713111499      43.9256994       0.693761578      -45.485566       0.693761578      -45.485566       0.713111499      43.9256994       
898.31           0.719170596      43.4329269       0.687540676      -45.9829641      0.687540676      -45.9829641      0.719170596      43.4329269       
913.02           0.7250854        42.9475075       0.681362897      -46.4728658      0.681362897      -46.4728658      0.7250854        42.9475075       
927.73           0.730859312      42.4693281       0.675229463      -46.9553892      0.675229463      -46.9553892      0.730859312      42.4693281       
942.44           0.736495687      41.9982756       0.669141477      -47.4306527      0.669141477      -47.4306527      0.736495687      41.9982756       
957.15           0.74199783       41.5342367       0.663099931      -47.8987743      0.663099931      -47.8987743      0.74199783       41.5342367       
971.86           0.747368998      41.0770983       0.657105713      -48.3598718      0.657105713      -48.3598718      0.747368998      41.0770983       
986.57           0.752612394      40.6267474       0.651159609      -48.8140623      0.651159609      -48.8140623      0.752612394      40.6267474       
1001.28          0.757731165      40.1830714       0.645262312      -49.2614623      0.645262312      -49.2614623      0.757731165      40.1830714       
1015.99          0.762728402      39.7459585       0.639414427      -49.7021876      0.639414427      -49.7021876      0.762728402      39.7459585       
1030.7           0.767607139      39.3152972       0.633616473      -50.1363531      0.633616473      -50.1363531      0.767607139      39.3152972       
1045.41          0.772370349      38.8909772       0.627868893      -50.5640727      0.627868893      -50.5640727      0.772370349      38.8909772       
1060.12          0.777020947      38.4728886       0.622172052      -50.9854593      0.622172052      -50.9854593      0.777020947      38.4728886       
1074.83          0.781561787      38.060923        0.616526249      -51.4006246      0.616526249      -51.4006246      0.781561787      38.060923        
1089.54          0.78599566       37.6549726       0.610931715      -51.8096791      0.610931715      -51.8096791      0.78599566       37.6549726       
1104.25          0.7903253        37.2549311       0.605388622      -52.2127318      0.605388622      -52.2127318      0.7903253        37.2549311       
1118.96          0.794553376      36.8606932       0.599897082      -52.6098908      0.599897082      -52.6098908      0.794553376      36.8606932       
1133.67          0.7986825        36.4721548       0.594457156      -53.0012623      0.594457156      -53.0012623      0.7986825        36.4721548       
1148.38          0.802715219      36.0892134       0.589068853      -53.3869515      0.589068853      -53.3869515      0.802715219      36.0892134       
1163.09          0.806654024      35.7117676       0.583732137      -53.7670619      0.583732137      -53.7670619      0.806654024      35.7117676       
1177.8           0.810501342      35.3397175       0.578446927      -54.1416955      0.578446927      -54.1416955      0.810501342      35.3397175       
1192.51          0.814259543      34.9729646       0.573213103      -54.5109528      0.573213103      -54.5109528      0.814259543      34.9729646       
1207.22          0.817930939      34.6114118       0.568030508      -54.8749327      0.568030508      -54.8749327      0.817930939      34.6114118       
1221.93          0.821517783      34.2549637       0.562898949      -55.2337327      0.562898949      -55.2337327      0.821517783      34.2549637       
1236.64          0.825022272      33.9035261       0.557818202      -55.5874484      0.557818202      -55.5874484      0.825022272      33.9035261       
1251.35          0.828446544      33.5570064       0.552788013      -55.9361741      0.552788013      -55.9361741      0.828446544      33.5570064       
1266.06          0.831792686      33.2153138       0.547808102      -56.2800025      0.547808102      -56.2800025      0.831792686      33.2153138       
1280.77          0.835062728      32.8783585       0.542878162      -56.6190244      0.542878162      -56.6190244      0.835062728      32.8783585       
1295.48          0.838258646      32.5460528       0.537997866      -56.9533292      0.537997866      -56.9533292      0.838258646      32.5460528       
1310.19          0.841382367      32.2183101       0.533166862      -57.2830048      0.533166862      -57.2830048      0.841382367      32.2183101       
1324.9           0.844435763      31.8950454       0.528384783      -57.6081374      0.528384783      -57.6081374      0.844435763      31.8950454       
1339.61          0.847420657      31.5761755       0.523651243      -57.9288115      0.523651243      -57.9288115      0.847420657      31.5761755       
1354.32          0.850338826      31.2616185       0.518965839      -58.2451102      0.518965839      -58.2451102      0.850338826      31.2616185       
1369.03          0.853191994      30.9512938       0.514328157      -58.557115       0.514328157      -58.557115       0.853191994      30.9512938       
1383.74          0.855981841      30.6451228       0.509737767      -58.8649057      0.509737767      -58.8649057      0.855981841      30.6451228       
1398.45          0.85871          30.343028        0.50519423       -59.1685609      0.50519423       -59.1685609      0.85871          30.343028        
1413.16          0.861378062      30.0449335       0.500697095      -59.4681573      0.500697095      -59.4681573      0.861378062      30.0449335       
1427.87          0.863987569      29.7507648       0.496245905      -59.7637703      0.496245905      -59.7637703      0.863987569      29.7507648       
1442.58          0.866540025      29.4604489       0.491840193      -60.0554738      0.491840193      -60.0554738      0.866540025      29.4604489       
1457.29          0.869036892      29.1739142       0.487479484      -60.3433402      0.487479484      -60.3433402      0.869036892      29.1739142       
1472             0.871479588      28.8910905       0.483163301      -60.6274405      0.483163301      -60.6274405      0.871479588      28.8910905       
1486.71          0.873869495      28.611909        0.478891159      -60.9078442      0.478891159      -60.9078442      0.873869495      28.611909        
1501.42          0.876207956      28.3363022       0.474662571      -61.1846195      0.474662571      -61.1846195      0.876207956      28.3363022       
1516.13          0.878496276      28.0642041       0.470477046      -61.4578331      0.470477046      -61.4578331      0.878496276      28.0642041       
1530.84          0.880735723      27.79555         0.466334089      -61.7275503      0.466334089      -61.7275503      0.880735723      27.79555         
1545.55          0.882927531      27.5302762       0.462233207      -61.9938353      0.462233207      -61.9938353      0.882927531      27.5302762       
1560.26          0.885072898      27.2683207       0.458173901      -62.2567508      0.458173901      -62.2567508      0.885072898      27.2683207       
1574.97          0.88717299       27.0096226       0.454155677      -62.5163583      0.454155677      -62.5163583      0.88717299       27.0096226       
1589.68          0.88922894       26.7541221       0.450178035      -62.7727178      0.450178035      -62.7727178      0.88922894       26.7541221       
1604.39          0.891241849      26.5017609       0.446240481      -63.0258884      0.446240481      -63.0258884      0.891241849      26.5017609       
1619.1           0.893212787      26.2524816       0.442342518      -63.2759276      0.442342518      -63.2759276      0.893212787      26.2524816       
1633.81          0.895142795      26.0062282       0.438483653      -63.5228921      0.438483653      -63.5228921      0.895142795      26.0062282       
1648.52          0.897032883      25.7629457       0.434663393      -63.7668371      0.434663393      -63.7668371      0.897032883      25.7629457       
1663.23          0.898884036      25.5225805       0.430881248      -64.0078167      0.430881248      -64.0078167      0.898884036      25.5225805       
1677.94          0.900697208      25.2850797       0.42713673       -64.2458841      0.42713673       -64.2458841      0.900697208      25.2850797       
1692.65          0.902473328      25.0503918       0.423429355      -64.481091       0.423429355      -64.481091       0.902473328      25.0503918       
1707.36          0.904213301      24.8184663       0.419758641      -64.7134883      0.419758641      -64.7134883      0.904213301      24.8184663       
1722.07          0.905918003      24.5892537       0.416124109      -64.9431258      0.416124109      -64.9431258      0.905918003      24.5892537       
1736.78          0.907588289      24.3627055       0.412525285      -65.1700521      0.412525285      -65.1700521      0.907588289      24.3627055       
1751.49          0.909224989      24.1387744       0.408961698      -65.3943149      0.408961698      -65.3943149      0.909224989      24.1387744       
1766.2           0.91082891       23.9174138       0.405432881      -65.6159608      0.405432881      -65.6159608      0.91082891       23.9174138       
1780.91          0.912400835      23.6985782       0.401938371      -65.8350356      0.401938371      -65.8350356      0.912400835      23.6985782       
1795.62          0.91394153       23.4822232       0.398477709      -66.051584       0.398477709      -66.051584       0.91394153       23.4822232       
1810.33          0.915451734      23.268305        0.395050442      -66.2656496      0.395050442      -66.2656496      0.915451734      23.268305        
1825.04          0.916932171      23.0567809       0.39165612       -66.4772755      0.39165612       -66.4772755      0.916932171      23.0567809       
1839.75          0.918383542      22.8476091       0.388294299      -66.6865035      0.388294299      -66.6865035      0.918383542      22.8476091       
1854.46          0.919806529      22.6407487       0.384964537      -66.8933746      0.384964537      -66.8933746      0.919806529      22.6407487       
1869.17          0.921201797      22.4361594       0.381666401      -67.0979291      0.381666401      -67.0979291      0.921201797      22.4361594       
