! Coilcraft 1206CS-561 Chip Inductor				
! 29 July 2002			
# MHZ S MA R 50
!Freq             MagS11           AngS11           MagS21           AngS21           MagS12           AngS12           MagS22           AngS22
1                0.0393663871     58.6467514       0.980093887      -1.96567263      0.980093887      -1.96567263      0.0393663871     58.6467514       
3.24             0.112605186      71.2166962       0.969620792      -6.31233698      0.969620792      -6.31233698      0.112605186      71.2166962       
5.48             0.185324992      70.9257144       0.955625055      -10.5610453      0.955625055      -10.5610453      0.185324992      70.9257144       
7.72             0.255099934      68.6428891       0.937694793      -14.676905       0.937694793      -14.676905       0.255099934      68.6428891       
9.96             0.320971281      65.7710226       0.916285666      -18.6290281      0.916285666      -18.6290281      0.320971281      65.7710226       
12.2             0.382354775      62.7281681       0.892073763      -22.3937709      0.892073763      -22.3937709      0.382354775      62.7281681       
14.44            0.438939662      59.6878392       0.865790271      -25.955394       0.865790271      -25.955394       0.438939662      59.6878392       
16.68            0.490639341      56.7344073       0.838137933      -29.305618       0.838137933      -29.305618       0.490639341      56.7344073       
18.92            0.537542314      53.9111941       0.809744107      -32.4425851      0.809744107      -32.4425851      0.537542314      53.9111941       
21.16            0.579863279      51.2395677       0.781138067      -35.3695644      0.781138067      -35.3695644      0.579863279      51.2395677       
23.4             0.617898854      48.7280682       0.752745212      -38.0936331      0.752745212      -38.0936331      0.617898854      48.7280682       
25.64            0.651990957      46.3774176       0.724892184      -40.6244796      0.724892184      -40.6244796      0.651990957      46.3774176       
27.88            0.682498812      44.1835444       0.697818085      -42.9734005      0.697818085      -42.9734005      0.682498812      44.1835444       
30.12            0.709779052      42.1395169       0.671688268      -45.1525097      0.671688268      -45.1525097      0.709779052      42.1395169       
32.36            0.734172645      40.2368151       0.646608365      -47.1741481      0.646608365      -47.1741481      0.734172645      40.2368151       
34.6             0.75599713       38.4661728       0.622637231      -49.050465       0.622637231      -49.050465       0.75599713       38.4661728       
36.84            0.775542713      36.8181313       0.599798156      -50.7931393      0.599798156      -50.7931393      0.775542713      36.8181313       
39.08            0.793071042      35.283395        0.578088161      -52.4132057      0.578088161      -52.4132057      0.793071042      35.283395        
41.32            0.808815707      33.8530508       0.557485473      -53.9209605      0.557485473      -53.9209605      0.808815707      33.8530508       
43.56            0.822983775      32.5186949       0.537955368      -55.3259227      0.537955368      -55.3259227      0.822983775      32.5186949       
45.8             0.8357579        31.2724959       0.519454657      -56.6368335      0.519454657      -56.6368335      0.8357579        31.2724959       
48.04            0.847298658      30.1072166       0.50193505       -57.8616802      0.50193505       -57.8616802      0.847298658      30.1072166       
50.28            0.857746915      29.0162082       0.485345642      -59.0077362      0.485345642      -59.0077362      0.857746915      29.0162082       
52.52            0.867226108      27.9933885       0.469634712      -60.0816082      0.469634712      -60.0816082      0.867226108      27.9933885       
54.76            0.875844353      27.0332094       0.454750992      -61.0892886      0.454750992      -61.0892886      0.875844353      27.0332094       
57               0.883696362      26.1306196       0.440644543      -62.0362073      0.440644543      -62.0362073      0.883696362      26.1306196       
59.24            0.890865161      25.2810257       0.427267329      -62.9272826      0.427267329      -62.9272826      0.890865161      25.2810257       
61.48            0.897423597      24.4802531       0.414573577      -63.7669701      0.414573577      -63.7669701      0.897423597      24.4802531       
63.72            0.903435668      23.7245085       0.402519972      -64.5593068      0.402519972      -64.5593068      0.903435668      23.7245085       
65.96            0.908957679      23.010344        0.391065745      -65.3079535      0.391065745      -65.3079535      0.908957679      23.010344        
68.2             0.914039246      22.3346247       0.380172676      -66.0162319      0.380172676      -66.0162319      0.914039246      22.3346247       
70.44            0.918724168      21.694498        0.369805039      -66.6871593      0.369805039      -66.6871593      0.918724168      21.694498        
72.68            0.923051173      21.0873661       0.359929516      -67.323479       0.359929516      -67.323479       0.923051173      21.0873661       
74.92            0.927054574      20.5108611       0.350515087      -67.9276886      0.350515087      -67.9276886      0.927054574      20.5108611       
77.16            0.930764829      19.9628219       0.341532902      -68.5020644      0.341532902      -68.5020644      0.930764829      19.9628219       
79.4             0.934209023      19.4412746       0.33295615       -69.0486839      0.33295615       -69.0486839      0.934209023      19.4412746       
81.64            0.93741129       18.9444134       0.324759929      -69.5694455      0.324759929      -69.5694455      0.93741129       18.9444134       
83.88            0.940393175      18.4705849       0.316921111      -70.0660862      0.316921111      -70.0660862      0.940393175      18.4705849       
86.12            0.943173949      18.018273        0.309418219      -70.5401976      0.309418219      -70.5401976      0.943173949      18.018273        
88.36            0.945770878      17.5860858       0.302231304      -70.9932399      0.302231304      -70.9932399      0.945770878      17.5860858       
90.6             0.948199466      17.1727438       0.295341832      -71.4265547      0.295341832      -71.4265547      0.948199466      17.1727438       
92.84            0.950473655      16.7770696       0.288732577      -71.8413761      0.288732577      -71.8413761      0.950473655      16.7770696       
95.08            0.952606007      16.3979779       0.28238752       -72.2388407      0.28238752       -72.2388407      0.952606007      16.3979779       
97.32            0.954607861      16.0344674       0.276291756      -72.6199971      0.276291756      -72.6199971      0.954607861      16.0344674       
99.56            0.956489467      15.6856133       0.27043141       -72.9858134      0.27043141       -72.9858134      0.956489467      15.6856133       
101.8            0.958260109      15.3505599       0.264793555      -73.3371848      0.264793555      -73.3371848      0.958260109      15.3505599       
104.04           0.959928209      15.028515        0.259366139      -73.6749403      0.259366139      -73.6749403      0.959928209      15.028515        
106.28           0.961501418      14.7187439       0.254137921      -73.999848       0.254137921      -73.999848       0.961501418      14.7187439       
108.52           0.962986701      14.4205649       0.249098404      -74.3126208      0.249098404      -74.3126208      0.962986701      14.4205649       
110.76           0.964390402      14.1333443       0.244237782      -74.6139212      0.244237782      -74.6139212      0.964390402      14.1333443       
113              0.965718315      13.8564928       0.239546885      -74.9043652      0.239546885      -74.9043652      0.965718315      13.8564928       
115.24           0.966975734      13.5894613       0.235017133      -75.1845265      0.235017133      -75.1845265      0.966975734      13.5894613       
117.48           0.968167506      13.3317381       0.230640492      -75.4549398      0.230640492      -75.4549398      0.968167506      13.3317381       
119.72           0.969298073      13.0828456       0.22640943       -75.7161042      0.22640943       -75.7161042      0.969298073      13.0828456       
121.96           0.970371513      12.8423374       0.222316884      -75.9684858      0.222316884      -75.9684858      0.970371513      12.8423374       
124.2            0.971391574      12.6097965       0.218356226      -76.2125204      0.218356226      -76.2125204      0.971391574      12.6097965       
126.44           0.972361704      12.3848321       0.214521227      -76.4486161      0.214521227      -76.4486161      0.972361704      12.3848321       
128.68           0.973285082      12.1670783       0.210806034      -76.6771551      0.210806034      -76.6771551      0.973285082      12.1670783       
130.92           0.974164638      11.9561919       0.207205139      -76.8984957      0.207205139      -76.8984957      0.974164638      11.9561919       
133.16           0.97500308       11.7518507       0.203713356      -77.1129745      0.203713356      -77.1129745      0.97500308       11.7518507       
135.4            0.975802911      11.553752        0.200325801      -77.3209075      0.200325801      -77.3209075      0.975802911      11.553752        
137.64           0.976566449      11.3616113       0.197037867      -77.5225918      0.197037867      -77.5225918      0.976566449      11.3616113       
139.88           0.977295841      11.1751606       0.193845209      -77.7183072      0.193845209      -77.7183072      0.977295841      11.1751606       
142.12           0.97799308       10.9941478       0.190743725      -77.9083171      0.190743725      -77.9083171      0.97799308       10.9941478       
144.36           0.978660016      10.8183349       0.187729536      -78.0928697      0.187729536      -78.0928697      0.978660016      10.8183349       
146.6            0.979298368      10.6474977       0.184798979      -78.2721994      0.184798979      -78.2721994      0.979298368      10.6474977       
148.84           0.979909737      10.4814243       0.181948585      -78.4465272      0.181948585      -78.4465272      0.979909737      10.4814243       
151.08           0.980495614      10.3199146       0.179175073      -78.6160622      0.179175073      -78.6160622      0.980495614      10.3199146       
153.32           0.981057389      10.1627793       0.176475332      -78.7810018      0.176475332      -78.7810018      0.981057389      10.1627793       
155.56           0.981596358      10.0098396       0.173846415      -78.9415331      0.173846415      -78.9415331      0.981596358      10.0098396       
157.8            0.982113732      9.86092576       0.171285525      -79.0978329      0.171285525      -79.0978329      0.982113732      9.86092576       
160.04           0.982610645      9.71587724       0.16879001       -79.2500691      0.16879001       -79.2500691      0.982610645      9.71587724       
162.28           0.983088155      9.57454174       0.166357349      -79.3984006      0.166357349      -79.3984006      0.983088155      9.57454174       
164.52           0.983547254      9.43677476       0.163985148      -79.5429782      0.163985148      -79.5429782      0.983547254      9.43677476       
166.76           0.983988873      9.30243915       0.161671131      -79.6839453      0.161671131      -79.6839453      0.983988873      9.30243915       
169              0.984413882      9.17140458       0.159413132      -79.8214378      0.159413132      -79.8214378      0.984413882      9.17140458       
171.24           0.984823101      9.0435472        0.15720909       -79.9555851      0.15720909       -79.9555851      0.984823101      9.0435472        
173.48           0.985217299      8.91874921       0.155057042      -80.0865102      0.155057042      -80.0865102      0.985217299      8.91874921       
175.72           0.985597198      8.79689848       0.152955117      -80.2143301      0.152955117      -80.2143301      0.985597198      8.79689848       
177.96           0.985963478      8.67788826       0.150901533      -80.3391564      0.150901533      -80.3391564      0.985963478      8.67788826       
180.2            0.986316779      8.56161685       0.148894589      -80.4610951      0.148894589      -80.4610951      0.986316779      8.56161685       
182.44           0.986657704      8.44798728       0.146932661      -80.5802476      0.146932661      -80.5802476      0.986657704      8.44798728       
184.68           0.986986822      8.33690709       0.145014201      -80.6967104      0.145014201      -80.6967104      0.986986822      8.33690709       
186.92           0.98730467       8.22828802       0.143137727      -80.8105756      0.143137727      -80.8105756      0.98730467       8.22828802       
189.16           0.987611752      8.12204581       0.141301825      -80.9219312      0.141301825      -80.9219312      0.987611752      8.12204581       
191.4            0.987908548      8.01809998       0.139505142      -81.0308613      0.139505142      -81.0308613      0.987908548      8.01809998       
193.64           0.98819551       7.91637361       0.137746384      -81.1374461      0.137746384      -81.1374461      0.98819551       7.91637361       
195.88           0.988473064      7.81679314       0.136024312      -81.2417624      0.136024312      -81.2417624      0.988473064      7.81679314       
198.12           0.988741615      7.71928821       0.134337742      -81.3438838      0.134337742      -81.3438838      0.988741615      7.71928821       
200.36           0.989001547      7.62379146       0.132685537      -81.4438805      0.132685537      -81.4438805      0.989001547      7.62379146       
202.6            0.989253222      7.53023842       0.131066608      -81.5418198      0.131066608      -81.5418198      0.989253222      7.53023842       
204.84           0.989496984      7.43856732       0.129479912      -81.6377662      0.129479912      -81.6377662      0.989496984      7.43856732       
207.08           0.989733159      7.34871894       0.127924449      -81.7317815      0.127924449      -81.7317815      0.989733159      7.34871894       
209.32           0.989962057      7.26063652       0.126399258      -81.8239249      0.126399258      -81.8239249      0.989962057      7.26063652       
211.56           0.990183972      7.17426563       0.124903418      -81.9142534      0.124903418      -81.9142534      0.990183972      7.17426563       
213.8            0.990399183      7.089554         0.123436043      -82.0028213      0.123436043      -82.0028213      0.990399183      7.089554         
216.04           0.990607955      7.0064515        0.121996283      -82.0896811      0.121996283      -82.0896811      0.990607955      7.0064515        
218.28           0.990810541      6.92490994       0.120583322      -82.174883       0.120583322      -82.174883       0.990810541      6.92490994       
220.52           0.991007181      6.84488305       0.119196374      -82.2584753      0.119196374      -82.2584753      0.991007181      6.84488305       
222.76           0.991198104      6.76632636       0.117834683      -82.3405043      0.117834683      -82.3405043      0.991198104      6.76632636       
225              0.991383527      6.68919711       0.116497524      -82.4210147      0.116497524      -82.4210147      0.991383527      6.68919711       
227.24           0.991563658      6.61345416       0.115184197      -82.5000495      0.115184197      -82.5000495      0.991563658      6.61345416       
229.48           0.991738694      6.53905794       0.113894029      -82.5776497      0.113894029      -82.5776497      0.991738694      6.53905794       
231.72           0.991908824      6.46597036       0.112626371      -82.6538553      0.112626371      -82.6538553      0.991908824      6.46597036       
233.96           0.992074227      6.39415474       0.1113806        -82.7287043      0.1113806        -82.7287043      0.992074227      6.39415474       
236.2            0.992235076      6.32357576       0.110156113      -82.8022336      0.110156113      -82.8022336      0.992235076      6.32357576       
238.44           0.992391535      6.25419938       0.10895233       -82.8744788      0.10895233       -82.8744788      0.992391535      6.25419938       
240.68           0.992543759      6.18599279       0.107768692      -82.9454739      0.107768692      -82.9454739      0.992543759      6.18599279       
242.92           0.992691899      6.11892437       0.10660466       -83.0152519      0.10660466       -83.0152519      0.992691899      6.11892437       
245.16           0.992836098      6.05296361       0.105459712      -83.0838446      0.105459712      -83.0838446      0.992836098      6.05296361       
247.4            0.992976493      5.98808108       0.104333346      -83.1512827      0.104333346      -83.1512827      0.992976493      5.98808108       
249.64           0.993113214      5.92424838       0.103225078      -83.2175956      0.103225078      -83.2175956      0.993113214      5.92424838       
251.88           0.993246387      5.86143809       0.102134438      -83.2828119      0.102134438      -83.2828119      0.993246387      5.86143809       
254.12           0.993376131      5.79962373       0.101060974      -83.3469592      0.101060974      -83.3469592      0.993376131      5.79962373       
256.36           0.993502563      5.73877974       0.100004249      -83.4100641      0.100004249      -83.4100641      0.993502563      5.73877974       
258.6            0.993625791      5.67888139       0.0989638398     -83.4721522      0.0989638398     -83.4721522      0.993625791      5.67888139       
260.84           0.993745923      5.61990481       0.0979393379     -83.5332484      0.0979393379     -83.5332484      0.993745923      5.61990481       
263.08           0.993863058      5.56182692       0.096930348      -83.5933767      0.096930348      -83.5933767      0.993863058      5.56182692       
265.32           0.993977294      5.50462537       0.0959364877     -83.6525602      0.0959364877     -83.6525602      0.993977294      5.50462537       
267.56           0.994088724      5.44827859       0.0949573872     -83.7108213      0.0949573872     -83.7108213      0.994088724      5.44827859       
269.8            0.994197438      5.39276566       0.0939926882     -83.7681818      0.0939926882     -83.7681818      0.994197438      5.39276566       
272.04           0.994303521      5.33806638       0.0930420443     -83.8246625      0.0930420443     -83.8246625      0.994303521      5.33806638       
274.28           0.994407057      5.28416115       0.0921051196     -83.8802839      0.0921051196     -83.8802839      0.994407057      5.28416115       
276.52           0.994508124      5.23103104       0.091181589      -83.9350655      0.091181589      -83.9350655      0.994508124      5.23103104       
278.76           0.994606798      5.17865767       0.0902711375     -83.9890263      0.0902711375     -83.9890263      0.994606798      5.17865767       
281              0.994703153      5.12702326       0.0893734598     -84.0421848      0.0893734598     -84.0421848      0.994703153      5.12702326       
283.24           0.99479726       5.07611057       0.0884882601     -84.0945588      0.0884882601     -84.0945588      0.99479726       5.07611057       
285.48           0.994889186      5.0259029        0.0876152515     -84.1461655      0.0876152515     -84.1461655      0.994889186      5.0259029        
