! Coilcraft 1206CS-030 Chip Inductor				
! 29 July 2002			
# MHZ S MA R 50
!Freq             MagS11           AngS11           MagS21           AngS21           MagS12           AngS12           MagS22           AngS22
1                0.00106403251    11.5576595       0.998957565      -0.0122272408    0.998957565      -0.0122272408    0.00106403251    11.5576595       
32.92            0.00713375789    79.5222427       0.998727334      -0.402434282     0.998727334      -0.402434282     0.00713375789    79.5222427       
64.84            0.0138976178     83.6398626       0.998555986      -0.792543638     0.998555986      -0.792543638     0.0138976178     83.6398626       
96.76            0.0206873051     84.8659209       0.998361401      -1.18256145      0.998361401      -1.18256145      0.0206873051     84.8659209       
128.68           0.0274819298     85.317947        0.998132636      -1.57247758      0.998132636      -1.57247758      0.0274819298     85.317947        
160.6            0.0342764952     85.4489841       0.997865434      -1.96227787      0.997865434      -1.96227787      0.0342764952     85.4489841       
192.52           0.0410688589     85.4153518       0.997557633      -2.3519464       0.997557633      -2.3519464       0.0410688589     85.4153518       
224.44           0.0478577246     85.2856931       0.997207983      -2.74146624      0.997207983      -2.74146624      0.0478577246     85.2856931       
256.36           0.0546421218     85.0950021       0.9968157        -3.13081993      0.9968157        -3.13081993      0.0546421218     85.0950021       
288.28           0.0614212272     84.8630443       0.996380277      -3.5199896       0.996380277      -3.5199896       0.0614212272     84.8630443       
320.2            0.0681942927     84.601855        0.99590138       -3.90895717      0.99590138       -3.90895717      0.0681942927     84.601855        
352.12           0.0749606128     84.3191971       0.995378792      -4.29770437      0.995378792      -4.29770437      0.0749606128     84.3191971       
384.04           0.0817195078     84.020312        0.994812381      -4.68621287      0.994812381      -4.68621287      0.0817195078     84.020312        
415.96           0.0884703152     83.7088729       0.994202079      -5.07446425      0.994202079      -5.07446425      0.0884703152     83.7088729       
447.88           0.0952123848     83.3875346       0.993547867      -5.4624401       0.993547867      -5.4624401       0.0952123848     83.3875346       
479.8            0.101945076      83.0582671       0.992849764      -5.85012199      0.992849764      -5.85012199      0.101945076      83.0582671       
511.72           0.108667755      82.7225653       0.992107823      -6.23749153      0.992107823      -6.23749153      0.108667755      82.7225653       
543.64           0.115379797      82.381586        0.991322126      -6.62453035      0.991322126      -6.62453035      0.115379797      82.381586        
575.56           0.122080581      82.0362402       0.990492777      -7.01122017      0.990492777      -7.01122017      0.122080581      82.0362402       
607.48           0.128769494      81.6872561       0.989619902      -7.39754276      0.989619902      -7.39754276      0.128769494      81.6872561       
639.4            0.135445928      81.3352238       0.988703648      -7.78347999      0.988703648      -7.78347999      0.135445928      81.3352238       
671.32           0.142109282      80.9806278       0.987744176      -8.1690138       0.987744176      -8.1690138       0.142109282      80.9806278       
703.24           0.148758959      80.6238702       0.986741667      -8.55412625      0.986741667      -8.55412625      0.148758959      80.6238702       
735.16           0.15539437       80.2652881       0.985696314      -8.93879952      0.985696314      -8.93879952      0.15539437       80.2652881       
767.08           0.162014931      79.905167        0.984608323      -9.3230159       0.984608323      -9.3230159       0.162014931      79.905167        
799              0.168620065      79.5437508       0.983477918      -9.70675781      0.983477918      -9.70675781      0.168620065      79.5437508       
830.92           0.175209201      79.1812493       0.982305329      -10.0900078      0.982305329      -10.0900078      0.175209201      79.1812493       
862.84           0.181781776      78.817845        0.981090803      -10.4727486      0.981090803      -10.4727486      0.181781776      78.817845        
894.76           0.188337233      78.453697        0.979834595      -10.854963       0.979834595      -10.854963       0.188337233      78.453697        
926.68           0.194875021      78.0889455       0.978536971      -11.2366341      0.978536971      -11.2366341      0.194875021      78.0889455       
958.6            0.201394598      77.7237146       0.977198209      -11.6177451      0.977198209      -11.6177451      0.201394598      77.7237146       
990.52           0.207895428      77.3581149       0.975818596      -11.9982791      0.975818596      -11.9982791      0.207895428      77.3581149       
1022.44          0.214376985      76.9922454       0.974398426      -12.3782199      0.974398426      -12.3782199      0.214376985      76.9922454       
1054.36          0.220838747      76.6261952       0.972938006      -12.757551       0.972938006      -12.757551       0.220838747      76.6261952       
1086.28          0.227280203      76.260045        0.971437649      -13.1362564      0.971437649      -13.1362564      0.227280203      76.260045        
1118.2           0.233700849      75.8938682       0.969897676      -13.51432        0.969897676      -13.51432        0.233700849      75.8938682       
1150.12          0.24010019       75.5277317       0.968318419      -13.8917263      0.968318419      -13.8917263      0.24010019       75.5277317       
1182.04          0.246477736      75.1616971       0.966700215      -14.2684595      0.966700215      -14.2684595      0.246477736      75.1616971       
1213.96          0.25283301       74.7958208       0.965043408      -14.6445044      0.965043408      -14.6445044      0.25283301       74.7958208       
1245.88          0.259165541      74.4301552       0.963348352      -15.0198457      0.963348352      -15.0198457      0.259165541      74.4301552       
1277.8           0.265474868      74.0647485       0.961615405      -15.3944687      0.961615405      -15.3944687      0.265474868      74.0647485       
1309.72          0.271760537      73.699646        0.959844933      -15.7683585      0.959844933      -15.7683585      0.271760537      73.699646        
1341.64          0.278022104      73.3348897       0.958037308      -16.1415006      0.958037308      -16.1415006      0.278022104      73.3348897       
1373.56          0.284259135      72.9705188       0.956192908      -16.5138808      0.956192908      -16.5138808      0.284259135      72.9705188       
1405.48          0.290471203      72.6065704       0.954312116      -16.8854849      0.954312116      -16.8854849      0.290471203      72.6065704       
1437.4           0.296657892      72.243079        0.952395322      -17.2562991      0.952395322      -17.2562991      0.296657892      72.243079        
1469.32          0.302818794      71.8800775       0.950442919      -17.6263098      0.950442919      -17.6263098      0.302818794      71.8800775       
1501.24          0.308953512      71.5175967       0.948455308      -17.9955035      0.948455308      -17.9955035      0.308953512      71.5175967       
1533.16          0.315061656      71.1556658       0.946432891      -18.3638672      0.946432891      -18.3638672      0.315061656      71.1556658       
1565.08          0.321142847      70.7943125       0.944376078      -18.7313878      0.944376078      -18.7313878      0.321142847      70.7943125       
1597             0.327196715      70.4335633       0.942285281      -19.0980526      0.942285281      -19.0980526      0.327196715      70.4335633       
1628.92          0.3332229        70.0734432       0.940160916      -19.4638493      0.940160916      -19.4638493      0.3332229        70.0734432       
1660.84          0.339221051      69.7139759       0.938003404      -19.8287654      0.938003404      -19.8287654      0.339221051      69.7139759       
1692.76          0.345190827      69.3551843       0.935813168      -20.1927891      0.935813168      -20.1927891      0.345190827      69.3551843       
1724.68          0.351131895      68.99709         0.933590636      -20.5559086      0.933590636      -20.5559086      0.351131895      68.99709         
1756.6           0.357043935      68.6397139       0.931336236      -20.9181124      0.931336236      -20.9181124      0.357043935      68.6397139       
1788.52          0.362926633      68.2830758       0.929050403      -21.2793891      0.929050403      -21.2793891      0.362926633      68.2830758       
1820.44          0.368779687      67.9271947       0.92673357       -21.6397277      0.92673357       -21.6397277      0.368779687      67.9271947       
1852.36          0.374602803      67.5720889       0.924386175      -21.9991175      0.924386175      -21.9991175      0.374602803      67.5720889       
1884.28          0.380395697      67.2177758       0.922008659      -22.3575478      0.922008659      -22.3575478      0.380395697      67.2177758       
1916.2           0.386158095      66.8642722       0.919601461      -22.7150084      0.919601461      -22.7150084      0.386158095      66.8642722       
1948.12          0.391889733      66.5115942       0.917165026      -23.0714892      0.917165026      -23.0714892      0.391889733      66.5115942       
1980.04          0.397590355      66.1597572       0.914699798      -23.4269803      0.914699798      -23.4269803      0.397590355      66.1597572       
2011.96          0.403259715      65.8087762       0.912206222      -23.7814722      0.912206222      -23.7814722      0.403259715      65.8087762       
2043.88          0.408897578      65.4586653       0.909684745      -24.1349554      0.909684745      -24.1349554      0.408897578      65.4586653       
2075.8           0.414503715      65.1094384       0.907135814      -24.4874209      0.907135814      -24.4874209      0.414503715      65.1094384       
2107.72          0.420077909      64.7611085       0.904559879      -24.8388599      0.904559879      -24.8388599      0.420077909      64.7611085       
2139.64          0.425619952      64.4136884       0.901957386      -25.1892636      0.901957386      -25.1892636      0.425619952      64.4136884       
2171.56          0.431129644      64.0671902       0.899328786      -25.5386237      0.899328786      -25.5386237      0.431129644      64.0671902       
2203.48          0.436606795      63.7216257       0.896674526      -25.886932       0.896674526      -25.886932       0.436606795      63.7216257       
2235.4           0.442051224      63.3770061       0.893995055      -26.2341806      0.893995055      -26.2341806      0.442051224      63.3770061       
2267.32          0.447462759      63.0333422       0.891290822      -26.5803618      0.891290822      -26.5803618      0.447462759      63.0333422       
2299.24          0.452841235      62.6906445       0.888562275      -26.9254681      0.888562275      -26.9254681      0.452841235      62.6906445       
2331.16          0.458186499      62.3489228       0.88580986       -27.2694924      0.88580986       -27.2694924      0.458186499      62.3489228       
2363.08          0.463498405      62.0081869       0.883034024      -27.6124276      0.883034024      -27.6124276      0.463498405      62.0081869       
2395             0.468776815      61.6684458       0.880235212      -27.954267       0.880235212      -27.954267       0.468776815      61.6684458       
2426.92          0.474021601      61.3297084       0.877413868      -28.295004       0.877413868      -28.295004       0.474021601      61.3297084       
2458.84          0.479232642      60.9919832       0.874570435      -28.6346324      0.874570435      -28.6346324      0.479232642      60.9919832       
2490.76          0.484409827      60.6552783       0.871705355      -28.9731459      0.871705355      -28.9731459      0.484409827      60.6552783       
2522.68          0.48955305       60.3196014       0.868819067      -29.3105389      0.868819067      -29.3105389      0.48955305       60.3196014       
2554.6           0.494662217      59.98496         0.865912009      -29.6468055      0.865912009      -29.6468055      0.494662217      59.98496         
2586.52          0.49973724       59.6513612       0.862984617      -29.9819405      0.862984617      -29.9819405      0.49973724       59.6513612       
2618.44          0.504778039      59.3188117       0.860037325      -30.3159385      0.860037325      -30.3159385      0.504778039      59.3188117       
2650.36          0.509784542      58.987318        0.857070565      -30.6487945      0.857070565      -30.6487945      0.509784542      58.987318        
2682.28          0.514756684      58.6568863       0.854084767      -30.9805039      0.854084767      -30.9805039      0.514756684      58.6568863       
2714.2           0.519694409      58.3275225       0.851080358      -31.3110619      0.851080358      -31.3110619      0.519694409      58.3275225       
2746.12          0.524597667      57.9992322       0.848057763      -31.6404643      0.848057763      -31.6404643      0.524597667      57.9992322       
2778.04          0.529466415      57.6720205       0.845017403      -31.9687067      0.845017403      -31.9687067      0.529466415      57.6720205       
2809.96          0.534300619      57.3458927       0.841959698      -32.2957853      0.841959698      -32.2957853      0.534300619      57.3458927       
2841.88          0.539100251      57.0208535       0.838885065      -32.6216963      0.838885065      -32.6216963      0.539100251      57.0208535       
2873.8           0.543865289      56.6969072       0.835793917      -32.9464361      0.835793917      -32.9464361      0.543865289      56.6969072       
2905.72          0.548595719      56.3740583       0.832686665      -33.2700012      0.832686665      -33.2700012      0.548595719      56.3740583       
2937.64          0.553291534      56.0523106       0.829563716      -33.5923886      0.829563716      -33.5923886      0.553291534      56.0523106       
2969.56          0.557952732      55.731668        0.826425474      -33.9135951      0.826425474      -33.9135951      0.557952732      55.731668        
3001.48          0.562579319      55.4121338       0.823272341      -34.233618       0.823272341      -34.233618       0.562579319      55.4121338       
3033.4           0.567171306      55.0937115       0.820104714      -34.5524545      0.820104714      -34.5524545      0.567171306      55.0937115       
3065.32          0.57172871       54.776404        0.816922986      -34.8701023      0.816922986      -34.8701023      0.57172871       54.776404        
3097.24          0.576251556      54.4602142       0.813727549      -35.1865589      0.813727549      -35.1865589      0.576251556      54.4602142       
3129.16          0.580739874      54.1451446       0.81051879       -35.5018224      0.81051879       -35.5018224      0.580739874      54.1451446       
3161.08          0.585193698      53.8311976       0.807297092      -35.8158907      0.807297092      -35.8158907      0.585193698      53.8311976       
3193             0.589613069      53.5183754       0.804062834      -36.128762       0.804062834      -36.128762       0.589613069      53.5183754       
3224.92          0.593998034      53.20668         0.800816393      -36.4404347      0.800816393      -36.4404347      0.593998034      53.20668         
3256.84          0.598348645      52.8961131       0.797558141      -36.7509074      0.797558141      -36.7509074      0.598348645      52.8961131       
3288.76          0.602664958      52.5866763       0.794288446      -37.0601787      0.794288446      -37.0601787      0.602664958      52.5866763       
3320.68          0.606947037      52.278371        0.791007672      -37.3682475      0.791007672      -37.3682475      0.606947037      52.278371        
3352.6           0.611194948      51.9711983       0.787716179      -37.6751127      0.787716179      -37.6751127      0.611194948      51.9711983       
3384.52          0.615408762      51.6651593       0.784414325      -37.9807735      0.784414325      -37.9807735      0.615408762      51.6651593       
3416.44          0.619588558      51.3602548       0.781102461      -38.2852292      0.781102461      -38.2852292      0.619588558      51.3602548       
3448.36          0.623734415      51.0564855       0.777780936      -38.5884793      0.777780936      -38.5884793      0.623734415      51.0564855       
3480.28          0.62784642       50.7538517       0.774450094      -38.8905232      0.774450094      -38.8905232      0.62784642       50.7538517       
3512.2           0.631924664      50.4523539       0.771110275      -39.1913607      0.771110275      -39.1913607      0.631924664      50.4523539       
3544.12          0.635969239      50.1519922       0.767761815      -39.4909916      0.767761815      -39.4909916      0.635969239      50.1519922       
3576.04          0.639980246      49.8527666       0.764405045      -39.7894159      0.764405045      -39.7894159      0.639980246      49.8527666       
3607.96          0.643957785      49.5546768       0.761040295      -40.0866337      0.761040295      -40.0866337      0.643957785      49.5546768       
3639.88          0.647901965      49.2577227       0.757667886      -40.3826451      0.757667886      -40.3826451      0.647901965      49.2577227       
3671.8           0.651812894      48.9619037       0.754288139      -40.6774506      0.754288139      -40.6774506      0.651812894      48.9619037       
3703.72          0.655690686      48.6672192       0.750901367      -40.9710506      0.750901367      -40.9710506      0.655690686      48.6672192       
3735.64          0.659535458      48.3736685       0.747507883      -41.2634455      0.747507883      -41.2634455      0.659535458      48.3736685       
3767.56          0.663347332      48.0812507       0.744107993      -41.5546362      0.744107993      -41.5546362      0.663347332      48.0812507       
3799.48          0.667126431      47.7899648       0.740701998      -41.8446234      0.740701998      -41.8446234      0.667126431      47.7899648       
3831.4           0.670872881      47.4998095       0.737290198      -42.1334079      0.737290198      -42.1334079      0.670872881      47.4998095       
3863.32          0.674586814      47.2107837       0.733872885      -42.4209909      0.733872885      -42.4209909      0.674586814      47.2107837       
3895.24          0.678268361      46.9228859       0.730450351      -42.7073733      0.730450351      -42.7073733      0.678268361      46.9228859       
3927.16          0.68191766       46.6361146       0.727022879      -42.9925563      0.727022879      -42.9925563      0.68191766       46.6361146       
3959.08          0.685534848      46.3504682       0.723590752      -43.2765413      0.723590752      -43.2765413      0.685534848      46.3504682       
3991             0.689120067      46.0659449       0.720154246      -43.5593295      0.720154246      -43.5593295      0.689120067      46.0659449       
4022.92          0.69267346       45.7825428       0.716713635      -43.8409226      0.716713635      -43.8409226      0.69267346       45.7825428       
4054.84          0.696195175      45.50026         0.713269187      -44.1213219      0.713269187      -44.1213219      0.696195175      45.50026         
