! Coilcraft 1206CS-101 Chip Inductor				
! 29 July 2002			
# MHZ S MA R 50
!Freq             MagS11           AngS11           MagS21           AngS21           MagS12           AngS12           MagS22           AngS22
1                0.00720072443    60.0367774       0.99642317       -0.358714805     0.99642317       -0.358714805     0.00720072443    60.0367774       
5.74             0.0362906609     78.8699629       0.993632818      -2.05370663      0.993632818      -2.05370663      0.0362906609     78.8699629       
10.48            0.0656242502     80.1197212       0.990850952      -3.74108679      0.990850952      -3.74108679      0.0656242502     80.1197212       
15.22            0.0947833765     79.7241725       0.987505759      -5.41926666      0.987505759      -5.41926666      0.0947833765     79.7241725       
19.96            0.123678289      78.8024518       0.983494564      -7.08605733      0.983494564      -7.08605733      0.123678289      78.8024518       
24.7             0.1522394        77.646116        0.978792037      -8.73916805      0.978792037      -8.73916805      0.1522394        77.646116        
29.44            0.180403989      76.3684458       0.973401935      -10.3763364      0.973401935      -10.3763364      0.180403989      76.3684458       
34.18            0.208114497      75.0240922       0.967343123      -11.9953892      0.967343123      -11.9953892      0.208114497      75.0240922       
38.92            0.235318476      73.6434037       0.960643805      -13.5942781      0.960643805      -13.5942781      0.235318476      73.6434037       
43.66            0.261968809      72.2450054       0.953338494      -15.1711042      0.953338494      -15.1711042      0.261968809      72.2450054       
48.4             0.288023928      70.8412081       0.945466109      -16.7241332      0.945466109      -16.7241332      0.288023928      70.8412081       
53.14            0.313447931      69.4406167       0.937068607      -18.2518065      0.937068607      -18.2518065      0.313447931      69.4406167       
57.88            0.338210614      68.0495006       0.928189906      -19.7527465      0.928189906      -19.7527465      0.338210614      68.0495006       
62.62            0.362287387      66.6725674       0.918875         -21.2257588      0.918875         -21.2257588      0.362287387      66.6725674       
67.36            0.385659106      65.3134242       0.909169211      -22.6698307      0.909169211      -22.6698307      0.385659106      65.3134242       
72.1             0.408311833      63.9748677       0.899117557      -24.084127       0.899117557      -24.084127       0.408311833      63.9748677       
76.84            0.430236528      62.6590752       0.888764216      -25.467984       0.888764216      -25.467984       0.430236528      62.6590752       
81.58            0.451428692      61.3677357       0.878152079      -26.820901       0.878152079      -26.820901       0.451428692      61.3677357       
86.32            0.47188799       60.102144        0.867322394      -28.1425308      0.867322394      -28.1425308      0.47188799       60.102144        
91.06            0.491617839      58.8632699       0.85631448       -29.4326689      0.85631448       -29.4326689      0.491617839      58.8632699       
95.8             0.510624998      57.6518121       0.845165513      -30.6912428      0.845165513      -30.6912428      0.510624998      57.6518121       
100.54           0.528919161      56.4682411       0.833910378      -31.9182996      0.833910378      -31.9182996      0.528919161      56.4682411       
105.28           0.546512553      55.312833        0.822581575      -33.1139947      0.822581575      -33.1139947      0.546512553      55.312833        
110.02           0.563419551      54.1856995       0.811209171      -34.2785802      0.811209171      -34.2785802      0.563419551      54.1856995       
114.76           0.579656322      53.0868116       0.799820801      -35.4123936      0.799820801      -35.4123936      0.579656322      53.0868116       
119.5            0.595240489      52.016021        0.788441696      -36.5158465      0.788441696      -36.5158465      0.595240489      52.016021        
124.24           0.610190822      50.9730785       0.777094744      -37.5894151      0.777094744      -37.5894151      0.610190822      50.9730785       
128.98           0.624526962      49.9576498       0.765800573      -38.6336299      0.765800573      -38.6336299      0.624526962      49.9576498       
133.72           0.638269168      48.9693293       0.754577649      -39.6490673      0.754577649      -39.6490673      0.638269168      48.9693293       
138.46           0.651438098      48.0076529       0.743442391      -40.6363408      0.743442391      -40.6363408      0.651438098      48.0076529       
143.2            0.664054616      47.0721086       0.732409288      -41.5960939      0.732409288      -41.5960939      0.664054616      47.0721086       
147.94           0.676139619      46.1621455       0.721491027      -42.5289934      0.721491027      -42.5289934      0.676139619      46.1621455       
152.68           0.687713898      45.277183        0.710698616      -43.4357229      0.710698616      -43.4357229      0.687713898      45.277183        
157.42           0.698798015      44.4166172       0.700041518      -44.3169777      0.700041518      -44.3169777      0.698798015      44.4166172       
162.16           0.709412198      43.5798281       0.689527771      -45.1734598      0.689527771      -45.1734598      0.709412198      43.5798281       
166.9            0.719576262      42.7661841       0.679164109      -46.0058739      0.679164109      -46.0058739      0.719576262      42.7661841       
171.64           0.729309539      41.9750477       0.668956079      -46.8149237      0.668956079      -46.8149237      0.729309539      41.9750477       
176.38           0.738630825      41.205779        0.658908155      -47.6013084      0.658908155      -47.6013084      0.738630825      41.205779        
181.12           0.747558342      40.4577395       0.649023838      -48.3657207      0.649023838      -48.3657207      0.747558342      40.4577395       
185.86           0.756109707      39.7302945       0.639305754      -49.1088436      0.639305754      -49.1088436      0.756109707      39.7302945       
190.6            0.76430191       39.0228166       0.629755749      -49.8313494      0.629755749      -49.8313494      0.76430191       39.0228166       
195.34           0.772151308      38.3346867       0.620374971      -50.5338974      0.620374971      -50.5338974      0.772151308      38.3346867       
200.08           0.779673614      37.6652965       0.611163949      -51.2171331      0.611163949      -51.2171331      0.779673614      37.6652965       
204.82           0.786883901      37.0140495       0.602122664      -51.8816868      0.602122664      -51.8816868      0.786883901      37.0140495       
209.56           0.793796607      36.3803622       0.593250618      -52.5281731      0.593250618      -52.5281731      0.793796607      36.3803622       
214.3            0.800425543      35.763665        0.584546888      -53.1571902      0.584546888      -53.1571902      0.800425543      35.763665        
219.04           0.806783908      35.1634029       0.576010186      -53.7693195      0.576010186      -53.7693195      0.806783908      35.1634029       
223.78           0.812884301      34.579036        0.567638908      -54.3651251      0.567638908      -54.3651251      0.812884301      34.579036        
228.52           0.818738743      34.0100396       0.559431173      -54.9451543      0.559431173      -54.9451543      0.818738743      34.0100396       
233.26           0.824358687      33.4559048       0.551384871      -55.5099369      0.551384871      -55.5099369      0.824358687      33.4559048       
238              0.829755045      32.916138        0.543497694      -56.0599856      0.543497694      -56.0599856      0.829755045      32.916138        
242.74           0.834938207      32.3902615       0.535767169      -56.5957961      0.535767169      -56.5957961      0.834938207      32.3902615       
247.48           0.839918057      31.8778131       0.528190689      -57.1178475      0.528190689      -57.1178475      0.839918057      31.8778131       
252.22           0.844703998      31.3783457       0.520765537      -57.6266021      0.520765537      -57.6266021      0.844703998      31.3783457       
256.96           0.849304971      30.8914276       0.513488908      -58.1225063      0.513488908      -58.1225063      0.849304971      30.8914276       
261.7            0.853729476      30.4166417       0.506357932      -58.6059907      0.506357932      -58.6059907      0.853729476      30.4166417       
266.44           0.857985591      29.9535857       0.49936969       -59.0774703      0.49936969       -59.0774703      0.857985591      29.9535857       
271.18           0.862080993      29.5018712       0.49252123       -59.5373453      0.49252123       -59.5373453      0.862080993      29.5018712       
275.92           0.866022976      29.0611239       0.485809582      -59.9860011      0.485809582      -59.9860011      0.866022976      29.0611239       
280.66           0.869818471      28.6309827       0.479231767      -60.4238093      0.479231767      -60.4238093      0.869818471      28.6309827       
285.4            0.873474061      28.2110997       0.472784813      -60.8511275      0.472784813      -60.8511275      0.873474061      28.2110997       
290.14           0.876996002      27.8011398       0.466465758      -61.2683         0.466465758      -61.2683         0.876996002      27.8011398       
294.88           0.880390237      27.4007799       0.460271664      -61.6756587      0.460271664      -61.6756587      0.880390237      27.4007799       
299.62           0.883662413      27.0097089       0.454199618      -62.0735227      0.454199618      -62.0735227      0.883662413      27.0097089       
304.36           0.886817895      26.6276273       0.448246741      -62.4621993      0.448246741      -62.4621993      0.886817895      26.6276273       
309.1            0.889861782      26.2542463       0.442410195      -62.8419844      0.442410195      -62.8419844      0.889861782      26.2542463       
313.84           0.89279892       25.8892881       0.436687181      -63.2131628      0.436687181      -63.2131628      0.89279892       25.8892881       
318.58           0.895633917      25.5324851       0.431074949      -63.5760086      0.431074949      -63.5760086      0.895633917      25.5324851       
323.32           0.89837115       25.1835794       0.425570796      -63.9307856      0.425570796      -63.9307856      0.89837115       25.1835794       
328.06           0.901014785      24.8423231       0.420172072      -64.2777477      0.420172072      -64.2777477      0.901014785      24.8423231       
332.8            0.903568781      24.508477        0.414876178      -64.6171396      0.414876178      -64.6171396      0.903568781      24.508477        
337.54           0.906036907      24.1818109       0.409680571      -64.9491965      0.409680571      -64.9491965      0.906036907      24.1818109       
342.28           0.908422746      23.8621032       0.404582762      -65.2741452      0.404582762      -65.2741452      0.908422746      23.8621032       
347.02           0.91072971       23.5491403       0.399580319      -65.5922037      0.399580319      -65.5922037      0.91072971       23.5491403       
351.76           0.912961045      23.2427166       0.394670866      -65.9035823      0.394670866      -65.9035823      0.912961045      23.2427166       
356.5            0.915119844      22.9426338       0.389852084      -66.2084833      0.389852084      -66.2084833      0.915119844      22.9426338       
361.24           0.917209049      22.648701        0.385121709      -66.5071018      0.385121709      -66.5071018      0.917209049      22.648701        
365.98           0.919231466      22.3607343       0.380477535      -66.7996254      0.380477535      -66.7996254      0.919231466      22.3607343       
370.72           0.921189767      22.0785563       0.37591741       -67.0862352      0.37591741       -67.0862352      0.921189767      22.0785563       
375.46           0.923086498      21.8019961       0.371439239      -67.3671055      0.371439239      -67.3671055      0.923086498      21.8019961       
380.2            0.924924086      21.5308889       0.36704098       -67.6424043      0.36704098       -67.6424043      0.924924086      21.5308889       
384.94           0.926704849      21.2650759       0.362720644      -67.9122937      0.362720644      -67.9122937      0.926704849      21.2650759       
389.68           0.928430993      21.0044039       0.358476298      -68.1769299      0.358476298      -68.1769299      0.928430993      21.0044039       
394.42           0.930104625      20.7487251       0.354306057      -68.4364634      0.354306057      -68.4364634      0.930104625      20.7487251       
399.16           0.931727757      20.497897        0.350208089      -68.6910394      0.350208089      -68.6910394      0.931727757      20.497897        
403.9            0.933302308      20.2517822       0.346180612      -68.9407982      0.346180612      -68.9407982      0.933302308      20.2517822       
408.64           0.934830112      20.0102478       0.342221892      -69.1858747      0.342221892      -69.1858747      0.934830112      20.0102478       
413.38           0.936312918      19.773166        0.338330244      -69.4263996      0.338330244      -69.4263996      0.936312918      19.773166        
418.12           0.9377524        19.5404129       0.334504026      -69.6624985      0.334504026      -69.6624985      0.9377524        19.5404129       
422.86           0.939150158      19.3118693       0.330741646      -69.8942932      0.330741646      -69.8942932      0.939150158      19.3118693       
427.6            0.940507718      19.0874199       0.327041554      -70.1219008      0.327041554      -70.1219008      0.940507718      19.0874199       
432.34           0.941826544      18.8669534       0.323402244      -70.3454346      0.323402244      -70.3454346      0.941826544      18.8669534       
437.08           0.943108033      18.6503622       0.31982225       -70.5650042      0.31982225       -70.5650042      0.943108033      18.6503622       
441.82           0.944353524      18.4375424       0.31630015       -70.7807152      0.31630015       -70.7807152      0.944353524      18.4375424       
446.56           0.945564295      18.2283936       0.312834559      -70.9926697      0.312834559      -70.9926697      0.945564295      18.2283936       
451.3            0.946741574      18.0228187       0.309424133      -71.2009664      0.309424133      -71.2009664      0.946741574      18.0228187       
456.04           0.947886534      17.8207238       0.306067566      -71.4057008      0.306067566      -71.4057008      0.947886534      17.8207238       
460.78           0.9490003        17.6220183       0.302763585      -71.6069652      0.302763585      -71.6069652      0.9490003        17.6220183       
465.52           0.950083948      17.4266143       0.299510956      -71.8048486      0.299510956      -71.8048486      0.950083948      17.4266143       
470.26           0.951138512      17.234427        0.296308478      -71.9994374      0.296308478      -71.9994374      0.951138512      17.234427        
475              0.952164982      17.0453741       0.293154986      -72.1908151      0.293154986      -72.1908151      0.952164982      17.0453741       
479.74           0.953164306      16.8593762       0.290049343      -72.3790624      0.290049343      -72.3790624      0.953164306      16.8593762       
484.48           0.954137395      16.6763564       0.286990447      -72.5642573      0.286990447      -72.5642573      0.954137395      16.6763564       
489.22           0.955085124      16.4962401       0.283977227      -72.7464757      0.283977227      -72.7464757      0.955085124      16.4962401       
493.96           0.95600833       16.3189552       0.281008639      -72.9257906      0.281008639      -72.9257906      0.95600833       16.3189552       
498.7            0.956907818      16.1444319       0.278083671      -73.102273       0.278083671      -73.102273       0.956907818      16.1444319       
503.44           0.957784362      15.9726024       0.275201336      -73.2759915      0.275201336      -73.2759915      0.957784362      15.9726024       
508.18           0.958638705      15.8034013       0.272360676      -73.4470126      0.272360676      -73.4470126      0.958638705      15.8034013       
512.92           0.959471558      15.636765        0.269560759      -73.6154008      0.269560759      -73.6154008      0.959471558      15.636765        
517.66           0.960283608      15.4726319       0.266800678      -73.7812185      0.266800678      -73.7812185      0.960283608      15.4726319       
522.4            0.961075515      15.3109423       0.264079552      -73.9445262      0.264079552      -73.9445262      0.961075515      15.3109423       
527.14           0.96184791       15.1516384       0.261396522      -74.1053826      0.261396522      -74.1053826      0.96184791       15.1516384       
531.88           0.962601405      14.994664        0.258750755      -74.2638444      0.258750755      -74.2638444      0.962601405      14.994664        
536.62           0.963336584      14.8399648       0.256141438      -74.419967       0.256141438      -74.419967       0.963336584      14.8399648       
541.36           0.964054013      14.6874878       0.253567781      -74.5738037      0.253567781      -74.5738037      0.964054013      14.6874878       
546.1            0.964754233      14.5371818       0.251029016      -74.7254063      0.251029016      -74.7254063      0.964754233      14.5371818       
550.84           0.965437768      14.3889971       0.248524393      -74.8748254      0.248524393      -74.8748254      0.965437768      14.3889971       
555.58           0.966105121      14.2428855       0.246053186      -75.0221096      0.246053186      -75.0221096      0.966105121      14.2428855       
560.32           0.966756776      14.0988          0.243614683      -75.1673063      0.243614683      -75.1673063      0.966756776      14.0988          
565.06           0.967393201      13.9566952       0.241208197      -75.3104617      0.241208197      -75.3104617      0.967393201      13.9566952       
569.8            0.968014845      13.8165269       0.238833054      -75.4516202      0.238833054      -75.4516202      0.968014845      13.8165269       
574.54           0.968622143      13.6782521       0.236488599      -75.5908254      0.236488599      -75.5908254      0.968622143      13.6782521       
579.28           0.969215512      13.5418292       0.234174197      -75.7281194      0.234174197      -75.7281194      0.969215512      13.5418292       
584.02           0.969795356      13.4072176       0.231889226      -75.8635429      0.231889226      -75.8635429      0.969795356      13.4072176       
588.76           0.970362064      13.274378        0.229633081      -75.9971359      0.229633081      -75.9971359      0.970362064      13.274378        
593.5            0.970916011      13.143272        0.227405173      -76.1289368      0.227405173      -76.1289368      0.970916011      13.143272        
598.24           0.971457558      13.0138625       0.22520493       -76.2589832      0.22520493       -76.2589832      0.971457558      13.0138625       
602.98           0.971987056      12.8861133       0.22303179       -76.3873116      0.22303179       -76.3873116      0.971987056      12.8861133       
