! Coilcraft 1206CS-391 Chip Inductor				
! 29 July 2002			
# MHZ S MA R 50
!Freq             MagS11           AngS11           MagS21           AngS21           MagS12           AngS12           MagS22           AngS22
1                0.0268926468     62.8049468       0.987999088      -1.38728746      0.987999088      -1.38728746      0.0268926468     62.8049468       
3.74             0.0912293913     74.7143607       0.979908648      -5.15246653      0.979908648      -5.15246653      0.0912293913     74.7143607       
6.48             0.155062427      74.1990982       0.96932904       -8.85440845      0.96932904       -8.85440845      0.155062427      74.1990982       
9.22             0.216922019      72.0370107       0.955644567      -12.46985        0.955644567      -12.46985        0.216922019      72.0370107       
11.96            0.276148257      69.385747        0.939046508      -15.9765628      0.939046508      -15.9765628      0.276148257      69.385747        
14.7             0.332270653      66.5794148       0.919925816      -19.3558897      0.919925816      -19.3558897      0.332270653      66.5794148       
17.44            0.384971623      63.7569629       0.898749065      -22.5935218      0.898749065      -22.5935218      0.384971623      63.7569629       
20.18            0.434072418      60.9880454       0.875999703      -25.6796154      0.875999703      -25.6796154      0.434072418      60.9880454       
22.92            0.479515383      58.3108456       0.852141998      -28.6085214      0.852141998      -28.6085214      0.479515383      58.3108456       
25.66            0.521342227      55.7466524       0.827598582      -31.3782784      0.827598582      -31.3782784      0.521342227      55.7466524       
28.4             0.55967094       53.3066213       0.802738079      -33.9899914      0.802738079      -33.9899914      0.55967094       53.3066213       
31.14            0.594673797      50.9954129       0.77787032       -36.4471829      0.77787032       -36.4471829      0.594673797      50.9954129       
33.88            0.626558032      48.8133896       0.753246963      -38.7551777      0.753246963      -38.7551777      0.626558032      48.8133896       
36.62            0.655549963      46.7580551       0.729065602      -40.9205586      0.729065602      -40.9205586      0.655549963      46.7580551       
39.36            0.681882663      44.8250446       0.705475822      -42.9507081      0.705475822      -42.9507081      0.681882663      44.8250446       
42.1             0.705786921      43.0088257       0.682586058      -44.8534401      0.682586058      -44.8534401      0.705786921      43.0088257       
44.84            0.727484992      41.3031982       0.660470479      -46.6367147      0.660470479      -46.6367147      0.727484992      41.3031982       
47.58            0.747186594      39.701649        0.639175417      -48.3084258      0.639175417      -48.3084258      0.747186594      39.701649        
50.32            0.765086629      38.1976016       0.61872509       -49.8762504      0.61872509       -49.8762504      0.765086629      38.1976016       
53.06            0.781364155      36.7845874       0.599126524      -51.3475454      0.599126524      -51.3475454      0.781364155      36.7845874       
55.8             0.796182253      35.4563599       0.58037367       -52.7292835      0.58037367       -52.7292835      0.796182253      35.4563599       
58.54            0.809688479      34.2069659       0.562450782      -54.0280176      0.562450782      -54.0280176      0.809688479      34.2069659       
61.28            0.822015685      33.0307875       0.545335127      -55.2498657      0.545335127      -55.2498657      0.822015685      33.0307875       
64.02            0.833283058      31.9225612       0.528999147      -56.4005118      0.528999147      -56.4005118      0.833283058      31.9225612       
66.76            0.843597247      30.8773828       0.513412134      -57.4852168      0.513412134      -57.4852168      0.843597247      30.8773828       
69.5             0.853053519      29.8907014       0.49854153       -58.5088361      0.49854153       -58.5088361      0.853053519      29.8907014       
72.24            0.861736876      28.9583068       0.484353913      -59.4758418      0.484353913      -59.4758418      0.861736876      28.9583068       
74.98            0.869723125      28.0763124       0.470815734      -60.3903467      0.470815734      -60.3903467      0.869723125      28.0763124       
77.72            0.877079859      27.2411363       0.457893859      -61.2561298      0.457893859      -61.2561298      0.877079859      27.2411363       
80.46            0.883867365      26.4494804       0.445555951      -62.0766611      0.445555951      -62.0766611      0.883867365      26.4494804       
83.2             0.890139436      25.6983102       0.43377075       -62.8551263      0.43377075       -62.8551263      0.890139436      25.6983102       
85.94            0.895944109      24.9848344       0.42250824       -63.5944502      0.42250824       -63.5944502      0.895944109      24.9848344       
88.68            0.901324318      24.3064857       0.411739765      -64.2973184      0.411739765      -64.2973184      0.901324318      24.3064857       
91.42            0.906318476      23.6609019       0.401438083      -64.966198       0.401438083      -64.966198       0.906318476      23.6609019       
94.16            0.910960991      23.0459094       0.391577384      -65.6033566      0.391577384      -65.6033566      0.910960991      23.0459094       
96.9             0.915282721      22.4595066       0.382133281      -66.21088        0.382133281      -66.21088        0.915282721      22.4595066       
99.64            0.919311379      21.8998495       0.373082777      -66.7906877      0.373082777      -66.7906877      0.919311379      21.8998495       
102.38           0.923071882      21.365238        0.364404222      -67.3445479      0.364404222      -67.3445479      0.923071882      21.365238        
105.12           0.926586671      20.8541034       0.356077261      -67.8740911      0.356077261      -67.8740911      0.926586671      20.8541034       
107.86           0.92987598       20.364997        0.34808277       -68.3808215      0.34808277       -68.3808215      0.92987598       20.364997        
110.6            0.932958082      19.8965802       0.340402795      -68.8661289      0.340402795      -68.8661289      0.932958082      19.8965802       
113.34           0.935849502      19.4476144       0.333020488      -69.3312979      0.333020488      -69.3312979      0.935849502      19.4476144       
116.08           0.938565203      19.0169527       0.325920041      -69.7775177      0.325920041      -69.7775177      0.938565203      19.0169527       
118.82           0.941118759      18.6035325       0.319086628      -70.2058898      0.319086628      -70.2058898      0.941118759      18.6035325       
121.56           0.943522495      18.2063676       0.312506338      -70.6174355      0.312506338      -70.6174355      0.943522495      18.2063676       
124.3            0.945787622      17.8245426       0.306166121      -71.013103       0.306166121      -71.013103       0.945787622      17.8245426       
127.04           0.947924349      17.4572064       0.300053728      -71.3937734      0.300053728      -71.3937734      0.947924349      17.4572064       
129.78           0.949941986      17.1035673       0.294157666      -71.7602661      0.294157666      -71.7602661      0.949941986      17.1035673       
132.52           0.951849036      16.7628881       0.288467139      -72.1133439      0.288467139      -72.1133439      0.951849036      16.7628881       
135.26           0.953653274      16.4344814       0.282972008      -72.4537178      0.282972008      -72.4537178      0.953653274      16.4344814       
138              0.955361818      16.1177062       0.277662743      -72.7820509      0.277662743      -72.7820509      0.955361818      16.1177062       
140.74           0.956981194      15.8119635       0.272530386      -73.0989625      0.272530386      -73.0989625      0.956981194      15.8119635       
143.48           0.958517392      15.5166938       0.26756651       -73.4050311      0.26756651       -73.4050311      0.958517392      15.5166938       
146.22           0.959975917      15.2313732       0.262763183      -73.7007981      0.262763183      -73.7007981      0.959975917      15.2313732       
148.96           0.961361835      14.9555116       0.258112936      -73.9867704      0.258112936      -73.9867704      0.961361835      14.9555116       
151.7            0.962679812      14.6886493       0.253608734      -74.2634227      0.253608734      -74.2634227      0.962679812      14.6886493       
154.44           0.963934153      14.4303553       0.249243943      -74.5312006      0.249243943      -74.5312006      0.963934153      14.4303553       
157.18           0.96512883       14.1802248       0.245012307      -74.7905222      0.245012307      -74.7905222      0.96512883       14.1802248       
159.92           0.966267517      13.9378777       0.240907921      -75.0417804      0.240907921      -75.0417804      0.966267517      13.9378777       
162.66           0.967353613      13.7029563       0.236925209      -75.2853445      0.236925209      -75.2853445      0.967353613      13.7029563       
165.4            0.968390267      13.4751241       0.233058904      -75.5215621      0.233058904      -75.5215621      0.968390267      13.4751241       
168.14           0.969380398      13.2540642       0.229304024      -75.7507607      0.229304024      -75.7507607      0.969380398      13.2540642       
170.88           0.970326716      13.0394779       0.22565586       -75.9732487      0.22565586       -75.9732487      0.970326716      13.0394779       
173.62           0.971231738      12.8310833       0.222109951      -76.1893173      0.222109951      -76.1893173      0.971231738      12.8310833       
176.36           0.972097808      12.6286144       0.218662075      -76.399241       0.218662075      -76.399241       0.972097808      12.6286144       
179.1            0.972927104      12.4318199       0.215308231      -76.6032796      0.215308231      -76.6032796      0.972927104      12.4318199       
181.84           0.973721658      12.2404623       0.212044626      -76.8016781      0.212044626      -76.8016781      0.973721658      12.2404623       
184.58           0.974483364      12.0543168       0.208867659      -76.9946688      0.208867659      -76.9946688      0.974483364      12.0543168       
187.32           0.975213991      11.8731707       0.205773917      -77.1824713      0.205773917      -77.1824713      0.975213991      11.8731707       
190.06           0.97591519       11.6968226       0.202760155      -77.3652936      0.202760155      -77.3652936      0.97591519       11.6968226       
192.8            0.976588506      11.5250813       0.199823291      -77.543333       0.199823291      -77.543333       0.976588506      11.5250813       
195.54           0.977235385      11.3577657       0.196960395      -77.7167764      0.196960395      -77.7167764      0.977235385      11.3577657       
198.28           0.97785718       11.1947039       0.19416868       -77.8858016      0.19416868       -77.8858016      0.97785718       11.1947039       
201.02           0.97845516       11.0357326       0.191445494      -78.050577       0.191445494      -78.050577       0.97845516       11.0357326       
203.76           0.979030517      10.8806966       0.188788311      -78.2112628      0.188788311      -78.2112628      0.979030517      10.8806966       
206.5            0.979584366      10.7294483       0.186194725      -78.3680114      0.186194725      -78.3680114      0.979584366      10.7294483       
209.24           0.980117758      10.5818475       0.183662444      -78.5209677      0.183662444      -78.5209677      0.980117758      10.5818475       
211.98           0.98063168       10.4377605       0.18118928       -78.6702695      0.18118928       -78.6702695      0.98063168       10.4377605       
214.72           0.98112706       10.2970601       0.178773148      -78.8160483      0.178773148      -78.8160483      0.98112706       10.2970601       
217.46           0.981604772      10.159625        0.176412056      -78.9584291      0.176412056      -78.9584291      0.981604772      10.159625        
220.2            0.98206564       10.0253397       0.174104103      -79.0975315      0.174104103      -79.0975315      0.98206564       10.0253397       
222.94           0.982510441      9.89409372       0.171847472      -79.2334691      0.171847472      -79.2334691      0.982510441      9.89409372       
225.68           0.982939905      9.76578196       0.169640427      -79.3663506      0.169640427      -79.3663506      0.982939905      9.76578196       
228.42           0.983354725      9.64030387       0.167481306      -79.4962799      0.167481306      -79.4962799      0.983354725      9.64030387       
231.16           0.983755554      9.51756342       0.165368522      -79.6233559      0.165368522      -79.6233559      0.983755554      9.51756342       
233.9            0.984143009      9.39746883       0.163300554      -79.7476734      0.163300554      -79.7476734      0.984143009      9.39746883       
236.64           0.984517673      9.27993232       0.161275946      -79.8693231      0.161275946      -79.8693231      0.984517673      9.27993232       
239.38           0.984880098      9.16486993       0.159293304      -79.9883916      0.159293304      -79.9883916      0.984880098      9.16486993       
242.12           0.985230808      9.05220128       0.157351292      -80.1049618      0.157351292      -80.1049618      0.985230808      9.05220128       
244.86           0.985570297      8.94184939       0.155448628      -80.2191131      0.155448628      -80.2191131      0.985570297      8.94184939       
247.6            0.985899036      8.83374053       0.153584083      -80.3309217      0.153584083      -80.3309217      0.985899036      8.83374053       
250.34           0.986217469      8.72780402       0.15175648       -80.4404605      0.15175648       -80.4404605      0.986217469      8.72780402       
253.08           0.986526019      8.62397212       0.149964686      -80.5477993      0.149964686      -80.5477993      0.986526019      8.62397212       
255.82           0.986825087      8.5221798        0.148207615      -80.6530053      0.148207615      -80.6530053      0.986825087      8.5221798        
258.56           0.987115054      8.42236471       0.146484224      -80.7561427      0.146484224      -80.7561427      0.987115054      8.42236471       
261.3            0.987396282      8.32446696       0.14479351       -80.8572734      0.14479351       -80.8572734      0.987396282      8.32446696       
264.04           0.987669115      8.22842903       0.143134508      -80.9564567      0.143134508      -80.9564567      0.987669115      8.22842903       
266.78           0.987933882      8.13419569       0.141506292      -81.0537495      0.141506292      -81.0537495      0.987933882      8.13419569       
269.52           0.988190893      8.04171382       0.139907971      -81.1492066      0.139907971      -81.1492066      0.988190893      8.04171382       
272.26           0.988440446      7.95093237       0.138338687      -81.2428807      0.138338687      -81.2428807      0.988440446      7.95093237       
275              0.988682823      7.86180224       0.136797613      -81.3348224      0.136797613      -81.3348224      0.988682823      7.86180224       
277.74           0.988918294      7.77427616       0.135283955      -81.4250803      0.135283955      -81.4250803      0.988918294      7.77427616       
280.48           0.989147116      7.68830867       0.133796947      -81.5137014      0.133796947      -81.5137014      0.989147116      7.68830867       
283.22           0.989369533      7.60385598       0.13233585       -81.6007307      0.13233585       -81.6007307      0.989369533      7.60385598       
285.96           0.98958578       7.52087591       0.130899954      -81.6862118      0.130899954      -81.6862118      0.98958578       7.52087591       
288.7            0.989796081      7.43932782       0.129488573      -81.7701865      0.129488573      -81.7701865      0.989796081      7.43932782       
291.44           0.990000648      7.35917255       0.128101045      -81.8526951      0.128101045      -81.8526951      0.990000648      7.35917255       
294.18           0.990199685      7.28037234       0.126736731      -81.9337766      0.126736731      -81.9337766      0.990199685      7.28037234       
296.92           0.990393388      7.20289078       0.125395017      -82.0134683      0.125395017      -82.0134683      0.990393388      7.20289078       
299.66           0.990581942      7.12669272       0.124075308      -82.0918066      0.124075308      -82.0918066      0.990581942      7.12669272       
302.4            0.990765526      7.05174427       0.12277703       -82.1688262      0.12277703       -82.1688262      0.990765526      7.05174427       
305.14           0.99094431       6.9780127        0.121499628      -82.2445608      0.121499628      -82.2445608      0.99094431       6.9780127        
307.88           0.991118458      6.9054664        0.120242568      -82.319043       0.120242568      -82.319043       0.991118458      6.9054664        
310.62           0.991288127      6.83407485       0.11900533       -82.3923042      0.11900533       -82.3923042      0.991288127      6.83407485       
313.36           0.991453465      6.76380857       0.117787415      -82.4643746      0.117787415      -82.4643746      0.991453465      6.76380857       
316.1            0.991614616      6.69463904       0.11658834       -82.5352835      0.11658834       -82.5352835      0.991614616      6.69463904       
318.84           0.991771719      6.62653871       0.115407635      -82.6050593      0.115407635      -82.6050593      0.991771719      6.62653871       
321.58           0.991924906      6.55948095       0.114244848      -82.6737293      0.114244848      -82.6737293      0.991924906      6.55948095       
324.32           0.992074302      6.49343997       0.113099542      -82.74132        0.113099542      -82.74132        0.992074302      6.49343997       
327.06           0.992220031      6.42839086       0.111971292      -82.807857       0.111971292      -82.807857       0.992220031      6.42839086       
329.8            0.992362208      6.36430946       0.110859688      -82.8733649      0.110859688      -82.8733649      0.992362208      6.36430946       
332.54           0.992500945      6.30117244       0.109764331      -82.9378679      0.109764331      -82.9378679      0.992500945      6.30117244       
335.28           0.992636351      6.23895717       0.108684837      -83.001389       0.108684837      -83.001389       0.992636351      6.23895717       
338.02           0.992768528      6.17764176       0.107620833      -83.0639506      0.107620833      -83.0639506      0.992768528      6.17764176       
340.76           0.992897577      6.11720497       0.106571957      -83.1255746      0.106571957      -83.1255746      0.992897577      6.11720497       
343.5            0.993023593      6.05762626       0.105537858      -83.1862819      0.105537858      -83.1862819      0.993023593      6.05762626       
346.24           0.993146668      5.9988857        0.104518196      -83.246093       0.104518196      -83.246093       0.993146668      5.9988857        
348.98           0.993266891      5.94096396       0.103512642      -83.3050275      0.103512642      -83.3050275      0.993266891      5.94096396       
