! Coilcraft 1206CS-680 Chip Inductor				
! 29 July 2002			
# MHZ S MA R 50
!Freq             MagS11           AngS11           MagS21           AngS21           MagS12           AngS12           MagS22           AngS22
1                0.00522204304    54.4126037       0.996970108      -0.244059099     0.996970108      -0.244059099     0.00522204304    54.4126037       
5.74             0.0248101602     78.2768284       0.995255507      -1.39863972      0.995255507      -1.39863972      0.0248101602     78.2768284       
10.48            0.0448110957     80.6557824       0.993708455      -2.55029999      0.993708455      -2.55029999      0.0448110957     80.6557824       
15.22            0.0647855285     81.0135429       0.991946589      -3.69870935      0.991946589      -3.69870935      0.0647855285     81.0135429       
19.96            0.0846825655     80.7299874       0.989893209      -4.84324504      0.989893209      -4.84324504      0.0846825655     80.7299874       
24.7             0.104473933      80.1572232       0.987520216      -5.98320803      0.987520216      -5.98320803      0.104473933      80.1572232       
29.44            0.12413642       79.4291357       0.984816647      -7.11787506      0.984816647      -7.11787506      0.12413642       79.4291357       
34.18            0.143648836      78.6087532       0.981779772      -8.24652058      0.981779772      -8.24652058      0.143648836      78.6087532       
38.92            0.162991261      77.7301045       0.978411634      -9.36842887      0.978411634      -9.36842887      0.162991261      77.7301045       
43.66            0.182144846      76.8134327       0.97471741       -10.4829017      0.97471741       -10.4829017      0.182144846      76.8134327       
48.4             0.201091786      75.8716943       0.970704517      -11.5892641      0.970704517      -11.5892641      0.201091786      75.8716943       
53.14            0.219815336      74.9136727       0.966382068      -12.6868679      0.966382068      -12.6868679      0.219815336      74.9136727       
57.88            0.238299858      73.9456056       0.961760499      -13.7750958      0.961760499      -13.7750958      0.238299858      73.9456056       
62.62            0.256530846      72.972095        0.9568513        -14.8533632      0.9568513        -14.8533632      0.256530846      72.972095        
67.36            0.274494966      71.9966454       0.9516668        -15.9211205      0.9516668        -15.9211205      0.274494966      71.9966454       
72.1             0.292180071      71.0219957       0.946219989      -16.9778543      0.946219989      -16.9778543      0.292180071      71.0219957       
76.84            0.309575214      70.0503331       0.940524367      -18.0230887      0.940524367      -18.0230887      0.309575214      70.0503331       
81.58            0.326670648      69.0834348       0.934593811      -19.0563858      0.934593811      -19.0563858      0.326670648      69.0834348       
86.32            0.343457819      68.1227648       0.92844245       -20.0773461      0.92844245       -20.0773461      0.343457819      68.1227648       
91.06            0.359929344      67.1695422       0.922084564      -21.0856083      0.922084564      -21.0856083      0.359929344      67.1695422       
95.8             0.376078987      66.2247898       0.915534476      -22.0808493      0.915534476      -22.0808493      0.376078987      66.2247898       
100.54           0.391901628      65.2893702       0.908806474      -23.0627831      0.908806474      -23.0627831      0.391901628      65.2893702       
105.28           0.407393219      64.3640126       0.901914724      -24.0311608      0.901914724      -24.0311608      0.407393219      64.3640126       
110.02           0.422550739      63.4493338       0.8948732        -24.985769       0.8948732        -24.985769       0.422550739      63.4493338       
114.76           0.43737215       62.5458541       0.887695625      -25.926429       0.887695625      -25.926429       0.43737215       62.5458541       
119.5            0.451856336      61.6540102       0.88039541       -26.8529953      0.88039541       -26.8529953      0.451856336      61.6540102       
124.24           0.466003052      60.7741658       0.872985612      -27.7653544      0.872985612      -27.7653544      0.466003052      60.7741658       
128.98           0.479812867      59.9066201       0.865478889      -28.6634232      0.865478889      -28.6634232      0.479812867      59.9066201       
133.72           0.493287102      59.0516151       0.857887467      -29.5471475      0.857887467      -29.5471475      0.493287102      59.0516151       
138.46           0.506427777      58.2093416       0.850223115      -30.4165002      0.850223115      -30.4165002      0.506427777      58.2093416       
143.2            0.519237545      57.3799451       0.842497121      -31.27148        0.842497121      -31.27148        0.519237545      57.3799451       
147.94           0.531719643      56.5635298       0.834720276      -32.1121094      0.834720276      -32.1121094      0.531719643      56.5635298       
152.68           0.543877828      55.7601632       0.826902864      -32.9384334      0.826902864      -32.9384334      0.543877828      55.7601632       
157.42           0.555716327      54.9698796       0.819054656      -33.7505176      0.819054656      -33.7505176      0.555716327      54.9698796       
162.16           0.567239785      54.1926835       0.811184904      -34.5484465      0.811184904      -34.5484465      0.567239785      54.1926835       
166.9            0.578453212      53.4285524       0.803302347      -35.3323223      0.803302347      -35.3323223      0.578453212      53.4285524       
171.64           0.589361936      52.6774401       0.795415213      -36.102263       0.795415213      -36.102263       0.589361936      52.6774401       
176.38           0.599971561      51.9392785       0.787531227      -36.8584013      0.787531227      -36.8584013      0.599971561      51.9392785       
181.12           0.610287921      51.2139803       0.779657617      -37.6008827      0.779657617      -37.6008827      0.610287921      51.2139803       
185.86           0.620317041      50.5014411       0.771801135      -38.3298646      0.771801135      -38.3298646      0.620317041      50.5014411       
190.6            0.630065102      49.8015412       0.763968059      -39.0455147      0.763968059      -39.0455147      0.630065102      49.8015412       
195.34           0.639538405      49.1141472       0.756164216      -39.74801        0.756164216      -39.74801        0.639538405      49.1141472       
200.08           0.648743344      48.4391142       0.748394998      -40.4375354      0.748394998      -40.4375354      0.648743344      48.4391142       
204.82           0.657686368      47.7762868       0.740665371      -41.114283       0.740665371      -41.114283       0.657686368      47.7762868       
209.56           0.666373968      47.1255005       0.732979904      -41.7784506      0.732979904      -41.7784506      0.666373968      47.1255005       
214.3            0.674812639      46.4865833       0.725342776      -42.430241       0.725342776      -42.430241       0.674812639      46.4865833       
219.04           0.683008873      45.8593564       0.717757802      -43.0698613      0.717757802      -43.0698613      0.683008873      45.8593564       
223.78           0.690969126      45.2436358       0.710228447      -43.6975217      0.710228447      -43.6975217      0.690969126      45.2436358       
228.52           0.698699813      44.6392328       0.702757847      -44.313435       0.702757847      -44.313435       0.698699813      44.6392328       
233.26           0.706207284      44.045955        0.695348822      -44.9178158      0.695348822      -44.9178158      0.706207284      44.045955        
238              0.713497816      43.4636073       0.6880039        -45.5108799      0.6880039        -45.5108799      0.713497816      43.4636073       
242.74           0.720577601      42.8919925       0.68072533       -46.0928437      0.68072533       -46.0928437      0.720577601      42.8919925       
247.48           0.727452731      42.3309119       0.673515099      -46.6639238      0.673515099      -46.6639238      0.727452731      42.3309119       
252.22           0.734129196      41.780166        0.666374951      -47.2243362      0.666374951      -47.2243362      0.734129196      41.780166        
256.96           0.740612874      41.2395551       0.659306399      -47.7742963      0.659306399      -47.7742963      0.740612874      41.2395551       
261.7            0.746909523      40.7088795       0.652310742      -48.314018       0.652310742      -48.314018       0.746909523      40.7088795       
266.44           0.75302478       40.1879403       0.64538908       -48.8437137      0.64538908       -48.8437137      0.75302478       40.1879403       
271.18           0.758964152      39.6765395       0.638542327      -49.3635941      0.638542327      -49.3635941      0.758964152      39.6765395       
275.92           0.76473302       39.1744807       0.631771225      -49.8738675      0.631771225      -49.8738675      0.76473302       39.1744807       
280.66           0.770336629      38.6815688       0.625076354      -50.3747397      0.625076354      -50.3747397      0.770336629      38.6815688       
285.4            0.775780093      38.1976111       0.618458149      -50.8664143      0.618458149      -50.8664143      0.775780093      38.1976111       
290.14           0.78106839       37.7224169       0.611916904      -51.3490915      0.611916904      -51.3490915      0.78106839       37.7224169       
294.88           0.786206363      37.2557977       0.60545279       -51.8229689      0.60545279       -51.8229689      0.786206363      37.2557977       
299.62           0.791198721      36.7975679       0.599065862      -52.288241       0.599065862      -52.288241       0.791198721      36.7975679       
304.36           0.79605004       36.3475444       0.592756067      -52.7450988      0.592756067      -52.7450988      0.79605004       36.3475444       
309.1            0.800764761      35.9055472       0.586523254      -53.1937301      0.586523254      -53.1937301      0.800764761      35.9055472       
313.84           0.805347197      35.4713991       0.580367185      -53.6343193      0.580367185      -53.6343193      0.805347197      35.4713991       
318.58           0.809801528      35.044926        0.574287538      -54.0670474      0.574287538      -54.0670474      0.809801528      35.044926        
323.32           0.814131808      34.6259569       0.56828392       -54.4920917      0.56828392       -54.4920917      0.814131808      34.6259569       
328.06           0.818341967      34.2143242       0.562355867      -54.9096262      0.562355867      -54.9096262      0.818341967      34.2143242       
332.8            0.822435809      33.8098633       0.556502859      -55.319821       0.556502859      -55.319821       0.822435809      33.8098633       
337.54           0.826417021      33.412413        0.550724317      -55.722843       0.550724317      -55.722843       0.826417021      33.412413        
342.28           0.830289169      33.0218153       0.545019616      -56.1188553      0.545019616      -56.1188553      0.830289169      33.0218153       
347.02           0.834055707      32.6379156       0.539388085      -56.5080174      0.539388085      -56.5080174      0.834055707      32.6379156       
351.76           0.837719974      32.2605625       0.533829016      -56.8904853      0.533829016      -56.8904853      0.837719974      32.2605625       
356.5            0.841285203      31.889608        0.528341663      -57.2664116      0.528341663      -57.2664116      0.841285203      31.889608        
361.24           0.844754516      31.5249073       0.522925254      -57.6359452      0.522925254      -57.6359452      0.844754516      31.5249073       
365.98           0.848130937      31.1663189       0.517578987      -57.9992318      0.517578987      -57.9992318      0.848130937      31.1663189       
370.72           0.851417385      30.8137043       0.512302038      -58.3564134      0.512302038      -58.3564134      0.851417385      30.8137043       
375.46           0.854616683      30.4669285       0.507093564      -58.7076288      0.507093564      -58.7076288      0.854616683      30.4669285       
380.2            0.857731561      30.1258594       0.501952703      -59.0530135      0.501952703      -59.0530135      0.857731561      30.1258594       
384.94           0.860764654      29.7903682       0.496878583      -59.3926997      0.496878583      -59.3926997      0.860764654      29.7903682       
389.68           0.86371851       29.460329        0.491870316      -59.7268162      0.491870316      -59.7268162      0.86371851       29.460329        
394.42           0.866595591      29.135619        0.486927008      -60.055489       0.486927008      -60.055489       0.866595591      29.135619        
399.16           0.869398274      28.8161183       0.482047758      -60.3788406      0.482047758      -60.3788406      0.869398274      28.8161183       
403.9            0.872128857      28.50171         0.477231658      -60.6969909      0.477231658      -60.6969909      0.872128857      28.50171         
408.64           0.87478956       28.1922799       0.472477799      -61.0100564      0.472477799      -61.0100564      0.87478956       28.1922799       
413.38           0.877382525      27.8877167       0.467785269      -61.3181509      0.467785269      -61.3181509      0.877382525      27.8877167       
418.12           0.879909825      27.5879119       0.463153159      -61.6213855      0.463153159      -61.6213855      0.879909825      27.5879119       
422.86           0.882373459      27.2927595       0.458580557      -61.919868       0.458580557      -61.919868       0.882373459      27.2927595       
427.6            0.884775359      27.0021564       0.454066557      -62.2137041      0.454066557      -62.2137041      0.884775359      27.0021564       
432.34           0.887117393      26.7160019       0.449610256      -62.5029963      0.449610256      -62.5029963      0.887117393      26.7160019       
437.08           0.889401364      26.4341977       0.445210756      -62.7878448      0.445210756      -62.7878448      0.889401364      26.4341977       
441.82           0.891629014      26.1566483       0.440867164      -63.0683471      0.440867164      -63.0683471      0.891629014      26.1566483       
446.56           0.893802025      25.8832601       0.436578594      -63.3445984      0.436578594      -63.3445984      0.893802025      25.8832601       
451.3            0.895922023      25.6139424       0.432344167      -63.6166913      0.432344167      -63.6166913      0.895922023      25.6139424       
456.04           0.89799058       25.3486065       0.428163013      -63.884716       0.428163013      -63.884716       0.89799058       25.3486065       
460.78           0.900009213      25.0871658       0.424034269      -64.1487607      0.424034269      -64.1487607      0.900009213      25.0871658       
465.52           0.90197939       24.8295361       0.419957084      -64.408911       0.419957084      -64.408911       0.90197939       24.8295361       
470.26           0.903902526      24.5756353       0.415930612      -64.6652504      0.415930612      -64.6652504      0.903902526      24.5756353       
475              0.905779993      24.3253833       0.411954022      -64.9178605      0.411954022      -64.9178605      0.905779993      24.3253833       
479.74           0.907613114      24.078702        0.408026489      -65.1668205      0.408026489      -65.1668205      0.907613114      24.078702        
484.48           0.909403168      23.8355154       0.404147201      -65.4122077      0.404147201      -65.4122077      0.909403168      23.8355154       
489.22           0.911151393      23.5957492       0.400315356      -65.6540976      0.400315356      -65.6540976      0.911151393      23.5957492       
493.96           0.912858984      23.3593312       0.396530164      -65.8925635      0.396530164      -65.8925635      0.912858984      23.3593312       
498.7            0.914527098      23.1261908       0.392790845      -66.127677       0.392790845      -66.127677       0.914527098      23.1261908       
503.44           0.916156853      22.8962593       0.389096631      -66.3595079      0.389096631      -66.3595079      0.916156853      22.8962593       
508.18           0.917749329      22.6694697       0.385446766      -66.5881241      0.385446766      -66.5881241      0.917749329      22.6694697       
512.92           0.919305573      22.4457566       0.381840504      -66.8135918      0.381840504      -66.8135918      0.919305573      22.4457566       
517.66           0.920826596      22.2250564       0.378277111      -67.0359758      0.378277111      -67.0359758      0.920826596      22.2250564       
522.4            0.922313376      22.007307        0.374755867      -67.2553388      0.374755867      -67.2553388      0.922313376      22.007307        
527.14           0.92376686       21.7924477       0.371276061      -67.4717423      0.371276061      -67.4717423      0.92376686       21.7924477       
531.88           0.925187963      21.5804194       0.367836995      -67.6852461      0.367836995      -67.6852461      0.925187963      21.5804194       
536.62           0.926577571      21.3711647       0.364437981      -67.8959085      0.364437981      -67.8959085      0.926577571      21.3711647       
541.36           0.927936543      21.1646272       0.361078345      -68.1037864      0.361078345      -68.1037864      0.927936543      21.1646272       
546.1            0.929265709      20.9607522       0.357757423      -68.3089351      0.357757423      -68.3089351      0.929265709      20.9607522       
550.84           0.930565871      20.7594863       0.354474561      -68.5114088      0.354474561      -68.5114088      0.930565871      20.7594863       
555.58           0.931837809      20.5607772       0.35122912       -68.7112602      0.35122912       -68.7112602      0.931837809      20.5607772       
560.32           0.933082274      20.3645742       0.348020469      -68.9085406      0.348020469      -68.9085406      0.933082274      20.3645742       
565.06           0.934299998      20.1708276       0.344847989      -69.1033003      0.344847989      -69.1033003      0.934299998      20.1708276       
569.8            0.935491685      19.9794889       0.341711074      -69.295588       0.341711074      -69.295588       0.935491685      19.9794889       
574.54           0.936658021      19.7905109       0.338609126      -69.4854515      0.338609126      -69.4854515      0.936658021      19.7905109       
579.28           0.937799668      19.6038475       0.33554156       -69.6729373      0.33554156       -69.6729373      0.937799668      19.6038475       
584.02           0.938917269      19.4194538       0.3325078        -69.8580908      0.3325078        -69.8580908      0.938917269      19.4194538       
588.76           0.940011446      19.2372857       0.329507281      -70.0409562      0.329507281      -70.0409562      0.940011446      19.2372857       
593.5            0.941082802      19.0573004       0.32653945       -70.2215768      0.32653945       -70.2215768      0.941082802      19.0573004       
598.24           0.942131922      18.8794562       0.323603761      -70.3999946      0.323603761      -70.3999946      0.942131922      18.8794562       
602.98           0.943159371      18.703712        0.320699681      -70.5762509      0.320699681      -70.5762509      0.943159371      18.703712        
