! Coilcraft 1206CS-751 Chip Inductor				
! 29 July 2002			
# MHZ S MA R 50
!Freq             MagS11           AngS11           MagS21           AngS21           MagS12           AngS12           MagS22           AngS22
1                0.0528454446     53.5854927       0.969562857      -2.51391772      0.969562857      -2.51391772      0.0528454446     53.5854927       
2.89             0.12990282       67.3001751       0.957400078      -7.19073512      0.957400078      -7.19073512      0.12990282       67.3001751       
4.78             0.207025422      67.6842328       0.941084464      -11.7423027      0.941084464      -11.7423027      0.207025422      67.6842328       
6.67             0.280652914      65.6342141       0.920431106      -16.126318       0.920431106      -16.126318       0.280652914      65.6342141       
8.56             0.349557121      62.8342509       0.89610171       -20.3073395      0.89610171       -20.3073395      0.349557121      62.8342509       
10.45            0.413095303      59.8036954       0.868966875      -24.2601381      0.868966875      -24.2601381      0.413095303      59.8036954       
12.34            0.471000751      56.7582651       0.839918036      -27.9699521      0.839918036      -27.9699521      0.471000751      56.7582651       
14.23            0.52328745       53.8010348       0.809772771      -31.4313706      0.809772771      -31.4313706      0.52328745       53.8010348       
16.12            0.570170383      50.9832379       0.779227397      -34.646572       0.779227397      -34.646572       0.570170383      50.9832379       
18.01            0.611995225      48.3288196       0.748840661      -37.6233949      0.748840661      -37.6233949      0.611995225      48.3288196       
19.9             0.649180557      45.846234        0.719037365      -40.3735384      0.719037365      -40.3735384      0.649180557      45.846234        
21.79            0.682174108      43.5348649       0.690123142      -42.9110472      0.690123142      -42.9110472      0.682174108      43.5348649       
23.68            0.711422211      41.3888174       0.662303997      -45.2511274      0.662303997      -45.2511274      0.711422211      41.3888174       
25.57            0.737350275      39.3992621       0.635706494      -47.4092793      0.635706494      -47.4092793      0.737350275      39.3992621       
27.46            0.760351639      37.5559138       0.610396249      -49.4006995      0.610396249      -49.4006995      0.760351639      37.5559138       
29.35            0.780782384      35.8479657       0.586393718      -51.2398964      0.586393718      -51.2398964      0.780782384      35.8479657       
31.24            0.798960093      34.2646685       0.563687028      -52.9404644      0.563687028      -52.9404644      0.798960093      34.2646685       
33.13            0.815165059      32.7956783       0.542242024      -54.5149734      0.542242024      -54.5149734      0.815165059      32.7956783       
35.02            0.82964286       31.4312513       0.522009933      -55.9749344      0.522009933      -55.9749344      0.82964286       31.4312513       
36.91            0.84260761       30.1623401       0.502933063      -57.3308176      0.502933063      -57.3308176      0.84260761       30.1623401       
38.8             0.854245402      28.9806257       0.484948948      -58.5921008      0.484948948      -58.5921008      0.854245402      28.9806257       
40.69            0.864717693      27.8785111       0.467993302      -59.7673353      0.467993302      -59.7673353      0.864717693      27.8785111       
42.58            0.874164454      26.8490902       0.452002064      -60.8642203      0.452002064      -60.8642203      0.874164454      26.8490902       
44.47            0.882707039      25.8861046       0.436912783      -61.8896796      0.436912783      -61.8896796      0.882707039      25.8861046       
46.36            0.890450728      24.9838935       0.422665505      -62.8499361      0.422665505      -62.8499361      0.890450728      24.9838935       
48.25            0.897486952      24.1373426       0.409203306      -63.7505833      0.409203306      -63.7505833      0.897486952      24.1373426       
50.14            0.903895234      23.3418329       0.396472579      -64.5966504      0.396472579      -64.5966504      0.903895234      23.3418329       
52.03            0.909744853      22.593193        0.384423141      -65.3926631      0.384423141      -65.3926631      0.909744853      22.593193        
53.92            0.91509628       21.8876538       0.373008225      -66.1426974      0.373008225      -66.1426974      0.91509628       21.8876538       
55.81            0.920002403      21.2218075       0.362184383      -66.850429       0.362184383      -66.850429       0.920002403      21.2218075       
57.7             0.924509579      20.5925702       0.351911353      -67.5191766      0.351911353      -67.5191766      0.924509579      20.5925702       
59.59            0.928658523      19.9971478       0.342151881      -68.1519408      0.342151881      -68.1519408      0.928658523      19.9971478       
61.48            0.93248508       19.4330061       0.332871537      -68.7514384      0.332871537      -68.7514384      0.93248508       19.4330061       
63.37            0.936020873      18.8978432       0.324038521      -69.3201333      0.324038521      -69.3201333      0.936020873      18.8978432       
65.26            0.939293866      18.389566        0.315623473      -69.8602631      0.315623473      -69.8602631      0.939293866      18.389566        
67.15            0.942328839      17.9062681       0.307599289      -70.3738633      0.307599289      -70.3738633      0.942328839      17.9062681       
69.04            0.945147801      17.4462107       0.29994094       -70.8627884      0.29994094       -70.8627884      0.945147801      17.4462107       
70.93            0.947770342      17.0078061       0.292625311      -71.3287304      0.292625311      -71.3287304      0.947770342      17.0078061       
72.82            0.950213931      16.5896018       0.285631039      -71.7732358      0.285631039      -71.7732358      0.950213931      16.5896018       
74.71            0.952494187      16.1902674       0.278938374      -72.1977198      0.278938374      -72.1977198      0.952494187      16.1902674       
76.6             0.954625093      15.8085828       0.272529042      -72.60348        0.272529042      -72.60348        0.954625093      15.8085828       
78.49            0.956619202      15.4434272       0.266386124      -72.9917074      0.266386124      -72.9917074      0.956619202      15.4434272       
80.38            0.958487797      15.0937696       0.260493943      -73.3634968      0.260493943      -73.3634968      0.958487797      15.0937696       
82.27            0.960241046      14.7586603       0.254837961      -73.7198565      0.254837961      -73.7198565      0.960241046      14.7586603       
84.16            0.961888121      14.4372236       0.249404684      -74.0617158      0.249404684      -74.0617158      0.961888121      14.4372236       
86.05            0.963437318      14.1286505       0.244181576      -74.3899328      0.244181576      -74.3899328      0.963437318      14.1286505       
87.94            0.96489615       13.8321931       0.239156985      -74.7053006      0.239156985      -74.7053006      0.96489615       13.8321931       
89.83            0.966271432      13.5471589       0.234320063      -75.0085534      0.234320063      -75.0085534      0.966271432      13.5471589       
91.72            0.967569359      13.2729057       0.229660708      -75.3003717      0.229660708      -75.3003717      0.967569359      13.2729057       
93.61            0.968795569      13.0088377       0.225169502      -75.5813869      0.225169502      -75.5813869      0.968795569      13.0088377       
95.5             0.9699552        12.7544011       0.220837657      -75.8521857      0.220837657      -75.8521857      0.9699552        12.7544011       
97.39            0.971052947      12.5090807       0.216656964      -76.1133137      0.216656964      -76.1133137      0.971052947      12.5090807       
99.28            0.9720931        12.2723967       0.212619751      -76.3652791      0.212619751      -76.3652791      0.9720931        12.2723967       
101.17           0.973079588      12.0439017       0.208718839      -76.6085556      0.208718839      -76.6085556      0.973079588      12.0439017       
103.06           0.974016015      11.8231782       0.204947505      -76.8435853      0.204947505      -76.8435853      0.974016015      11.8231782       
104.95           0.974905688      11.6098358       0.201299448      -77.0707814      0.201299448      -77.0707814      0.974905688      11.6098358       
106.84           0.975751652      11.4035098       0.19776876       -77.2905301      0.19776876       -77.2905301      0.975751652      11.4035098       
108.73           0.976556705      11.2038583       0.194349891      -77.5031931      0.194349891      -77.5031931      0.976556705      11.2038583       
110.62           0.977323431      11.0105612       0.191037628      -77.7091094      0.191037628      -77.7091094      0.977323431      11.0105612       
112.51           0.978054211      10.8233181       0.187827069      -77.9085968      0.187827069      -77.9085968      0.978054211      10.8233181       
114.4            0.978751248      10.6418471       0.184713601      -78.1019537      0.184713601      -78.1019537      0.978751248      10.6418471       
116.29           0.979416579      10.465883        0.18169288       -78.2894608      0.18169288       -78.2894608      0.979416579      10.465883        
118.18           0.980052089      10.2951767       0.178760809      -78.4713817      0.178760809      -78.4713817      0.980052089      10.2951767       
120.07           0.980659529      10.1294934       0.175913526      -78.6479648      0.175913526      -78.6479648      0.980659529      10.1294934       
121.96           0.981240522      9.96861209       0.173147386      -78.819444       0.173147386      -78.819444       0.981240522      9.96861209       
123.85           0.981796576      9.81232432       0.170458943      -78.9860401      0.170458943      -78.9860401      0.981796576      9.81232432       
125.74           0.982329094      9.66043338       0.167844942      -79.147961       0.167844942      -79.147961       0.982329094      9.66043338       
127.63           0.982839382      9.51275349       0.165302304      -79.3054036      0.165302304      -79.3054036      0.982839382      9.51275349       
129.52           0.983328657      9.36910907       0.162828113      -79.4585535      0.162828113      -79.4585535      0.983328657      9.36910907       
131.41           0.983798056      9.22933407       0.160419608      -79.6075865      0.160419608      -79.6075865      0.983798056      9.22933407       
133.3            0.984248637      9.09327132       0.158074171      -79.752669       0.158074171      -79.752669       0.984248637      9.09327132       
135.19           0.984681391      8.96077196       0.155789321      -79.8939585      0.155789321      -79.8939585      0.984681391      8.96077196       
137.08           0.985097245      8.8316949        0.153562701      -80.0316044      0.153562701      -80.0316044      0.985097245      8.8316949        
138.97           0.985497066      8.70590633       0.151392074      -80.1657484      0.151392074      -80.1657484      0.985497066      8.70590633       
140.86           0.985881666      8.58327924       0.149275315      -80.2965248      0.149275315      -80.2965248      0.985881666      8.58327924       
142.75           0.986251808      8.46369305       0.147210402      -80.4240613      0.147210402      -80.4240613      0.986251808      8.46369305       
144.64           0.986608205      8.34703314       0.145195414      -80.5484793      0.145195414      -80.5484793      0.986608205      8.34703314       
146.53           0.98695153       8.23319057       0.143228519      -80.6698941      0.143228519      -80.6698941      0.98695153       8.23319057       
148.42           0.987282414      8.12206164       0.141307976      -80.7884155      0.141307976      -80.7884155      0.987282414      8.12206164       
150.31           0.987601449      8.01354769       0.139432123      -80.904148       0.139432123      -80.904148       0.987601449      8.01354769       
152.2            0.987909194      7.9075547        0.137599378      -81.0171912      0.137599378      -81.0171912      0.987909194      7.9075547        
154.09           0.988206175      7.8039931        0.135808229      -81.1276398      0.135808229      -81.1276398      0.988206175      7.8039931        
155.98           0.988492888      7.70277746       0.134057236      -81.2355844      0.134057236      -81.2355844      0.988492888      7.70277746       
157.87           0.988769801      7.60382627       0.132345022      -81.3411113      0.132345022      -81.3411113      0.988769801      7.60382627       
159.76           0.989037354      7.50706175       0.130670272      -81.4443029      0.130670272      -81.4443029      0.989037354      7.50706175       
161.65           0.989295965      7.4124096        0.12903173       -81.5452379      0.12903173       -81.5452379      0.989295965      7.4124096        
163.54           0.989546028      7.31979882       0.127428194      -81.6439914      0.127428194      -81.6439914      0.989546028      7.31979882       
165.43           0.989787914      7.22916154       0.125858513      -81.7406355      0.125858513      -81.7406355      0.989787914      7.22916154       
167.32           0.990021976      7.14043284       0.124321588      -81.8352388      0.124321588      -81.8352388      0.990021976      7.14043284       
169.21           0.990248548      7.05355061       0.122816365      -81.9278673      0.122816365      -81.9278673      0.990248548      7.05355061       
171.1            0.990467946      6.96845537       0.121341834      -82.0185838      0.121341834      -82.0185838      0.990467946      6.96845537       
172.99           0.990680469      6.88509017       0.119897028      -82.1074487      0.119897028      -82.1074487      0.990680469      6.88509017       
174.88           0.990886401      6.80340043       0.11848102       -82.19452        0.11848102       -82.19452        0.990886401      6.80340043       
176.77           0.991086011      6.72333381       0.117092918      -82.279853       0.117092918      -82.279853       0.991086011      6.72333381       
178.66           0.991279557      6.64484016       0.115731871      -82.3635009      0.115731871      -82.3635009      0.991279557      6.64484016       
180.55           0.991467279      6.56787131       0.114397057      -82.4455148      0.114397057      -82.4455148      0.991467279      6.56787131       
182.44           0.991649411      6.49238107       0.11308769       -82.5259435      0.11308769       -82.5259435      0.991649411      6.49238107       
184.33           0.99182617       6.41832505       0.111803014      -82.6048342      0.111803014      -82.6048342      0.99182617       6.41832505       
186.22           0.991997766      6.34566064       0.110542302      -82.6822321      0.110542302      -82.6822321      0.991997766      6.34566064       
188.11           0.992164399      6.27434687       0.109304855      -82.7581805      0.109304855      -82.7581805      0.992164399      6.27434687       
190              0.992326256      6.20434437       0.10809          -82.8327212      0.10809          -82.8327212      0.992326256      6.20434437       
191.89           0.99248352       6.13561526       0.106897092      -82.9058943      0.106897092      -82.9058943      0.99248352       6.13561526       
193.78           0.992636361      6.06812312       0.105725508      -82.9777384      0.105725508      -82.9777384      0.992636361      6.06812312       
195.67           0.992784943      6.00183288       0.104574648      -83.0482909      0.104574648      -83.0482909      0.992784943      6.00183288       
197.56           0.992929423      5.93671077       0.103443936      -83.1175873      0.103443936      -83.1175873      0.992929423      5.93671077       
199.45           0.993069951      5.87272431       0.102332815      -83.1856622      0.102332815      -83.1856622      0.993069951      5.87272431       
201.34           0.993206668      5.80984215       0.10124075       -83.2525488      0.10124075       -83.2525488      0.993206668      5.80984215       
203.23           0.993339711      5.74803412       0.100167223      -83.3182791      0.100167223      -83.3182791      0.993339711      5.74803412       
205.12           0.993469211      5.68727111       0.0991117363     -83.3828839      0.0991117363     -83.3828839      0.993469211      5.68727111       
207.01           0.993595291      5.62752507       0.0980738094     -83.446393       0.0980738094     -83.446393       0.993595291      5.62752507       
208.9            0.99371807       5.56876892       0.0970529781     -83.5088351      0.0970529781     -83.5088351      0.99371807       5.56876892       
210.79           0.993837662      5.51097654       0.0960487947     -83.5702379      0.0960487947     -83.5702379      0.993837662      5.51097654       
212.68           0.993954176      5.45412272       0.0950608267     -83.6306282      0.0950608267     -83.6306282      0.993954176      5.45412272       
214.57           0.994067717      5.39818309       0.0940886565     -83.6900317      0.0940886565     -83.6900317      0.994067717      5.39818309       
216.46           0.994178384      5.34313416       0.0931318805     -83.7484733      0.0931318805     -83.7484733      0.994178384      5.34313416       
218.35           0.994286274      5.2889532        0.0921901087     -83.8059772      0.0921901087     -83.8059772      0.994286274      5.2889532        
220.24           0.994391477      5.23561824       0.0912629641     -83.8625666      0.0912629641     -83.8625666      0.994391477      5.23561824       
222.13           0.994494082      5.18310808       0.0903500823     -83.918264       0.0903500823     -83.918264       0.994494082      5.18310808       
224.02           0.994594173      5.13140218       0.0894511106     -83.9730912      0.0894511106     -83.9730912      0.994594173      5.13140218       
225.91           0.994691831      5.08048069       0.0885657079     -84.0270692      0.0885657079     -84.0270692      0.994691831      5.08048069       
227.8            0.994787134      5.03032442       0.087693544      -84.0802184      0.087693544      -84.0802184      0.994787134      5.03032442       
229.69           0.994880157      4.98091476       0.0868342994     -84.1325584      0.0868342994     -84.1325584      0.994880157      4.98091476       
231.58           0.994970971      4.93223373       0.0859876646     -84.1841083      0.0859876646     -84.1841083      0.994970971      4.93223373       
233.47           0.995059646      4.88426392       0.08515334       -84.2348866      0.08515334       -84.2348866      0.995059646      4.88426392       
235.36           0.995146246      4.83698844       0.0843310354     -84.2849111      0.0843310354     -84.2849111      0.995146246      4.83698844       
237.25           0.995230837      4.79039096       0.0835204694     -84.3341992      0.0835204694     -84.3341992      0.995230837      4.79039096       
239.14           0.995313479      4.74445565       0.0827213694     -84.3827676      0.0827213694     -84.3827676      0.995313479      4.74445565       
241.03           0.995394232      4.69916715       0.0819334712     -84.4306326      0.0819334712     -84.4306326      0.995394232      4.69916715       
