! Coilcraft 1206CS-181 Chip Inductor				
! 29 July 2002			
# MHZ S MA R 50
!Freq             MagS11           AngS11           MagS21           AngS21           MagS12           AngS12           MagS22           AngS22
1                0.0132038556     59.2280322       0.993309399      -0.654406759     0.993309399      -0.654406759     0.0132038556     59.2280322       
4.99             0.0575682831     76.8963485       0.988539887      -3.25152162      0.988539887      -3.25152162      0.0575682831     76.8963485       
8.98             0.10218986       77.544314        0.983036743      -5.82592862      0.983036743      -5.82592862      0.10218986       77.544314        
12.97            0.146178563      76.4127343       0.976056278      -8.37046521      0.976056278      -8.37046521      0.146178563      76.4127343       
16.96            0.189259903      74.7253906       0.967522579      -10.8770869      0.967522579      -10.8770869      0.189259903      74.7253906       
20.95            0.231219061      72.8091355       0.957489434      -13.3380813      0.957489434      -13.3380813      0.231219061      72.8091355       
24.94            0.27187625       70.7938724       0.946065387      -15.7464466      0.946065387      -15.7464466      0.27187625       70.7938724       
28.93            0.311084382      68.7438308       0.933388146      -18.096077       0.933388146      -18.096077       0.311084382      68.7438308       
32.92            0.348728798      66.6954546       0.91961119       -20.381854       0.91961119       -20.381854       0.348728798      66.6954546       
36.91            0.384726412      64.6713386       0.904894883      -22.5996759      0.904894883      -22.5996759      0.384726412      64.6713386       
40.9             0.419023909      62.6862627       0.889399932      -24.7464416      0.889399932      -24.7464416      0.419023909      62.6862627       
44.89            0.451595136      60.7501467       0.873282447      -26.8200008      0.873282447      -26.8200008      0.451595136      60.7501467       
48.88            0.482437927      58.8696514       0.856690298      -28.8190794      0.856690298      -28.8190794      0.482437927      58.8696514       
52.87            0.511570633      57.0491276       0.839760558      -30.7431892      0.839760558      -30.7431892      0.511570633      57.0491276       
56.86            0.539028579      55.2912249       0.822617899      -32.5925298      0.822617899      -32.5925298      0.539028579      55.2912249       
60.85            0.564860638      53.5973082       0.805373751      -34.3678873      0.805373751      -34.3678873      0.564860638      53.5973082       
64.84            0.589126046      51.9677609       0.788126105      -36.0705361      0.788126105      -36.0705361      0.589126046      51.9677609       
68.83            0.611891541      50.4022134       0.770959785      -37.702146       0.770959785      -37.702146       0.611891541      50.4022134       
72.82            0.633228877      48.8997211       0.753947073      -39.2646966      0.753947073      -39.2646966      0.633228877      48.8997211       
76.81            0.653212721      47.4589059       0.737148572      -40.760402       0.737148572      -40.760402       0.653212721      47.4589059       
80.8             0.671918909      46.0780687       0.720614215      -42.1916437      0.720614215      -42.1916437      0.671918909      46.0780687       
84.79            0.689423054      44.7552811       0.70438433       -43.5609138      0.70438433       -43.5609138      0.689423054      44.7552811       
88.78            0.705799458      43.4884584       0.688490731      -44.8707669      0.688490731      -44.8707669      0.705799458      43.4884584       
92.77            0.721120283      42.2754183       0.672957765      -46.1237807      0.672957765      -46.1237807      0.721120283      42.2754183       
96.76            0.735454958      41.1139274       0.657803318      -47.3225236      0.657803318      -47.3225236      0.735454958      41.1139274       
100.75           0.748869763      40.0017384       0.643039728      -48.4695289      0.643039728      -48.4695289      0.748869763      40.0017384       
104.74           0.761427577      38.9366186       0.62867463       -49.5672754      0.62867463       -49.5672754      0.761427577      38.9366186       
108.73           0.773187733      37.9163718       0.614711706      -50.6181717      0.614711706      -50.6181717      0.773187733      37.9163718       
112.72           0.78420598       36.9388553       0.601151349      -51.6245458      0.601151349      -51.6245458      0.78420598       36.9388553       
116.71           0.79453451       36.0019913       0.587991248      -52.5886369      0.587991248      -52.5886369      0.79453451       36.0019913       
120.7            0.804222044      35.103776        0.57522689       -53.512591       0.57522689       -53.512591       0.804222044      35.103776        
124.69           0.81331395       34.2422851       0.562852002      -54.3984578      0.562852002      -54.3984578      0.81331395       34.2422851       
128.68           0.821852391      33.4156768       0.55085892       -55.2481901      0.55085892       -55.2481901      0.821852391      33.4156768       
132.67           0.829876493      32.6221937       0.539238907      -56.0636441      0.539238907      -56.0636441      0.829876493      32.6221937       
136.66           0.837422516      31.8601629       0.527982418      -56.846581       0.527982418      -56.846581       0.837422516      31.8601629       
140.65           0.844524031      31.1279947       0.517079327      -57.5986696      0.517079327      -57.5986696      0.844524031      31.1279947       
144.64           0.851212097      30.4241814       0.506519113      -58.3214886      0.506519113      -58.3214886      0.851212097      30.4241814       
148.63           0.857515437      29.7472944       0.496291012      -59.0165305      0.496291012      -59.0165305      0.857515437      29.7472944       
152.62           0.8634606        29.0959821       0.486384148      -59.6852053      0.486384148      -59.6852053      0.8634606        29.0959821       
156.61           0.869072125      28.4689659       0.476787631      -60.3288437      0.476787631      -60.3288437      0.869072125      28.4689659       
160.6            0.87437269       27.8650381       0.467490647      -60.9487013      0.467490647      -60.9487013      0.87437269       27.8650381       
164.59           0.879383256      27.2830575       0.458482517      -61.5459629      0.458482517      -61.5459629      0.879383256      27.2830575       
168.58           0.884123198      26.721947        0.449752756      -62.1217452      0.449752756      -62.1217452      0.884123198      26.721947        
172.57           0.888610431      26.1806896       0.441291109      -62.6771018      0.441291109      -62.6771018      0.888610431      26.1806896       
176.56           0.892861525      25.6583254       0.433087587      -63.2130258      0.433087587      -63.2130258      0.892861525      25.6583254       
180.55           0.896891811      25.1539485       0.425132483      -63.7304538      0.425132483      -63.7304538      0.896891811      25.1539485       
184.54           0.900715483      24.6667037       0.417416391      -64.2302692      0.417416391      -64.2302692      0.900715483      24.6667037       
188.53           0.904345684      24.1957841       0.409930219      -64.7133053      0.409930219      -64.7133053      0.904345684      24.1957841       
192.52           0.907794593      23.7404274       0.40266519       -65.1803481      0.40266519       -65.1803481      0.907794593      23.7404274       
196.51           0.911073503      23.2999141       0.395612846      -65.6321397      0.395612846      -65.6321397      0.911073503      23.2999141       
200.5            0.914192888      22.8735645       0.388765047      -66.0693802      0.388765047      -66.0693802      0.914192888      22.8735645       
204.49           0.917162471      22.4607365       0.382113968      -66.4927313      0.382113968      -66.4927313      0.917162471      22.4607365       
208.48           0.919991283      22.0608229       0.375652094      -66.9028175      0.375652094      -66.9028175      0.919991283      22.0608229       
212.47           0.922687718      21.6732502       0.369372211      -67.3002295      0.369372211      -67.3002295      0.922687718      21.6732502       
216.46           0.92525958       21.2974754       0.363267402      -67.6855254      0.363267402      -67.6855254      0.92525958       21.2974754       
220.45           0.927714136      20.9329853       0.357331036      -68.0592332      0.357331036      -68.0592332      0.927714136      20.9329853       
224.44           0.930058148      20.5792936       0.35155676       -68.4218524      0.35155676       -68.4218524      0.930058148      20.5792936       
228.43           0.932297921      20.2359403       0.345938486      -68.773856       0.345938486      -68.773856       0.932297921      20.2359403       
232.42           0.934439332      19.9024892       0.340470388      -69.1156918      0.340470388      -69.1156918      0.934439332      19.9024892       
236.41           0.936487868      19.5785273       0.335146886      -69.4477842      0.335146886      -69.4477842      0.936487868      19.5785273       
240.4            0.938448649      19.2636628       0.32996264       -69.7705353      0.32996264       -69.7705353      0.938448649      19.2636628       
244.39           0.940326461      18.9575239       0.324912537      -70.0843267      0.324912537      -70.0843267      0.940326461      18.9575239       
248.38           0.942125778      18.659758        0.319991686      -70.3895203      0.319991686      -70.3895203      0.942125778      18.659758        
252.37           0.943850787      18.3700304       0.315195402      -70.6864596      0.315195402      -70.6864596      0.943850787      18.3700304       
256.36           0.945505408      18.0880228       0.310519204      -70.9754709      0.310519204      -70.9754709      0.945505408      18.0880228       
260.35           0.947093312      17.8134331       0.305958802      -71.2568643      0.305958802      -71.2568643      0.947093312      17.8134331       
264.34           0.948617943      17.5459738       0.301510089      -71.5309344      0.301510089      -71.5309344      0.948617943      17.5459738       
268.33           0.950082529      17.2853716       0.297169133      -71.7979615      0.297169133      -71.7979615      0.950082529      17.2853716       
272.32           0.951490102      17.0313665       0.292932168      -72.0582123      0.292932168      -72.0582123      0.951490102      17.0313665       
276.31           0.95284351       16.7837107       0.28879559       -72.3119405      0.28879559       -72.3119405      0.95284351       16.7837107       
280.3            0.954145428      16.5421683       0.284755944      -72.559388       0.284755944      -72.559388       0.954145428      16.5421683       
284.29           0.955398374      16.3065147       0.280809922      -72.800785       0.280809922      -72.800785       0.955398374      16.3065147       
288.28           0.956604716      16.0765354       0.276954354      -73.0363511      0.276954354      -73.0363511      0.956604716      16.0765354       
292.27           0.957766684      15.8520262       0.2731862        -73.2662957      0.2731862        -73.2662957      0.957766684      15.8520262       
296.26           0.95888638       15.6327921       0.269502549      -73.4908185      0.269502549      -73.4908185      0.95888638       15.6327921       
300.25           0.959965784      15.4186468       0.265900607      -73.7101102      0.265900607      -73.7101102      0.959965784      15.4186468       
304.24           0.961006764      15.2094127       0.262377696      -73.9243528      0.262377696      -73.9243528      0.961006764      15.2094127       
308.23           0.962011085      15.0049198       0.258931245      -74.1337202      0.258931245      -74.1337202      0.962011085      15.0049198       
312.22           0.962980411      14.8050059       0.25555879       -74.3383787      0.25555879       -74.3383787      0.962980411      14.8050059       
316.21           0.963916317      14.6095158       0.252257963      -74.5384872      0.252257963      -74.5384872      0.963916317      14.6095158       
320.2            0.964820289      14.4183009       0.249026493      -74.7341977      0.249026493      -74.7341977      0.964820289      14.4183009       
324.19           0.965693736      14.2312191       0.245862197      -74.9256556      0.245862197      -74.9256556      0.965693736      14.2312191       
328.18           0.966537988      14.0481345       0.242762979      -75.1130002      0.242762979      -75.1130002      0.966537988      14.0481345       
332.17           0.967354307      13.8689167       0.239726827      -75.2963648      0.239726827      -75.2963648      0.967354307      13.8689167       
336.16           0.968143887      13.6934409       0.236751804      -75.4758772      0.236751804      -75.4758772      0.968143887      13.6934409       
340.15           0.968907862      13.5215874       0.233836051      -75.6516598      0.233836051      -75.6516598      0.968907862      13.5215874       
344.14           0.969647305      13.3532415       0.230977778      -75.8238299      0.230977778      -75.8238299      0.969647305      13.3532415       
348.13           0.970363234      13.1882932       0.228175264      -75.9925001      0.228175264      -75.9925001      0.970363234      13.1882932       
352.12           0.971056619      13.0266369       0.225426854      -76.1577786      0.225426854      -76.1577786      0.971056619      13.0266369       
356.11           0.971728376      12.8681712       0.222730955      -76.3197688      0.222730955      -76.3197688      0.971728376      12.8681712       
360.1            0.97237938       12.7127987       0.220086032      -76.4785705      0.220086032      -76.4785705      0.97237938       12.7127987       
364.09           0.97301046       12.560426        0.217490609      -76.6342792      0.217490609      -76.6342792      0.97301046       12.560426        
368.08           0.973622406      12.4109632       0.214943263      -76.7869868      0.214943263      -76.7869868      0.973622406      12.4109632       
372.07           0.974215968      12.264324        0.212442625      -76.9367815      0.212442625      -76.9367815      0.974215968      12.264324        
376.06           0.974791861      12.1204252       0.209987373      -77.0837484      0.209987373      -77.0837484      0.974791861      12.1204252       
380.05           0.975350768      11.979187        0.207576234      -77.2279691      0.207576234      -77.2279691      0.975350768      11.979187        
384.04           0.975893335      11.8405326       0.205207981      -77.3695221      0.205207981      -77.3695221      0.975893335      11.8405326       
388.03           0.976420181      11.7043878       0.20288143       -77.508483       0.20288143       -77.508483       0.976420181      11.7043878       
392.02           0.976931897      11.5706815       0.20059544       -77.6449248      0.20059544       -77.6449248      0.976931897      11.5706815       
396.01           0.977429045      11.439345        0.198348908      -77.7789174      0.198348908      -77.7789174      0.977429045      11.439345        
400              0.97791216       11.3103122       0.19614077       -77.9105284      0.19614077       -77.9105284      0.97791216       11.3103122       
403.99           0.978381757      11.1835194       0.193970001      -78.039823       0.193970001      -78.039823       0.978381757      11.1835194       
407.98           0.978838324      11.0589051       0.191835608      -78.1668639      0.191835608      -78.1668639      0.978838324      11.0589051       
411.97           0.979282328      10.9364101       0.189736634      -78.2917115      0.189736634      -78.2917115      0.979282328      10.9364101       
415.96           0.979714218      10.8159773       0.187672154      -78.4144243      0.187672154      -78.4144243      0.979714218      10.8159773       
419.95           0.980134421      10.6975514       0.185641272      -78.5350584      0.185641272      -78.5350584      0.980134421      10.6975514       
423.94           0.980543345      10.5810792       0.183643125      -78.6536683      0.183643125      -78.6536683      0.980543345      10.5810792       
427.93           0.980941381      10.4665094       0.181676878      -78.7703063      0.181676878      -78.7703063      0.980941381      10.4665094       
431.92           0.981328905      10.3537923       0.179741721      -78.8850232      0.179741721      -78.8850232      0.981328905      10.3537923       
435.91           0.981706275      10.24288         0.177836873      -78.9978678      0.177836873      -78.9978678      0.981706275      10.24288         
439.9            0.982073834      10.1337261       0.175961578      -79.1088873      0.175961578      -79.1088873      0.982073834      10.1337261       
443.89           0.982431912      10.0262858       0.174115104      -79.2181274      0.174115104      -79.2181274      0.982431912      10.0262858       
447.88           0.982780824      9.92051592       0.172296741      -79.3256323      0.172296741      -79.3256323      0.982780824      9.92051592       
451.87           0.983120872      9.8163745        0.170505804      -79.4314445      0.170505804      -79.4314445      0.983120872      9.8163745        
455.86           0.983452348      9.71382107       0.168741628      -79.5356054      0.168741628      -79.5356054      0.983452348      9.71382107       
459.85           0.98377553       9.61281644       0.16700357       -79.6381549      0.16700357       -79.6381549      0.98377553       9.61281644       
463.84           0.984090684      9.51332268       0.165291005      -79.7391315      0.165291005      -79.7391315      0.984090684      9.51332268       
467.83           0.984398068      9.41530308       0.163603331      -79.8385727      0.163603331      -79.8385727      0.984398068      9.41530308       
471.82           0.984697929      9.3187221        0.16193996       -79.9365146      0.16193996       -79.9365146      0.984697929      9.3187221        
475.81           0.984990502      9.22354531       0.160300326      -80.0329922      0.160300326      -80.0329922      0.984990502      9.22354531       
479.8            0.985276016      9.12973936       0.158683877      -80.1280394      0.158683877      -80.1280394      0.985276016      9.12973936       
483.79           0.985554689      9.03727194       0.15709008       -80.221689       0.15709008       -80.221689       0.985554689      9.03727194       
487.78           0.985826732      8.94611173       0.155518415      -80.313973       0.155518415      -80.313973       0.985826732      8.94611173       
491.77           0.986092348      8.85622837       0.153968382      -80.4049221      0.153968382      -80.4049221      0.986092348      8.85622837       
495.76           0.98635173       8.76759241       0.152439491      -80.4945662      0.152439491      -80.4945662      0.98635173       8.76759241       
499.75           0.986605066      8.68017532       0.150931269      -80.5829342      0.150931269      -80.5829342      0.986605066      8.68017532       
503.74           0.986852538      8.59394939       0.149443257      -80.6700544      0.149443257      -80.6700544      0.986852538      8.59394939       
507.73           0.987094317      8.50888776       0.147975007      -80.7559538      0.147975007      -80.7559538      0.987094317      8.50888776       
