! Coilcraft 1206CS-471 Chip Inductor				
! 29 July 2002			
# MHZ S MA R 50
!Freq             MagS11           AngS11           MagS21           AngS21           MagS12           AngS12           MagS22           AngS22
1                0.0344559875     55.5557024       0.980923174      -1.65995643      0.980923174      -1.65995643      0.0344559875     55.5557024       
3.49             0.102852672      71.0154755       0.971421689      -5.74604589      0.971421689      -5.74604589      0.102852672      71.0154755       
5.98             0.171431701      71.3281911       0.958969329      -9.75047973      0.958969329      -9.75047973      0.171431701      71.3281911       
8.47             0.237641986      69.398906        0.942995505      -13.6442311      0.942995505      -13.6442311      0.237641986      69.398906        
10.96            0.300593712      66.7898565       0.923810498      -17.4005402      0.923810498      -17.4005402      0.300593712      66.7898565       
13.45            0.359729672      63.9547298       0.901944784      -20.9979646      0.901944784      -20.9979646      0.359729672      63.9547298       
15.94            0.414718817      61.0797913       0.877999436      -24.4211724      0.877999436      -24.4211724      0.414718817      61.0797913       
18.43            0.465417939      58.2561941       0.852572948      -27.6608339      0.852572948      -27.6608339      0.465417939      58.2561941       
20.92            0.511836709      55.5322328       0.826218194      -30.7130029      0.826218194      -30.7130029      0.511836709      55.5322328       
23.41            0.55410161       52.9335974       0.799418521      -33.5782326      0.799418521      -33.5782326      0.55410161       52.9335974       
25.9             0.592421484      50.4727864       0.772577668      -36.2606057      0.772577668      -36.2606057      0.592421484      50.4727864       
28.39            0.627057349      48.1541468       0.746019316      -38.7667995      0.746019316      -38.7667995      0.627057349      48.1541468       
30.88            0.658297865      45.9768679       0.719992738      -41.1052581      0.719992738      -41.1052581      0.658297865      45.9768679       
33.37            0.686440683      43.9368906       0.694681763      -43.2855055      0.694681763      -43.2855055      0.686440683      43.9368906       
35.86            0.711779142      42.0281762       0.670214991      -45.3176027      0.670214991      -45.3176027      0.711779142      42.0281762       
38.35            0.734593453      40.2435662       0.646675964      -47.2117397      0.646675964      -47.2117397      0.734593453      40.2435662       
40.84            0.755145358      38.575366        0.624112487      -48.9779416      0.624112487      -48.9779416      0.755145358      38.575366        
43.33            0.773675389      37.0157395       0.602544761      -50.6258683      0.602544761      -50.6258683      0.773675389      37.0157395       
45.82            0.79040193       35.5569687       0.58197219       -52.164687       0.58197219       -52.164687       0.79040193       35.5569687       
48.31            0.8055215        34.1916194       0.562378947      -53.6029988      0.562378947      -53.6029988      0.8055215        34.1916194       
50.8             0.819209789      32.9126414       0.543738393      -54.9488053      0.543738393      -54.9488053      0.819209789      32.9126414       
53.29            0.831623125      31.7134215       0.526016545      -56.2095034      0.526016545      -56.2095034      0.831623125      31.7134215       
55.78            0.842900151      30.5878066       0.509174727      -57.3918984      0.509174727      -57.3918984      0.842900151      30.5878066       
58.27            0.853163555      29.5301043       0.493171586      -58.5022298      0.493171586      -58.5022298      0.853163555      29.5301043       
60.76            0.862521761      28.535071        0.47796458       -59.5462044      0.47796458       -59.5462044      0.862521761      28.535071        
63.25            0.871070526      27.5978909       0.463511073      -60.5290324      0.463511073      -60.5290324      0.871070526      27.5978909       
65.74            0.878894413      26.7141503       0.449769109      -61.455466       0.449769109      -61.455466       0.878894413      26.7141503       
68.23            0.886068121      25.8798098       0.436697951      -62.3298369      0.436697951      -62.3298369      0.886068121      25.8798098       
70.72            0.892657681      25.0911754       0.42425844       -63.1560926      0.42425844       -63.1560926      0.892657681      25.0911754       
73.21            0.898721516      24.3448704       0.412413218      -63.9378312      0.412413218      -63.9378312      0.898721516      24.3448704       
75.7             0.904311379      23.6378083       0.40112685       -64.6783333      0.40112685       -64.6783333      0.904311379      23.6378083       
78.19            0.909473169      22.9671672       0.390365877      -65.3805918      0.390365877      -65.3805918      0.909473169      22.9671672       
80.68            0.914247655      22.330366        0.380098809      -66.0473391      0.380098809      -66.0473391      0.914247655      22.330366        
83.17            0.918671102      21.7250424       0.370296092      -66.6810717      0.370296092      -66.6810717      0.918671102      21.7250424       
85.66            0.922775824      21.1490328       0.360930041      -67.2840731      0.360930041      -67.2840731      0.922775824      21.1490328       
88.15            0.926590655      20.6003537       0.351974759      -67.8584338      0.351974759      -67.8584338      0.926590655      20.6003537       
90.64            0.93014137       20.0771855       0.343406049      -68.4060697      0.343406049      -68.4060697      0.93014137       20.0771855       
93.13            0.93345105       19.5778567       0.335201322      -68.9287387      0.335201322      -68.9287387      0.93345105       19.5778567       
95.62            0.936540396      19.1008307       0.327339492      -69.4280557      0.327339492      -69.4280557      0.936540396      19.1008307       
98.11            0.939428003      18.6446934       0.319800892      -69.9055055      0.319800892      -69.9055055      0.939428003      18.6446934       
100.6            0.94213061       18.2081416       0.312567168      -70.3624555      0.312567168      -70.3624555      0.94213061       18.2081416       
103.09           0.944663302      17.7899734       0.305621201      -70.8001661      0.305621201      -70.8001661      0.944663302      17.7899734       
105.58           0.9470397        17.389079        0.298947012      -71.2198005      0.298947012      -71.2198005      0.9470397        17.389079        
108.07           0.949272123      17.0044325       0.292529689      -71.6224333      0.292529689      -71.6224333      0.949272123      17.0044325       
110.56           0.95137173       16.6350842       0.286355302      -72.0090587      0.286355302      -72.0090587      0.95137173       16.6350842       
113.05           0.953348642      16.2801545       0.280410843      -72.3805975      0.280410843      -72.3805975      0.953348642      16.2801545       
115.54           0.955212058      15.9388274       0.274684149      -72.7379032      0.274684149      -72.7379032      0.955212058      15.9388274       
118.03           0.956970346      15.6103453       0.269163848      -73.0817684      0.269163848      -73.0817684      0.956970346      15.6103453       
120.52           0.958631135      15.294004        0.263839296      -73.4129291      0.263839296      -73.4129291      0.958631135      15.294004        
123.01           0.960201385      14.9891484       0.258700529      -73.7320702      0.258700529      -73.7320702      0.960201385      14.9891484       
125.5            0.961687457      14.695168        0.253738211      -74.0398297      0.253738211      -74.0398297      0.961687457      14.695168        
127.99           0.963095174      14.4114939       0.248943589      -74.3368018      0.248943589      -74.3368018      0.963095174      14.4114939       
130.48           0.964429871      14.1375949       0.244308453      -74.6235415      0.244308453      -74.6235415      0.964429871      14.1375949       
132.97           0.965696444      13.8729748       0.239825092      -74.9005669      0.239825092      -74.9005669      0.965696444      13.8729748       
135.46           0.96689939       13.6171697       0.235486267      -75.1683624      0.235486267      -75.1683624      0.96689939       13.6171697       
137.95           0.968042849      13.3697452       0.231285169      -75.4273816      0.231285169      -75.4273816      0.968042849      13.3697452       
140.44           0.969130632      13.1302945       0.227215396      -75.678049       0.227215396      -75.678049       0.969130632      13.1302945       
142.93           0.970166254      12.8984359       0.22327092       -75.9207631      0.22327092       -75.9207631      0.970166254      12.8984359       
145.42           0.971152959      12.6738114       0.219446062      -76.1558974      0.219446062      -76.1558974      0.971152959      12.6738114       
147.91           0.972093749      12.4560845       0.215735471      -76.3838031      0.215735471      -76.3838031      0.972093749      12.4560845       
150.4            0.972991398      12.244939        0.212134099      -76.6048102      0.212134099      -76.6048102      0.972991398      12.244939        
152.89           0.973848477      12.0400772       0.20863718       -76.8192291      0.20863718       -76.8192291      0.973848477      12.0400772       
155.38           0.974667372      11.8412189       0.205240216      -77.0273522      0.205240216      -77.0273522      0.974667372      11.8412189       
157.87           0.975450295      11.6480998       0.201938953      -77.2294551      0.201938953      -77.2294551      0.975450295      11.6480998       
160.36           0.976199304      11.460471        0.198729369      -77.4257976      0.198729369      -77.4257976      0.976199304      11.460471        
162.85           0.976916311      11.2780971       0.195607658      -77.616625       0.195607658      -77.616625       0.976916311      11.2780971       
165.34           0.977603097      11.1007561       0.192570215      -77.802169       0.192570215      -77.802169       0.977603097      11.1007561       
167.83           0.978261323      10.9282379       0.189613628      -77.9826484      0.189613628      -77.9826484      0.978261323      10.9282379       
170.32           0.978892536      10.7603439       0.186734658      -78.1582706      0.186734658      -78.1582706      0.978892536      10.7603439       
172.81           0.979498183      10.596886        0.183930234      -78.3292316      0.183930234      -78.3292316      0.979498183      10.596886        
175.3            0.980079613      10.4376862       0.181197443      -78.4957171      0.181197443      -78.4957171      0.980079613      10.4376862       
177.79           0.980638091      10.2825754       0.178533516      -78.6579031      0.178533516      -78.6579031      0.980638091      10.2825754       
180.28           0.981174798      10.1313936       0.175935822      -78.8159566      0.175935822      -78.8159566      0.981174798      10.1313936       
182.77           0.981690842      9.98398874       0.173401861      -78.9700362      0.173401861      -78.9700362      0.981690842      9.98398874       
185.26           0.982187262      9.84021641       0.170929254      -79.1202922      0.170929254      -79.1202922      0.982187262      9.84021641       
187.75           0.982665032      9.69993942       0.168515735      -79.2668677      0.168515735      -79.2668677      0.982665032      9.69993942       
190.24           0.983125067      9.56302729       0.166159149      -79.4098987      0.166159149      -79.4098987      0.983125067      9.56302729       
192.73           0.983568226      9.42935589       0.16385744       -79.5495146      0.16385744       -79.5495146      0.983568226      9.42935589       
195.22           0.983995319      9.29880705       0.161608649      -79.6858384      0.161608649      -79.6858384      0.983995319      9.29880705       
197.71           0.984407105      9.17126822       0.159410909      -79.8189875      0.159410909      -79.8189875      0.984407105      9.17126822       
200.2            0.984804301      9.04663211       0.157262435      -79.9490736      0.157262435      -79.9490736      0.984804301      9.04663211       
202.69           0.985187583      8.92479643       0.155161525      -80.0762032      0.155161525      -80.0762032      0.985187583      8.92479643       
205.18           0.985557586      8.80566361       0.153106554      -80.2004781      0.153106554      -80.2004781      0.985557586      8.80566361       
207.67           0.985914912      8.68914048       0.151095967      -80.3219953      0.151095967      -80.3219953      0.985914912      8.68914048       
210.16           0.986260128      8.57513808       0.149128279      -80.4408473      0.149128279      -80.4408473      0.986260128      8.57513808       
212.65           0.986593769      8.46357141       0.147202067      -80.5571228      0.147202067      -80.5571228      0.986593769      8.46357141       
215.14           0.986916343      8.3543592        0.145315974      -80.6709063      0.145315974      -80.6709063      0.986916343      8.3543592        
217.63           0.987228328      8.24742373       0.143468695      -80.7822787      0.143468695      -80.7822787      0.987228328      8.24742373       
220.12           0.987530178      8.14269064       0.141658985      -80.8913174      0.141658985      -80.8913174      0.987530178      8.14269064       
222.61           0.987822323      8.04008874       0.139885647      -80.9980966      0.139885647      -80.9980966      0.987822323      8.04008874       
225.1            0.98810517       7.93954984       0.138147538      -81.1026871      0.138147538      -81.1026871      0.98810517       7.93954984       
227.59           0.988379104      7.84100861       0.136443557      -81.2051569      0.136443557      -81.2051569      0.988379104      7.84100861       
230.08           0.988644492      7.74440243       0.134772652      -81.3055712      0.134772652      -81.3055712      0.988644492      7.74440243       
232.57           0.988901682      7.64967125       0.133133811      -81.4039924      0.133133811      -81.4039924      0.988901682      7.64967125       
235.06           0.989151003      7.55675746       0.131526062      -81.5004804      0.131526062      -81.5004804      0.989151003      7.55675746       
237.55           0.989392769      7.46560575       0.129948474      -81.5950926      0.129948474      -81.5950926      0.989392769      7.46560575       
240.04           0.989627278      7.37616304       0.128400148      -81.6878843      0.128400148      -81.6878843      0.989627278      7.37616304       
242.53           0.989854814      7.28837834       0.126880225      -81.7789084      0.126880225      -81.7789084      0.989854814      7.28837834       
245.02           0.990075646      7.20220263       0.125387876      -81.8682158      0.125387876      -81.8682158      0.990075646      7.20220263       
247.51           0.990290032      7.11758883       0.123922303      -81.9558554      0.123922303      -81.9558554      0.990290032      7.11758883       
250              0.990498215      7.03449163       0.122482741      -82.0418742      0.122482741      -82.0418742      0.990498215      7.03449163       
252.49           0.99070043       6.95286746       0.121068451      -82.1263175      0.121068451      -82.1263175      0.99070043       6.95286746       
254.98           0.990896897      6.87267439       0.119678722      -82.2092286      0.119678722      -82.2092286      0.990896897      6.87267439       
257.47           0.99108783       6.79387205       0.118312869      -82.2906495      0.118312869      -82.2906495      0.99108783       6.79387205       
259.96           0.99127343       6.71642159       0.116970235      -82.3706204      0.116970235      -82.3706204      0.99127343       6.71642159       
262.45           0.991453891      6.64028555       0.115650181      -82.4491801      0.115650181      -82.4491801      0.991453891      6.64028555       
264.94           0.991629397      6.56542785       0.114352096      -82.526366       0.114352096      -82.526366       0.991629397      6.56542785       
267.43           0.991800124      6.49181371       0.113075389      -82.6022141      0.113075389      -82.6022141      0.991800124      6.49181371       
269.92           0.99196624       6.41940959       0.111819488      -82.676759       0.111819488      -82.676759       0.99196624       6.41940959       
272.41           0.992127907      6.34818314       0.110583845      -82.7500341      0.110583845      -82.7500341      0.992127907      6.34818314       
274.9            0.992285278      6.27810315       0.109367926      -82.8220718      0.109367926      -82.8220718      0.992285278      6.27810315       
277.39           0.9924385        6.2091395        0.10817122       -82.8929032      0.10817122       -82.8929032      0.9924385        6.2091395        
279.88           0.992587716      6.14126308       0.10699323       -82.9625581      0.10699323       -82.9625581      0.992587716      6.14126308       
282.37           0.992733059      6.07444582       0.105833478      -83.0310657      0.105833478      -83.0310657      0.992733059      6.07444582       
284.86           0.992874659      6.00866058       0.104691502      -83.0984538      0.104691502      -83.0984538      0.992874659      6.00866058       
287.35           0.993012641      5.94388114       0.103566853      -83.1647494      0.103566853      -83.1647494      0.993012641      5.94388114       
289.84           0.993147123      5.88008215       0.102459099      -83.2299787      0.102459099      -83.2299787      0.993147123      5.88008215       
292.33           0.993278218      5.8172391        0.101367822      -83.2941668      0.101367822      -83.2941668      0.993278218      5.8172391        
294.82           0.993406038      5.75532831       0.100292617      -83.3573379      0.100292617      -83.3573379      0.993406038      5.75532831       
297.31           0.993530685      5.69432684       0.099233092      -83.4195157      0.099233092      -83.4195157      0.993530685      5.69432684       
299.8            0.993652262      5.63421251       0.0981888681     -83.4807229      0.0981888681     -83.4807229      0.993652262      5.63421251       
302.29           0.993770865      5.57496385       0.0971595781     -83.5409814      0.0971595781     -83.5409814      0.993770865      5.57496385       
304.78           0.993886586      5.51656007       0.0961448663     -83.6003126      0.0961448663     -83.6003126      0.993886586      5.51656007       
307.27           0.993999516      5.45898104       0.0951443882     -83.6587368      0.0951443882     -83.6587368      0.993999516      5.45898104       
309.76           0.99410974       5.40220727       0.0941578102     -83.7162742      0.0941578102     -83.7162742      0.99410974       5.40220727       
312.25           0.99421734       5.34621985       0.0931848087     -83.7729438      0.0931848087     -83.7729438      0.99421734       5.34621985       
314.74           0.994322396      5.29100049       0.0922250702     -83.8287643      0.0922250702     -83.8287643      0.994322396      5.29100049       
317.23           0.994424985      5.23653144       0.0912782905     -83.8837537      0.0912782905     -83.8837537      0.994424985      5.23653144       
