! Coilcraft 1206CS-820 Chip Inductor				
! 29 July 2002			
# MHZ S MA R 50
!Freq             MagS11           AngS11           MagS21           AngS21           MagS12           AngS12           MagS22           AngS22
1                0.00615106057    57.3771834       0.996697389      -0.297814602     0.996697389      -0.297814602     0.00615106057    57.3771834       
6.23             0.0327219053     78.9786746       0.994263318      -1.85118783      0.994263318      -1.85118783      0.0327219053     78.9786746       
11.46            0.0596211331     80.4881598       0.991891993      -3.3986062       0.991891993      -3.3986062       0.0596211331     80.4881598       
16.69            0.086396629      80.2595676       0.989055288      -4.93890436      0.989055288      -4.93890436      0.086396629      80.2595676       
21.92            0.112971662      79.4829973       0.98565804       -6.47040693      0.98565804       -6.47040693      0.112971662      79.4829973       
27.15            0.139290126      78.46236         0.981673288      -7.99133885      0.981673288      -7.99133885      0.139290126      78.46236         
32.38            0.165301847      77.3142107       0.977099139      -9.49992846      0.977099139      -9.49992846      0.165301847      77.3142107       
37.61            0.190960459      76.0941563       0.971946485      -10.9944543      0.971946485      -10.9944543      0.190960459      76.0941563       
42.84            0.216223138      74.8327509       0.966234068      -12.473273       0.966234068      -12.473273       0.216223138      74.8327509       
48.07            0.241050702      73.548559        0.959985967      -13.9348373      0.959985967      -13.9348373      0.241050702      73.548559        
53.3             0.265407768      72.253744        0.953230094      -15.3777094      0.953230094      -15.3777094      0.265407768      72.253744        
58.53            0.289262883      70.9567502       0.945997143      -16.80057        0.945997143      -16.80057        0.289262883      70.9567502       
63.76            0.312588597      69.6637074       0.938319781      -18.2022241      0.938319781      -18.2022241      0.312588597      69.6637074       
68.99            0.33536147       68.3792194       0.930231997      -19.5816046      0.930231997      -19.5816046      0.33536147       68.3792194       
74.22            0.357562027      67.1068307       0.921768542      -20.9377735      0.921768542      -20.9377735      0.357562027      67.1068307       
79.45            0.379174656      65.8493189       0.912964451      -22.2699209      0.912964451      -22.2699209      0.379174656      65.8493189       
84.68            0.400187456      64.6088835       0.903854625      -23.5773632      0.903854625      -23.5773632      0.400187456      64.6088835       
89.91            0.420592057      63.3872746       0.894473478      -24.859539       0.894473478      -24.859539       0.420592057      63.3872746       
95.14            0.440383394      62.1858826       0.884854629      -26.1160041      0.884854629      -26.1160041      0.440383394      62.1858826       
100.37           0.459559472      61.0058039       0.875030648      -27.346426       0.875030648      -27.346426       0.459559472      61.0058039       
105.6            0.478121112      59.84789         0.865032853      -28.5505774      0.865032853      -28.5505774      0.478121112      59.84789         
110.83           0.496071683      58.7127855       0.85489114       -29.7283286      0.85489114       -29.7283286      0.496071683      58.7127855       
116.06           0.513416838      57.6009588       0.844633862      -30.879641       0.844633862      -30.879641       0.513416838      57.6009588       
121.29           0.530164252      56.5127269       0.83428774       -32.004559       0.83428774       -32.004559       0.530164252      56.5127269       
126.52           0.546323364      55.448276        0.823877805      -33.1032023      0.823877805      -33.1032023      0.546323364      55.448276        
131.75           0.561905131      54.4076798       0.813427374      -34.1757592      0.813427374      -34.1757592      0.561905131      54.4076798       
136.98           0.576921794      53.3909141       0.802958044      -35.2224784      0.802958044      -35.2224784      0.576921794      53.3909141       
142.21           0.591386661      52.3978709       0.792489709      -36.2436626      0.792489709      -36.2436626      0.591386661      52.3978709       
147.44           0.605313905      51.4283695       0.782040597      -37.2396615      0.782040597      -37.2396615      0.605313905      51.4283695       
152.67           0.618718378      50.4821674       0.771627318      -38.2108656      0.771627318      -38.2108656      0.618718378      50.4821674       
157.9            0.631615441      49.5589691       0.761264928      -39.1577002      0.761264928      -39.1577002      0.631615441      49.5589691       
163.13           0.644020816      48.6584348       0.750966991      -40.0806199      0.750966991      -40.0806199      0.644020816      48.6584348       
168.36           0.655950448      47.7801872       0.740745659      -40.9801035      0.740745659      -40.9801035      0.655950448      47.7801872       
173.59           0.667420389      46.9238184       0.73061175       -41.8566493      0.73061175       -41.8566493      0.667420389      46.9238184       
178.82           0.678446691      46.0888955       0.720574832      -42.710771       0.720574832      -42.710771       0.678446691      46.0888955       
184.05           0.689045318      45.2749658       0.710643298      -43.5429936      0.710643298      -43.5429936      0.689045318      45.2749658       
189.28           0.699232066      44.4815612       0.700824457      -44.3538502      0.700824457      -44.3538502      0.699232066      44.4815612       
194.51           0.709022503      43.7082024       0.691124608      -45.1438788      0.691124608      -45.1438788      0.709022503      43.7082024       
199.74           0.718431907      42.9544023       0.681549121      -45.9136195      0.681549121      -45.9136195      0.718431907      42.9544023       
204.97           0.727475228      42.219669        0.672102513      -46.6636123      0.672102513      -46.6636123      0.727475228      42.219669        
210.2            0.736167048      41.5035086       0.66278852       -47.3943947      0.66278852       -47.3943947      0.736167048      41.5035086       
215.43           0.744521553      40.8054275       0.653610164      -48.1065002      0.653610164      -48.1065002      0.744521553      40.8054275       
220.66           0.752552513      40.1249345       0.64456982       -48.8004563      0.64456982       -48.8004563      0.752552513      40.1249345       
225.89           0.760273263      39.4615423       0.635669278      -49.4767838      0.635669278      -49.4767838      0.760273263      39.4615423       
231.12           0.767696697      38.8147692       0.626909797      -50.1359948      0.626909797      -50.1359948      0.767696697      38.8147692       
236.35           0.774835258      38.1841402       0.618292161      -50.7785924      0.618292161      -50.7785924      0.774835258      38.1841402       
241.58           0.781700939      37.569188        0.609816726      -51.4050698      0.609816726      -51.4050698      0.781700939      37.569188        
246.81           0.78830528       36.9694539       0.601483471      -52.0159096      0.601483471      -52.0159096      0.78830528       36.9694539       
252.04           0.794659376      36.3844886       0.593292032      -52.611583       0.593292032      -52.611583       0.794659376      36.3844886       
257.27           0.800773881      35.8138526       0.585241749      -53.1925501      0.585241749      -53.1925501      0.800773881      35.8138526       
262.5            0.806659015      35.2571167       0.577331694      -53.7592588      0.577331694      -53.7592588      0.806659015      35.2571167       
267.73           0.812324577      34.7138622       0.569560711      -54.3121455      0.569560711      -54.3121455      0.812324577      34.7138622       
272.96           0.817779951      34.1836815       0.561927439      -54.8516343      0.561927439      -54.8516343      0.817779951      34.1836815       
278.19           0.82303412       33.6661776       0.554430342      -55.3781371      0.554430342      -55.3781371      0.82303412       33.6661776       
283.42           0.828095679      33.1609648       0.547067735      -55.892054       0.547067735      -55.892054       0.828095679      33.1609648       
288.65           0.832972846      32.6676684       0.539837803      -56.3937728      0.539837803      -56.3937728      0.832972846      32.6676684       
293.88           0.837673477      32.1859246       0.532738621      -56.8836698      0.532738621      -56.8836698      0.837673477      32.1859246       
299.11           0.842205077      31.7153807       0.525768175      -57.3621093      0.525768175      -57.3621093      0.842205077      31.7153807       
304.34           0.846574814      31.2556946       0.518924376      -57.829444       0.518924376      -57.829444       0.846574814      31.2556946       
309.57           0.850789535      30.8065351       0.512205074      -58.2860156      0.512205074      -58.2860156      0.850789535      30.8065351       
314.8            0.854855774      30.3675812       0.505608073      -58.7321545      0.505608073      -58.7321545      0.854855774      30.3675812       
320.03           0.85877977       29.9385224       0.499131142      -59.1681802      0.499131142      -59.1681802      0.85877977       29.9385224       
325.26           0.862567476      29.519058        0.492772022      -59.5944019      0.492772022      -59.5944019      0.862567476      29.519058        
330.49           0.866224575      29.1088973       0.486528443      -60.0111181      0.486528443      -60.0111181      0.866224575      29.1088973       
335.72           0.869756486      28.7077592       0.480398121      -60.4186176      0.480398121      -60.4186176      0.869756486      28.7077592       
340.95           0.873168385      28.3153716       0.474378778      -60.8171792      0.474378778      -60.8171792      0.873168385      28.3153716       
346.18           0.876465206      27.9314719       0.468468136      -61.2070726      0.468468136      -61.2070726      0.876465206      27.9314719       
351.41           0.879651658      27.555806        0.462663931      -61.588558       0.462663931      -61.588558       0.879651658      27.555806        
356.64           0.882732238      27.1881285       0.456963916      -61.9618868      0.456963916      -61.9618868      0.882732238      27.1881285       
361.87           0.885711231      26.8282022       0.451365863      -62.3273018      0.451365863      -62.3273018      0.885711231      26.8282022       
367.1            0.888592733      26.4757978       0.445867567      -62.6850375      0.445867567      -62.6850375      0.888592733      26.4757978       
372.33           0.891380647      26.1306941       0.440466853      -63.0353203      0.440466853      -63.0353203      0.891380647      26.1306941       
377.56           0.894078703      25.7926772       0.435161572      -63.378369       0.435161572      -63.378369       0.894078703      25.7926772       
382.79           0.89669046       25.4615404       0.429949611      -63.7143946      0.429949611      -63.7143946      0.89669046       25.4615404       
388.02           0.899219315      25.1370841       0.424828888      -64.0436012      0.424828888      -64.0436012      0.899219315      25.1370841       
393.25           0.901668514      24.8191155       0.419797357      -64.3661855      0.419797357      -64.3661855      0.901668514      24.8191155       
398.48           0.904041154      24.5074483       0.41485301       -64.6823377      0.41485301       -64.6823377      0.904041154      24.5074483       
403.71           0.906340197      24.2019027       0.409993875      -64.9922416      0.409993875      -64.9922416      0.906340197      24.2019027       
408.94           0.908568469      23.9023046       0.40521802       -65.2960744      0.40521802       -65.2960744      0.908568469      23.9023046       
414.17           0.910728672      23.6084861       0.40052355       -65.5940076      0.40052355       -65.5940076      0.910728672      23.6084861       
419.4            0.912823389      23.3202849       0.395908611      -65.8862066      0.395908611      -65.8862066      0.912823389      23.3202849       
424.63           0.914855089      23.0375442       0.391371389      -66.1728312      0.391371389      -66.1728312      0.914855089      23.0375442       
429.86           0.91682613       22.7601122       0.386910108      -66.4540361      0.386910108      -66.4540361      0.91682613       22.7601122       
435.09           0.91873877       22.4878425       0.382523033      -66.7299704      0.382523033      -66.7299704      0.91873877       22.4878425       
440.32           0.920595167      22.2205935       0.378208466      -67.0007784      0.378208466      -67.0007784      0.920595167      22.2205935       
445.55           0.922397387      21.9582282       0.373964751      -67.2665995      0.373964751      -67.2665995      0.922397387      21.9582282       
450.78           0.924147405      21.7006143       0.36979027       -67.5275685      0.36979027       -67.5275685      0.924147405      21.7006143       
456.01           0.925847113      21.4476237       0.365683442      -67.7838156      0.365683442      -67.7838156      0.925847113      21.4476237       
461.24           0.927498321      21.1991327       0.361642726      -68.0354668      0.361642726      -68.0354668      0.927498321      21.1991327       
466.47           0.929102763      20.9550215       0.357666615      -68.282644       0.357666615      -68.282644       0.929102763      20.9550215       
471.7            0.9306621        20.7151742       0.353753643      -68.5254647      0.353753643      -68.5254647      0.9306621        20.7151742       
476.93           0.932177922      20.4794789       0.349902377      -68.7640432      0.349902377      -68.7640432      0.932177922      20.4794789       
482.16           0.933651754      20.2478271       0.346111421      -68.9984894      0.346111421      -68.9984894      0.933651754      20.2478271       
487.39           0.935085056      20.0201138       0.342379413      -69.2289101      0.342379413      -69.2289101      0.935085056      20.0201138       
492.62           0.936479229      19.7962376       0.338705026      -69.4554085      0.338705026      -69.4554085      0.936479229      19.7962376       
497.85           0.937835617      19.5761          0.335086965      -69.6780845      0.335086965      -69.6780845      0.937835617      19.5761          
503.08           0.939155506      19.3596059       0.331523969      -69.8970347      0.331523969      -69.8970347      0.939155506      19.3596059       
508.31           0.940440134      19.1466631       0.32801481       -70.1123527      0.32801481       -70.1123527      0.940440134      19.1466631       
513.54           0.941690685      18.9371823       0.324558288      -70.3241292      0.324558288      -70.3241292      0.941690685      18.9371823       
518.77           0.942908299      18.731077        0.321153237      -70.5324519      0.321153237      -70.5324519      0.942908299      18.731077        
524              0.944094067      18.5282636       0.317798519      -70.7374058      0.317798519      -70.7374058      0.944094067      18.5282636       
529.23           0.945249039      18.3286607       0.314493026      -70.9390733      0.314493026      -70.9390733      0.945249039      18.3286607       
534.46           0.946374223      18.1321897       0.311235676      -71.1375342      0.311235676      -71.1375342      0.946374223      18.1321897       
539.69           0.947470586      17.9387744       0.308025419      -71.3328658      0.308025419      -71.3328658      0.947470586      17.9387744       
544.92           0.94853906       17.7483409       0.304861228      -71.5251429      0.304861228      -71.5251429      0.94853906       17.7483409       
550.15           0.949580539      17.5608174       0.301742105      -71.7144384      0.301742105      -71.7144384      0.949580539      17.5608174       
555.38           0.950595882      17.3761345       0.298667076      -71.9008225      0.298667076      -71.9008225      0.950595882      17.3761345       
560.61           0.951585917      17.1942247       0.295635192      -72.0843635      0.295635192      -72.0843635      0.951585917      17.1942247       
565.84           0.952551438      17.0150227       0.29264553       -72.2651278      0.29264553       -72.2651278      0.952551438      17.0150227       
571.07           0.953493211      16.838465        0.289697188      -72.4431795      0.289697188      -72.4431795      0.953493211      16.838465        
576.3            0.954411972      16.66449         0.28678929       -72.6185809      0.28678929       -72.6185809      0.954411972      16.66449         
581.53           0.955308429      16.4930381       0.28392098       -72.7913925      0.28392098       -72.7913925      0.955308429      16.4930381       
586.76           0.956183266      16.3240511       0.281091425      -72.961673       0.281091425      -72.961673       0.956183266      16.3240511       
591.99           0.957037138      16.1574728       0.278299812      -73.1294793      0.278299812      -73.1294793      0.957037138      16.1574728       
597.22           0.95787068       15.9932485       0.275545351      -73.2948667      0.275545351      -73.2948667      0.95787068       15.9932485       
602.45           0.958684499      15.8313251       0.272827269      -73.4578888      0.272827269      -73.4578888      0.958684499      15.8313251       
607.68           0.959479185      15.671651        0.270144815      -73.6185978      0.270144815      -73.6185978      0.959479185      15.671651        
612.91           0.960255303      15.5141761       0.267497256      -73.7770443      0.267497256      -73.7770443      0.960255303      15.5141761       
618.14           0.961013399      15.3588517       0.264883877      -73.9332773      0.264883877      -73.9332773      0.961013399      15.3588517       
623.37           0.961753999      15.2056305       0.262303981      -74.0873448      0.262303981      -74.0873448      0.961753999      15.2056305       
628.6            0.962477611      15.0544666       0.259756891      -74.2392929      0.259756891      -74.2392929      0.962477611      15.0544666       
633.83           0.963184725      14.9053152       0.257241942      -74.389167       0.257241942      -74.389167       0.963184725      14.9053152       
639.06           0.963875813      14.7581328       0.25475849       -74.5370106      0.25475849       -74.5370106      0.963875813      14.7581328       
644.29           0.964551331      14.6128772       0.252305904      -74.6828665      0.252305904      -74.6828665      0.964551331      14.6128772       
649.52           0.965211719      14.4695074       0.249883571      -74.826776       0.249883571      -74.826776       0.965211719      14.4695074       
654.75           0.965857402      14.3279832       0.247490892      -74.9687793      0.247490892      -74.9687793      0.965857402      14.3279832       
659.98           0.966488791      14.1882659       0.245127281      -75.1089156      0.245127281      -75.1089156      0.966488791      14.1882659       
665.21           0.967106281      14.0503176       0.24279217       -75.247223       0.24279217       -75.247223       0.967106281      14.0503176       
