! Coilcraft 1206CS-560 Chip Inductor				
! 29 July 2002			
# MHZ S MA R 50
!Freq             MagS11           AngS11           MagS21           AngS21           MagS12           AngS12           MagS22           AngS22
1                0.00399119674    61.430181        0.998097448      -0.201216904     0.998097448      -0.201216904     0.00399119674    61.430181        
6.73             0.0238278673     80.6318445       0.996398756      -1.35202176      0.996398756      -1.35202176      0.0238278673     80.6318445       
12.46            0.0438167463     82.0576309       0.994892445      -2.49999064      0.994892445      -2.49999064      0.0438167463     82.0576309       
18.19            0.0637523502     82.0317957       0.993171289      -3.64480422      0.993171289      -3.64480422      0.0637523502     82.0317957       
23.92            0.0836033185     81.5416022       0.991158353      -4.78584363      0.991158353      -4.78584363      0.0836033185     81.5416022       
29.65            0.103346611      80.8399455       0.988825779      -5.92241412      0.988825779      -5.92241412      0.103346611      80.8399455       
35.38            0.122961113      80.0240127       0.986162762      -7.05379695      0.986162762      -7.05379695      0.122961113      80.0240127       
41.11            0.142426688      79.140096        0.983166642      -8.17927114      0.983166642      -8.17927114      0.142426688      79.140096        
46.84            0.16172403       78.2134927       0.979839463      -9.29812532      0.979839463      -9.29812532      0.16172403       78.2134927       
52.57            0.180834684      77.2594403       0.976186357      -10.4096654      0.976186357      -10.4096654      0.180834684      77.2594403       
58.3             0.199741112      76.2878165       0.972214665      -11.5132197      0.972214665      -11.5132197      0.199741112      76.2878165       
64.03            0.218426761      75.3054059       0.9679334        -12.6081437      0.9679334        -12.6081437      0.218426761      75.3054059       
69.76            0.236876121      74.3170914       0.963352886      -13.6938224      0.963352886      -13.6938224      0.236876121      74.3170914       
75.49            0.25507478       73.3265236       0.958484489      -14.7696733      0.958484489      -14.7696733      0.25507478       73.3265236       
81.22            0.273009461      72.336519        0.953340411      -15.8351484      0.953340411      -15.8351484      0.273009461      72.336519        
86.95            0.290668046      71.3493068       0.947933514      -16.8897353      0.947933514      -16.8897353      0.290668046      71.3493068       
92.68            0.308039593      70.3666886       0.94227717       -17.9329585      0.94227717       -17.9329585      0.308039593      70.3666886       
98.41            0.32511434       69.3901447       0.936385131      -18.96438        0.936385131      -18.96438        0.32511434       69.3901447       
104.14           0.341883697      68.4209068       0.930271409      -19.9835997      0.930271409      -19.9835997      0.341883697      68.4209068       
109.87           0.358340233      67.4600098       0.923950167      -20.9902552      0.923950167      -20.9902552      0.358340233      67.4600098       
115.6            0.374477649      66.5083291       0.917435627      -21.9840218      0.917435627      -21.9840218      0.374477649      66.5083291       
121.33           0.390290747      65.5666076       0.910741979      -22.9646118      0.910741979      -22.9646118      0.390290747      65.5666076       
127.06           0.405775391      64.6354771       0.903883301      -23.9317738      0.903883301      -23.9317738      0.405775391      64.6354771       
132.79           0.420928469      63.7154739       0.896873491      -24.8852917      0.896873491      -24.8852917      0.420928469      63.7154739       
138.52           0.435747836      62.8070517       0.889726201      -25.824984       0.889726201      -25.824984       0.435747836      62.8070517       
144.25           0.450232269      61.9105919       0.882454786      -26.7507019      0.882454786      -26.7507019      0.450232269      61.9105919       
149.98           0.464381411      61.0264117       0.875072251      -27.6623284      0.875072251      -27.6623284      0.464381411      61.0264117       
155.71           0.478195715      60.1547712       0.867591216      -28.5597767      0.867591216      -28.5597767      0.478195715      60.1547712       
161.44           0.491676384      59.2958796       0.860023877      -29.4429889      0.860023877      -29.4429889      0.491676384      59.2958796       
167.17           0.504825317      58.4498998       0.85238198       -30.3119339      0.85238198       -30.3119339      0.504825317      58.4498998       
172.9            0.517645052      57.6169536       0.8446768        -31.1666064      0.8446768        -31.1666064      0.517645052      57.6169536       
178.63           0.530138703      56.7971252       0.836919121      -32.0070249      0.836919121      -32.0070249      0.530138703      56.7971252       
184.36           0.542309915      55.9904649       0.82911923       -32.8332302      0.82911923       -32.8332302      0.542309915      55.9904649       
190.09           0.554162799      55.1969925       0.821286905      -33.6452836      0.821286905      -33.6452836      0.554162799      55.1969925       
195.82           0.565701887      54.4166999       0.813431412      -34.4432657      0.813431412      -34.4432657      0.565701887      54.4166999       
201.55           0.576932082      53.6495542       0.80556151       -35.2272744      0.80556151       -35.2272744      0.576932082      53.6495542       
207.28           0.587858609      52.8955          0.797685451      -35.9974238      0.797685451      -35.9974238      0.587858609      52.8955          
213.01           0.598486968      52.1544613       0.789810988      -36.7538424      0.789810988      -36.7538424      0.598486968      52.1544613       
218.74           0.608822898      51.4263445       0.781945384      -37.4966719      0.781945384      -37.4966719      0.608822898      51.4263445       
224.47           0.618872332      50.7110392       0.774095424      -38.2260659      0.774095424      -38.2260659      0.618872332      50.7110392       
230.2            0.628641363      50.008421        0.766267428      -38.9421883      0.766267428      -38.9421883      0.628641363      50.008421        
235.93           0.638136209      49.3183526       0.758467262      -39.6452124      0.758467262      -39.6452124      0.638136209      49.3183526       
241.66           0.647363184      48.6406852       0.75070036       -40.3353197      0.75070036       -40.3353197      0.647363184      48.6406852       
247.39           0.656328666      47.9752606       0.742971736      -41.0126987      0.742971736      -41.0126987      0.656328666      47.9752606       
253.12           0.665039072      47.3219118       0.735286001      -41.677544       0.735286001      -41.677544       0.665039072      47.3219118       
258.85           0.673500836      46.6804644       0.727647383      -42.3300553      0.727647383      -42.3300553      0.673500836      46.6804644       
264.58           0.681720385      46.050738        0.720059744      -42.9704366      0.720059744      -42.9704366      0.681720385      46.050738        
270.31           0.689704122      45.432547        0.712526595      -43.5988951      0.712526595      -43.5988951      0.689704122      45.432547        
276.04           0.697458407      44.8257012       0.705051119      -44.2156408      0.705051119      -44.2156408      0.697458407      44.8257012       
281.77           0.704989542      44.2300072       0.697636185      -44.8208858      0.697636185      -44.8208858      0.704989542      44.2300072       
287.5            0.71230376       43.645269        0.690284365      -45.4148432      0.690284365      -45.4148432      0.71230376       43.645269        
293.23           0.719407209      43.0712884       0.682997957      -45.997727       0.682997957      -45.997727       0.719407209      43.0712884       
298.96           0.726305945      42.5078662       0.675778991      -46.5697514      0.675778991      -46.5697514      0.726305945      42.5078662       
304.69           0.733005923      41.9548023       0.668629255      -47.1311304      0.668629255      -47.1311304      0.733005923      41.9548023       
310.42           0.739512988      41.4118963       0.661550307      -47.682077       0.661550307      -47.682077       0.739512988      41.4118963       
316.15           0.745832871      40.8789483       0.654543488      -48.2228034      0.654543488      -48.2228034      0.745832871      40.8789483       
321.88           0.75197118       40.3557589       0.647609938      -48.7535201      0.647609938      -48.7535201      0.75197118       40.3557589       
327.61           0.757933402      39.8421298       0.640750613      -49.2744359      0.640750613      -49.2744359      0.757933402      39.8421298       
333.34           0.763724895      39.3378643       0.633966291      -49.7857574      0.633966291      -49.7857574      0.763724895      39.3378643       
339.07           0.769350885      38.8427673       0.627257592      -50.287689       0.627257592      -50.287689       0.769350885      38.8427673       
344.8            0.774816469      38.3566455       0.620624985      -50.7804326      0.620624985      -50.7804326      0.774816469      38.3566455       
350.53           0.78012661       37.8793081       0.6140688        -51.2641871      0.6140688        -51.2641871      0.78012661       37.8793081       
356.26           0.78528614       37.4105666       0.607589242      -51.7391489      0.607589242      -51.7391489      0.78528614       37.4105666       
361.99           0.790299754      36.9502351       0.601186396      -52.2055109      0.601186396      -52.2055109      0.790299754      36.9502351       
367.72           0.795172019      36.4981304       0.594860242      -52.6634633      0.594860242      -52.6634633      0.795172019      36.4981304       
373.45           0.799907369      36.0540722       0.588610658      -53.1131926      0.588610658      -53.1131926      0.799907369      36.0540722       
379.18           0.804510108      35.6178833       0.582437434      -53.5548822      0.582437434      -53.5548822      0.804510108      35.6178833       
384.91           0.808984411      35.1893894       0.576340276      -53.9887121      0.576340276      -53.9887121      0.808984411      35.1893894       
390.64           0.813334328      34.7684193       0.570318815      -54.4148588      0.570318815      -54.4148588      0.813334328      34.7684193       
396.37           0.817563784      34.3548053       0.564372614      -54.8334953      0.564372614      -54.8334953      0.817563784      34.3548053       
402.1            0.821676581      33.9483826       0.558501175      -55.2447911      0.558501175      -55.2447911      0.821676581      33.9483826       
407.83           0.825676403      33.5489898       0.552703942      -55.6489121      0.552703942      -55.6489121      0.825676403      33.5489898       
413.56           0.829566817      33.1564689       0.546980311      -56.0460208      0.546980311      -56.0460208      0.829566817      33.1564689       
419.29           0.833351275      32.770665        0.541329631      -56.4362761      0.541329631      -56.4362761      0.833351275      32.770665        
425.02           0.837033117      32.3914267       0.535751213      -56.8198334      0.535751213      -56.8198334      0.837033117      32.3914267       
430.75           0.840615576      32.0186057       0.530244332      -57.1968447      0.530244332      -57.1968447      0.840615576      32.0186057       
436.48           0.844101777      31.6520569       0.52480823       -57.5674584      0.52480823       -57.5674584      0.844101777      31.6520569       
442.21           0.847494744      31.2916388       0.519442122      -57.9318196      0.519442122      -57.9318196      0.847494744      31.2916388       
447.94           0.850797399      30.9372128       0.514145201      -58.29007        0.514145201      -58.29007        0.850797399      30.9372128       
453.67           0.854012568      30.5886435       0.508916637      -58.6423479      0.508916637      -58.6423479      0.854012568      30.5886435       
459.4            0.857142983      30.2457988       0.503755585      -58.9887883      0.503755585      -58.9887883      0.857142983      30.2457988       
465.13           0.860191284      29.9085495       0.498661182      -59.329523       0.498661182      -59.329523       0.860191284      29.9085495       
470.86           0.863160021      29.5767698       0.493632555      -59.6646807      0.493632555      -59.6646807      0.863160021      29.5767698       
476.59           0.866051661      29.2503364       0.488668821      -59.9943869      0.488668821      -59.9943869      0.866051661      29.2503364       
482.32           0.868868584      28.9291294       0.48376909       -60.3187639      0.48376909       -60.3187639      0.868868584      28.9291294       
488.05           0.871613092      28.6130316       0.478932464      -60.6379312      0.478932464      -60.6379312      0.871613092      28.6130316       
493.78           0.874287409      28.3019287       0.474158045      -60.9520052      0.474158045      -60.9520052      0.874287409      28.3019287       
499.51           0.876893684      27.9957092       0.469444931      -61.2610993      0.469444931      -61.2610993      0.876893684      27.9957092       
505.24           0.879433991      27.6942643       0.464792218      -61.5653244      0.464792218      -61.5653244      0.879433991      27.6942643       
510.97           0.881910336      27.3974879       0.460199005      -61.8647882      0.460199005      -61.8647882      0.881910336      27.3974879       
516.7            0.884324655      27.1052766       0.455664394      -62.1595961      0.455664394      -62.1595961      0.884324655      27.1052766       
522.43           0.886678821      26.8175295       0.451187488      -62.4498505      0.451187488      -62.4498505      0.886678821      26.8175295       
528.16           0.888974641      26.5341482       0.446767395      -62.7356514      0.446767395      -62.7356514      0.888974641      26.5341482       
533.89           0.891213861      26.2550368       0.442403229      -63.0170962      0.442403229      -63.0170962      0.891213861      26.2550368       
539.62           0.89339817       25.9801018       0.438094111      -63.2942799      0.438094111      -63.2942799      0.89339817       25.9801018       
545.35           0.895529198      25.7092521       0.433839167      -63.5672949      0.433839167      -63.5672949      0.895529198      25.7092521       
551.08           0.897608522      25.4423986       0.429637532      -63.8362315      0.429637532      -63.8362315      0.897608522      25.4423986       
556.81           0.899637662      25.1794549       0.425488348      -64.1011775      0.425488348      -64.1011775      0.899637662      25.1794549       
562.54           0.901618092      24.9203364       0.421390767      -64.3622186      0.421390767      -64.3622186      0.901618092      24.9203364       
568.27           0.903551233      24.6649608       0.417343949      -64.6194382      0.417343949      -64.6194382      0.903551233      24.6649608       
574              0.905438459      24.4132479       0.413347066      -64.8729176      0.413347066      -64.8729176      0.905438459      24.4132479       
579.73           0.9072811        24.1651192       0.409399296      -65.1227362      0.409399296      -65.1227362      0.9072811        24.1651192       
585.46           0.909080438      23.9204986       0.405499832      -65.3689712      0.405499832      -65.3689712      0.909080438      23.9204986       
591.19           0.910837716      23.6793118       0.401647875      -65.6116977      0.401647875      -65.6116977      0.910837716      23.6793118       
596.92           0.912554134      23.441486        0.397842636      -65.8509893      0.397842636      -65.8509893      0.912554134      23.441486        
602.65           0.914230853      23.2069508       0.394083339      -66.0869173      0.394083339      -66.0869173      0.914230853      23.2069508       
608.38           0.915868994      22.9756371       0.390369218      -66.3195515      0.390369218      -66.3195515      0.915868994      22.9756371       
614.11           0.917469644      22.7474778       0.38669952       -66.5489598      0.38669952       -66.5489598      0.917469644      22.7474778       
619.84           0.919033852      22.5224073       0.383073499      -66.7752084      0.383073499      -66.7752084      0.919033852      22.5224073       
625.57           0.920562634      22.3003618       0.379490427      -66.9983618      0.379490427      -66.9983618      0.920562634      22.3003618       
631.3            0.922056971      22.0812789       0.375949581      -67.2184829      0.375949581      -67.2184829      0.922056971      22.0812789       
637.03           0.923517816      21.8650979       0.372450254      -67.435633       0.372450254      -67.435633       0.923517816      21.8650979       
642.76           0.924946086      21.6517596       0.368991749      -67.649872       0.368991749      -67.649872       0.924946086      21.6517596       
648.49           0.926342673      21.4412061       0.36557338       -67.861258       0.36557338       -67.861258       0.926342673      21.4412061       
654.22           0.927708437      21.2333811       0.362194472      -68.0698479      0.362194472      -68.0698479      0.927708437      21.2333811       
659.95           0.929044213      21.0282297       0.358854364      -68.275697       0.358854364      -68.275697       0.929044213      21.0282297       
665.68           0.930350807      20.8256981       0.355552402      -68.4788595      0.355552402      -68.4788595      0.930350807      20.8256981       
671.41           0.931629002      20.6257342       0.352287949      -68.6793879      0.352287949      -68.6793879      0.931629002      20.6257342       
677.14           0.932879554      20.4282868       0.349060373      -68.8773336      0.349060373      -68.8773336      0.932879554      20.4282868       
682.87           0.934103195      20.2333062       0.345869057      -69.0727468      0.345869057      -69.0727468      0.934103195      20.2333062       
688.6            0.935300636      20.0407438       0.342713395      -69.2656762      0.342713395      -69.2656762      0.935300636      20.0407438       
694.33           0.936472564      19.8505522       0.339592789      -69.4561694      0.339592789      -69.4561694      0.936472564      19.8505522       
700.06           0.937619646      19.6626851       0.336506654      -69.6442731      0.336506654      -69.6442731      0.937619646      19.6626851       
705.79           0.938742526      19.4770973       0.333454415      -69.8300325      0.333454415      -69.8300325      0.938742526      19.4770973       
711.52           0.93984183       19.2937449       0.330435508      -70.0134918      0.330435508      -70.0134918      0.93984183       19.2937449       
717.25           0.940918165      19.1125848       0.327449378      -70.1946942      0.327449378      -70.1946942      0.940918165      19.1125848       
722.98           0.941972117      18.933575        0.32449548       -70.3736817      0.32449548       -70.3736817      0.941972117      18.933575        
728.71           0.943004256      18.7566745       0.321573282      -70.5504955      0.321573282      -70.5504955      0.943004256      18.7566745       
