! Coilcraft 1206CS-100 Chip Inductor				
! 29 July 2002			
# MHZ S MA R 50
!Freq             MagS11           AngS11           MagS21           AngS21           MagS12           AngS12           MagS22           AngS22
1                0.00139480236    31.1182411       0.998806166      -0.0413505796    0.998806166      -0.0413505796    0.00139480236    31.1182411       
20.7             0.0150457611     81.9534703       0.998005133      -0.855309335     0.998005133      -0.855309335     0.0150457611     81.9534703       
40.4             0.0292005767     83.9447278       0.997342501      -1.668404        0.997342501      -1.668404        0.0292005767     83.9447278       
60.1             0.0433522182     84.2091904       0.996559693      -2.48052949      0.996559693      -2.48052949      0.0433522182     84.2091904       
79.8             0.0574802531     83.985895        0.995620002      -3.29146839      0.995620002      -3.29146839      0.0574802531     83.985895        
99.5             0.0715744288     83.5531234       0.994509862      -4.10097651      0.994509862      -4.10097651      0.0715744288     83.5531234       
119.2            0.0856263994     83.0104214       0.993223203      -4.90879944      0.993223203      -4.90879944      0.0856263994     83.0104214       
138.9            0.099628444      82.4028493       0.991757355      -5.71467895      0.991757355      -5.71467895      0.099628444      82.4028493       
158.6            0.113573152      81.7540277       0.990111531      -6.51835633      0.990111531      -6.51835633      0.113573152      81.7540277       
178.3            0.127453333      81.0776668       0.988286134      -7.31957439      0.988286134      -7.31957439      0.127453333      81.0776668       
198              0.141261992      80.3823516       0.986282402      -8.11807888      0.986282402      -8.11807888      0.141261992      80.3823516       
217.7            0.154992329      79.6737859       0.984102202      -8.91361954      0.984102202      -8.91361954      0.154992329      79.6737859       
237.4            0.168637745      78.9559455       0.981747903      -9.70595095      0.981747903      -9.70595095      0.168637745      78.9559455       
257.1            0.182191857      78.2317149       0.979222287      -10.4948332      0.979222287      -10.4948332      0.182191857      78.2317149       
276.8            0.195648505      77.5032588       0.97652849       -11.2800327      0.97652849       -11.2800327      0.195648505      77.5032588       
296.5            0.209001768      76.7722494       0.973669951      -12.0613223      0.973669951      -12.0613223      0.209001768      76.7722494       
316.2            0.22224597       76.0400118       0.970650375      -12.8384821      0.970650375      -12.8384821      0.22224597       76.0400118       
335.9            0.235375693      75.3076188       0.967473701      -13.6112997      0.967473701      -13.6112997      0.235375693      75.3076188       
355.6            0.248385781      74.5759559       0.964144074      -14.3795705      0.964144074      -14.3795705      0.248385781      74.5759559       
375.3            0.26127135       73.8457659       0.960665819      -15.1430981      0.960665819      -15.1430981      0.26127135       73.8457659       
395              0.274027795      73.1176808       0.957043415      -15.9016944      0.957043415      -15.9016944      0.274027795      73.1176808       
414.7            0.286650787      72.3922447       0.953281477      -16.6551801      0.953281477      -16.6551801      0.286650787      72.3922447       
434.4            0.299136283      71.6699312       0.949384735      -17.4033844      0.949384735      -17.4033844      0.299136283      71.6699312       
454.1            0.311480523      70.9511555       0.945358013      -18.1461455      0.945358013      -18.1461455      0.311480523      70.9511555       
473.8            0.323680033      70.2362846       0.941206212      -18.8833104      0.941206212      -18.8833104      0.323680033      70.2362846       
493.5            0.335731623      69.5256445       0.93693429       -19.6147354      0.93693429       -19.6147354      0.335731623      69.5256445       
513.2            0.347632382      68.8195261       0.93254725       -20.3402853      0.93254725       -20.3402853      0.347632382      68.8195261       
532.9            0.359379682      68.1181896       0.92805012       -21.0598345      0.92805012       -21.0598345      0.359379682      68.1181896       
552.6            0.370971166      67.4218686       0.92344794       -21.7732658      0.92344794       -21.7732658      0.370971166      67.4218686       
572.3            0.382404748      66.7307728       0.918745747      -22.4804712      0.918745747      -22.4804712      0.382404748      66.7307728       
592              0.393678608      66.0450904       0.913948563      -23.1813513      0.913948563      -23.1813513      0.393678608      66.0450904       
611.7            0.40479118       65.3649904       0.909061381      -23.8758155      0.909061381      -23.8758155      0.40479118       65.3649904       
631.4            0.415741152      64.6906242       0.904089154      -24.5637815      0.904089154      -24.5637815      0.415741152      64.6906242       
651.1            0.426527453      64.0221272       0.899036785      -25.2451754      0.899036785      -25.2451754      0.426527453      64.0221272       
670.8            0.437149249      63.3596197       0.893909115      -25.9199314      0.893909115      -25.9199314      0.437149249      63.3596197       
690.5            0.447605929      62.7032084       0.888710917      -26.5879918      0.888710917      -26.5879918      0.447605929      62.7032084       
710.2            0.457897102      62.0529873       0.883446884      -27.2493064      0.883446884      -27.2493064      0.457897102      62.0529873       
729.9            0.468022586      61.4090383       0.878121624      -27.9038326      0.878121624      -27.9038326      0.468022586      61.4090383       
749.6            0.477982395      60.7714324       0.872739652      -28.5515351      0.872739652      -28.5515351      0.477982395      60.7714324       
769.3            0.487776735      60.1402302       0.867305384      -29.1923855      0.867305384      -29.1923855      0.487776735      60.1402302       
789              0.497405991      59.5154823       0.861823133      -29.8263623      0.861823133      -29.8263623      0.497405991      59.5154823       
808.7            0.506870718      58.8972304       0.856297102      -30.4534503      0.856297102      -30.4534503      0.506870718      58.8972304       
828.4            0.516171631      58.2855075       0.850731383      -31.0736407      0.850731383      -31.0736407      0.516171631      58.2855075       
848.1            0.525309596      57.6803386       0.84512995       -31.6869307      0.84512995       -31.6869307      0.525309596      57.6803386       
867.8            0.534285623      57.0817412       0.83949666       -32.293323       0.83949666       -32.293323       0.534285623      57.0817412       
887.5            0.54310085       56.4897254       0.83383525       -32.8928258      0.83383525       -32.8928258      0.54310085       56.4897254       
907.2            0.551756542      55.9042951       0.828149332      -33.4854527      0.828149332      -33.4854527      0.551756542      55.9042951       
926.9            0.560254074      55.3254474       0.822442397      -34.071222       0.822442397      -34.071222       0.560254074      55.3254474       
946.6            0.568594929      54.753174        0.816717811      -34.6501565      0.816717811      -34.6501565      0.568594929      54.753174        
966.3            0.576780686      54.1874608       0.810978815      -35.2222837      0.810978815      -35.2222837      0.576780686      54.1874608       
986              0.584813012      53.6282887       0.805228528      -35.787635       0.805228528      -35.787635       0.584813012      53.6282887       
1005.7           0.592693656      53.0756339       0.799469943      -36.3462458      0.799469943      -36.3462458      0.592693656      53.0756339       
1025.4           0.600424437      52.529468        0.793705935      -36.8981552      0.793705935      -36.8981552      0.600424437      52.529468        
1045.1           0.608007242      51.9897585       0.787939252      -37.4434054      0.787939252      -37.4434054      0.608007242      51.9897585       
1064.8           0.615444016      51.456469        0.782172528      -37.9820421      0.782172528      -37.9820421      0.615444016      51.456469        
1084.5           0.622736755      50.9295595       0.776408275      -38.5141138      0.776408275      -38.5141138      0.622736755      50.9295595       
1104.2           0.6298875        50.4089868       0.770648892      -39.0396717      0.770648892      -39.0396717      0.6298875        50.4089868       
1123.9           0.636898333      49.8947046       0.764896664      -39.5587696      0.764896664      -39.5587696      0.636898333      49.8947046       
1143.6           0.643771368      49.3866638       0.759153763      -40.0714636      0.759153763      -40.0714636      0.643771368      49.3866638       
1163.3           0.650508747      48.8848127       0.753422254      -40.5778119      0.753422254      -40.5778119      0.650508747      48.8848127       
1183             0.657112635      48.3890973       0.747704096      -41.0778746      0.747704096      -41.0778746      0.657112635      48.3890973       
1202.7           0.663585215      47.8994614       0.742001144      -41.5717136      0.742001144      -41.5717136      0.663585215      47.8994614       
1222.4           0.669928683      47.415847        0.736315153      -42.0593924      0.736315153      -42.0593924      0.669928683      47.415847        
1242.1           0.676145244      46.9381941       0.730647781      -42.5409759      0.730647781      -42.5409759      0.676145244      46.9381941       
1261.8           0.682237109      46.4664414       0.72500059       -43.0165302      0.72500059       -43.0165302      0.682237109      46.4664414       
1281.5           0.688206489      46.000526        0.719375051      -43.4861227      0.719375051      -43.4861227      0.688206489      46.000526        
1301.2           0.694055595      45.5403839       0.713772549      -43.9498216      0.713772549      -43.9498216      0.694055595      45.5403839       
1320.9           0.699786629      45.0859499       0.708194378      -44.4076959      0.708194378      -44.4076959      0.699786629      45.0859499       
1340.6           0.705401789      44.637158        0.702641755      -44.8598156      0.702641755      -44.8598156      0.705401789      44.637158        
1360.3           0.710903258      44.1939413       0.697115814      -45.306251       0.697115814      -45.306251       0.710903258      44.1939413       
1380             0.716293209      43.7562323       0.691617613      -45.7470729      0.691617613      -45.7470729      0.716293209      43.7562323       
1399.7           0.721573797      43.3239627       0.686148138      -46.1823527      0.686148138      -46.1823527      0.721573797      43.3239627       
1419.4           0.726747158      42.8970641       0.680708303      -46.6121618      0.680708303      -46.6121618      0.726747158      42.8970641       
1439.1           0.731815412      42.4754675       0.675298954      -47.0365719      0.675298954      -47.0365719      0.731815412      42.4754675       
1458.8           0.736780654      42.0591039       0.669920871      -47.4556549      0.669920871      -47.4556549      0.736780654      42.0591039       
1478.5           0.741644956      41.6479038       0.664574775      -47.8694825      0.664574775      -47.8694825      0.741644956      41.6479038       
1498.2           0.746410367      41.2417981       0.659261324      -48.2781265      0.659261324      -48.2781265      0.746410367      41.2417981       
1517.9           0.75107891       40.8407172       0.65398112       -48.6816583      0.65398112       -48.6816583      0.75107891       40.8407172       
1537.6           0.75565258       40.4445921       0.648734711      -49.0801495      0.648734711      -49.0801495      0.75565258       40.4445921       
1557.3           0.760133345      40.0533536       0.643522594      -49.473671       0.643522594      -49.473671       0.760133345      40.0533536       
1577             0.764523144      39.6669328       0.638345214      -49.8622936      0.638345214      -49.8622936      0.764523144      39.6669328       
1596.7           0.768823886      39.2852613       0.633202971      -50.2460877      0.633202971      -50.2460877      0.768823886      39.2852613       
1616.4           0.773037451      38.9082707       0.628096219      -50.6251231      0.628096219      -50.6251231      0.773037451      38.9082707       
1636.1           0.777165688      38.5358933       0.62302527       -50.9994694      0.62302527       -50.9994694      0.777165688      38.5358933       
1655.8           0.781210415      38.1680617       0.617990395      -51.3691955      0.617990395      -51.3691955      0.781210415      38.1680617       
1675.5           0.785173418      37.804709        0.612991827      -51.7343696      0.612991827      -51.7343696      0.785173418      37.804709        
1695.2           0.789056453      37.4457687       0.608029762      -52.0950596      0.608029762      -52.0950596      0.789056453      37.4457687       
1714.9           0.792861243      37.0911752       0.603104361      -52.4513326      0.603104361      -52.4513326      0.792861243      37.0911752       
1734.6           0.79658948       36.740863        0.598215753      -52.8032551      0.598215753      -52.8032551      0.79658948       36.740863        
1754.3           0.800242823      36.3947677       0.593364036      -53.1508927      0.593364036      -53.1508927      0.800242823      36.3947677       
1774             0.803822901      36.0528253       0.58854928       -53.4943107      0.58854928       -53.4943107      0.803822901      36.0528253       
1793.7           0.807331309      35.7149724       0.583771524      -53.8335733      0.583771524      -53.8335733      0.807331309      35.7149724       
1813.4           0.810769613      35.3811464       0.579030785      -54.1687442      0.579030785      -54.1687442      0.810769613      35.3811464       
1833.1           0.814139344      35.0512855       0.574327052      -54.4998862      0.574327052      -54.4998862      0.814139344      35.0512855       
1852.8           0.817442006      34.7253284       0.569660292      -54.8270613      0.569660292      -54.8270613      0.817442006      34.7253284       
1872.5           0.820679068      34.4032148       0.565030452      -55.1503307      0.565030452      -55.1503307      0.820679068      34.4032148       
1892.2           0.823851971      34.0848849       0.560437457      -55.4697551      0.560437457      -55.4697551      0.823851971      34.0848849       
1911.9           0.826962125      33.7702799       0.555881213      -55.7853939      0.555881213      -55.7853939      0.826962125      33.7702799       
1931.6           0.83001091       33.4593415       0.551361607      -56.0973062      0.551361607      -56.0973062      0.83001091       33.4593415       
1951.3           0.832999675      33.1520125       0.546878512      -56.4055498      0.546878512      -56.4055498      0.832999675      33.1520125       
1971             0.835929741      32.8482361       0.542431783      -56.710182       0.542431783      -56.710182       0.835929741      32.8482361       
1990.7           0.8388024        32.5479567       0.538021262      -57.0112592      0.538021262      -57.0112592      0.8388024        32.5479567       
2010.4           0.841618916      32.2511192       0.533646775      -57.3088368      0.533646775      -57.3088368      0.841618916      32.2511192       
2030.1           0.844380523      31.9576695       0.529308138      -57.6029697      0.529308138      -57.6029697      0.844380523      31.9576695       
2049.8           0.847088428      31.667554        0.525005153      -57.8937116      0.525005153      -57.8937116      0.847088428      31.667554        
2069.5           0.849743814      31.3807202       0.520737613      -58.1811157      0.520737613      -58.1811157      0.849743814      31.3807202       
2089.2           0.852347832      31.0971162       0.516505299      -58.4652342      0.516505299      -58.4652342      0.852347832      31.0971162       
2108.9           0.854901612      30.816691        0.512307984      -58.7461185      0.512307984      -58.7461185      0.854901612      30.816691        
2128.6           0.857406253      30.5393944       0.508145432      -59.0238191      0.508145432      -59.0238191      0.857406253      30.5393944       
2148.3           0.859862834      30.2651769       0.5040174        -59.2983859      0.5040174        -59.2983859      0.859862834      30.2651769       
2168             0.862272406      29.9939898       0.499923636      -59.5698678      0.499923636      -59.5698678      0.862272406      29.9939898       
2187.7           0.864635995      29.7257851       0.495863883      -59.8383131      0.495863883      -59.8383131      0.864635995      29.7257851       
2207.4           0.866954606      29.4605158       0.491837877      -60.103769       0.491837877      -60.103769       0.866954606      29.4605158       
2227.1           0.869229219      29.1981354       0.487845348      -60.3662821      0.487845348      -60.3662821      0.869229219      29.1981354       
2246.8           0.87146079       28.9385983       0.483886023      -60.6258983      0.483886023      -60.6258983      0.87146079       28.9385983       
2266.5           0.873650256      28.6818596       0.479959624      -60.8826627      0.479959624      -60.8826627      0.873650256      28.6818596       
2286.2           0.875798527      28.4278753       0.476065867      -61.1366194      0.476065867      -61.1366194      0.875798527      28.4278753       
2305.9           0.877906498      28.1766018       0.472204468      -61.387812       0.472204468      -61.387812       0.877906498      28.1766018       
2325.6           0.879975036      27.9279965       0.468375137      -61.6362832      0.468375137      -61.6362832      0.879975036      27.9279965       
2345.3           0.882004993      27.6820175       0.464577583      -61.8820751      0.464577583      -61.8820751      0.882004993      27.6820175       
2365             0.883997199      27.4386234       0.460811513      -62.125229       0.460811513      -62.125229       0.883997199      27.4386234       
2384.7           0.885952463      27.1977738       0.457076629      -62.3657853      0.457076629      -62.3657853      0.885952463      27.1977738       
2404.4           0.887871577      26.9594287       0.453372636      -62.6037841      0.453372636      -62.6037841      0.887871577      26.9594287       
2424.1           0.889755313      26.7235491       0.449699235      -62.8392645      0.449699235      -62.8392645      0.889755313      26.7235491       
2443.8           0.891604424      26.4900963       0.446056127      -63.0722648      0.446056127      -63.0722648      0.891604424      26.4900963       
2463.5           0.893419648      26.2590325       0.44244301       -63.302823       0.44244301       -63.302823       0.893419648      26.2590325       
2483.2           0.895201702      26.0303206       0.438859586      -63.530976       0.438859586      -63.530976       0.895201702      26.0303206       
2502.9           0.896951288      25.8039239       0.435305553      -63.7567605      0.435305553      -63.7567605      0.896951288      25.8039239       
