! Coilcraft 1206CS-271 Chip Inductor				
! 29 July 2002			
# MHZ S MA R 50
!Freq             MagS11           AngS11           MagS21           AngS21           MagS12           AngS12           MagS22           AngS22
1                0.0195605723     62.0373553       0.990978746      -0.998957962     0.990978746      -0.998957962     0.0195605723     62.0373553       
4.24             0.0745587429     75.8034257       0.984371896      -4.21097783      0.984371896      -4.21097783      0.0745587429     75.8034257       
7.48             0.129402957      75.77034         0.976282874      -7.38175561      0.976282874      -7.38175561      0.129402957      75.77034         
10.72            0.183011211      74.0707629       0.965939061      -10.4973108      0.965939061      -10.4973108      0.183011211      74.0707629       
13.96            0.234934591      71.8569008       0.953352541      -13.5431654      0.953352541      -13.5431654      0.234934591      71.8569008       
17.2             0.284829061      69.451354        0.938709837      -16.5062817      0.938709837      -16.5062817      0.284829061      69.451354        
20.44            0.332430818      66.9864448       0.922270746      -19.3756945      0.922270746      -19.3756945      0.332430818      66.9864448       
23.68            0.377552465      64.5288528       0.90432741       -22.1427582      0.90432741       -22.1427582      0.377552465      64.5288528       
26.92            0.420078488      62.1163933       0.885180149      -24.8011764      0.885180149      -24.8011764      0.420078488      62.1163933       
30.16            0.459958064      59.7718418       0.865121136      -27.3468883      0.865121136      -27.3468883      0.459958064      59.7718418       
33.4             0.497195872      57.509106        0.844423315      -29.7778584      0.844423315      -29.7778584      0.497195872      57.509106        
36.64            0.531841937      55.3363868       0.8233334        -32.0938119      0.8233334        -32.0938119      0.531841937      55.3363868       
39.88            0.563981468      53.2579992       0.802068145      -34.2959459      0.802068145      -34.2959459      0.563981468      53.2579992       
43.12            0.593725386      51.2755243       0.780813133      -36.3866418      0.780813133      -36.3866418      0.593725386      51.2755243       
46.36            0.621201958      49.3885953       0.759723427      -38.3691954      0.759723427      -38.3691954      0.621201958      49.3885953       
49.6             0.646549766      47.5954605       0.738925466      -40.2475741      0.738925466      -40.2475741      0.646549766      47.5954605       
52.84            0.669912025      45.8933995       0.718519717      -42.0262086      0.718519717      -42.0262086      0.669912025      45.8933995       
56.08            0.691432182      44.2790374       0.698583705      -43.709817       0.698583705      -43.709817       0.691432182      44.2790374       
59.32            0.711250639      42.7485813       0.679175128      -45.3032632      0.679175128      -45.3032632      0.711250639      42.7485813       
62.56            0.729502439      41.2979997       0.660334881      -46.8114445      0.660334881      -46.8114445      0.729502439      41.2979997       
65.8             0.746315723      39.9231564       0.642089853      -48.2392047      0.642089853      -48.2392047      0.746315723      39.9231564       
69.04            0.761810806      38.6199096       0.624455444      -49.5912706      0.624455444      -49.5912706      0.761810806      38.6199096       
72.28            0.776099716      37.3841842       0.607437778      -50.8722058      0.607437778      -50.8722058      0.776099716      37.3841842       
75.52            0.789286079      36.2120221       0.591035603      -52.0863791      0.591035603      -52.0863791      0.789286079      36.2120221       
78.76            0.801465256      35.0996168       0.575241903      -53.2379456      0.575241903      -53.2379456      0.801465256      35.0996168       
82               0.812724645      34.0433357       0.560045246      -54.3308358      0.560045246      -54.3308358      0.812724645      34.0433357       
85.24            0.823144094      33.0397327       0.545430899      -55.3687522      0.545430899      -55.3687522      0.823144094      33.0397327       
88.48            0.832796377      32.0855535       0.531381737      -56.3551705      0.531381737      -56.3551705      0.832796377      32.0855535       
91.72            0.841747702      31.1777368       0.517878978      -57.2933452      0.517878978      -57.2933452      0.841747702      31.1777368       
94.96            0.850058224      30.3134106       0.504902776      -58.186317       0.504902776      -58.186317       0.850058224      30.3134106       
98.2             0.857782551      29.4898866       0.49243269       -59.0369225      0.49243269       -59.0369225      0.857782551      29.4898866       
101.44           0.864970231      28.7046527       0.480448048      -59.8478046      0.480448048      -59.8478046      0.864970231      28.7046527       
104.68           0.871666207      27.9553646       0.468928234      -60.6214238      0.468928234      -60.6214238      0.871666207      27.9553646       
107.92           0.87791125       27.2398368       0.457852904      -61.3600691      0.457852904      -61.3600691      0.87791125       27.2398368       
111.16           0.883742348      26.5560324       0.447202151      -62.0658693      0.447202151      -62.0658693      0.883742348      26.5560324       
114.4            0.889193073      25.9020547       0.436956621      -62.7408041      0.436956621      -62.7408041      0.889193073      25.9020547       
117.64           0.894293911      25.2761374       0.427097597      -63.3867141      0.427097597      -63.3867141      0.894293911      25.2761374       
120.88           0.899072563      24.6766357       0.417607058      -64.0053112      0.417607058      -64.0053112      0.899072563      24.6766357       
124.12           0.903554217      24.1020179       0.408467711      -64.5981876      0.408467711      -64.5981876      0.903554217      24.1020179       
127.36           0.907761796      23.5508573       0.39966301       -65.1668251      0.39966301       -65.1668251      0.907761796      23.5508573       
130.6            0.911716175      23.0218248       0.391177157      -65.7126029      0.391177157      -65.7126029      0.911716175      23.0218248       
133.84           0.915436388      22.5136813       0.3829951        -66.2368057      0.3829951        -66.2368057      0.915436388      22.5136813       
137.08           0.9189398        22.0252715       0.375102518      -66.7406304      0.375102518      -66.7406304      0.9189398        22.0252715       
140.32           0.922242272      21.5555173       0.3674858        -67.2251932      0.3674858        -67.2251932      0.922242272      21.5555173       
143.56           0.925358307      21.1034126       0.360132025      -67.6915353      0.360132025      -67.6915353      0.925358307      21.1034126       
146.8            0.928301177      20.6680175       0.353028937      -68.1406287      0.353028937      -68.1406287      0.928301177      20.6680175       
150.04           0.93108304       20.2484534       0.346164914      -68.5733816      0.346164914      -68.5733816      0.93108304       20.2484534       
153.28           0.933715048      19.8438988       0.339528943      -68.9906429      0.339528943      -68.9906429      0.933715048      19.8438988       
156.52           0.936207438      19.4535849       0.33311059       -69.3932066      0.33311059       -69.3932066      0.936207438      19.4535849       
159.76           0.938569619      19.0767915       0.32689997       -69.7818163      0.32689997       -69.7818163      0.938569619      19.0767915       
163              0.940810243      18.712844        0.320887723      -70.1571684      0.320887723      -70.1571684      0.940810243      18.712844        
166.24           0.942937282      18.3611096       0.315064983      -70.5199156      0.315064983      -70.5199156      0.942937282      18.3611096       
169.48           0.944958081      18.0209945       0.309423353      -70.8706707      0.309423353      -70.8706707      0.944958081      18.0209945       
172.72           0.946879421      17.691941        0.303954877      -71.2100086      0.303954877      -71.2100086      0.946879421      17.691941        
175.96           0.948707562      17.3734251       0.29865202       -71.5384697      0.29865202       -71.5384697      0.948707562      17.3734251       
179.2            0.950448294      17.0649541       0.293507639      -71.8565618      0.293507639      -71.8565618      0.950448294      17.0649541       
182.44           0.952106975      16.7660643       0.288514967      -72.1647629      0.288514967      -72.1647629      0.952106975      16.7660643       
185.68           0.953688568      16.4763188       0.283667584      -72.4635231      0.283667584      -72.4635231      0.953688568      16.4763188       
188.92           0.955197676      16.1953063       0.278959406      -72.7532661      0.278959406      -72.7532661      0.955197676      16.1953063       
192.16           0.95663857       15.9226386       0.274384657      -73.0343917      0.274384657      -73.0343917      0.95663857       15.9226386       
195.4            0.958015219      15.6579497       0.269937859      -73.3072771      0.269937859      -73.3072771      0.958015219      15.6579497       
198.64           0.959331311      15.4008937       0.265613809      -73.5722782      0.265613809      -73.5722782      0.959331311      15.4008937       
201.88           0.96059028       15.1511441       0.261407568      -73.8297315      0.261407568      -73.8297315      0.96059028       15.1511441       
205.12           0.961795324      14.9083919       0.257314441      -74.0799547      0.257314441      -74.0799547      0.961795324      14.9083919       
208.36           0.962949425      14.6723451       0.253329969      -74.3232488      0.253329969      -74.3232488      0.962949425      14.6723451       
211.6            0.964055365      14.4427269       0.249449908      -74.5598984      0.249449908      -74.5598984      0.964055365      14.4427269       
214.84           0.965115739      14.2192754       0.245670226      -74.7901732      0.245670226      -74.7901732      0.965115739      14.2192754       
218.08           0.966132977      14.0017423       0.241987082      -75.0143287      0.241987082      -75.0143287      0.966132977      14.0017423       
221.32           0.967109349      13.789892        0.238396822      -75.2326072      0.238396822      -75.2326072      0.967109349      13.789892        
224.56           0.968046979      13.583501        0.234895965      -75.4452387      0.234895965      -75.4452387      0.968046979      13.583501        
227.8            0.968947859      13.3823572       0.231481196      -75.6524415      0.231481196      -75.6524415      0.968947859      13.3823572       
231.04           0.969813854      13.1862589       0.228149352      -75.854423       0.228149352      -75.854423       0.969813854      13.1862589       
234.28           0.970646716      12.9950146       0.22489742       -76.0513803      0.22489742       -76.0513803      0.970646716      12.9950146       
237.52           0.971448088      12.8084418       0.221722524      -76.2435008      0.221722524      -76.2435008      0.971448088      12.8084418       
240.76           0.972219514      12.6263672       0.218621919      -76.430963       0.218621919      -76.430963       0.972219514      12.6263672       
244              0.972962445      12.4486257       0.215592987      -76.6139366      0.215592987      -76.6139366      0.972962445      12.4486257       
247.24           0.973678249      12.2750599       0.212633223      -76.7925835      0.212633223      -76.7925835      0.973678249      12.2750599       
250.48           0.97436821       12.1055199       0.209740238      -76.9670577      0.209740238      -76.9670577      0.97436821       12.1055199       
253.72           0.97503354       11.9398627       0.206911744      -77.1375063      0.206911744      -77.1375063      0.97503354       11.9398627       
256.96           0.97567538       11.7779518       0.204145556      -77.3040695      0.204145556      -77.3040695      0.97567538       11.7779518       
260.2            0.976294808      11.6196571       0.201439583      -77.4668812      0.201439583      -77.4668812      0.976294808      11.6196571       
263.44           0.97689284       11.4648542       0.198791823      -77.6260691      0.198791823      -77.6260691      0.97689284       11.4648542       
266.68           0.977470436      11.3134243       0.19620036       -77.7817553      0.19620036       -77.7817553      0.977470436      11.3134243       
269.92           0.978028503      11.1652538       0.193663357      -77.9340567      0.193663357      -77.9340567      0.978028503      11.1652538       
273.16           0.9785679        11.020234        0.191179057      -78.0830847      0.191179057      -78.0830847      0.9785679        11.020234        
276.4            0.979089437      10.8782612       0.188745774      -78.2289461      0.188745774      -78.2289461      0.979089437      10.8782612       
279.64           0.979593884      10.7392357       0.186361891      -78.3717432      0.186361891      -78.3717432      0.979593884      10.7392357       
282.88           0.980081966      10.6030624       0.184025857      -78.5115736      0.184025857      -78.5115736      0.980081966      10.6030624       
286.12           0.980554375      10.4696499       0.181736185      -78.6485312      0.181736185      -78.6485312      0.980554375      10.4696499       
289.36           0.981011764      10.3389109       0.179491446      -78.7827058      0.179491446      -78.7827058      0.981011764      10.3389109       
292.6            0.981454753      10.2107615       0.177290269      -78.9141834      0.177290269      -78.9141834      0.981454753      10.2107615       
295.84           0.981883931      10.0851212       0.175131335      -79.0430465      0.175131335      -79.0430465      0.981883931      10.0851212       
299.08           0.982299857      9.96191292       0.173013379      -79.1693745      0.173013379      -79.1693745      0.982299857      9.96191292       
302.32           0.982703062      9.84106249       0.170935184      -79.2932433      0.170935184      -79.2932433      0.982703062      9.84106249       
305.56           0.983094052      9.72249878       0.168895579      -79.4147259      0.168895579      -79.4147259      0.983094052      9.72249878       
308.8            0.983473306      9.60615346       0.166893438      -79.5338924      0.166893438      -79.5338924      0.983473306      9.60615346       
312.04           0.983841281      9.49196082       0.164927677      -79.6508102      0.164927677      -79.6508102      0.983841281      9.49196082       
315.28           0.984198414      9.37985774       0.162997255      -79.765544       0.162997255      -79.765544       0.984198414      9.37985774       
318.52           0.984545116      9.26978347       0.161101166      -79.8781561      0.161101166      -79.8781561      0.984545116      9.26978347       
321.76           0.984881785      9.16167958       0.159238445      -79.9887064      0.159238445      -79.9887064      0.984881785      9.16167958       
325              0.985208795      9.05548984       0.157408158      -80.0972524      0.157408158      -80.0972524      0.985208795      9.05548984       
328.24           0.985526506      8.95116012       0.155609408      -80.2038497      0.155609408      -80.2038497      0.985526506      8.95116012       
331.48           0.985835261      8.84863827       0.15384133       -80.3085516      0.15384133       -80.3085516      0.985835261      8.84863827       
334.72           0.986135385      8.74787409       0.152103088      -80.4114095      0.152103088      -80.4114095      0.986135385      8.74787409       
337.96           0.986427191      8.64881915       0.150393877      -80.5124729      0.150393877      -80.5124729      0.986427191      8.64881915       
341.2            0.986710976      8.55142681       0.148712919      -80.6117896      0.148712919      -80.6117896      0.986710976      8.55142681       
344.44           0.986987027      8.45565207       0.147059466      -80.7094056      0.147059466      -80.7094056      0.986987027      8.45565207       
347.68           0.987255615      8.36145152       0.145432792      -80.8053653      0.145432792      -80.8053653      0.987255615      8.36145152       
350.92           0.987517         8.2687833        0.143832198      -80.8997114      0.143832198      -80.8997114      0.987517         8.2687833        
354.16           0.987771432      8.17760699       0.14225701       -80.9924853      0.14225701       -80.9924853      0.987771432      8.17760699       
357.4            0.988019149      8.08788356       0.140706573      -81.0837267      0.140706573      -81.0837267      0.988019149      8.08788356       
360.64           0.98826038       7.99957532       0.139180257      -81.1734741      0.139180257      -81.1734741      0.98826038       7.99957532       
363.88           0.988495343      7.91264588       0.137677453      -81.2617647      0.137677453      -81.2617647      0.988495343      7.91264588       
367.12           0.988724247      7.82706005       0.13619757       -81.3486343      0.13619757       -81.3486343      0.988724247      7.82706005       
370.36           0.988947294      7.74278384       0.134740037      -81.4341175      0.134740037      -81.4341175      0.988947294      7.74278384       
373.6            0.989164676      7.65978437       0.133304303      -81.5182479      0.133304303      -81.5182479      0.989164676      7.65978437       
376.84           0.989376578      7.57802984       0.131889834      -81.6010577      0.131889834      -81.6010577      0.989376578      7.57802984       
380.08           0.989583177      7.49748951       0.130496113      -81.6825783      0.130496113      -81.6825783      0.989583177      7.49748951       
383.32           0.989784642      7.41813362       0.129122638      -81.7628399      0.129122638      -81.7628399      0.989784642      7.41813362       
386.56           0.989981138      7.33993336       0.127768924      -81.8418717      0.127768924      -81.8418717      0.989981138      7.33993336       
389.8            0.990172822      7.26286086       0.126434503      -81.919702       0.126434503      -81.919702       0.990172822      7.26286086       
393.04           0.990359842      7.18688912       0.125118919      -81.9963582      0.125118919      -81.9963582      0.990359842      7.18688912       
396.28           0.990542346      7.11199199       0.12382173       -82.0718669      0.12382173       -82.0718669      0.990542346      7.11199199       
399.52           0.990720471      7.03814413       0.12254251       -82.1462535      0.12254251       -82.1462535      0.990720471      7.03814413       
402.76           0.990894352      6.965321         0.121280844      -82.2195431      0.121280844      -82.2195431      0.990894352      6.965321         
406              0.991064117      6.8934988        0.120036328      -82.2917595      0.120036328      -82.2917595      0.991064117      6.8934988        
409.24           0.99122989       6.82265446       0.118808575      -82.3629261      0.118808575      -82.3629261      0.99122989       6.82265446       
412.48           0.991391791      6.75276562       0.117597204      -82.4330655      0.117597204      -82.4330655      0.991391791      6.75276562       
