! Coilcraft 1206CS-122 Chip Inductor				
! 29 July 2002			
# MHZ S MA R 50
!Freq             MagS11           AngS11           MagS21           AngS21           MagS12           AngS12           MagS22           AngS22
1                0.0769009577     52.1322628       0.954727118      -3.64570705      0.954727118      -3.64570705      0.0769009577     52.1322628       
2.62             0.170922506      63.5416138       0.936432722      -9.40471334      0.936432722      -9.40471334      0.170922506      63.5416138       
4.24             0.263211921      63.1975129       0.912089597      -14.9263886      0.912089597      -14.9263886      0.263211921      63.1975129       
5.86             0.348969196      60.5177394       0.882205352      -20.1416453      0.882205352      -20.1416453      0.348969196      60.5177394       
7.48             0.426618683      57.1825458       0.848280232      -25.0024059      0.848280232      -25.0024059      0.426618683      57.1825458       
9.1              0.49565951       53.7293154       0.811919501      -29.4844186      0.811919501      -29.4844186      0.49565951       53.7293154       
10.72            0.556247831      50.3756206       0.774542157      -33.5840444      0.774542157      -33.5840444      0.556247831      50.3756206       
12.34            0.608943509      47.2153315       0.737271047      -37.3129975      0.737271047      -37.3129975      0.608943509      47.2153315       
13.96            0.65451814       44.2850927       0.700919683      -40.6929891      0.700919683      -40.6929891      0.65451814       44.2850927       
15.58            0.693818309      41.5926811       0.666028645      -43.751236       0.666028645      -43.751236       0.693818309      41.5926811       
17.2             0.72767816       39.1310215       0.632920675      -46.5171331      0.632920675      -46.5171331      0.72767816       39.1310215       
18.82            0.756870357      36.885715        0.601756552      -49.0200203      0.601756552      -49.0200203      0.756870357      36.885715        
20.44            0.782083575      34.8392338       0.572583339      -51.2878242      0.572583339      -51.2878242      0.782083575      34.8392338       
22.06            0.803916596      32.9732665       0.545372421      -53.3463296      0.545372421      -53.3463296      0.803916596      32.9732665       
23.68            0.822881753      31.2699951       0.520047748      -55.218871       0.520047748      -55.218871       0.822881753      31.2699951       
25.3             0.839412975      29.7127471       0.496505897      -56.9262879      0.496505897      -56.9262879      0.839412975      29.7127471       
26.92            0.853875556      28.2862814       0.474629831      -58.4870304      0.474629831      -58.4870304      0.853875556      28.2862814       
28.54            0.86657602       26.9768669       0.454297992      -59.9173441      0.454297992      -59.9173441      0.86657602       26.9768669       
30.16            0.877771273      25.772244        0.435390107      -61.2314884      0.435390107      -61.2314884      0.877771273      25.772244        
31.78            0.887676694      24.6615281       0.417790706      -62.4419597      0.417790706      -62.4419597      0.887676694      24.6615281       
33.4             0.896473088      23.6350862       0.4013911        -63.5597053      0.4013911        -63.5597053      0.896473088      23.6350862       
35.02            0.904312547      22.6844065       0.386090339      -64.5943203      0.386090339      -64.5943203      0.904312547      22.6844065       
36.64            0.91132334       21.8019711       0.371795518      -65.5542241      0.371795518      -65.5542241      0.91132334       21.8019711       
38.26            0.917613965      20.9811376       0.358421665      -66.4468157      0.358421665      -66.4468157      0.917613965      20.9811376       
39.88            0.923276482      20.2160313       0.345891399      -67.27861        0.345891399      -67.27861        0.923276482      20.2160313       
41.5             0.928389268      19.5014495       0.334134443      -68.055355       0.334134443      -68.055355       0.928389268      19.5014495       
43.12            0.933019273      18.8327772       0.323087085      -68.7821338      0.323087085      -68.7821338      0.933019273      18.8327772       
44.74            0.937223883      18.2059127       0.31269161       -69.4634517      0.31269161       -69.4634517      0.937223883      18.2059127       
46.36            0.941052454      17.6172035       0.30289576       -70.1033117      0.30289576       -70.1033117      0.941052454      17.6172035       
47.98            0.944547577      17.0633903       0.293652206      -70.7052787      0.293652206      -70.7052787      0.944547577      17.0633903       
49.6             0.947746131      16.5415586       0.284918061      -71.2725353      0.284918061      -71.2725353      0.947746131      16.5415586       
51.22            0.950680147      16.0490964       0.276654438      -71.8079295      0.276654438      -71.8079295      0.950680147      16.0490964       
52.84            0.953377538      15.583658        0.268826041      -72.3140156      0.268826041      -72.3140156      0.953377538      15.583658        
54.46            0.955862703      15.1431324       0.2614008        -72.7930901      0.2614008        -72.7930901      0.955862703      15.1431324       
56.08            0.958157031      14.7256154       0.254349539      -73.2472222      0.254349539      -73.2472222      0.958157031      14.7256154       
57.7             0.960279328      14.3293865       0.247645684      -73.6782802      0.247645684      -73.6782802      0.960279328      14.3293865       
59.32            0.962246174      13.9528873       0.241264998      -74.0879547      0.241264998      -74.0879547      0.962246174      13.9528873       
60.94            0.964072232      13.5947039       0.235185343      -74.477779       0.235185343      -74.477779       0.964072232      13.5947039       
62.56            0.965770493      13.2535511       0.229386474      -74.8491459      0.229386474      -74.8491459      0.965770493      13.2535511       
64.18            0.967352508      12.928258        0.223849848      -75.2033237      0.223849848      -75.2033237      0.967352508      12.928258        
65.8             0.968828565      12.6177563       0.21855846       -75.5414689      0.21855846       -75.5414689      0.968828565      12.6177563       
67.42            0.970207848      12.3210696       0.213496692      -75.8646385      0.213496692      -75.8646385      0.970207848      12.3210696       
69.04            0.971498583      12.0373037       0.208650182      -76.1737999      0.208650182      -76.1737999      0.971498583      12.0373037       
70.66            0.972708143      11.7656384       0.204005702      -76.4698402      0.204005702      -76.4698402      0.972708143      11.7656384       
72.28            0.973843159      11.5053203       0.199551055      -76.7535742      0.199551055      -76.7535742      0.973843159      11.5053203       
73.9             0.974909603      11.2556561       0.19527498       -77.0257515      0.19527498       -77.0257515      0.974909603      11.2556561       
75.52            0.975912867      11.0160069       0.191167065      -77.2870628      0.191167065      -77.2870628      0.975912867      11.0160069       
77.14            0.976857824      10.7857831       0.187217671      -77.5381452      0.187217671      -77.5381452      0.976857824      10.7857831       
78.76            0.977748892      10.5644397       0.183417865      -77.7795878      0.183417865      -77.7795878      0.977748892      10.5644397       
80.38            0.978590078      10.3514725       0.179759357      -78.0119356      0.179759357      -78.0119356      0.978590078      10.3514725       
82               0.979385029      10.1464138       0.176234446      -78.2356935      0.176234446      -78.2356935      0.979385029      10.1464138       
83.62            0.980137063      9.94883012       0.172835966      -78.4513303      0.172835966      -78.4513303      0.980137063      9.94883012       
85.24            0.980849209      9.75831831       0.169557248      -78.6592814      0.169557248      -78.6592814      0.980849209      9.75831831       
86.86            0.981524235      9.57450347       0.166392074      -78.8599518      0.166392074      -78.8599518      0.981524235      9.57450347       
88.48            0.982164672      9.39703642       0.163334638      -79.0537188      0.163334638      -79.0537188      0.982164672      9.39703642       
90.1             0.982772841      9.22559153       0.160379521      -79.2409342      0.160379521      -79.2409342      0.982772841      9.22559153       
91.72            0.983350873      9.05986483       0.157521651      -79.4219263      0.157521651      -79.4219263      0.983350873      9.05986483       
93.34            0.983900724      8.89957224       0.154756284      -79.597002       0.154756284      -79.597002       0.983900724      8.89957224       
94.96            0.984424196      8.74444799       0.152078972      -79.7664486      0.152078972      -79.7664486      0.984424196      8.74444799       
96.58            0.98492295       8.59424321       0.149485544      -79.9305348      0.149485544      -79.9305348      0.98492295       8.59424321       
98.2             0.985398517      8.44872457       0.146972086      -80.0895129      0.146972086      -80.0895129      0.985398517      8.44872457       
99.82            0.985852313      8.30767315       0.144534918      -80.2436192      0.144534918      -80.2436192      0.985852313      8.30767315       
101.44           0.986285646      8.17088331       0.142170581      -80.3930761      0.142170581      -80.3930761      0.986285646      8.17088331       
103.06           0.986699729      8.03816175       0.139875819      -80.5380924      0.139875819      -80.5380924      0.986699729      8.03816175       
104.68           0.987095686      7.90932658       0.137647564      -80.6788646      0.137647564      -80.6788646      0.987095686      7.90932658       
106.3            0.98747456       7.7842065        0.135482924      -80.815578       0.135482924      -80.815578       0.98747456       7.7842065        
107.92           0.98783732       7.66264004       0.133379171      -80.9484069      0.133379171      -80.9484069      0.98783732       7.66264004       
109.54           0.988184868      7.5444749        0.131333728      -81.077516       0.131333728      -81.077516       0.988184868      7.5444749        
111.16           0.988518042      7.42956728       0.12934416       -81.2030607      0.12934416       -81.2030607      0.988518042      7.42956728       
112.78           0.988837625      7.31778132       0.127408164      -81.3251878      0.127408164      -81.3251878      0.988837625      7.31778132       
114.4            0.989144346      7.20898857       0.125523561      -81.4440363      0.125523561      -81.4440363      0.989144346      7.20898857       
116.02           0.989438888      7.10306744       0.123688287      -81.5597375      0.123688287      -81.5597375      0.989438888      7.10306744       
117.64           0.989721885      6.99990285       0.121900387      -81.6724159      0.121900387      -81.6724159      0.989721885      6.99990285       
119.26           0.989993935      6.8993857        0.120158005      -81.7821893      0.120158005      -81.7821893      0.989993935      6.8993857        
120.88           0.990255595      6.80141257       0.118459382      -81.8891697      0.118459382      -81.8891697      0.990255595      6.80141257       
122.5            0.990507387      6.70588529       0.116802847      -81.9934631      0.116802847      -81.9934631      0.990507387      6.70588529       
124.12           0.990749801      6.61271068       0.11518681       -82.0951703      0.11518681       -82.0951703      0.990749801      6.61271068       
125.74           0.990983298      6.52180018       0.113609763      -82.194387       0.113609763      -82.194387       0.990983298      6.52180018       
127.36           0.991208309      6.43306961       0.112070269      -82.2912042      0.112070269      -82.2912042      0.991208309      6.43306961       
128.98           0.99142524       6.34643888       0.11056696       -82.3857086      0.11056696       -82.3857086      0.99142524       6.34643888       
130.6            0.991634474      6.26183176       0.109098536      -82.4779826      0.109098536      -82.4779826      0.991634474      6.26183176       
132.22           0.991836369      6.17917563       0.107663753      -82.5681046      0.107663753      -82.5681046      0.991836369      6.17917563       
133.84           0.992031266      6.09840132       0.106261431      -82.6561496      0.106261431      -82.6561496      0.992031266      6.09840132       
135.46           0.992219483      6.01944283       0.104890438      -82.7421887      0.104890438      -82.7421887      0.992219483      6.01944283       
137.08           0.992401322      5.94223723       0.1035497        -82.8262901      0.1035497        -82.8262901      0.992401322      5.94223723       
138.7            0.992577067      5.86672444       0.102238185      -82.9085187      0.102238185      -82.9085187      0.992577067      5.86672444       
140.32           0.992746987      5.79284708       0.100954912      -82.9889365      0.100954912      -82.9889365      0.992746987      5.79284708       
141.94           0.992911336      5.72055032       0.0996989401     -83.0676028      0.0996989401     -83.0676028      0.992911336      5.72055032       
143.56           0.993070354      5.64978174       0.098469371      -83.1445743      0.098469371      -83.1445743      0.993070354      5.64978174       
145.18           0.99322427       5.58049122       0.0972653444     -83.2199051      0.0972653444     -83.2199051      0.99322427       5.58049122       
146.8            0.993373297      5.51263077       0.0960860372     -83.2936471      0.0960860372     -83.2936471      0.993373297      5.51263077       
148.42           0.99351764       5.44615448       0.0949306607     -83.3658499      0.0949306607     -83.3658499      0.99351764       5.44615448       
150.04           0.993657494      5.38101835       0.0937984594     -83.4365611      0.0937984594     -83.4365611      0.993657494      5.38101835       
151.66           0.99379304       5.31718022       0.092688709      -83.5058261      0.092688709      -83.5058261      0.99379304       5.31718022       
153.28           0.993924454      5.25459969       0.091600715      -83.5736886      0.091600715      -83.5736886      0.993924454      5.25459969       
154.9            0.994051901      5.193238         0.090533811      -83.6401905      0.090533811      -83.6401905      0.994051901      5.193238         
156.52           0.994175537      5.13305797       0.0894873574     -83.7053719      0.0894873574     -83.7053719      0.994175537      5.13305797       
158.14           0.994295514      5.07402388       0.0884607401     -83.7692713      0.0884607401     -83.7692713      0.994295514      5.07402388       
159.76           0.994411972      5.01610148       0.0874533692     -83.8319258      0.0874533692     -83.8319258      0.994411972      5.01610148       
161.38           0.994525047      4.95925783       0.0864646779     -83.8933708      0.0864646779     -83.8933708      0.994525047      4.95925783       
163              0.994634867      4.90346128       0.0854941212     -83.9536406      0.0854941212     -83.9536406      0.994634867      4.90346128       
164.62           0.994741557      4.84868141       0.0845411752     -84.0127678      0.0845411752     -84.0127678      0.994741557      4.84868141       
166.24           0.994845231      4.79488897       0.0836053356     -84.070784       0.0836053356     -84.070784       0.994845231      4.79488897       
167.86           0.994946002      4.74205579       0.0826861172     -84.1277196      0.0826861172     -84.1277196      0.994946002      4.74205579       
169.48           0.995043977      4.69015479       0.0817830531     -84.1836038      0.0817830531     -84.1836038      0.995043977      4.69015479       
171.1            0.995139256      4.63915987       0.0808956934     -84.2384646      0.0808956934     -84.2384646      0.995139256      4.63915987       
172.72           0.995231936      4.58904591       0.0800236048     -84.2923291      0.0800236048     -84.2923291      0.995231936      4.58904591       
174.34           0.995322111      4.5397887        0.0791663696     -84.3452233      0.0791663696     -84.3452233      0.995322111      4.5397887        
175.96           0.995409868      4.49136491       0.0783235852     -84.3971723      0.0783235852     -84.3971723      0.995409868      4.49136491       
177.58           0.995495292      4.44375205       0.0774948635     -84.4482003      0.0774948635     -84.4482003      0.995495292      4.44375205       
179.2            0.995578463      4.39692841       0.0766798298     -84.4983306      0.0766798298     -84.4983306      0.995578463      4.39692841       
180.82           0.99565946       4.35087306       0.0758781229     -84.5475857      0.0758781229     -84.5475857      0.99565946       4.35087306       
182.44           0.995738356      4.30556582       0.0750893939     -84.5959871      0.0750893939     -84.5959871      0.995738356      4.30556582       
184.06           0.995815222      4.26098717       0.0743133059     -84.643556       0.0743133059     -84.643556       0.995815222      4.26098717       
185.68           0.995890125      4.21711829       0.0735495338     -84.6903123      0.0735495338     -84.6903123      0.995890125      4.21711829       
187.3            0.995963131      4.173941         0.0727977633     -84.7362756      0.0727977633     -84.7362756      0.995963131      4.173941         
188.92           0.996034303      4.13143771       0.0720576906     -84.7814646      0.0720576906     -84.7814646      0.996034303      4.13143771       
190.54           0.996103699      4.08959145       0.0713290221     -84.8258976      0.0713290221     -84.8258976      0.996103699      4.08959145       
192.16           0.996171378      4.0483858        0.070611474      -84.8695921      0.070611474      -84.8695921      0.996171378      4.0483858        
193.78           0.996237394      4.00780487       0.0699047718     -84.9125649      0.0699047718     -84.9125649      0.996237394      4.00780487       
195.4            0.9963018        3.96783331       0.0692086498     -84.9548325      0.0692086498     -84.9548325      0.9963018        3.96783331       
197.02           0.996364646      3.92845625       0.0685228509     -84.9964108      0.0685228509     -84.9964108      0.996364646      3.92845625       
198.64           0.996425983      3.88965932       0.0678471264     -85.0373149      0.0678471264     -85.0373149      0.996425983      3.88965932       
200.26           0.996485855      3.85142859       0.0671812353     -85.0775597      0.0671812353     -85.0775597      0.996485855      3.85142859       
201.88           0.996544308      3.81375058       0.0665249442     -85.1171595      0.0665249442     -85.1171595      0.996544308      3.81375058       
203.5            0.996601386      3.77661223       0.0658780273     -85.1561281      0.0658780273     -85.1561281      0.996601386      3.77661223       
205.12           0.99665713       3.74000088       0.0652402655     -85.194479       0.0652402655     -85.194479       0.99665713       3.74000088       
206.74           0.996711579      3.70390428       0.0646114465     -85.2322251      0.0646114465     -85.2322251      0.996711579      3.70390428       
