! Coilcraft 1206CS-470 Chip Inductor				
! 29 July 2002			
# MHZ S MA R 50
!Freq             MagS11           AngS11           MagS21           AngS21           MagS12           AngS12           MagS22           AngS22
1                0.00341710211    59.4537851       0.998267653      -0.168907165     0.998267653      -0.168907165     0.00341710211    59.4537851       
6.98             0.0207549807     80.7289121       0.996866728      -1.17741055      0.996866728      -1.17741055      0.0207549807     80.7289121       
12.96            0.0382784843     82.3954933       0.995657635      -2.18391659      0.995657635      -2.18391659      0.0382784843     82.3954933       
18.94            0.0557719787     82.5362309       0.994294242      -3.18825128      0.994294242      -3.18825128      0.0557719787     82.5362309       
24.92            0.0732101129     82.1948315       0.992711         -4.1900172       0.992711         -4.1900172       0.0732101129     82.1948315       
30.9             0.0905763355     81.6347829       0.990883212      -5.18875796      0.990883212      -5.18875796      0.0905763355     81.6347829       
36.88            0.107855966      80.9563359       0.988800168      -6.18399558      0.988800168      -6.18399558      0.107855966      80.9563359       
42.86            0.125035081      80.2068251       0.986457707      -7.17524572      0.986457707      -7.17524572      0.125035081      80.2068251       
48.84            0.142100273      79.4118913       0.983855371      -8.16202578      0.983855371      -8.16202578      0.142100273      79.4118913       
54.82            0.159038612      78.5868358       0.980995079      -9.14385993      0.980995079      -9.14385993      0.159038612      78.5868358       
60.8             0.175837661      77.7414792       0.977880424      -10.1202827      0.977880424      -10.1202827      0.175837661      77.7414792       
66.78            0.192485511      76.8824961       0.974516261      -11.0908414      0.974516261      -11.0908414      0.192485511      76.8824961       
72.76            0.208970813      76.0146387       0.970908432      -12.0550988      0.970908432      -12.0550988      0.208970813      76.0146387       
78.74            0.225282813      75.1414231       0.967063581      -13.012634       0.967063581      -13.012634       0.225282813      75.1414231       
84.72            0.241411378      74.2655359       0.962989011      -13.9630445      0.962989011      -13.9630445      0.241411378      74.2655359       
90.7             0.257347024      73.3890864       0.958692568      -14.9059468      0.958692568      -14.9059468      0.257347024      73.3890864       
96.68            0.273080929      72.5137688       0.954182548      -15.8409777      0.954182548      -15.8409777      0.273080929      72.5137688       
102.66           0.288604947      71.64097         0.949467617      -16.7677947      0.949467617      -16.7677947      0.288604947      71.64097         
108.64           0.303911618      70.7718436       0.944556734      -17.6860768      0.944556734      -17.6860768      0.303911618      70.7718436       
114.62           0.318994168      69.9073614       0.93945909       -18.5955245      0.93945909       -18.5955245      0.318994168      69.9073614       
120.6            0.333846508      69.0483506       0.934184043      -19.4958603      0.934184043      -19.4958603      0.333846508      69.0483506       
126.58           0.34846323       68.1955209       0.928741066      -20.3868286      0.928741066      -20.3868286      0.34846323       68.1955209       
132.56           0.362839594      67.3494852       0.923139695      -21.2681956      0.923139695      -21.2681956      0.362839594      67.3494852       
138.54           0.376971515      66.5107742       0.917389483      -22.1397495      0.917389483      -22.1397495      0.376971515      66.5107742       
144.52           0.390855549      65.6798492       0.911499956      -23.0012996      0.911499956      -23.0012996      0.390855549      65.6798492       
150.5            0.40448887       64.8571107       0.905480573      -23.8526765      0.905480573      -23.8526765      0.40448887       64.8571107       
156.48           0.41786925       64.0429067       0.899340693      -24.6937313      0.899340693      -24.6937313      0.41786925       64.0429067       
162.46           0.430995035      63.237538        0.893089538      -25.524335       0.893089538      -25.524335       0.430995035      63.237538        
168.44           0.443865117      62.4412639       0.886736168      -26.3443782      0.886736168      -26.3443782      0.443865117      62.4412639       
174.42           0.456478912      61.6543059       0.880289455      -27.1537702      0.880289455      -27.1537702      0.456478912      61.6543059       
180.4            0.468836326      60.8768519       0.873758057      -27.9524384      0.873758057      -27.9524384      0.468836326      60.8768519       
186.38           0.480937732      60.1090588       0.867150401      -28.7403276      0.867150401      -28.7403276      0.480937732      60.1090588       
192.36           0.492783935      59.3510553       0.860474667      -29.517399       0.860474667      -29.517399       0.492783935      59.3510553       
198.34           0.504376148      58.6029447       0.853738771      -30.2836295      0.853738771      -30.2836295      0.504376148      58.6029447       
204.32           0.51571596       57.8648067       0.846950357      -31.0390112      0.846950357      -31.0390112      0.51571596       57.8648067       
210.3            0.526805309      57.1366995       0.840116786      -31.7835501      0.840116786      -31.7835501      0.526805309      57.1366995       
216.28           0.537646449      56.4186613       0.833245127      -32.5172657      0.833245127      -32.5172657      0.537646449      56.4186613       
222.26           0.54824193       55.7107125       0.826342159      -33.2401896      0.826342159      -33.2401896      0.54824193       55.7107125       
228.24           0.558594563      55.0128565       0.81941436       -33.9523655      0.81941436       -33.9523655      0.558594563      55.0128565       
234.22           0.5687074        54.3250818       0.812467913      -34.6538477      0.812467913      -34.6538477      0.5687074        54.3250818       
240.2            0.578583705      53.6473627       0.805508701      -35.3447008      0.805508701      -35.3447008      0.578583705      53.6473627       
246.18           0.588226933      52.9796608       0.798542315      -36.0249985      0.798542315      -36.0249985      0.588226933      52.9796608       
252.16           0.597640704      52.321926        0.791574051      -36.6948233      0.791574051      -36.6948233      0.597640704      52.321926        
258.14           0.606828784      51.6740976       0.784608917      -37.3542654      0.784608917      -37.3542654      0.606828784      51.6740976       
264.12           0.615795063      51.0361054       0.777651641      -38.0034223      0.777651641      -38.0034223      0.615795063      51.0361054       
270.1            0.624543537      50.4078704       0.770706673      -38.642398       0.770706673      -38.642398       0.624543537      50.4078704       
276.08           0.633078288      49.7893056       0.763778194      -39.2713023      0.763778194      -39.2713023      0.633078288      49.7893056       
282.06           0.641403467      49.1803172       0.756870122      -39.8902504      0.756870122      -39.8902504      0.641403467      49.1803172       
288.04           0.649523282      48.580805        0.749986124      -40.4993621      0.749986124      -40.4993621      0.649523282      48.580805        
294.02           0.657441979      47.9906629       0.743129618      -41.0987614      0.743129618      -41.0987614      0.657441979      47.9906629       
300              0.665163831      47.4097804       0.736303787      -41.6885759      0.736303787      -41.6885759      0.665163831      47.4097804       
305.98           0.672693123      46.8380421       0.729511586      -42.2689366      0.729511586      -42.2689366      0.672693123      46.8380421       
311.96           0.680034146      46.2753292       0.722755751      -42.8399767      0.722755751      -42.8399767      0.680034146      46.2753292       
317.94           0.687191179      45.7215193       0.716038807      -43.4018321      0.716038807      -43.4018321      0.687191179      45.7215193       
323.92           0.694168487      45.1764875       0.70936308       -43.9546404      0.70936308       -43.9546404      0.694168487      45.1764875       
329.9            0.700970307      44.6401065       0.702730702      -44.4985407      0.702730702      -44.4985407      0.700970307      44.6401065       
335.88           0.707600845      44.1122471       0.696143623      -45.0336731      0.696143623      -45.0336731      0.707600845      44.1122471       
341.86           0.714064263      43.5927784       0.689603621      -45.5601787      0.689603621      -45.5601787      0.714064263      43.5927784       
347.84           0.720364681      43.0815686       0.683112306      -46.0781992      0.683112306      -46.0781992      0.720364681      43.0815686       
353.82           0.726506163      42.5784849       0.676671133      -46.5878761      0.676671133      -46.5878761      0.726506163      42.5784849       
359.8            0.73249272       42.083394        0.670281409      -47.0893513      0.670281409      -47.0893513      0.73249272       42.083394        
365.78           0.738328298      41.5961624       0.663944298      -47.5827663      0.663944298      -47.5827663      0.738328298      41.5961624       
371.76           0.744016783      41.1166566       0.657660835      -48.0682621      0.657660835      -48.0682621      0.744016783      41.1166566       
377.74           0.749561992      40.6447433       0.651431927      -48.5459791      0.651431927      -48.5459791      0.749561992      40.6447433       
383.72           0.75496767       40.1802895       0.645258367      -49.0160566      0.645258367      -49.0160566      0.75496767       40.1802895       
389.7            0.760237494      39.723163        0.639140833      -49.4786333      0.639140833      -49.4786333      0.760237494      39.723163        
395.68           0.765375063      39.2732325       0.633079902      -49.9338464      0.633079902      -49.9338464      0.765375063      39.2732325       
401.66           0.770383904      38.8303673       0.627076055      -50.381832       0.627076055      -50.381832       0.770383904      38.8303673       
407.64           0.775267467      38.3944381       0.621129677      -50.8227248      0.621129677      -50.8227248      0.775267467      38.3944381       
413.62           0.780029124      37.9653168       0.615241074      -51.2566578      0.615241074      -51.2566578      0.780029124      37.9653168       
419.6            0.784672173      37.5428765       0.609410467      -51.6837625      0.609410467      -51.6837625      0.784672173      37.5428765       
425.58           0.78919983       37.1269918       0.603638006      -52.1041689      0.603638006      -52.1041689      0.78919983       37.1269918       
431.56           0.793615239      36.7175389       0.597923771      -52.5180049      0.597923771      -52.5180049      0.793615239      36.7175389       
437.54           0.797921462      36.3143953       0.592267778      -52.9253969      0.592267778      -52.9253969      0.797921462      36.3143953       
443.52           0.802121488      35.9174406       0.586669984      -53.3264693      0.586669984      -53.3264693      0.802121488      35.9174406       
449.5            0.806218228      35.5265558       0.58113029       -53.7213445      0.58113029       -53.7213445      0.806218228      35.5265558       
455.48           0.81021452       35.1416237       0.575648547      -54.1101431      0.575648547      -54.1101431      0.81021452       35.1416237       
461.46           0.814113125      34.762529        0.570224557      -54.4929836      0.570224557      -54.4929836      0.814113125      34.762529        
467.44           0.817916734      34.3891582       0.564858082      -54.8699826      0.564858082      -54.8699826      0.817916734      34.3891582       
473.42           0.821627962      34.0213997       0.55954884       -55.2412546      0.55954884       -55.2412546      0.821627962      34.0213997       
479.4            0.825249356      33.6591437       0.554296515      -55.6069121      0.554296515      -55.6069121      0.825249356      33.6591437       
485.38           0.828783392      33.3022823       0.549100758      -55.9670656      0.549100758      -55.9670656      0.828783392      33.3022823       
491.36           0.832232477      32.9507097       0.543961188      -56.3218235      0.543961188      -56.3218235      0.832232477      32.9507097       
497.34           0.835598953      32.6043217       0.538877395      -56.6712922      0.538877395      -56.6712922      0.835598953      32.6043217       
503.32           0.838885093      32.2630163       0.533848948      -57.0155761      0.533848948      -57.0155761      0.838885093      32.2630163       
509.3            0.842093109      31.9266933       0.528875389      -57.3547774      0.528875389      -57.3547774      0.842093109      31.9266933       
515.28           0.845225147      31.5952544       0.523956241      -57.6889965      0.523956241      -57.6889965      0.845225147      31.5952544       
521.26           0.848283293      31.2686031       0.519091008      -58.0183317      0.519091008      -58.0183317      0.848283293      31.2686031       
527.24           0.851269574      30.946645        0.514279179      -58.3428794      0.514279179      -58.3428794      0.851269574      30.946645        
533.22           0.854185956      30.6292875       0.509520226      -58.6627339      0.509520226      -58.6627339      0.854185956      30.6292875       
539.2            0.85703435       30.3164397       0.50481361       -58.9779877      0.50481361       -58.9779877      0.85703435       30.3164397       
545.18           0.85981661       30.0080126       0.500158781      -59.2887313      0.500158781      -59.2887313      0.85981661       30.0080126       
551.16           0.862534538      29.7039193       0.495555178      -59.5950533      0.495555178      -59.5950533      0.862534538      29.7039193       
557.14           0.865189879      29.4040742       0.49100223       -59.8970405      0.49100223       -59.8970405      0.865189879      29.4040742       
563.12           0.867784331      29.1083939       0.486499364      -60.1947778      0.486499364      -60.1947778      0.867784331      29.1083939       
569.1            0.87031954       28.8167965       0.482045995      -60.4883484      0.482045995      -60.4883484      0.87031954       28.8167965       
575.08           0.872797103      28.5292019       0.477641538      -60.7778334      0.477641538      -60.7778334      0.872797103      28.5292019       
581.06           0.875218572      28.2455317       0.473285403      -61.0633126      0.473285403      -61.0633126      0.875218572      28.2455317       
587.04           0.87758545       27.9657091       0.468976995      -61.3448637      0.468976995      -61.3448637      0.87758545       27.9657091       
593.02           0.879899198      27.689659        0.46471572       -61.6225629      0.46471572       -61.6225629      0.879899198      27.689659        
599              0.882161233      27.4173079       0.460500982      -61.8964846      0.460500982      -61.8964846      0.882161233      27.4173079       
604.98           0.884372929      27.1485839       0.456332184      -62.1667018      0.456332184      -62.1667018      0.884372929      27.1485839       
610.96           0.886535622      26.8834167       0.452208732      -62.4332856      0.452208732      -62.4332856      0.886535622      26.8834167       
616.94           0.888650604      26.6217373       0.448130029      -62.6963058      0.448130029      -62.6963058      0.888650604      26.6217373       
622.92           0.890719134      26.3634785       0.444095483      -62.9558304      0.444095483      -62.9558304      0.890719134      26.3634785       
628.9            0.892742429      26.1085743       0.440104503      -63.2119261      0.440104503      -63.2119261      0.892742429      26.1085743       
634.88           0.894721673      25.8569603       0.436156502      -63.4646579      0.436156502      -63.4646579      0.894721673      25.8569603       
640.86           0.896658014      25.6085735       0.432250894      -63.7140897      0.432250894      -63.7140897      0.896658014      25.6085735       
646.84           0.898552566      25.3633522       0.428387098      -63.9602835      0.428387098      -63.9602835      0.898552566      25.3633522       
652.82           0.90040641       25.1212361       0.424564536      -64.2033004      0.424564536      -64.2033004      0.90040641       25.1212361       
658.8            0.902220594      24.8821662       0.420782637      -64.4431997      0.420782637      -64.4431997      0.902220594      24.8821662       
664.78           0.903996139      24.6460849       0.417040831      -64.6800397      0.417040831      -64.6800397      0.903996139      24.6460849       
670.76           0.905734032      24.4129358       0.413338555      -64.9138773      0.413338555      -64.9138773      0.905734032      24.4129358       
676.74           0.907435232      24.1826635       0.409675252      -65.144768       0.409675252      -65.144768       0.907435232      24.1826635       
682.72           0.909100671      23.9552143       0.406050368      -65.3727662      0.406050368      -65.3727662      0.909100671      23.9552143       
688.7            0.910731254      23.7305353       0.402463357      -65.5979251      0.402463357      -65.5979251      0.910731254      23.7305353       
694.68           0.912327857      23.5085748       0.398913677      -65.8202964      0.398913677      -65.8202964      0.912327857      23.5085748       
700.66           0.913891333      23.2892825       0.395400792      -66.0399312      0.395400792      -66.0399312      0.913891333      23.2892825       
706.64           0.91542251       23.0726088       0.391924174      -66.2568789      0.391924174      -66.2568789      0.91542251       23.0726088       
712.62           0.91692219       22.8585056       0.388483298      -66.4711881      0.388483298      -66.4711881      0.91692219       22.8585056       
718.6            0.918391155      22.6469256       0.38507765       -66.6829062      0.38507765       -66.6829062      0.918391155      22.6469256       
724.58           0.919830161      22.4378225       0.381706717      -66.8920796      0.381706717      -66.8920796      0.919830161      22.4378225       
730.56           0.921239945      22.2311513       0.378369996      -67.0987537      0.378369996      -67.0987537      0.921239945      22.2311513       
736.54           0.922621221      22.0268676       0.37506699       -67.3029727      0.37506699       -67.3029727      0.922621221      22.0268676       
742.52           0.923974683      21.8249282       0.371797207      -67.50478        0.371797207      -67.50478        0.923974683      21.8249282       
748.5            0.925301007      21.6252909       0.368560164      -67.704218       0.368560164      -67.704218       0.925301007      21.6252909       
754.48           0.926600847      21.4279142       0.365355382      -67.901328       0.365355382      -67.901328       0.926600847      21.4279142       
760.46           0.927874839      21.2327576       0.36218239       -68.0961506      0.36218239       -68.0961506      0.927874839      21.2327576       
