! Coilcraft 1206CS-681 Chip Inductor				
! 29 July 2002			
# MHZ S MA R 50
!Freq             MagS11           AngS11           MagS21           AngS21           MagS12           AngS12           MagS22           AngS22
1                0.04664731       59.5084385       0.977157721      -2.3575732       0.977157721      -2.3575732       0.04664731       59.5084385       
3.12             0.129606412      70.5758525       0.964673189      -7.27926598      0.964673189      -7.27926598      0.129606412      70.5758525       
5.24             0.211213183      69.6335632       0.94741593       -12.0637237      0.94741593       -12.0637237      0.211213183      69.6335632       
7.36             0.288573133      66.8255184       0.925283003      -16.6611217      0.925283003      -16.6611217      0.288573133      66.8255184       
9.48             0.360501642      63.512441        0.899105922      -21.0306843      0.899105922      -21.0306843      0.360501642      63.512441        
11.6             0.426365858      60.1051932       0.869930195      -25.1444138      0.869930195      -25.1444138      0.426365858      60.1051932       
13.72            0.485942443      56.7727881       0.838800011      -28.9870801      0.838800011      -28.9870801      0.485942443      56.7727881       
15.84            0.539320668      53.5936839       0.806650445      -32.5545573      0.806650445      -32.5545573      0.539320668      53.5936839       
17.96            0.586808362      50.6038383       0.774257362      -35.851447       0.774257362      -35.851447       0.586808362      50.6038383       
20.08            0.628847706      47.8165198       0.74222517       -38.8885995      0.74222517       -38.8885995      0.628847706      47.8165198       
22.2             0.66594768       45.2321448       0.710997639      -41.6808952      0.710997639      -41.6808952      0.66594768       45.2321448       
24.32            0.698634907      42.8437986       0.680880433      -44.2454488      0.680880433      -44.2454488      0.698634907      42.8437986       
26.44            0.727421134      40.6405587       0.652067479      -46.6002631      0.652067479      -46.6002631      0.727421134      40.6405587       
28.56            0.752783899      38.609555        0.624666472      -48.7632869      0.624666472      -48.7632869      0.752783899      38.609555        
30.68            0.775156777      36.7372519       0.59872116       -50.7518004      0.59872116       -50.7518004      0.775156777      36.7372519       
32.8             0.794926056      35.0102307       0.574229637      -52.582048       0.574229637      -52.582048       0.794926056      35.0102307       
34.92            0.812431411      33.4156485       0.551158674      -54.2690484      0.551158674      -54.2690484      0.812431411      33.4156485       
37.04            0.827968857      31.9414859       0.52945459       -55.8265249      0.52945459       -55.8265249      0.827968857      31.9414859       
39.16            0.841794819      30.5766615       0.509051262      -57.2669145      0.509051262      -57.2669145      0.841794819      30.5766615       
41.28            0.854130586      29.3110607       0.489875895      -58.601424       0.489875895      -58.601424       0.854130586      29.3110607       
43.4             0.865166719      28.1355147       0.471853064      -59.8401135      0.471853064      -59.8401135      0.865166719      28.1355147       
45.52            0.875067168      27.04175         0.45490748       -60.9919914      0.45490748       -60.9919914      0.875067168      27.04175         
47.64            0.883972993      26.0223225       0.438965823      -62.0651134      0.438965823      -62.0651134      0.883972993      26.0223225       
49.76            0.892005646      25.0705461       0.423957886      -63.0666792      0.423957886      -63.0666792      0.892005646      25.0705461       
51.88            0.899269828      24.1804208       0.409817254      -64.0031236      0.409817254      -64.0031236      0.899269828      24.1804208       
54               0.90585595       23.3465632       0.396481641      -64.8802007      0.396481641      -64.8802007      0.90585595       23.3465632       
56.12            0.91184223       22.5641413       0.383893004      -65.7030606      0.383893004      -65.7030606      0.91184223       22.5641413       
58.24            0.917296483      21.8288158       0.371997496      -66.4763176      0.371997496      -66.4763176      0.917296483      21.8288158       
60.36            0.92227764       21.1366852       0.360745333      -67.2041115      0.360745333      -67.2041115      0.92227764       21.1366852       
62.48            0.926837032      20.4842383       0.350090593      -67.8901619      0.350090593      -67.8901619      0.926837032      20.4842383       
64.6             0.931019479      19.8683104       0.33999098       -68.5378162      0.33999098       -68.5378162      0.931019479      19.8683104       
66.72            0.934864213      19.2860452       0.330407582      -69.1500917      0.330407582      -69.1500917      0.934864213      19.2860452       
68.84            0.938405659      18.7348611       0.321304617      -69.7297126      0.321304617      -69.7297126      0.938405659      18.7348611       
70.96            0.9416741        18.2124204       0.312649189      -70.279143       0.312649189      -70.279143       0.9416741        18.2124204       
73.08            0.944696237      17.7166038       0.304411053      -70.8006153      0.304411053      -70.8006153      0.944696237      17.7166038       
75.2             0.947495671      17.2454859       0.296562393      -71.2961558      0.296562393      -71.2961558      0.947495671      17.2454859       
77.32            0.950093315      16.7973155       0.289077614      -71.7676064      0.289077614      -71.7676064      0.950093315      16.7973155       
79.44            0.952507738      16.3704967       0.281933152      -72.2166446      0.281933152      -72.2166446      0.952507738      16.3704967       
81.56            0.954755469      15.9635729       0.275107298      -72.6448009      0.275107298      -72.6448009      0.954755469      15.9635729       
83.68            0.956851251      15.5752127       0.268580034      -73.0534733      0.268580034      -73.0534733      0.956851251      15.5752127       
85.8             0.958808265      15.2041972       0.262332887      -73.4439416      0.262332887      -73.4439416      0.958808265      15.2041972       
87.92            0.960638318      14.8494086       0.256348792      -73.8173787      0.256348792      -73.8173787      0.960638318      14.8494086       
90.04            0.962352009      14.5098205       0.250611975      -74.1748613      0.250611975      -74.1748613      0.962352009      14.5098205       
92.16            0.963958872      14.1844888       0.245107835      -74.5173797      0.245107835      -74.5173797      0.963958872      14.1844888       
94.28            0.965467499      13.8725442       0.239822847      -74.8458454      0.239822847      -74.8458454      0.965467499      13.8725442       
96.4             0.966885646      13.5731847       0.234744471      -75.1610991      0.234744471      -75.1610991      0.966885646      13.5731847       
98.52            0.96822033       13.2856698       0.229861066      -75.463917       0.229861066      -75.463917       0.96822033       13.2856698       
100.64           0.969477909      13.0093146       0.225161817      -75.7550169      0.225161817      -75.7550169      0.969477909      13.0093146       
102.76           0.970664155      12.7434849       0.220636663      -76.0350633      0.220636663      -76.0350633      0.970664155      12.7434849       
104.88           0.971784315      12.4875927       0.216276241      -76.3046724      0.216276241      -76.3046724      0.971784315      12.4875927       
107              0.972843168      12.2410921       0.212071822      -76.564416       0.212071822      -76.564416       0.972843168      12.2410921       
109.12           0.973845073      12.0034757       0.208015268      -76.8148257      0.208015268      -76.8148257      0.973845073      12.0034757       
111.24           0.974794012      11.7742715       0.204098977      -77.0563959      0.204098977      -77.0563959      0.974794012      11.7742715       
113.36           0.975693628      11.5530395       0.200315845      -77.2895874      0.200315845      -77.2895874      0.975693628      11.5530395       
115.48           0.976547259      11.3393696       0.196659229      -77.5148299      0.196659229      -77.5148299      0.976547259      11.3393696       
117.6            0.977357968      11.1328788       0.193122907      -77.7325244      0.193122907      -77.7325244      0.977357968      11.1328788       
119.72           0.978128569      10.9332091       0.189701048      -77.9430458      0.189701048      -77.9430458      0.978128569      10.9332091       
121.84           0.978861649      10.7400258       0.186388185      -78.146745       0.186388185      -78.146745       0.978861649      10.7400258       
123.96           0.979559595      10.553015        0.183179184      -78.3439504      0.183179184      -78.3439504      0.979559595      10.553015        
126.08           0.980224604      10.3718828       0.180069221      -78.5349699      0.180069221      -78.5349699      0.980224604      10.3718828       
128.2            0.980858709      10.1963534       0.177053761      -78.7200925      0.177053761      -78.7200925      0.980858709      10.1963534       
130.32           0.981463786      10.0261675       0.174128535      -78.8995896      0.174128535      -78.8995896      0.981463786      10.0261675       
132.44           0.982041574      9.86108171       0.171289524      -79.0737163      0.171289524      -79.0737163      0.982041574      9.86108171       
134.56           0.982593683      9.70086674       0.168532937      -79.2427126      0.168532937      -79.2427126      0.982593683      9.70086674       
136.68           0.983121607      9.54530683       0.165855201      -79.4068046      0.165855201      -79.4068046      0.983121607      9.54530683       
138.8            0.983626734      9.39419857       0.163252939      -79.5662053      0.163252939      -79.5662053      0.983626734      9.39419857       
140.92           0.984110353      9.24735015       0.160722965      -79.7211156      0.160722965      -79.7211156      0.984110353      9.24735015       
143.04           0.984573665      9.10458046       0.158262264      -79.8717254      0.158262264      -79.8717254      0.984573665      9.10458046       
145.16           0.985017787      8.96571843       0.155867986      -80.0182137      0.155867986      -80.0182137      0.985017787      8.96571843       
147.28           0.985443762      8.83060233       0.153537429      -80.1607501      0.153537429      -80.1607501      0.985443762      8.83060233       
149.4            0.985852562      8.69907913       0.151268038      -80.2994948      0.151268038      -80.2994948      0.985852562      8.69907913       
151.52           0.986245096      8.57100398       0.149057387      -80.4345996      0.149057387      -80.4345996      0.986245096      8.57100398       
153.64           0.986622214      8.4462396        0.146903177      -80.5662083      0.146903177      -80.5662083      0.986622214      8.4462396        
155.76           0.98698471       8.32465585       0.144803225      -80.6944573      0.144803225      -80.6944573      0.98698471       8.32465585       
157.88           0.987333329      8.20612929       0.142755459      -80.819476       0.142755459      -80.819476       0.987333329      8.20612929       
160              0.987668768      8.09054269       0.140757906      -80.9413872      0.140757906      -80.9413872      0.987668768      8.09054269       
162.12           0.987991682      7.97778471       0.138808695      -81.0603076      0.138808695      -81.0603076      0.987991682      7.97778471       
164.24           0.988302685      7.86774953       0.136906042      -81.176348       0.136906042      -81.176348       0.988302685      7.86774953       
166.36           0.988602354      7.76033647       0.135048251      -81.289614       0.135048251      -81.289614       0.988602354      7.76033647       
168.48           0.988891233      7.65544975       0.133233704      -81.4002059      0.133233704      -81.4002059      0.988891233      7.65544975       
170.6            0.989169832      7.55299813       0.13146086       -81.5082194      0.13146086       -81.5082194      0.989169832      7.55299813       
172.72           0.989438632      7.4528947        0.129728252      -81.6137456      0.129728252      -81.6137456      0.989438632      7.4528947        
174.84           0.989698085      7.35505661       0.128034476      -81.7168712      0.128034476      -81.7168712      0.989698085      7.35505661       
176.96           0.989948619      7.25940483       0.126378195      -81.8176793      0.126378195      -81.8176793      0.989948619      7.25940483       
179.08           0.990190638      7.16586393       0.124758132      -81.9162487      0.124758132      -81.9162487      0.990190638      7.16586393       
181.2            0.990424521      7.07436191       0.123173064      -82.0126549      0.123173064      -82.0126549      0.990424521      7.07436191       
183.32           0.990650628      6.98482996       0.121621824      -82.1069702      0.121621824      -82.1069702      0.990650628      6.98482996       
185.44           0.990869299      6.89720232       0.120103297      -82.1992634      0.120103297      -82.1992634      0.990869299      6.89720232       
187.56           0.991080855      6.81141613       0.118616414      -82.2896004      0.118616414      -82.2896004      0.991080855      6.81141613       
189.68           0.991285601      6.72741122       0.117160152      -82.3780443      0.117160152      -82.3780443      0.991285601      6.72741122       
191.8            0.991483825      6.64513001       0.115733531      -82.4646554      0.115733531      -82.4646554      0.991483825      6.64513001       
193.92           0.991675801      6.56451736       0.114335613      -82.5494916      0.114335613      -82.5494916      0.991675801      6.56451736       
196.04           0.991861786      6.48552045       0.112965499      -82.6326081      0.112965499      -82.6326081      0.991861786      6.48552045       
198.16           0.992042026      6.40808864       0.111622326      -82.7140582      0.111622326      -82.7140582      0.992042026      6.40808864       
200.28           0.992216755      6.33217338       0.110305265      -82.7938925      0.110305265      -82.7938925      0.992216755      6.33217338       
202.4            0.992386195      6.25772811       0.109013523      -82.8721601      0.109013523      -82.8721601      0.992386195      6.25772811       
204.52           0.992550555      6.18470812       0.107746337      -82.9489076      0.107746337      -82.9489076      0.992550555      6.18470812       
206.64           0.992710035      6.11307051       0.106502974      -83.0241801      0.106502974      -83.0241801      0.992710035      6.11307051       
208.76           0.992864826      6.04277406       0.10528273       -83.0980207      0.10528273       -83.0980207      0.992864826      6.04277406       
210.88           0.993015109      5.97377917       0.104084929      -83.170471       0.104084929      -83.170471       0.993015109      5.97377917       
213              0.993161056      5.90604779       0.102908919      -83.2415708      0.102908919      -83.2415708      0.993161056      5.90604779       
215.12           0.993302831      5.83954331       0.101754074      -83.3113584      0.101754074      -83.3113584      0.993302831      5.83954331       
217.24           0.993440591      5.77423052       0.100619793      -83.3798708      0.100619793      -83.3798708      0.993440591      5.77423052       
219.36           0.993574485      5.71007555       0.0995054948     -83.4471434      0.0995054948     -83.4471434      0.993574485      5.71007555       
221.48           0.993704655      5.64704579       0.0984106213     -83.5132104      0.0984106213     -83.5132104      0.993704655      5.64704579       
223.6            0.993831237      5.58510982       0.0973346345     -83.5781046      0.0973346345     -83.5781046      0.993831237      5.58510982       
225.72           0.993954361      5.52423741       0.096277016      -83.6418577      0.096277016      -83.6418577      0.993954361      5.52423741       
227.84           0.99407415       5.4643994        0.0952372661     -83.7045003      0.0952372661     -83.7045003      0.99407415       5.4643994        
229.96           0.994190723      5.40556769       0.0942149027     -83.7660617      0.0942149027     -83.7660617      0.994190723      5.40556769       
232.08           0.994304192      5.34771519       0.0932094612     -83.8265703      0.0932094612     -83.8265703      0.994304192      5.34771519       
234.2            0.994414666      5.29081576       0.0922204929     -83.8860535      0.0922204929     -83.8860535      0.994414666      5.29081576       
236.32           0.994522249      5.23484419       0.0912475651     -83.9445375      0.0912475651     -83.9445375      0.994522249      5.23484419       
238.44           0.994627039      5.17977614       0.0902902598     -84.0020479      0.0902902598     -84.0020479      0.994627039      5.17977614       
240.56           0.99472913       5.12558811       0.0893481734     -84.0586091      0.0893481734     -84.0586091      0.99472913       5.12558811       
242.68           0.994828615      5.07225741       0.0884209161     -84.1142451      0.0884209161     -84.1142451      0.994828615      5.07225741       
244.8            0.994925579      5.01976212       0.0875081109     -84.1689785      0.0875081109     -84.1689785      0.994925579      5.01976212       
246.92           0.995020106      4.96808106       0.0866093939     -84.2228316      0.0866093939     -84.2228316      0.995020106      4.96808106       
249.04           0.995112276      4.91719376       0.0857244127     -84.2758257      0.0857244127     -84.2758257      0.995112276      4.91719376       
251.16           0.995202166      4.8670804        0.0848528271     -84.3279816      0.0848528271     -84.3279816      0.995202166      4.8670804        
253.28           0.995289848      4.81772186       0.0839943074     -84.3793191      0.0839943074     -84.3793191      0.995289848      4.81772186       
255.4            0.995375395      4.7690996        0.083148535      -84.4298575      0.083148535      -84.4298575      0.995375395      4.7690996        
257.52           0.995458873      4.7211957        0.0823152014     -84.4796157      0.0823152014     -84.4796157      0.995458873      4.7211957        
259.64           0.995540347      4.67399282       0.0814940078     -84.5286116      0.0814940078     -84.5286116      0.995540347      4.67399282       
261.76           0.99561988       4.62747417       0.080684665      -84.5768628      0.080684665      -84.5768628      0.99561988       4.62747417       
263.88           0.995697532      4.58162347       0.0798868928     -84.6243861      0.0798868928     -84.6243861      0.995697532      4.58162347       
266              0.995773362      4.53642497       0.0791004198     -84.671198       0.0791004198     -84.671198       0.995773362      4.53642497       
268.12           0.995847423      4.4918634        0.0783249829     -84.7173143      0.0783249829     -84.7173143      0.995847423      4.4918634        
270.24           0.99591977       4.44792398       0.0775603272     -84.7627504      0.0775603272     -84.7627504      0.99591977       4.44792398       
