! Coilcraft 1206CS-180 Chip Inductor				
! 29 July 2002			
# MHZ S MA R 50
!Freq             MagS11           AngS11           MagS21           AngS21           MagS12           AngS12           MagS22           AngS22
1                0.00186533393    44.8695992       0.998678878      -0.0755001496    0.998678878      -0.0755001496    0.00186533393    44.8695992       
11.97            0.0158994539     81.4732662       0.997766476      -0.902956514     0.997766476      -0.902956514     0.0158994539     81.4732662       
22.94            0.0302853904     83.4695964       0.997009761      -1.72939941      0.997009761      -1.72939941      0.0302853904     83.4695964       
33.91            0.0446658048     83.768553        0.996141825      -2.55474121      0.996141825      -2.55474121      0.0446658048     83.768553        
44.88            0.0590201243     83.5692854       0.995119426      -3.37876576      0.995119426      -3.37876576      0.0590201243     83.5692854       
55.85            0.0733377484     83.1519612       0.993926234      -4.20122441      0.993926234      -4.20122441      0.0733377484     83.1519612       
66.82            0.0876100078     82.6187975       0.992554762      -5.02185577      0.992554762      -5.02185577      0.0876100078     82.6187975       
77.79            0.101828875      82.0166588       0.991001553      -5.84039337      0.991001553      -5.84039337      0.101828875      82.0166588       
88.76            0.115986644      81.3703396       0.989265366      -6.6565696       0.989265366      -6.6565696       0.115986644      81.3703396       
99.73            0.130075844      80.6943336       0.987346357      -7.47011814      0.987346357      -7.47011814      0.130075844      80.6943336       
110.7            0.144089208      79.9977671       0.985245646      -8.28077554      0.985245646      -8.28077554      0.144089208      79.9977671       
121.67           0.158019678      79.28673         0.982965075      -9.08828253      0.982965075      -9.08828253      0.158019678      79.28673         
132.64           0.171860416      78.5654825       0.980507054      -9.89238491      0.980507054      -9.89238491      0.171860416      78.5654825       
143.61           0.185604811      77.8371232       0.977874454      -10.6928344      0.977874454      -10.6928344      0.185604811      77.8371232       
154.58           0.199246496      77.1039818       0.975070538      -11.4893891      0.975070538      -11.4893891      0.199246496      77.1039818       
165.55           0.212779356      76.3678607       0.972098903      -12.2818146      0.972098903      -12.2818146      0.212779356      76.3678607       
176.52           0.226197543      75.6301885       0.968963433      -13.0698838      0.968963433      -13.0698838      0.226197543      75.6301885       
187.49           0.239495484      74.8921224       0.965668265      -13.8533778      0.965668265      -13.8533778      0.239495484      74.8921224       
198.46           0.25266789       74.1546168       0.962217755      -14.6320859      0.962217755      -14.6320859      0.25266789       74.1546168       
209.43           0.26570976       73.4184719       0.958616449      -15.4058065      0.958616449      -15.4058065      0.26570976       73.4184719       
220.4            0.278616391      72.6843675       0.954869056      -16.1743465      0.954869056      -16.1743465      0.278616391      72.6843675       
231.37           0.291383378      71.9528882       0.950980427      -16.9375224      0.950980427      -16.9375224      0.291383378      71.9528882       
242.34           0.304006617      71.2245416       0.946955527      -17.6951598      0.946955527      -17.6951598      0.304006617      71.2245416       
253.31           0.316482309      70.4997721       0.94279942       -18.4470937      0.94279942       -18.4470937      0.316482309      70.4997721       
264.28           0.328806957      69.7789715       0.938517245      -19.1931688      0.938517245      -19.1931688      0.328806957      69.7789715       
275.25           0.340977363      69.0624869       0.934114197      -19.9332392      0.934114197      -19.9332392      0.340977363      69.0624869       
286.22           0.352990628      68.3506273       0.929595509      -20.6671687      0.929595509      -20.6671687      0.352990628      68.3506273       
297.19           0.36484415       67.6436684       0.924966439      -21.3948305      0.924966439      -21.3948305      0.36484415       67.6436684       
308.16           0.376535614      66.9418568       0.920232248      -22.1161074      0.920232248      -22.1161074      0.376535614      66.9418568       
319.13           0.388062988      66.2454133       0.91539819       -22.8308915      0.91539819       -22.8308915      0.388062988      66.2454133       
330.1            0.399424521      65.5545355       0.910469494      -23.539084       0.910469494      -23.539084       0.399424521      65.5545355       
341.07           0.41061873       64.8694002       0.905451355      -24.2405955      0.905451355      -24.2405955      0.41061873       64.8694002       
352.04           0.421644392      64.190165        0.900348916      -24.9353453      0.900348916      -24.9353453      0.421644392      64.190165        
363.01           0.432500541      63.5169705       0.895167264      -25.6232615      0.895167264      -25.6232615      0.432500541      63.5169705       
373.98           0.443186453      62.849941        0.889911414      -26.3042806      0.889911414      -26.3042806      0.443186453      62.849941        
384.95           0.45370164       62.1891862       0.884586301      -26.9783477      0.884586301      -26.9783477      0.45370164       62.1891862       
395.92           0.464045839      61.5348022       0.879196774      -27.6454156      0.879196774      -27.6454156      0.464045839      61.5348022       
406.89           0.474219001      60.8868723       0.873747583      -28.3054452      0.873747583      -28.3054452      0.474219001      60.8868723       
417.86           0.484221284      60.2454682       0.868243379      -28.9584047      0.868243379      -28.9584047      0.484221284      60.2454682       
428.83           0.494053038      59.6106503       0.862688701      -29.6042696      0.862688701      -29.6042696      0.494053038      59.6106503       
439.8            0.503714799      58.9824687       0.857087976      -30.2430227      0.857087976      -30.2430227      0.503714799      58.9824687       
450.77           0.513207274      58.3609641       0.851445512      -30.874653       0.851445512      -30.874653       0.513207274      58.3609641       
461.74           0.522531337      57.7461679       0.845765496      -31.4991564      0.845765496      -31.4991564      0.522531337      57.7461679       
472.71           0.531688012      57.1381032       0.840051986      -32.1165346      0.840051986      -32.1165346      0.531688012      57.1381032       
483.68           0.540678466      56.536785        0.834308917      -32.7267953      0.834308917      -32.7267953      0.540678466      56.536785        
494.65           0.549504         55.942221        0.82854009       -33.3299516      0.82854009       -33.3299516      0.549504         55.942221        
505.62           0.558166038      55.354412        0.822749179      -33.9260222      0.822749179      -33.9260222      0.558166038      55.354412        
516.59           0.566666116      54.7733521       0.816939724      -34.5150303      0.816939724      -34.5150303      0.566666116      54.7733521       
527.56           0.575005875      54.1990296       0.811115134      -35.0970043      0.811115134      -35.0970043      0.575005875      54.1990296       
538.53           0.583187053      53.6314269       0.805278684      -35.6719767      0.805278684      -35.6719767      0.583187053      53.6314269       
549.5            0.591211473      53.0705213       0.799433521      -36.2399842      0.799433521      -36.2399842      0.591211473      53.0705213       
560.47           0.599081037      52.516285        0.79358266       -36.8010675      0.79358266       -36.8010675      0.599081037      52.516285        
571.44           0.606797717      51.9686858       0.787728989      -37.3552709      0.787728989      -37.3552709      0.606797717      51.9686858       
582.41           0.614363549      51.4276872       0.781875266      -37.902642       0.781875266      -37.902642       0.614363549      51.4276872       
593.38           0.621780621      50.8932488       0.776024125      -38.4432317      0.776024125      -38.4432317      0.621780621      50.8932488       
604.35           0.629051075      50.3653265       0.770178078      -38.9770938      0.770178078      -38.9770938      0.629051075      50.3653265       
615.32           0.63617709       49.843873        0.764339514      -39.5042845      0.764339514      -39.5042845      0.63617709       49.843873        
626.29           0.643160883      49.3288379       0.758510707      -40.0248629      0.758510707      -40.0248629      0.643160883      49.3288379       
637.26           0.6500047        48.8201678       0.752693813      -40.53889        0.752693813      -40.53889        0.6500047        48.8201678       
648.23           0.656710812      48.3178071       0.746890875      -41.046429       0.746890875      -41.046429       0.656710812      48.3178071       
659.2            0.663281508      47.8216976       0.741103828      -41.547545       0.741103828      -41.547545       0.663281508      47.8216976       
670.17           0.669719091      47.3317791       0.7353345        -42.0423047      0.7353345        -42.0423047      0.669719091      47.3317791       
681.14           0.676025873      46.8479895       0.729584616      -42.5307762      0.729584616      -42.5307762      0.676025873      46.8479895       
692.11           0.682204173      46.3702649       0.723855799      -43.0130293      0.723855799      -43.0130293      0.682204173      46.3702649       
703.08           0.688256308      45.8985402       0.718149577      -43.4891345      0.718149577      -43.4891345      0.688256308      45.8985402       
714.05           0.694184595      45.4327485       0.712467384      -43.9591636      0.712467384      -43.9591636      0.694184595      45.4327485       
725.02           0.699991343      44.972822        0.706810561      -44.4231892      0.706810561      -44.4231892      0.699991343      44.972822        
735.99           0.705678853      44.518692        0.701180365      -44.8812846      0.701180365      -44.8812846      0.705678853      44.518692        
746.96           0.711249413      44.0702888       0.695577968      -45.3335238      0.695577968      -45.3335238      0.711249413      44.0702888       
757.93           0.716705297      43.6275418       0.69000446       -45.7799812      0.69000446       -45.7799812      0.716705297      43.6275418       
768.9            0.72204876       43.19038         0.684460855      -46.2207316      0.684460855      -46.2207316      0.72204876       43.19038         
779.87           0.72728204       42.7587321       0.678948091      -46.6558502      0.678948091      -46.6558502      0.72728204       42.7587321       
790.84           0.732407351      42.332526        0.673467035      -47.085412       0.673467035      -47.085412       0.732407351      42.332526        
801.81           0.737426884      41.9116898       0.668018487      -47.5094924      0.668018487      -47.5094924      0.737426884      41.9116898       
812.78           0.742342806      41.4961511       0.66260318       -47.9281668      0.66260318       -47.9281668      0.742342806      41.4961511       
823.75           0.747157256      41.0858375       0.657221784      -48.3415102      0.657221784      -48.3415102      0.747157256      41.0858375       
834.72           0.751872348      40.6806769       0.651874911      -48.7495977      0.651874911      -48.7495977      0.751872348      40.6806769       
845.69           0.756490163      40.280597        0.646563115      -49.1525039      0.646563115      -49.1525039      0.756490163      40.280597        
856.66           0.761012755      39.8855257       0.641286895      -49.5503035      0.641286895      -49.5503035      0.761012755      39.8855257       
867.63           0.765442146      39.4953914       0.6360467        -49.9430703      0.6360467        -49.9430703      0.765442146      39.4953914       
878.6            0.769780327      39.1101226       0.630842927      -50.3308781      0.630842927      -50.3308781      0.769780327      39.1101226       
889.57           0.774029256      38.7296482       0.62567593       -50.7137999      0.62567593       -50.7137999      0.774029256      38.7296482       
900.54           0.778190858      38.3538975       0.620546016      -51.0919083      0.620546016      -51.0919083      0.778190858      38.3538975       
911.51           0.782267027      37.9828004       0.615453449      -51.4652754      0.615453449      -51.4652754      0.782267027      37.9828004       
922.48           0.786259621      37.6162872       0.610398455      -51.8339726      0.610398455      -51.8339726      0.786259621      37.6162872       
933.45           0.790170466      37.2542888       0.605381223      -52.1980706      0.605381223      -52.1980706      0.790170466      37.2542888       
944.42           0.794001354      36.8967367       0.600401902      -52.5576395      0.600401902      -52.5576395      0.794001354      36.8967367       
955.39           0.797754042      36.5435631       0.595460612      -52.9127485      0.595460612      -52.9127485      0.797754042      36.5435631       
966.36           0.801430253      36.1947008       0.590557437      -53.2634665      0.590557437      -53.2634665      0.801430253      36.1947008       
977.33           0.805031678      35.8500832       0.585692434      -53.609861       0.585692434      -53.609861       0.805031678      35.8500832       
988.3            0.808559974      35.5096447       0.58086563       -53.9519993      0.58086563       -53.9519993      0.808559974      35.5096447       
999.27           0.812016762      35.17332         0.576077024      -54.2899475      0.576077024      -54.2899475      0.812016762      35.17332         
1010.24          0.815403631      34.841045        0.571326592      -54.6237711      0.571326592      -54.6237711      0.815403631      34.841045        
1021.21          0.818722139      34.5127561       0.566614286      -54.9535346      0.566614286      -54.9535346      0.818722139      34.5127561       
1032.18          0.821973807      34.1883907       0.561940034      -55.2793018      0.561940034      -55.2793018      0.821973807      34.1883907       
1043.15          0.825160128      33.8678867       0.557303744      -55.6011355      0.557303744      -55.6011355      0.825160128      33.8678867       
1054.12          0.828282559      33.551183        0.552705307      -55.9190977      0.552705307      -55.9190977      0.828282559      33.551183        
1065.09          0.831342527      33.2382195       0.548144591      -56.2332497      0.548144591      -56.2332497      0.831342527      33.2382195       
1076.06          0.834341428      32.9289365       0.543621451      -56.5436515      0.543621451      -56.5436515      0.834341428      32.9289365       
1087.03          0.837280626      32.6232755       0.539135724      -56.8503627      0.539135724      -56.8503627      0.837280626      32.6232755       
1098             0.840161456      32.3211787       0.534687233      -57.1534416      0.534687233      -57.1534416      0.840161456      32.3211787       
1108.97          0.842985221      32.0225892       0.530275786      -57.4529459      0.530275786      -57.4529459      0.842985221      32.0225892       
1119.94          0.845753196      31.7274508       0.525901181      -57.7489323      0.525901181      -57.7489323      0.845753196      31.7274508       
1130.91          0.848466626      31.4357082       0.5215632        -58.0414567      0.5215632        -58.0414567      0.848466626      31.4357082       
1141.88          0.851126728      31.1473071       0.517261619      -58.330574       0.517261619      -58.330574       0.851126728      31.1473071       
1152.85          0.853734691      30.8621938       0.512996199      -58.6163383      0.512996199      -58.6163383      0.853734691      30.8621938       
1163.82          0.856291676      30.5803156       0.508766695      -58.8988027      0.508766695      -58.8988027      0.856291676      30.5803156       
1174.79          0.858798817      30.3016205       0.504572853      -59.1780197      0.504572853      -59.1780197      0.858798817      30.3016205       
1185.76          0.861257222      30.0260576       0.50041441       -59.4540407      0.50041441       -59.4540407      0.861257222      30.0260576       
1196.73          0.863667973      29.7535764       0.496291096      -59.7269163      0.496291096      -59.7269163      0.863667973      29.7535764       
1207.7           0.866032126      29.4841276       0.492202637      -59.9966963      0.492202637      -59.9966963      0.866032126      29.4841276       
1218.67          0.868350712      29.2176624       0.488148749      -60.2634297      0.488148749      -60.2634297      0.868350712      29.2176624       
1229.64          0.870624738      28.9541331       0.484129146      -60.5271644      0.484129146      -60.5271644      0.870624738      28.9541331       
1240.61          0.872855186      28.6934926       0.480143537      -60.7879479      0.480143537      -60.7879479      0.872855186      28.6934926       
1251.58          0.875043017      28.4356947       0.476191625      -61.0458266      0.476191625      -61.0458266      0.875043017      28.4356947       
1262.55          0.877189167      28.1806937       0.472273111      -61.300846       0.472273111      -61.300846       0.877189167      28.1806937       
1273.52          0.87929455       27.9284452       0.468387692      -61.5530511      0.468387692      -61.5530511      0.87929455       27.9284452       
1284.49          0.881360058      27.678905        0.464535062      -61.8024859      0.464535062      -61.8024859      0.881360058      27.678905        
1295.46          0.883386563      27.4320301       0.460714913      -62.0491937      0.460714913      -62.0491937      0.883386563      27.4320301       
1306.43          0.885374913      27.1877778       0.456926935      -62.2932171      0.456926935      -62.2932171      0.885374913      27.1877778       
1317.4           0.88732594       26.9461066       0.453170816      -62.5345976      0.453170816      -62.5345976      0.88732594       26.9461066       
1328.37          0.889240452      26.7069755       0.449446244      -62.7733765      0.449446244      -62.7733765      0.889240452      26.7069755       
1339.34          0.891119239      26.470344        0.445752903      -63.0095939      0.445752903      -63.0095939      0.891119239      26.470344        
1350.31          0.892963072      26.2361728       0.44209048       -63.2432893      0.44209048       -63.2432893      0.892963072      26.2361728       
1361.28          0.894772705      26.0044228       0.438458658      -63.4745017      0.438458658      -63.4745017      0.894772705      26.0044228       
1372.25          0.89654887       25.775056        0.434857124      -63.703269       0.434857124      -63.703269       0.89654887       25.775056        
1383.22          0.898292285      25.5480346       0.431285561      -63.9296288      0.431285561      -63.9296288      0.898292285      25.5480346       
1394.19          0.90000365       25.323322        0.427743655      -64.1536177      0.427743655      -64.1536177      0.90000365       25.323322        
