! Coilcraft 1008CS-751 Chip Inductor				
! 02 July 2002			
# MHZ S MA R 50
!Freq             MagS11           AngS11           MagS21           AngS21           MagS12           AngS12           MagS22           AngS22
1                0.0502417957     62.1738823       0.977557937      -2.60512213      0.977557937      -2.60512213      0.0502417957     62.1738823       
2.49             0.1149127        70.9567012       0.968615972      -6.43888205      0.968615972      -6.43888205      0.1149127        70.9567012       
3.98             0.179173616      70.966568        0.956681271      -10.1978253      0.956681271      -10.1978253      0.179173616      70.966568        
5.47             0.241288355      69.1629375       0.941574182      -13.8570357      0.941574182      -13.8570357      0.241288355      69.1629375       
6.96             0.300512414      66.7475105       0.92359778       -17.394123       0.92359778       -17.394123       0.300512414      66.7475105       
8.45             0.356370999      64.1097292       0.903206613      -20.7910277      0.903206613      -20.7910277      0.356370999      64.1097292       
9.94             0.408573511      61.4181785       0.880907676      -24.0345488      0.880907676      -24.0345488      0.408573511      61.4181785       
11.43            0.456981776      58.7582184       0.857207428      -27.1162692      0.857207428      -27.1162692      0.456981776      58.7582184       
12.92            0.501583102      56.176568        0.832578989      -30.0321183      0.832578989      -30.0321183      0.501583102      56.176568        
14.41            0.54246301       53.6992297       0.80744279       -32.7817315      0.80744279       -32.7817315      0.54246301       53.6992297       
15.9             0.57977891       51.3399679       0.782157286      -35.3677317      0.782157286      -35.3677317      0.57977891       51.3399679       
17.39            0.613736493      49.1048746       0.757017013      -37.7950169      0.757017013      -37.7950169      0.613736493      49.1048746       
18.88            0.644569936      46.9950852       0.732255592      -40.0701135      0.732255592      -40.0701135      0.644569936      46.9950852       
20.37            0.67252629       45.0085144       0.708051664      -42.2006208      0.708051664      -42.2006208      0.67252629       45.0085144       
21.86            0.69785383       43.1410184       0.684536245      -44.1947585      0.684536245      -44.1947585      0.69785383       43.1410184       
23.35            0.720793878      41.3871921       0.661800422      -46.0610136      0.661800422      -46.0610136      0.720793878      41.3871921       
24.84            0.741575441      39.7409237       0.639902706      -47.8078743      0.639902706      -47.8078743      0.741575441      39.7409237       
26.33            0.760412035      38.195778        0.618875662      -49.4436395      0.618875662      -49.4436395      0.760412035      38.195778        
27.82            0.777500125      36.74526         0.598731659      -50.9762878      0.598731659      -50.9762878      0.777500125      36.74526         
29.31            0.793018698      35.3829914       0.579467691      -52.413394       0.579467691      -52.413394       0.793018698      35.3829914       
30.8             0.807129612      34.1028254       0.561069343      -53.7620816      0.561069343      -53.7620816      0.807129612      34.1028254       
32.29            0.819978418      32.8989175       0.543513975      -55.0290007      0.543513975      -55.0290007      0.819978418      32.8989175       
33.78            0.831695477      31.7657644       0.526773246      -56.2203253      0.526773246      -56.2203253      0.831695477      31.7657644       
35.27            0.8423972        30.6982212       0.51081508       -57.3417636      0.51081508       -57.3417636      0.8423972        30.6982212       
36.76            0.852187342      29.6915034       0.495605179      -58.3985769      0.495605179      -58.3985769      0.852187342      29.6915034       
38.25            0.861158258      28.7411798       0.481108163      -59.395603       0.481108163      -59.395603       0.861158258      28.7411798       
39.74            0.869392103      27.8431575       0.467288426      -60.3372837      0.467288426      -60.3372837      0.869392103      27.8431575       
41.23            0.876961944      26.9936641       0.454110758      -61.2276927      0.454110758      -61.2276927      0.876961944      26.9936641       
42.72            0.883932782      26.1892276       0.441540789      -62.0705634      0.441540789      -62.0705634      0.883932782      26.1892276       
44.21            0.890362467      25.4266552       0.429545295      -62.869317       0.429545295      -62.869317       0.890362467      25.4266552       
45.7             0.896302525      24.7030125       0.418092402      -63.627088       0.418092402      -63.627088       0.896302525      24.7030125       
47.19            0.901798894      24.0156031       0.40715171       -64.3467493      0.40715171       -64.3467493      0.901798894      24.0156031       
48.68            0.90689257       23.3619488       0.396694349      -65.030935       0.396694349      -65.030935       0.90689257       23.3619488       
50.17            0.911620187      22.7397717       0.386693006      -65.6820616      0.386693006      -65.6820616      0.911620187      22.7397717       
51.66            0.916014522      22.1469769       0.377121908      -66.3023475      0.377121908      -66.3023475      0.916014522      22.1469769       
53.15            0.920104942      21.5816368       0.36795679       -66.8938308      0.36795679       -66.8938308      0.920104942      21.5816368       
54.64            0.923917793      21.0419765       0.359174841      -67.4583855      0.359174841      -67.4583855      0.923917793      21.0419765       
56.13            0.92747675       20.5263601       0.350754644      -67.9977367      0.350754644      -67.9977367      0.92747675       20.5263601       
57.62            0.930803117      20.0332794       0.342676112      -68.5134733      0.342676112      -68.5134733      0.930803117      20.0332794       
59.11            0.933916091      19.5613417       0.334920415      -69.0070606      0.334920415      -69.0070606      0.933916091      19.5613417       
60.6             0.936832998      19.1092608       0.327469907      -69.4798514      0.327469907      -69.4798514      0.936832998      19.1092608       
62.09            0.939569502      18.6758468       0.32030806       -69.9330955      0.32030806       -69.9330955      0.939569502      18.6758468       
63.58            0.942139778      18.2599984       0.31341939       -70.3679491      0.31341939       -70.3679491      0.942139778      18.2599984       
65.07            0.944556681      17.8606953       0.306789394      -70.7854828      0.306789394      -70.7854828      0.944556681      17.8606953       
66.56            0.946831879      17.476991        0.300404481      -71.1866891      0.300404481      -71.1866891      0.946831879      17.476991        
68.05            0.948975981      17.1080068       0.294251917      -71.5724886      0.294251917      -71.5724886      0.948975981      17.1080068       
69.54            0.950998647      16.7529262       0.288319765      -71.9437368      0.288319765      -71.9437368      0.950998647      16.7529262       
71.03            0.952908684      16.4109896       0.282596829      -72.301229       0.282596829      -72.301229       0.952908684      16.4109896       
72.52            0.954714134      16.0814897       0.277072607      -72.6457054      0.277072607      -72.6457054      0.954714134      16.0814897       
74.01            0.956422348      15.7637672       0.271737239      -72.9778556      0.271737239      -72.9778556      0.956422348      15.7637672       
75.5             0.958040058      15.4572073       0.26658147       -73.2983228      0.26658147       -73.2983228      0.958040058      15.4572073       
76.99            0.959573431      15.1612355       0.2615966        -73.6077075      0.2615966        -73.6077075      0.959573431      15.1612355       
78.48            0.96102813       14.8753153       0.256774454      -73.9065705      0.256774454      -73.9065705      0.96102813       14.8753153       
79.97            0.962409359      14.5989444       0.252107339      -74.1954368      0.252107339      -74.1954368      0.962409359      14.5989444       
81.46            0.963721904      14.3316526       0.247588017      -74.4747973      0.247588017      -74.4747973      0.963721904      14.3316526       
82.95            0.964970176      14.0729992       0.243209672      -74.7451124      0.243209672      -74.7451124      0.964970176      14.0729992       
84.44            0.966158243      13.822571        0.23896588       -75.0068137      0.23896588       -75.0068137      0.966158243      13.822571        
85.93            0.967289859      13.5799798       0.234850585      -75.2603062      0.234850585      -75.2603062      0.967289859      13.5799798       
87.42            0.968368494      13.3448612       0.230858074      -75.5059706      0.230858074      -75.5059706      0.968368494      13.3448612       
88.91            0.969397363      13.1168721       0.226982954      -75.7441646      0.226982954      -75.7441646      0.969397363      13.1168721       
90.4             0.970379438      12.8956899       0.22322013       -75.975225       0.22322013       -75.975225       0.970379438      12.8956899       
91.89            0.97131748       12.6810108       0.219564789      -76.1994688      0.219564789      -76.1994688      0.97131748       12.6810108       
93.38            0.972214048      12.4725482       0.216012376      -76.4171948      0.216012376      -76.4171948      0.972214048      12.4725482       
94.87            0.973071523      12.2700319       0.212558585      -76.6286848      0.212558585      -76.6286848      0.973071523      12.2700319       
96.36            0.973892118      12.0732069       0.209199336      -76.8342049      0.209199336      -76.8342049      0.973892118      12.0732069       
97.85            0.974677893      11.881832        0.205930764      -77.0340063      0.205930764      -77.0340063      0.974677893      11.881832        
99.34            0.975430767      11.6956796       0.202749207      -77.2283265      0.202749207      -77.2283265      0.975430767      11.6956796       
100.83           0.97615253       11.514534        0.199651191      -77.4173902      0.199651191      -77.4173902      0.97615253       11.514534        
102.32           0.976844855      11.3381913       0.196633419      -77.6014101      0.196633419      -77.6014101      0.976844855      11.3381913       
103.81           0.977509303      11.1664582       0.19369276       -77.7805875      0.19369276       -77.7805875      0.977509303      11.1664582       
105.3            0.978147333      10.9991514       0.19082624       -77.9551134      0.19082624       -77.9551134      0.978147333      10.9991514       
106.79           0.978760313      10.8360972       0.188031033      -78.1251689      0.188031033      -78.1251689      0.978760313      10.8360972       
108.28           0.979349522      10.6771307       0.18530445       -78.2909256      0.18530445       -78.2909256      0.979349522      10.6771307       
109.77           0.97991616       10.5220951       0.182643932      -78.4525469      0.182643932      -78.4525469      0.97991616       10.5220951       
111.26           0.980461353      10.3708416       0.180047044      -78.6101877      0.180047044      -78.6101877      0.980461353      10.3708416       
112.75           0.980986156      10.2232286       0.177511466      -78.7639955      0.177511466      -78.7639955      0.980986156      10.2232286       
114.24           0.981491563      10.0791216       0.175034986      -78.9141104      0.175034986      -78.9141104      0.981491563      10.0791216       
115.73           0.981978507      9.93839229       0.172615495      -79.0606659      0.172615495      -79.0606659      0.981978507      9.93839229       
117.22           0.982447867      9.80091857       0.170250984      -79.2037891      0.170250984      -79.2037891      0.982447867      9.80091857       
118.71           0.982900468      9.6665841        0.167939531      -79.3436011      0.167939531      -79.3436011      0.982900468      9.6665841        
120.2            0.98333709       9.53527792       0.165679304      -79.4802173      0.165679304      -79.4802173      0.98333709       9.53527792       
121.69           0.983758467      9.40689418       0.163468551      -79.6137478      0.163468551      -79.6137478      0.983758467      9.40689418       
123.18           0.984165292      9.28133188       0.161305599      -79.7442977      0.161305599      -79.7442977      0.984165292      9.28133188       
124.67           0.984558219      9.15849452       0.159188848      -79.8719674      0.159188848      -79.8719674      0.984558219      9.15849452       
126.16           0.984937866      9.03828994       0.157116765      -79.9968527      0.157116765      -79.9968527      0.984937866      9.03828994       
127.65           0.985304817      8.92063001       0.155087886      -80.1190452      0.155087886      -80.1190452      0.985304817      8.92063001       
129.14           0.985659623      8.80543049       0.153100808      -80.2386324      0.153100808      -80.2386324      0.985659623      8.80543049       
130.63           0.986002809      8.69261075       0.151154187      -80.3556981      0.151154187      -80.3556981      0.986002809      8.69261075       
132.12           0.986334868      8.58209361       0.149246735      -80.4703226      0.149246735      -80.4703226      0.986334868      8.58209361       
133.61           0.98665627       8.47380517       0.147377218      -80.5825825      0.147377218      -80.5825825      0.98665627       8.47380517       
135.1            0.986967458      8.36767462       0.145544451      -80.6925513      0.145544451      -80.6925513      0.986967458      8.36767462       
136.59           0.987268855      8.26363409       0.143747299      -80.8002996      0.143747299      -80.8002996      0.987268855      8.26363409       
138.08           0.98756086       8.16161851       0.141984671      -80.9058948      0.141984671      -80.9058948      0.98756086       8.16161851       
139.57           0.987843854      8.06156546       0.14025552       -81.0094017      0.14025552       -81.0094017      0.987843854      8.06156546       
141.06           0.988118196      7.96341501       0.138558842      -81.1108824      0.138558842      -81.1108824      0.988118196      7.96341501       
142.55           0.98838423       7.86710966       0.13689367       -81.2103965      0.13689367       -81.2103965      0.98838423       7.86710966       
144.04           0.988642283      7.77259416       0.135259074      -81.3080013      0.135259074      -81.3080013      0.988642283      7.77259416       
145.53           0.988892663      7.67981543       0.133654163      -81.4037517      0.133654163      -81.4037517      0.988892663      7.67981543       
147.02           0.989135667      7.58872246       0.132078076      -81.4977006      0.132078076      -81.4977006      0.989135667      7.58872246       
148.51           0.989371576      7.4992662        0.130529988      -81.5898987      0.130529988      -81.5898987      0.989371576      7.4992662        
150              0.989600657      7.41139947       0.129009102      -81.6803948      0.129009102      -81.6803948      0.989600657      7.41139947       
151.49           0.989823166      7.32507686       0.127514653      -81.7692359      0.127514653      -81.7692359      0.989823166      7.32507686       
152.98           0.990039346      7.24025467       0.126045903      -81.8564671      0.126045903      -81.8564671      0.990039346      7.24025467       
154.47           0.99024943       7.15689083       0.124602139      -81.9421318      0.124602139      -81.9421318      0.99024943       7.15689083       
155.96           0.99045364       7.07494481       0.123182678      -82.0262719      0.123182678      -82.0262719      0.99045364       7.07494481       
157.45           0.990652186      6.99437754       0.121786858      -82.1089277      0.121786858      -82.1089277      0.990652186      6.99437754       
158.94           0.990845271      6.91515139       0.120414042      -82.190138       0.120414042      -82.190138       0.990845271      6.91515139       
160.43           0.991033089      6.83723007       0.119063615      -82.2699401      0.119063615      -82.2699401      0.991033089      6.83723007       
161.92           0.991215824      6.76057856       0.117734984      -82.3483702      0.117734984      -82.3483702      0.991215824      6.76057856       
163.41           0.991393653      6.68516311       0.116427575      -82.4254628      0.116427575      -82.4254628      0.991393653      6.68516311       
164.9            0.991566745      6.61095111       0.115140837      -82.5012515      0.115140837      -82.5012515      0.991566745      6.61095111       
166.39           0.991735261      6.5379111        0.113874234      -82.5757686      0.113874234      -82.5757686      0.991735261      6.5379111        
167.88           0.991899356      6.4660127        0.11262725       -82.6490453      0.11262725       -82.6490453      0.991899356      6.4660127        
169.37           0.992059179      6.39522657       0.111399388      -82.7211116      0.111399388      -82.7211116      0.992059179      6.39522657       
170.86           0.992214872      6.32552434       0.110190163      -82.7919966      0.110190163      -82.7919966      0.992214872      6.32552434       
172.35           0.992366571      6.2568786        0.108999111      -82.8617282      0.108999111      -82.8617282      0.992366571      6.2568786        
173.84           0.992514406      6.18926287       0.107825781      -82.9303337      0.107825781      -82.9303337      0.992514406      6.18926287       
175.33           0.992658504      6.12265153       0.106669735      -82.997839       0.106669735      -82.997839       0.992658504      6.12265153       
176.82           0.992798983      6.05701978       0.105530553      -83.0642694      0.105530553      -83.0642694      0.992798983      6.05701978       
178.31           0.99293596       5.99234364       0.104407824      -83.1296495      0.104407824      -83.1296495      0.99293596       5.99234364       
179.8            0.993069545      5.92859992       0.103301155      -83.1940026      0.103301155      -83.1940026      0.993069545      5.92859992       
181.29           0.993199845      5.86576615       0.10221016       -83.2573517      0.10221016       -83.2573517      0.993199845      5.86576615       
182.78           0.993326962      5.80382057       0.10113447       -83.3197187      0.10113447       -83.3197187      0.993326962      5.80382057       
184.27           0.993450993      5.74274211       0.100073724      -83.381125       0.100073724      -83.381125       0.993450993      5.74274211       
185.76           0.993572035      5.68251036       0.0990275738     -83.4415912      0.0990275738     -83.4415912      0.993572035      5.68251036       
187.25           0.993690176      5.62310554       0.097995682      -83.5011372      0.097995682      -83.5011372      0.993690176      5.62310554       
188.74           0.993805505      5.56450849       0.0969777206     -83.5597823      0.0969777206     -83.5597823      0.993805505      5.56450849       
190.23           0.993918106      5.50670062       0.095973372      -83.6175451      0.095973372      -83.6175451      0.993918106      5.50670062       
