! Coilcraft 1008CS-820 Chip Inductor				
! 02 July 2002			
# MHZ S MA R 50
!Freq             MagS11           AngS11           MagS21           AngS21           MagS12           AngS12           MagS22           AngS22
1                0.0059664712     57.9544694       0.996847061      -0.290682008     0.996847061      -0.290682008     0.0059664712     57.9544694       
4.74             0.0244237091     78.049243        0.995229439      -1.3757399       0.995229439      -1.3757399       0.0244237091     78.049243        
8.48             0.0432187228     80.476703        0.993764007      -2.45820246      0.993764007      -2.45820246      0.0432187228     80.476703        
12.22            0.0619958984     80.9331366       0.99212096       -3.5378248       0.99212096       -3.5378248       0.0619958984     80.9331366       
15.96            0.0807091386     80.7443286       0.990227957      -4.61411311      0.990227957      -4.61411311      0.0807091386     80.7443286       
19.7             0.0993338376     80.2600313       0.988057296      -5.68650367      0.988057296      -5.68650367      0.0993338376     80.2600313       
23.44            0.117850284      79.6152435       0.985597232      -6.75440797      0.985597232      -6.75440797      0.117850284      79.6152435       
27.18            0.136240643      78.8740334       0.982843683      -7.81723171      0.982843683      -7.81723171      0.136240643      78.8740334       
30.92            0.154488167      78.0711402       0.97979697       -8.87438514      0.97979697       -8.87438514      0.154488167      78.0711402       
34.66            0.172576972      77.2272679       0.976460273      -9.92528967      0.976460273      -9.92528967      0.172576972      77.2272679       
38.4             0.190491974      76.3556673       0.972838798      -10.9693825      0.972838798      -10.9693825      0.190491974      76.3556673       
42.14            0.2082189        75.4653088       0.968939275      -12.0061198      0.968939275      -12.0061198      0.2082189        75.4653088       
45.88            0.225744306      74.5625478       0.964769625      -13.03498        0.964769625      -13.03498        0.225744306      74.5625478       
49.62            0.243055607      73.6520593       0.960338716      -14.0554653      0.960338716      -14.0554653      0.243055607      73.6520593       
53.36            0.260141103      72.7373919       0.955656189      -15.0671037      0.955656189      -15.0671037      0.260141103      72.7373919       
57.1             0.276989998      71.8213107       0.950732304      -16.0694501      0.950732304      -16.0694501      0.276989998      71.8213107       
60.84            0.293592413      70.9060185       0.945577816      -17.0620875      0.945577816      -17.0620875      0.293592413      70.9060185       
64.58            0.309939394      69.9933024       0.940203865      -18.0446278      0.940203865      -18.0446278      0.309939394      69.9933024       
68.32            0.326022915      69.0846341       0.934621882      -19.0167119      0.934621882      -19.0167119      0.326022915      69.0846341       
72.06            0.341835865      68.1812405       0.928843499      -19.9780101      0.928843499      -19.9780101      0.341835865      68.1812405       
75.8             0.357372042      67.284154        0.922880472      -20.9282222      0.922880472      -20.9282222      0.357372042      67.284154        
79.54            0.372626129      66.3942497       0.916744606      -21.8670772      0.916744606      -21.8670772      0.372626129      66.3942497       
83.28            0.387593677      65.5122727       0.910447693      -22.794333       0.910447693      -22.794333       0.387593677      65.5122727       
87.02            0.402271072      64.6388596       0.904001449      -23.7097759      0.904001449      -23.7097759      0.402271072      64.6388596       
90.76            0.416655506      63.7745546       0.897417462      -24.6132197      0.897417462      -24.6132197      0.416655506      63.7745546       
94.5             0.430744943      62.9198224       0.890707148      -25.5045054      0.890707148      -25.5045054      0.430744943      62.9198224       
98.24            0.444538078      62.0750584       0.883881701      -26.3834999      0.883881701      -26.3834999      0.444538078      62.0750584       
101.98           0.458034304      61.2405974       0.876952061      -27.2500953      0.876952061      -27.2500953      0.458034304      61.2405974       
105.72           0.471233664      60.4167204       0.869928881      -28.1042075      0.869928881      -28.1042075      0.471233664      60.4167204       
109.46           0.484136816      59.6036606       0.862822499      -28.9457757      0.862822499      -28.9457757      0.484136816      59.6036606       
113.2            0.496744986      58.8016082       0.855642913      -29.7747607      0.855642913      -29.7747607      0.496744986      58.8016082       
116.94           0.509059926      58.0107149       0.848399766      -30.5911441      0.848399766      -30.5911441      0.509059926      58.0107149       
120.68           0.521083877      57.2310977       0.841102326      -31.3949271      0.841102326      -31.3949271      0.521083877      57.2310977       
124.42           0.532819519      56.4628422       0.833759481      -32.1861288      0.833759481      -32.1861288      0.532819519      56.4628422       
128.16           0.544269938      55.7060056       0.826379725      -32.9647858      0.826379725      -32.9647858      0.544269938      55.7060056       
131.9            0.555438584      54.9606192       0.818971156      -33.7309506      0.818971156      -33.7309506      0.555438584      54.9606192       
135.64           0.566329232      54.2266913       0.811541476      -34.4846902      0.811541476      -34.4846902      0.566329232      54.2266913       
139.38           0.576945946      53.5042089       0.804097988      -35.2260856      0.804097988      -35.2260856      0.576945946      53.5042089       
143.12           0.587293046      52.7931399       0.796647598      -35.9552301      0.796647598      -35.9552301      0.587293046      52.7931399       
146.86           0.597375071      52.0934351       0.789196826      -36.6722285      0.789196826      -36.6722285      0.597375071      52.0934351       
150.6            0.607196754      51.4050297       0.781751804      -37.3771961      0.781751804      -37.3771961      0.607196754      51.4050297       
154.34           0.616762986      50.7278451       0.774318292      -38.0702576      0.774318292      -38.0702576      0.616762986      50.7278451       
158.08           0.626078792      50.0617899       0.76690168       -38.7515462      0.76690168       -38.7515462      0.626078792      50.0617899       
161.82           0.635149306      49.4067619       0.759507004      -39.4212026      0.759507004      -39.4212026      0.635149306      49.4067619       
165.56           0.643979745      48.7626487       0.752138954      -40.0793744      0.752138954      -40.0793744      0.643979745      48.7626487       
169.3            0.652575389      48.1293294       0.744801885      -40.726215       0.744801885      -40.726215       0.652575389      48.1293294       
173.04           0.660941558      47.5066751       0.737499832      -41.3618828      0.737499832      -41.3618828      0.660941558      47.5066751       
176.78           0.669083599      46.8945503       0.730236523      -41.9865409      0.730236523      -41.9865409      0.669083599      46.8945503       
180.52           0.677006862      46.2928137       0.723015389      -42.600356       0.723015389      -42.600356       0.677006862      46.2928137       
184.26           0.68471669       45.7013188       0.715839577      -43.2034979      0.715839577      -43.2034979      0.68471669       45.7013188       
188              0.692218405      45.1199151       0.708711968      -43.7961389      0.708711968      -43.7961389      0.692218405      45.1199151       
191.74           0.699517291      44.5484485       0.701635184      -44.3784534      0.701635184      -44.3784534      0.699517291      44.5484485       
195.48           0.70661859       43.9867617       0.694611604      -44.9506171      0.694611604      -44.9506171      0.70661859       43.9867617       
199.22           0.713527484      43.4346956       0.687643379      -45.512807       0.687643379      -45.512807       0.713527484      43.4346956       
202.96           0.720249096      42.8920888       0.68073244       -46.0652003      0.68073244       -46.0652003      0.720249096      42.8920888       
206.7            0.726788473      42.3587791       0.673880511      -46.6079748      0.673880511      -46.6079748      0.726788473      42.3587791       
210.44           0.733150585      41.8346031       0.667089124      -47.1413077      0.667089124      -47.1413077      0.733150585      41.8346031       
214.18           0.739340318      41.3193971       0.660359628      -47.6653761      0.660359628      -47.6653761      0.739340318      41.3193971       
217.92           0.745362469      40.8129976       0.6536932        -48.1803559      0.6536932        -48.1803559      0.745362469      40.8129976       
221.66           0.751221744      40.315241        0.647090858      -48.6864224      0.647090858      -48.6864224      0.751221744      40.315241        
225.4            0.75692275       39.8259644       0.640553466      -49.1837492      0.640553466      -49.1837492      0.75692275       39.8259644       
229.14           0.762469997      39.345006        0.634081751      -49.6725086      0.634081751      -49.6725086      0.762469997      39.345006        
232.88           0.767867896      38.8722048       0.627676308      -50.152871       0.627676308      -50.152871       0.767867896      38.8722048       
236.62           0.773120752      38.4074013       0.621337609      -50.6250051      0.621337609      -50.6250051      0.773120752      38.4074013       
240.36           0.778232769      37.9504374       0.615066012      -51.0890774      0.615066012      -51.0890774      0.778232769      37.9504374       
244.1            0.783208049      37.5011568       0.608861771      -51.5452524      0.608861771      -51.5452524      0.783208049      37.5011568       
247.84           0.788050586      37.0594049       0.602725043      -51.9936922      0.602725043      -51.9936922      0.788050586      37.0594049       
251.58           0.792764273      36.6250293       0.59665589       -52.4345564      0.59665589       -52.4345564      0.792764273      36.6250293       
255.32           0.7973529        36.1978794       0.590654297      -52.8680023      0.590654297      -52.8680023      0.7973529        36.1978794       
259.06           0.801820153      35.7778069       0.584720166      -53.2941846      0.584720166      -53.2941846      0.801820153      35.7778069       
262.8            0.806169617      35.3646658       0.578853332      -53.7132554      0.578853332      -53.7132554      0.806169617      35.3646658       
266.54           0.810404777      34.9583123       0.573053564      -54.1253641      0.573053564      -54.1253641      0.810404777      34.9583123       
270.28           0.814529019      34.5586052       0.56732057       -54.5306574      0.56732057       -54.5306574      0.814529019      34.5586052       
274.02           0.81854563       34.1654056       0.561654006      -54.9292795      0.561654006      -54.9292795      0.81854563       34.1654056       
277.76           0.822457803      33.778577        0.556053476      -55.3213715      0.556053476      -55.3213715      0.822457803      33.778577        
281.5            0.826268637      33.3979855       0.550518541      -55.7070721      0.550518541      -55.7070721      0.826268637      33.3979855       
285.24           0.829981137      33.0234997       0.54504872       -56.0865169      0.54504872       -56.0865169      0.829981137      33.0234997       
288.98           0.833598221      32.6549906       0.539643494      -56.4598391      0.539643494      -56.4598391      0.833598221      32.6549906       
292.72           0.837122715      32.2923321       0.534302313      -56.827169       0.534302313      -56.827169       0.837122715      32.2923321       
296.46           0.840557361      31.9354001       0.529024596      -57.1886342      0.529024596      -57.1886342      0.840557361      31.9354001       
300.2            0.843904817      31.5840735       0.523809734      -57.5443595      0.523809734      -57.5443595      0.843904817      31.5840735       
303.94           0.847167658      31.2382334       0.518657098      -57.8944671      0.518657098      -57.8944671      0.847167658      31.2382334       
307.68           0.85034838       30.8977635       0.513566034      -58.2390765      0.513566034      -58.2390765      0.85034838       30.8977635       
311.42           0.8534494        30.56255         0.508535874      -58.5783048      0.508535874      -58.5783048      0.8534494        30.56255         
315.16           0.856473062      30.2324814       0.50356593       -58.9122661      0.50356593       -58.9122661      0.856473062      30.2324814       
318.9            0.859421633      29.9074489       0.498655503      -59.2410722      0.498655503      -59.2410722      0.859421633      29.9074489       
322.64           0.862297311      29.5873458       0.493803881      -59.5648324      0.493803881      -59.5648324      0.862297311      29.5873458       
326.38           0.865102223      29.272068        0.489010345      -59.8836534      0.489010345      -59.8836534      0.865102223      29.272068        
330.12           0.867838429      28.9615136       0.484274164      -60.1976394      0.484274164      -60.1976394      0.867838429      28.9615136       
333.86           0.870507926      28.6555828       0.479594604      -60.5068924      0.479594604      -60.5068924      0.870507926      28.6555828       
337.6            0.873112644      28.3541786       0.474970926      -60.8115118      0.474970926      -60.8115118      0.873112644      28.3541786       
341.34           0.875654454      28.0572056       0.470402386      -61.111595       0.470402386      -61.111595       0.875654454      28.0572056       
345.08           0.878135165      27.764571        0.465888238      -61.4072367      0.465888238      -61.4072367      0.878135165      27.764571        
348.82           0.880556532      27.4761839       0.461427737      -61.6985297      0.461427737      -61.6985297      0.880556532      27.4761839       
352.56           0.882920251      27.1919557       0.457020136      -61.9855645      0.457020136      -61.9855645      0.882920251      27.1919557       
356.3            0.885227965      26.9117997       0.452664691      -62.2684294      0.452664691      -62.2684294      0.885227965      26.9117997       
360.04           0.887481264      26.6356312       0.448360659      -62.5472108      0.448360659      -62.5472108      0.887481264      26.6356312       
363.78           0.889681689      26.3633676       0.444107299      -62.8219928      0.444107299      -62.8219928      0.889681689      26.3633676       
367.52           0.891830729      26.0949282       0.439903875      -63.0928576      0.439903875      -63.0928576      0.891830729      26.0949282       
371.26           0.89392983       25.8302342       0.435749655      -63.3598854      0.435749655      -63.3598854      0.89392983       25.8302342       
375              0.895980387      25.5692084       0.431643911      -63.6231547      0.431643911      -63.6231547      0.895980387      25.5692084       
378.74           0.897983755      25.3117759       0.427585922      -63.8827417      0.427585922      -63.8827417      0.897983755      25.3117759       
382.48           0.899941243      25.0578632       0.42357497       -64.1387212      0.42357497       -64.1387212      0.899941243      25.0578632       
386.22           0.90185412       24.8073985       0.419610348      -64.3911659      0.419610348      -64.3911659      0.90185412       24.8073985       
389.96           0.903723615      24.560312        0.41569135       -64.6401469      0.41569135       -64.6401469      0.903723615      24.560312        
393.7            0.905550917      24.3165353       0.411817283      -64.8857336      0.411817283      -64.8857336      0.905550917      24.3165353       
397.44           0.907337179      24.0760016       0.407987456      -65.1279937      0.407987456      -65.1279937      0.907337179      24.0760016       
401.18           0.909083517      23.8386459       0.40420119       -65.3669931      0.40420119       -65.3669931      0.909083517      23.8386459       
404.92           0.910791012      23.6044045       0.400457811      -65.6027965      0.400457811      -65.6027965      0.910791012      23.6044045       
408.66           0.912460711      23.3732154       0.396756654      -65.8354667      0.396756654      -65.8354667      0.912460711      23.3732154       
412.4            0.914093629      23.1450178       0.393097064      -66.0650651      0.393097064      -66.0650651      0.914093629      23.1450178       
416.14           0.91569075       22.9197525       0.389478393      -66.2916518      0.389478393      -66.2916518      0.91569075       22.9197525       
419.88           0.917253024      22.6973619       0.3859           -66.5152851      0.3859           -66.5152851      0.917253024      22.6973619       
423.62           0.918781376      22.4777892       0.382361256      -66.7360223      0.382361256      -66.7360223      0.918781376      22.4777892       
427.36           0.920276699      22.2609796       0.378861539      -66.953919       0.378861539      -66.953919       0.920276699      22.2609796       
431.1            0.921739861      22.046879        0.375400235      -67.1690297      0.375400235      -67.1690297      0.921739861      22.046879        
434.84           0.923171702      21.8354349       0.37197674       -67.3814074      0.37197674       -67.3814074      0.923171702      21.8354349       
438.58           0.924573036      21.626596        0.36859046       -67.5911041      0.36859046       -67.5911041      0.924573036      21.626596        
442.32           0.925944653      21.420312        0.365240807      -67.7981703      0.365240807      -67.7981703      0.925944653      21.420312        
446.06           0.927287319      21.216534        0.361927206      -68.0026554      0.361927206      -68.0026554      0.927287319      21.216534        
449.8            0.928601775      21.0152142       0.358649086      -68.2046077      0.358649086      -68.2046077      0.928601775      21.0152142       
453.54           0.929888743      20.8163057       0.355405889      -68.4040742      0.355405889      -68.4040742      0.929888743      20.8163057       
457.28           0.93114892       20.6197629       0.352197064      -68.601101       0.352197064      -68.601101       0.93114892       20.6197629       
461.02           0.932382982      20.4255413       0.34902207       -68.7957329      0.34902207       -68.7957329      0.932382982      20.4255413       
464.76           0.933591589      20.2335971       0.345880372      -68.9880138      0.345880372      -68.9880138      0.933591589      20.2335971       
468.5            0.934775376      20.0438879       0.342771446      -69.1779865      0.342771446      -69.1779865      0.934775376      20.0438879       
472.24           0.935934962      19.856372        0.339694777      -69.3656927      0.339694777      -69.3656927      0.935934962      19.856372        
475.98           0.937070947      19.6710087       0.336649858      -69.5511733      0.336649858      -69.5511733      0.937070947      19.6710087       
