! Coilcraft 1008CS-120 Chip Inductor				
! 02 July 2002			
# MHZ S MA R 50
!Freq             MagS11           AngS11           MagS21           AngS21           MagS12           AngS12           MagS22           AngS22
1                0.00144943945    31.258555        0.998761252      -0.043146492     0.998761252      -0.043146492     0.00144943945    31.258555        
13.22            0.0101226501     78.7898376       0.998081466      -0.570022404     0.998081466      -0.570022404     0.0101226501     78.7898376       
25.44            0.019262734      82.3295521       0.99761158       -1.09648352      0.99761158       -1.09648352      0.019262734      82.3295521       
37.66            0.0284226366     83.400215        0.997133103      -1.62257339      0.997133103      -1.62257339      0.0284226366     83.400215        
49.88            0.0375817119     83.7528196       0.996610884      -2.14826903      0.996610884      -2.14826903      0.0375817119     83.7528196       
62.1             0.0467338245     83.7927296       0.99603103       -2.67352991      0.99603103       -2.67352991      0.0467338245     83.7927296       
74.32            0.0558756452     83.6665171       0.995386471      -3.19830772      0.995386471      -3.19830772      0.0558756452     83.6665171       
86.54            0.065004706      83.4407869       0.994673132      -3.72254997      0.994673132      -3.72254997      0.065004706      83.4407869       
98.76            0.0741188773     83.1504407       0.993888503      -4.24620172      0.993888503      -4.24620172      0.0741188773     83.1504407       
110.98           0.0832161881     82.8156574       0.993030991      -4.76920659      0.993030991      -4.76920659      0.0832161881     82.8156574       
123.2            0.0922947535     82.4489802       0.992099593      -5.29150731      0.992099593      -5.29150731      0.0922947535     82.4489802       
135.42           0.101352743      82.0586523       0.991093703      -5.81304611      0.991093703      -5.81304611      0.101352743      82.0586523       
147.64           0.110388364      81.6503377       0.990013007      -6.33376507      0.990013007      -6.33376507      0.110388364      81.6503377       
159.86           0.119399857      81.2280717       0.98885741       -6.85360625      0.98885741       -6.85360625      0.119399857      81.2280717       
172.08           0.128385491      80.7948183       0.987626985      -7.37251191      0.987626985      -7.37251191      0.128385491      80.7948183       
184.3            0.137343563      80.3528115       0.986321945      -7.89042462      0.986321945      -7.89042462      0.137343563      80.3528115       
196.52           0.146272397      79.9037734       0.984942617      -8.40728737      0.984942617      -8.40728737      0.146272397      79.9037734       
208.74           0.155170346      79.4490574       0.983489426      -8.92304369      0.983489426      -8.92304369      0.155170346      79.4490574       
220.96           0.164035792      78.9897461       0.98196288       -9.43763767      0.98196288       -9.43763767      0.164035792      78.9897461       
233.18           0.172867147      78.5267187       0.980363563      -9.95101411      0.980363563      -9.95101411      0.172867147      78.5267187       
245.4            0.181662854      78.0606995       0.978692122      -10.4631185      0.978692122      -10.4631185      0.181662854      78.0606995       
257.62           0.190421388      77.5922925       0.976949268      -10.9738972      0.976949268      -10.9738972      0.190421388      77.5922925       
269.84           0.199141259      77.1220076       0.97513576       -11.4832974      0.97513576       -11.4832974      0.199141259      77.1220076       
282.06           0.20782101       76.6502794       0.973252411      -11.991267       0.973252411      -11.991267       0.20782101       76.6502794       
294.28           0.21645922       76.177482        0.971300076      -12.4977552      0.971300076      -12.4977552      0.21645922       76.177482        
306.5            0.225054506      75.7039403       0.969279653      -13.0027118      0.969279653      -13.0027118      0.225054506      75.7039403       
318.72           0.23360552       75.2299391       0.967192076      -13.5060878      0.967192076      -13.5060878      0.23360552       75.2299391       
330.94           0.242110954      74.7557292       0.965038316      -14.0078352      0.965038316      -14.0078352      0.242110954      74.7557292       
343.16           0.250569537      74.2815336       0.962819377      -14.5079072      0.962819377      -14.5079072      0.250569537      74.2815336       
355.38           0.25898004       73.8075517       0.96053629       -15.0062578      0.96053629       -15.0062578      0.25898004       73.8075517       
367.6            0.267341273      73.3339624       0.958190115      -15.5028425      0.958190115      -15.5028425      0.267341273      73.3339624       
379.82           0.275652086      72.8609277       0.955781939      -15.9976176      0.955781939      -15.9976176      0.275652086      72.8609277       
392.04           0.283911371      72.3885944       0.953312869      -16.4905408      0.953312869      -16.4905408      0.283911371      72.3885944       
404.26           0.292118061      71.9170967       0.950784036      -16.9815709      0.950784036      -16.9815709      0.292118061      71.9170967       
416.48           0.30027113       71.4465571       0.948196587      -17.4706679      0.948196587      -17.4706679      0.30027113       71.4465571       
428.7            0.308369596      70.9770883       0.945551688      -17.957793       0.945551688      -17.957793       0.308369596      70.9770883       
440.92           0.316412518      70.5087943       0.942850522      -18.4429087      0.942850522      -18.4429087      0.316412518      70.5087943       
453.14           0.324398995      70.0417709       0.940094282      -18.9259785      0.940094282      -18.9259785      0.324398995      70.0417709       
465.36           0.332328172      69.576107        0.937284176      -19.4069674      0.937284176      -19.4069674      0.332328172      69.576107        
477.58           0.340199233      69.1118854       0.93442142       -19.8858415      0.93442142       -19.8858415      0.340199233      69.1118854       
489.8            0.348011405      68.6491826       0.931507241      -20.3625682      0.931507241      -20.3625682      0.348011405      68.6491826       
502.02           0.355763957      68.1880704       0.928542871      -20.8371162      0.928542871      -20.8371162      0.355763957      68.1880704       
514.24           0.363456199      67.7286154       0.92552955       -21.3094552      0.92552955       -21.3094552      0.363456199      67.7286154       
526.46           0.371087483      67.2708801       0.92246852       -21.7795565      0.92246852       -21.7795565      0.371087483      67.2708801       
538.68           0.3786572        66.8149228       0.919361027      -22.2473923      0.919361027      -22.2473923      0.3786572        66.8149228       
550.9            0.386164784      66.3607979       0.916208318      -22.7129362      0.916208318      -22.7129362      0.386164784      66.3607979       
563.12           0.393609707      65.9085566       0.913011641      -23.1761631      0.913011641      -23.1761631      0.393609707      65.9085566       
575.34           0.40099148       65.4582467       0.909772242      -23.6370489      0.909772242      -23.6370489      0.40099148       65.4582467       
587.56           0.408309656      65.0099129       0.906491364      -24.095571       0.906491364      -24.095571       0.408309656      65.0099129       
599.78           0.415563824      64.563597        0.90317025       -24.5517077      0.90317025       -24.5517077      0.415563824      64.563597        
612              0.422753611      64.1193382       0.899810135      -25.0054387      0.899810135      -25.0054387      0.422753611      64.1193382       
624.22           0.429878681      63.6771733       0.896412249      -25.4567447      0.896412249      -25.4567447      0.429878681      63.6771733       
636.44           0.436938735      63.2371364       0.892977817      -25.9056078      0.892977817      -25.9056078      0.436938735      63.2371364       
648.66           0.44393351       62.7992594       0.889508055      -26.352011       0.889508055      -26.352011       0.44393351       62.7992594       
660.88           0.450862778      62.3635721       0.88600417       -26.7959386      0.88600417       -26.7959386      0.450862778      62.3635721       
673.1            0.457726344      61.9301023       0.882467362      -27.2373759      0.882467362      -27.2373759      0.457726344      61.9301023       
685.32           0.464524047      61.4988757       0.878898818      -27.6763094      0.878898818      -27.6763094      0.464524047      61.4988757       
697.54           0.47125576       61.0699161       0.875299716      -28.1127266      0.875299716      -28.1127266      0.47125576       61.0699161       
709.76           0.477921387      60.6432456       0.871671221      -28.5466161      0.871671221      -28.5466161      0.477921387      60.6432456       
721.98           0.484520861      60.2188847       0.868014486      -28.9779676      0.868014486      -28.9779676      0.484520861      60.2188847       
734.2            0.49105415       59.7968519       0.864330652      -29.4067716      0.864330652      -29.4067716      0.49105415       59.7968519       
746.42           0.497521246      59.3771644       0.860620845      -29.8330198      0.860620845      -29.8330198      0.497521246      59.3771644       
758.64           0.503922173      58.9598379       0.856886176      -30.256705       0.856886176      -30.256705       0.503922173      58.9598379       
770.86           0.510256981      58.5448866       0.853127743      -30.6778205      0.853127743      -30.6778205      0.510256981      58.5448866       
783.08           0.516525748      58.1323231       0.849346628      -31.096361       0.849346628      -31.096361       0.516525748      58.1323231       
795.3            0.522728577      57.7221589       0.845543897      -31.512322       0.845543897      -31.512322       0.522728577      57.7221589       
807.52           0.528865596      57.3144042       0.8417206        -31.9256997      0.8417206        -31.9256997      0.528865596      57.3144042       
819.74           0.534936958      56.9090679       0.837877771      -32.3364914      0.837877771      -32.3364914      0.534936958      56.9090679       
831.96           0.540942837      56.5061578       0.834016425      -32.7446951      0.834016425      -32.7446951      0.540942837      56.5061578       
844.18           0.546883433      56.1056803       0.830137564      -33.1503097      0.830137564      -33.1503097      0.546883433      56.1056803       
856.4            0.552758965      55.7076409       0.826242168      -33.5533349      0.826242168      -33.5533349      0.552758965      55.7076409       
868.62           0.558569673      55.3120441       0.822331202      -33.9537711      0.822331202      -33.9537711      0.558569673      55.3120441       
880.84           0.564315817      54.9188933       0.818405613      -34.3516196      0.818405613      -34.3516196      0.564315817      54.9188933       
893.06           0.569997677      54.5281909       0.814466329      -34.7468824      0.814466329      -34.7468824      0.569997677      54.5281909       
905.28           0.575615549      54.1399383       0.810514261      -35.1395621      0.810514261      -35.1395621      0.575615549      54.1399383       
917.5            0.581169749      53.7541361       0.8065503        -35.529662       0.8065503        -35.529662       0.581169749      53.7541361       
929.72           0.586660608      53.3707841       0.80257532       -35.9171863      0.80257532       -35.9171863      0.586660608      53.3707841       
941.94           0.592088474      52.989881        0.798590177      -36.3021395      0.798590177      -36.3021395      0.592088474      52.989881        
954.16           0.597453707      52.611425        0.794595707      -36.684527       0.794595707      -36.684527       0.597453707      52.611425        
966.38           0.602756686      52.2354133       0.790592728      -37.0643547      0.790592728      -37.0643547      0.602756686      52.2354133       
978.6            0.607997799      51.8618425       0.78658204       -37.4416291      0.78658204       -37.4416291      0.607997799      51.8618425       
990.82           0.61317745       51.4907084       0.782564424      -37.8163572      0.782564424      -37.8163572      0.61317745       51.4907084       
1003.04          0.618296053      51.1220062       0.778540644      -38.1885466      0.778540644      -38.1885466      0.618296053      51.1220062       
1015.26          0.623354034      50.7557304       0.774511444      -38.5582053      0.774511444      -38.5582053      0.623354034      50.7557304       
1027.48          0.628351831      50.3918749       0.77047755       -38.9253421      0.77047755       -38.9253421      0.628351831      50.3918749       
1039.7           0.63328989       50.030433        0.76643967       -39.2899659      0.76643967       -39.2899659      0.63328989       50.030433        
1051.92          0.638168668      49.6713974       0.762398495      -39.6520864      0.762398495      -39.6520864      0.638168668      49.6713974       
1064.14          0.642988629      49.3147602       0.758354697      -40.0117133      0.758354697      -40.0117133      0.642988629      49.3147602       
1076.36          0.647750247      48.9605132       0.754308931      -40.3688573      0.754308931      -40.3688573      0.647750247      48.9605132       
1088.58          0.652454001      48.6086474       0.750261833      -40.7235289      0.750261833      -40.7235289      0.652454001      48.6086474       
1100.8           0.657100381      48.2591537       0.746214025      -41.0757394      0.746214025      -41.0757394      0.657100381      48.2591537       
1113.02          0.661689879      47.9120221       0.742166107      -41.4255004      0.742166107      -41.4255004      0.661689879      47.9120221       
1125.24          0.666222995      47.5672426       0.738118665      -41.7728237      0.738118665      -41.7728237      0.666222995      47.5672426       
1137.46          0.670700235      47.2248045       0.73407227       -42.1177214      0.73407227       -42.1177214      0.670700235      47.2248045       
1149.68          0.675122109      46.8846968       0.730027471      -42.4602062      0.730027471      -42.4602062      0.675122109      46.8846968       
1161.9           0.67948913       46.5469083       0.725984807      -42.8002907      0.725984807      -42.8002907      0.67948913       46.5469083       
1174.12          0.683801817      46.2114271       0.721944795      -43.1379882      0.721944795      -43.1379882      0.683801817      46.2114271       
1186.34          0.688060691      45.8782412       0.717907941      -43.4733119      0.717907941      -43.4733119      0.688060691      45.8782412       
1198.56          0.692266276      45.5473384       0.713874732      -43.8062755      0.713874732      -43.8062755      0.692266276      45.5473384       
1210.78          0.6964191        45.2187059       0.709845642      -44.1368928      0.709845642      -44.1368928      0.6964191        45.2187059       
1223             0.70051969       44.8923309       0.705821129      -44.4651777      0.705821129      -44.4651777      0.70051969       44.8923309       
1235.22          0.704568579      44.5682002       0.701801634      -44.7911447      0.701801634      -44.7911447      0.704568579      44.5682002       
1247.44          0.708566297      44.2463004       0.697787588      -45.114808       0.697787588      -45.114808       0.708566297      44.2463004       
1259.66          0.712513377      43.9266179       0.693779403      -45.4361824      0.693779403      -45.4361824      0.712513377      43.9266179       
1271.88          0.716410354      43.6091387       0.68977748       -45.7552826      0.68977748       -45.7552826      0.716410354      43.6091387       
1284.1           0.72025776       43.2938489       0.685782206      -46.0721235      0.685782206      -46.0721235      0.72025776       43.2938489       
1296.32          0.72405613       42.9807343       0.681793952      -46.3867203      0.681793952      -46.3867203      0.72405613       42.9807343       
1308.54          0.727805996      42.6697803       0.677813079      -46.6990881      0.677813079      -46.6990881      0.727805996      42.6697803       
1320.76          0.731507893      42.3609725       0.673839932      -47.0092422      0.673839932      -47.0092422      0.731507893      42.3609725       
1332.98          0.73516235       42.0542961       0.669874846      -47.317198       0.669874846      -47.317198       0.73516235       42.0542961       
1345.2           0.7387699        41.7497363       0.665918142      -47.6229711      0.665918142      -47.6229711      0.7387699        41.7497363       
1357.42          0.742331071      41.4472781       0.661970129      -47.9265771      0.661970129      -47.9265771      0.742331071      41.4472781       
1369.64          0.745846391      41.1469066       0.658031105      -48.2280317      0.658031105      -48.2280317      0.745846391      41.1469066       
1381.86          0.749316385      40.8486064       0.654101356      -48.5273505      0.654101356      -48.5273505      0.749316385      40.8486064       
1394.08          0.752741577      40.5523623       0.650181154      -48.8245493      0.650181154      -48.8245493      0.752741577      40.5523623       
1406.3           0.756122488      40.2581591       0.646270765      -49.1196441      0.646270765      -49.1196441      0.756122488      40.2581591       
1418.52          0.759459637      39.9659812       0.64237044       -49.4126506      0.64237044       -49.4126506      0.759459637      39.9659812       
1430.74          0.762753539      39.6758132       0.638480421      -49.7035848      0.638480421      -49.7035848      0.762753539      39.6758132       
1442.96          0.766004708      39.3876397       0.63460094       -49.9924626      0.63460094       -49.9924626      0.766004708      39.3876397       
1455.18          0.769213654      39.101445        0.630732218      -50.2792999      0.630732218      -50.2792999      0.769213654      39.101445        
1467.4           0.772380884      38.8172136       0.626874467      -50.5641127      0.626874467      -50.5641127      0.772380884      38.8172136       
1479.62          0.775506902      38.5349298       0.623027889      -50.8469168      0.623027889      -50.8469168      0.775506902      38.5349298       
1491.84          0.778592206      38.254578        0.619192677      -51.1277284      0.619192677      -51.1277284      0.778592206      38.254578        
1504.06          0.781637295      37.9761425       0.615369015      -51.4065631      0.615369015      -51.4065631      0.781637295      37.9761425       
1516.28          0.784642661      37.6996078       0.611557078      -51.683437       0.611557078      -51.683437       0.784642661      37.6996078       
1528.5           0.787608793      37.4249581       0.607757032      -51.9583659      0.607757032      -51.9583659      0.787608793      37.4249581       
1540.72          0.790536176      37.1521778       0.603969035      -52.2313657      0.603969035      -52.2313657      0.790536176      37.1521778       
1552.94          0.793425292      36.8812514       0.600193237      -52.5024521      0.600193237      -52.5024521      0.793425292      36.8812514       
