! Coilcraft 1008CS-121 Chip Inductor				
! 02 July 2002			
# MHZ S MA R 50
!Freq             MagS11           AngS11           MagS21           AngS21           MagS12           AngS12           MagS22           AngS22
1                0.0105622366     44.684774        0.992518185      -0.428772123     0.992518185      -0.428772123     0.0105622366     44.684774        
4.49             0.0347426197     72.8759823       0.990327092      -1.92130243      0.990327092      -1.92130243      0.0347426197     72.8759823       
7.98             0.0603125774     76.90928         0.988087439      -3.40844216      0.988087439      -3.40844216      0.0603125774     76.90928         
11.47            0.0859279861     77.7878848       0.985408886      -4.8890839       0.985408886      -4.8890839       0.0859279861     77.7878848       
14.96            0.111413937      77.6457686       0.982210726      -6.36172942      0.982210726      -6.36172942      0.111413937      77.6457686       
18.45            0.136691669      77.0462407       0.978469081      -7.82479764      0.978469081      -7.82479764      0.136691669      77.0462407       
21.94            0.16170526       76.2046727       0.974181696      -9.27670896      0.974181696      -9.27670896      0.16170526       76.2046727       
25.43            0.186407919      75.2223004       0.969357512      -10.7159245      0.969357512      -10.7159245      0.186407919      75.2223004       
28.92            0.210758273      74.1535876       0.964012401      -12.1409697      0.964012401      -12.1409697      0.210758273      74.1535876       
32.41            0.234719172      73.0308041       0.958166989      -13.5504498      0.958166989      -13.5504498      0.234719172      73.0308041       
35.9             0.258257285      71.8745148       0.951845345      -14.9430613      0.951845345      -14.9430613      0.258257285      71.8745148       
39.39            0.281342949      70.6985926       0.945074083      -16.3176001      0.945074083      -16.3176001      0.281342949      70.6985926       
42.88            0.303950112      69.5128282       0.937881664      -17.672967       0.937881664      -17.672967       0.303950112      69.5128282       
46.37            0.326056277      68.3243842       0.930297843      -19.0081708      0.930297843      -19.0081708      0.326056277      68.3243842       
49.86            0.347642442      67.1386517       0.922353186      -20.3223304      0.922353186      -20.3223304      0.347642442      67.1386517       
53.35            0.368693001      65.9597782       0.914078663      -21.6146745      0.914078663      -21.6146745      0.368693001      65.9597782       
56.84            0.389195622      64.7910071       0.905505284      -22.8845405      0.905505284      -22.8845405      0.389195622      64.7910071       
60.33            0.409141098      63.6349038       0.896663791      -24.1313717      0.896663791      -24.1313717      0.409141098      63.6349038       
63.82            0.428523174      62.4935102       0.887584387      -25.3547138      0.887584387      -25.3547138      0.428523174      62.4935102       
67.31            0.44733835       61.3684554       0.878296501      -26.554211       0.878296501      -26.554211       0.44733835       61.3684554       
70.8             0.465585681      60.2610354       0.868828606      -27.7296002      0.868828606      -27.7296002      0.465585681      60.2610354       
74.29            0.483266558      59.1722733       0.859208054      -28.8807064      0.859208054      -28.8807064      0.483266558      59.1722733       
77.78            0.500384489      58.1029653       0.849460957      -30.0074359      0.849460957      -30.0074359      0.500384489      58.1029653       
81.27            0.516944881      57.0537168       0.839612092      -31.1097711      0.839612092      -31.1097711      0.516944881      57.0537168       
84.76            0.532954823      56.0249714       0.829684836      -32.1877638      0.829684836      -32.1877638      0.532954823      56.0249714       
88.25            0.548422876      55.0170351       0.819701127      -33.2415292      0.819701127      -33.2415292      0.548422876      55.0170351       
91.74            0.563358873      54.0300954       0.809681439      -34.2712396      0.809681439      -34.2712396      0.563358873      54.0300954       
95.23            0.57777373       53.0642386       0.799644788      -35.2771187      0.799644788      -35.2771187      0.57777373       53.0642386       
98.72            0.591679262      52.1194636       0.789608744      -36.2594358      0.789608744      -36.2594358      0.591679262      52.1194636       
102.21           0.605088025      51.1956946       0.779589458      -37.2185004      0.779589458      -37.2185004      0.605088025      51.1956946       
105.7            0.618013157      50.2927915       0.769601709      -38.1546566      0.769601709      -38.1546566      0.618013157      50.2927915       
109.19           0.630468243      49.4105597       0.759658946      -39.0682787      0.759658946      -39.0682787      0.630468243      49.4105597       
112.68           0.642467191      48.5487578       0.749773346      -39.9597664      0.749773346      -39.9597664      0.642467191      48.5487578       
116.17           0.654024114      47.7071053       0.739955877      -40.8295408      0.739955877      -40.8295408      0.654024114      47.7071053       
119.66           0.665153235      46.8852886       0.730216359      -41.6780403      0.730216359      -41.6780403      0.665153235      46.8852886       
123.15           0.675868799      46.0829671       0.720563532      -42.505717       0.720563532      -42.505717       0.675868799      46.0829671       
126.64           0.686184993      45.2997778       0.711005122      -43.3130338      0.711005122      -43.3130338      0.686184993      45.2997778       
130.13           0.696115883      44.53534         0.70154791       -44.1004612      0.70154791       -44.1004612      0.696115883      44.53534         
133.62           0.705675357      43.7892591       0.692197795      -44.8684747      0.692197795      -44.8684747      0.705675357      43.7892591       
137.11           0.714877075      43.0611297       0.682959864      -45.6175526      0.682959864      -45.6175526      0.714877075      43.0611297       
140.6            0.72373443       42.3505394       0.673838448      -46.3481739      0.673838448      -46.3481739      0.72373443       42.3505394       
144.09           0.732260519      41.6570704       0.664837187      -47.0608163      0.664837187      -47.0608163      0.732260519      41.6570704       
147.58           0.74046811       40.9803027       0.655959086      -47.7559548      0.655959086      -47.7559548      0.74046811       40.9803027       
151.07           0.748369627      40.3198156       0.647206571      -48.4340602      0.647206571      -48.4340602      0.748369627      40.3198156       
154.56           0.75597713       39.6751893       0.638581539      -49.0955978      0.638581539      -49.0955978      0.75597713       39.6751893       
158.05           0.76330231       39.046007        0.630085407      -49.7410266      0.630085407      -49.7410266      0.76330231       39.046007        
161.54           0.770356475      38.4318556       0.621719157      -50.3707983      0.621719157      -50.3707983      0.770356475      38.4318556       
165.03           0.77715055       37.8323269       0.613483381      -50.9853563      0.613483381      -50.9853563      0.77715055       37.8323269       
168.52           0.783695075      37.2470187       0.605378319      -51.5851357      0.605378319      -51.5851357      0.783695075      37.2470187       
172.01           0.790000209      36.6755355       0.597403893      -52.1705621      0.597403893      -52.1705621      0.790000209      36.6755355       
175.5            0.796075726      36.1174888       0.589559746      -52.7420519      0.589559746      -52.7420519      0.796075726      36.1174888       
178.99           0.80193103       35.5724981       0.581845269      -53.3000116      0.581845269      -53.3000116      0.80193103       35.5724981       
182.48           0.807575154      35.040191        0.574259632      -53.8448374      0.574259632      -53.8448374      0.807575154      35.040191        
185.97           0.813016774      34.5202037       0.566801808      -54.3769156      0.566801808      -54.3769156      0.813016774      34.5202037       
189.46           0.81826421       34.0121809       0.559470601      -54.8966222      0.559470601      -54.8966222      0.81826421       34.0121809       
192.95           0.823325443      33.5157762       0.552264663      -55.4043227      0.552264663      -55.4043227      0.823325443      33.5157762       
196.44           0.828208121      33.0306525       0.545182518      -55.9003726      0.545182518      -55.9003726      0.828208121      33.0306525       
199.93           0.832919571      32.5564814       0.538222579      -56.3851169      0.538222579      -56.3851169      0.832919571      32.5564814       
203.42           0.837466809      32.0929436       0.531383162      -56.8588906      0.531383162      -56.8588906      0.837466809      32.0929436       
206.91           0.84185655       31.6397289       0.524662507      -57.3220188      0.524662507      -57.3220188      0.84185655       31.6397289       
210.4            0.846095221      31.196536        0.518058783      -57.7748166      0.518058783      -57.7748166      0.846095221      31.196536        
213.89           0.850188969      30.7630724       0.511570108      -58.2175894      0.511570108      -58.2175894      0.850188969      30.7630724       
217.38           0.854143676      30.3390542       0.505194557      -58.6506332      0.505194557      -58.6506332      0.854143676      30.3390542       
220.87           0.857964965      29.9242064       0.498930169      -59.0742347      0.498930169      -59.0742347      0.857964965      29.9242064       
224.36           0.861658213      29.518262        0.492774961      -59.4886713      0.492774961      -59.4886713      0.861658213      29.518262        
227.85           0.865228561      29.1209627       0.486726931      -59.8942117      0.486726931      -59.8942117      0.865228561      29.1209627       
231.34           0.868680925      28.7320578       0.480784069      -60.2911161      0.480784069      -60.2911161      0.868680925      28.7320578       
234.83           0.872020002      28.3513048       0.474944361      -60.6796359      0.474944361      -60.6796359      0.872020002      28.3513048       
238.32           0.875250285      27.9784688       0.469205794      -61.0600146      0.469205794      -61.0600146      0.875250285      27.9784688       
241.81           0.878376066      27.6133223       0.463566363      -61.4324877      0.463566363      -61.4324877      0.878376066      27.6133223       
245.3            0.88140145       27.2556451       0.458024075      -61.797283       0.458024075      -61.797283       0.88140145       27.2556451       
248.79           0.884330361      26.9052243       0.452576949      -62.1546207      0.452576949      -62.1546207      0.884330361      26.9052243       
252.28           0.887166548      26.5618535       0.447223024      -62.5047138      0.447223024      -62.5047138      0.887166548      26.5618535       
255.77           0.8899136        26.2253332       0.441960362      -62.8477683      0.441960362      -62.8477683      0.8899136        26.2253332       
259.26           0.892574945      25.8954703       0.436787044      -63.1839835      0.436787044      -63.1839835      0.892574945      25.8954703       
262.75           0.895153862      25.5720781       0.43170118       -63.513552       0.43170118       -63.513552       0.895153862      25.5720781       
266.24           0.897653487      25.2549757       0.426700907      -63.8366599      0.426700907      -63.8366599      0.897653487      25.2549757       
269.73           0.90007682       24.9439882       0.421784389      -64.1534875      0.421784389      -64.1534875      0.90007682       24.9439882       
273.22           0.902426731      24.6389465       0.416949823      -64.4642089      0.416949823      -64.4642089      0.902426731      24.6389465       
276.71           0.904705964      24.3396869       0.412195434      -64.7689925      0.412195434      -64.7689925      0.904705964      24.3396869       
280.2            0.906917148      24.0460509       0.407519481      -65.0680011      0.407519481      -65.0680011      0.906917148      24.0460509       
283.69           0.909062797      23.7578853       0.402920255      -65.3613925      0.402920255      -65.3613925      0.909062797      23.7578853       
287.18           0.911145316      23.4750417       0.39839608       -65.6493188      0.39839608       -65.6493188      0.911145316      23.4750417       
290.67           0.913167012      23.1973768       0.393945314      -65.9319274      0.393945314      -65.9319274      0.913167012      23.1973768       
294.16           0.915130089      22.9247515       0.389566347      -66.2093611      0.389566347      -66.2093611      0.915130089      22.9247515       
297.65           0.917036661      22.6570315       0.385257603      -66.4817576      0.385257603      -66.4817576      0.917036661      22.6570315       
301.14           0.918888752      22.3940866       0.381017541      -66.7492504      0.381017541      -66.7492504      0.918888752      22.3940866       
304.63           0.920688302      22.135791        0.376844653      -67.0119687      0.376844653      -67.0119687      0.920688302      22.135791        
308.12           0.922437169      21.8820228       0.372737462      -67.2700373      0.372737462      -67.2700373      0.922437169      21.8820228       
311.61           0.924137135      21.6326638       0.368694527      -67.5235774      0.368694527      -67.5235774      0.924137135      21.6326638       
315.1            0.925789906      21.3875998       0.364714438      -67.7727058      0.364714438      -67.7727058      0.925789906      21.3875998       
318.59           0.927397121      21.1467201       0.360795818      -68.017536       0.360795818      -68.017536       0.927397121      21.1467201       
322.08           0.92896035       20.9099175       0.356937321      -68.2581777      0.356937321      -68.2581777      0.92896035       20.9099175       
325.57           0.9304811        20.6770882       0.353137633      -68.4947371      0.353137633      -68.4947371      0.9304811        20.6770882       
329.06           0.931960815      20.4481315       0.349395472      -68.7273171      0.349395472      -68.7273171      0.931960815      20.4481315       
332.55           0.933400884      20.2229502       0.345709584      -68.9560174      0.345709584      -68.9560174      0.933400884      20.2229502       
336.04           0.934802638      20.0014496       0.342078747      -69.1809344      0.342078747      -69.1809344      0.934802638      20.0014496       
339.53           0.936167355      19.7835384       0.338501768      -69.4021618      0.338501768      -69.4021618      0.936167355      19.7835384       
343.02           0.937496264      19.5691277       0.334977482      -69.6197901      0.334977482      -69.6197901      0.937496264      19.5691277       
346.51           0.938790543      19.3581317       0.331504752      -69.8339071      0.331504752      -69.8339071      0.938790543      19.3581317       
350              0.940051325      19.1504669       0.328082471      -70.044598       0.328082471      -70.044598       0.940051325      19.1504669       
353.49           0.9412797        18.9460525       0.324709556      -70.2519453      0.324709556      -70.2519453      0.9412797        18.9460525       
356.98           0.942476713      18.7448101       0.321384952      -70.456029       0.321384952      -70.456029       0.942476713      18.7448101       
360.47           0.943643372      18.5466638       0.318107631      -70.6569266      0.318107631      -70.6569266      0.943643372      18.5466638       
363.96           0.944780643      18.3515396       0.314876587      -70.8547133      0.314876587      -70.8547133      0.944780643      18.3515396       
367.45           0.945889456      18.1593662       0.311690841      -71.049462       0.311690841      -71.049462       0.945889456      18.1593662       
370.94           0.946970708      17.970074        0.308549439      -71.2412437      0.308549439      -71.2412437      0.946970708      17.970074        
374.43           0.948025258      17.7835956       0.305451449      -71.4301268      0.305451449      -71.4301268      0.948025258      17.7835956       
377.92           0.949053938      17.5998656       0.302395961      -71.6161781      0.302395961      -71.6161781      0.949053938      17.5998656       
381.41           0.950057543      17.4188206       0.299382091      -71.7994621      0.299382091      -71.7994621      0.950057543      17.4188206       
384.9            0.951036843      17.2403989       0.296408972      -71.9800417      0.296408972      -71.9800417      0.951036843      17.2403989       
388.39           0.951992577      17.0645406       0.293475763      -72.1579777      0.293475763      -72.1579777      0.951992577      17.0645406       
391.88           0.95292546       16.8911875       0.29058164       -72.3333293      0.29058164       -72.3333293      0.95292546       16.8911875       
395.37           0.953836176      16.7202832       0.287725802      -72.506154       0.287725802      -72.506154       0.953836176      16.7202832       
398.86           0.954725388      16.5517728       0.284907466      -72.6765074      0.284907466      -72.6765074      0.954725388      16.5517728       
402.35           0.955593734      16.3856029       0.282125869      -72.8444437      0.282125869      -72.8444437      0.955593734      16.3856029       
405.84           0.956441829      16.2217219       0.279380266      -73.0100157      0.279380266      -73.0100157      0.956441829      16.2217219       
409.33           0.957270267      16.0600792       0.276669931      -73.1732743      0.276669931      -73.1732743      0.957270267      16.0600792       
412.82           0.958079618      15.900626        0.273994155      -73.3342694      0.273994155      -73.3342694      0.958079618      15.900626        
416.31           0.958870435      15.7433146       0.271352247      -73.4930491      0.271352247      -73.4930491      0.958870435      15.7433146       
419.8            0.95964325       15.5880988       0.268743533      -73.6496604      0.268743533      -73.6496604      0.95964325       15.5880988       
423.29           0.960398578      15.4349336       0.266167355      -73.8041489      0.266167355      -73.8041489      0.960398578      15.4349336       
426.78           0.961136913      15.2837751       0.26362307       -73.956559       0.26362307       -73.956559       0.961136913      15.2837751       
430.27           0.961858736      15.1345809       0.261110051      -74.1069337      0.261110051      -74.1069337      0.961858736      15.1345809       
433.76           0.962564508      14.9873094       0.258627688      -74.2553152      0.258627688      -74.2553152      0.962564508      14.9873094       
437.25           0.963254676      14.8419203       0.256175382      -74.401744       0.256175382      -74.401744       0.963254676      14.8419203       
440.74           0.963929672      14.6983744       0.253752553      -74.5462599      0.253752553      -74.5462599      0.963929672      14.6983744       
444.23           0.964589913      14.5566335       0.25135863       -74.6889015      0.25135863       -74.6889015      0.964589913      14.5566335       
