! Coilcraft 1008CS-560 Chip Inductor				
! 02 July 2002			
# MHZ S MA R 50
!Freq             MagS11           AngS11           MagS21           AngS21           MagS12           AngS12           MagS22           AngS22
1                0.00444738792    51.8902648       0.997261347      -0.201048368     0.997261347      -0.201048368     0.00444738792    51.8902648       
5.74             0.0204649215     78.2659265       0.996039621      -1.1526922       0.996039621      -1.1526922       0.0204649215     78.2659265       
10.48            0.0369498286     81.0995527       0.994953102      -2.10265833      0.994953102      -2.10265833      0.0369498286     81.0995527       
15.22            0.053442347      81.7350618       0.993725989      -3.05079164      0.993725989      -3.05079164      0.053442347      81.7350618       
19.96            0.0698987412     81.682499        0.992301843      -3.99676122      0.992301843      -3.99676122      0.0698987412     81.682499        
24.7             0.0862993384     81.3217714       0.990658867      -4.9401874       0.990658867      -4.9401874       0.0862993384     81.3217714       
29.44            0.102629609      80.7956389       0.988787301      -5.88067189      0.988787301      -5.88067189      0.102629609      80.7956389       
34.18            0.118876802      80.1705704       0.986683049      -6.81781012      0.986683049      -6.81781012      0.118876802      80.1705704       
38.92            0.135029045      79.4820526       0.984345209      -7.75119778      0.984345209      -7.75119778      0.135029045      79.4820526       
43.66            0.151075056      78.750948        0.98177493       -8.68043493      0.98177493       -8.68043493      0.151075056      78.750948        
48.4             0.167004039      77.9904407       0.978974799      -9.6051288       0.978974799      -9.6051288       0.167004039      77.9904407       
53.14            0.182805666      77.2093484       0.975948483      -10.524896       0.975948483      -10.524896       0.182805666      77.2093484       
57.88            0.198470071      76.4138462       0.9727005        -11.4393641      0.9727005        -11.4393641      0.198470071      76.4138462       
62.62            0.213987864      75.6084265       0.969236058      -12.3481731      0.969236058      -12.3481731      0.213987864      75.6084265       
67.36            0.229350143      74.7964646       0.965560937      -13.2509764      0.965560937      -13.2509764      0.229350143      74.7964646       
72.1             0.244548514      73.9805666       0.961681396      -14.1474419      0.961681396      -14.1474419      0.244548514      73.9805666       
76.84            0.259575099      73.162793        0.957604099      -15.0372529      0.957604099      -15.0372529      0.259575099      73.162793        
81.58            0.274422549      72.3448055       0.953336044      -15.9201081      0.953336044      -15.9201081      0.274422549      72.3448055       
86.32            0.289084049      71.5279675       0.94888451       -16.7957229      0.94888451       -16.7957229      0.289084049      71.5279675       
91.06            0.303553327      70.7134144       0.944257005      -17.6638292      0.944257005      -17.6638292      0.303553327      70.7134144       
95.8             0.317824651      69.9021029       0.939461214      -18.5241759      0.939461214      -18.5241759      0.317824651      69.9021029       
100.54           0.331892829      69.0948477       0.93450496       -19.376529       0.93450496       -19.376529       0.331892829      69.0948477       
105.28           0.345753205      68.2923479       0.929396159      -20.2206715      0.929396159      -20.2206715      0.345753205      68.2923479       
110.02           0.359401652      67.4952079       0.924142786      -21.0564038      0.924142786      -21.0564038      0.359401652      67.4952079       
114.76           0.372834562      66.7039519       0.91875284       -21.8835432      0.91875284       -21.8835432      0.372834562      66.7039519       
119.5            0.386048834      65.919037        0.913234306      -22.7019239      0.913234306      -22.7019239      0.386048834      65.919037        
124.24           0.399041861      65.1408619       0.907595134      -23.5113964      0.907595134      -23.5113964      0.399041861      65.1408619       
128.98           0.411811515      64.3697746       0.901843204      -24.311828       0.901843204      -24.311828       0.411811515      64.3697746       
133.72           0.424356127      63.6060791       0.895986304      -25.1031013      0.895986304      -25.1031013      0.424356127      63.6060791       
138.46           0.436674473      62.8500398       0.890032109      -25.8851149      0.890032109      -25.8851149      0.436674473      62.8500398       
143.2            0.448765752      62.1018859       0.883988155      -26.6577821      0.883988155      -26.6577821      0.448765752      62.1018859       
147.94           0.460629565      61.3618151       0.877861828      -27.4210308      0.877861828      -27.4210308      0.460629565      61.3618151       
152.68           0.472265897      60.6299966       0.871660343      -28.174803       0.871660343      -28.174803       0.472265897      60.6299966       
157.42           0.483675093      59.9065737       0.865390729      -28.9190541      0.865390729      -28.9190541      0.483675093      59.9065737       
162.16           0.49485784       59.191666        0.859059823      -29.6537523      0.859059823      -29.6537523      0.49485784       59.191666        
166.9            0.50581514       58.4853715       0.852674252      -30.3788781      0.852674252      -30.3788781      0.50581514       58.4853715       
171.64           0.516548294      57.7877686       0.846240431      -31.0944239      0.846240431      -31.0944239      0.516548294      57.7877686       
176.38           0.527058876      57.0989173       0.839764553      -31.8003929      0.839764553      -31.8003929      0.527058876      57.0989173       
181.12           0.537348717      56.4188612       0.833252583      -32.4967991      0.833252583      -32.4967991      0.537348717      56.4188612       
185.86           0.54741988       55.7476282       0.826710259      -33.1836661      0.826710259      -33.1836661      0.54741988       55.7476282       
190.6            0.557274642      55.0852326       0.820143082      -33.8610269      0.820143082      -33.8610269      0.557274642      55.0852326       
195.34           0.566915473      54.4316754       0.813556322      -34.5289234      0.813556322      -34.5289234      0.566915473      54.4316754       
200.08           0.57634502       53.7869457       0.806955016      -35.1874054      0.806955016      -35.1874054      0.57634502       53.7869457       
204.82           0.585566088      53.1510219       0.800343965      -35.8365303      0.800343965      -35.8365303      0.585566088      53.1510219       
209.56           0.594581619      52.5238721       0.793727742      -36.4763625      0.793727742      -36.4763625      0.594581619      52.5238721       
214.3            0.603394681      51.9054556       0.787110691      -37.1069731      0.787110691      -37.1069731      0.603394681      51.9054556       
219.04           0.612008451      51.295723        0.78049693       -37.7284388      0.78049693       -37.7284388      0.612008451      51.295723        
223.78           0.620426195      50.6946174       0.77389036       -38.340842       0.77389036       -38.340842       0.620426195      50.6946174       
228.52           0.628651263      50.1020749       0.767294663      -38.94427        0.767294663      -38.94427        0.628651263      50.1020749       
233.26           0.636687066      49.5180256       0.760713312      -39.5388146      0.760713312      -39.5388146      0.636687066      49.5180256       
238              0.644537073      48.9423935       0.754149574      -40.1245718      0.754149574      -40.1245718      0.644537073      48.9423935       
242.74           0.652204791      48.3750977       0.747606519      -40.701641       0.747606519      -40.701641       0.652204791      48.3750977       
247.48           0.659693762      47.8160528       0.741087022      -41.2701251      0.741087022      -41.2701251      0.659693762      47.8160528       
252.22           0.667007546      47.2651692       0.734593772      -41.8301298      0.734593772      -41.8301298      0.667007546      47.2651692       
256.96           0.674149718      46.7223537       0.728129279      -42.3817632      0.728129279      -42.3817632      0.674149718      46.7223537       
261.7            0.681123854      46.1875099       0.721695878      -42.9251357      0.721695878      -42.9251357      0.681123854      46.1875099       
266.44           0.687933528      45.6605387       0.715295738      -43.4603595      0.715295738      -43.4603595      0.687933528      45.6605387       
271.18           0.694582301      45.1413385       0.70893087       -43.9875482      0.70893087       -43.9875482      0.694582301      45.1413385       
275.92           0.701073716      44.6298058       0.702603128      -44.5068171      0.702603128      -44.5068171      0.701073716      44.6298058       
280.66           0.707411295      44.1258352       0.696314223      -45.018282       0.696314223      -45.018282       0.707411295      44.1258352       
285.4            0.713598527      43.62932         0.690065724      -45.5220597      0.690065724      -45.5220597      0.713598527      43.62932         
290.14           0.719638871      43.1401524       0.683859066      -46.0182676      0.683859066      -46.0182676      0.719638871      43.1401524       
294.88           0.725535744      42.6582234       0.677695558      -46.5070233      0.677695558      -46.5070233      0.725535744      42.6582234       
299.62           0.731292525      42.1834239       0.671576388      -46.9884445      0.671576388      -46.9884445      0.731292525      42.1834239       
304.36           0.736912544      41.7156439       0.665502628      -47.4626488      0.665502628      -47.4626488      0.736912544      41.7156439       
309.1            0.742399086      41.2547734       0.659475243      -47.9297537      0.659475243      -47.9297537      0.742399086      41.2547734       
313.84           0.747755382      40.8007023       0.653495092      -48.3898762      0.653495092      -48.3898762      0.747755382      40.8007023       
318.58           0.752984614      40.3533208       0.647562939      -48.8431328      0.647562939      -48.8431328      0.752984614      40.3533208       
323.32           0.758089904      39.9125192       0.641679454      -49.2896394      0.641679454      -49.2896394      0.758089904      39.9125192       
328.06           0.763074323      39.4781883       0.63584522       -49.729511       0.63584522       -49.729511       0.763074323      39.4781883       
332.8            0.767940881      39.0502195       0.630060739      -50.1628617      0.630060739      -50.1628617      0.767940881      39.0502195       
337.54           0.772692528      38.628505        0.624326434      -50.5898048      0.624326434      -50.5898048      0.772692528      38.628505        
342.28           0.777332159      38.2129376       0.618642658      -51.0104523      0.618642658      -51.0104523      0.777332159      38.2129376       
347.02           0.781862605      37.8034111       0.613009692      -51.4249152      0.613009692      -51.4249152      0.781862605      37.8034111       
351.76           0.786286639      37.3998203       0.607427757      -51.8333031      0.607427757      -51.8333031      0.786286639      37.3998203       
356.5            0.790606971      37.002061        0.60189701       -52.2357246      0.60189701       -52.2357246      0.790606971      37.002061        
361.24           0.794826252      36.6100302       0.596417556      -52.6322866      0.596417556      -52.6322866      0.794826252      36.6100302       
365.98           0.798947073      36.223626        0.590989444      -53.0230948      0.590989444      -53.0230948      0.798947073      36.223626        
370.72           0.802971963      35.8427478       0.585612675      -53.4082536      0.585612675      -53.4082536      0.802971963      35.8427478       
375.46           0.806903393      35.4672963       0.580287207      -53.7878656      0.580287207      -53.7878656      0.806903393      35.4672963       
380.2            0.810743774      35.0971735       0.575012952      -54.1620321      0.575012952      -54.1620321      0.810743774      35.0971735       
384.94           0.814495458      34.7322829       0.569789785      -54.530853       0.569789785      -54.530853       0.814495458      34.7322829       
389.68           0.818160738      34.3725292       0.564617542      -54.8944264      0.564617542      -54.8944264      0.818160738      34.3725292       
394.42           0.821741852      34.0178185       0.559496028      -55.2528488      0.559496028      -55.2528488      0.821741852      34.0178185       
399.16           0.82524098       33.6680587       0.554425016      -55.6062155      0.554425016      -55.6062155      0.82524098       33.6680587       
403.9            0.828660245      33.3231587       0.549404249      -55.9546198      0.549404249      -55.9546198      0.828660245      33.3231587       
408.64           0.832001718      32.9830291       0.544433443      -56.2981537      0.544433443      -56.2981537      0.832001718      32.9830291       
413.38           0.835267415      32.647582        0.539512293      -56.6369074      0.539512293      -56.6369074      0.835267415      32.647582        
418.12           0.838459298      32.316731        0.534640467      -56.9709696      0.534640467      -56.9709696      0.838459298      32.316731        
422.86           0.841579279      31.990391        0.529817616      -57.3004275      0.529817616      -57.3004275      0.841579279      31.990391        
427.6            0.844629218      31.6684786       0.525043372      -57.6253666      0.525043372      -57.6253666      0.844629218      31.6684786       
432.34           0.847610927      31.3509116       0.520317347      -57.9458709      0.520317347      -57.9458709      0.847610927      31.3509116       
437.08           0.850526166      31.0376097       0.515639143      -58.2620227      0.515639143      -58.2620227      0.850526166      31.0376097       
441.82           0.853376651      30.7284937       0.511008343      -58.5739028      0.511008343      -58.5739028      0.853376651      30.7284937       
446.56           0.856164049      30.423486        0.506424521      -58.8815907      0.506424521      -58.8815907      0.856164049      30.423486        
451.3            0.858889984      30.1225104       0.501887239      -59.1851641      0.501887239      -59.1851641      0.858889984      30.1225104       
456.04           0.861556032      29.8254922       0.497396048      -59.4846992      0.497396048      -59.4846992      0.861556032      29.8254922       
460.78           0.864163729      29.5323581       0.492950493      -59.7802709      0.492950493      -59.7802709      0.864163729      29.5323581       
465.52           0.866714567      29.2430361       0.488550108      -60.0719524      0.488550108      -60.0719524      0.866714567      29.2430361       
470.26           0.869209998      28.9574558       0.484194424      -60.3598156      0.484194424      -60.3598156      0.869209998      28.9574558       
475              0.871651432      28.6755479       0.479882963      -60.643931       0.479882963      -60.643931       0.871651432      28.6755479       
479.74           0.874040243      28.3972448       0.475615246      -60.9243675      0.475615246      -60.9243675      0.874040243      28.3972448       
484.48           0.876377765      28.1224799       0.471390786      -61.2011928      0.471390786      -61.2011928      0.876377765      28.1224799       
489.22           0.878665293      27.8511881       0.467209098      -61.4744731      0.467209098      -61.4744731      0.878665293      27.8511881       
493.96           0.880904089      27.5833055       0.463069689      -61.7442733      0.463069689      -61.7442733      0.880904089      27.5833055       
498.7            0.88309538       27.3187697       0.458972069      -62.0106569      0.458972069      -62.0106569      0.88309538       27.3187697       
503.44           0.885240356      27.0575193       0.454915744      -62.2736863      0.454915744      -62.2736863      0.885240356      27.0575193       
508.18           0.887340176      26.7994942       0.450900221      -62.5334225      0.450900221      -62.5334225      0.887340176      26.7994942       
512.92           0.889395966      26.5446356       0.446925007      -62.789925       0.446925007      -62.789925       0.889395966      26.5446356       
517.66           0.891408821      26.2928858       0.442989609      -63.0432524      0.442989609      -63.0432524      0.891408821      26.2928858       
522.4            0.893379805      26.0441884       0.439093535      -63.293462       0.439093535      -63.293462       0.893379805      26.0441884       
527.14           0.895309953      25.798488        0.435236295      -63.5406099      0.435236295      -63.5406099      0.895309953      25.798488        
531.88           0.89720027       25.5557304       0.4314174        -63.7847509      0.4314174        -63.7847509      0.89720027       25.5557304       
536.62           0.899051734      25.3158626       0.427636364      -64.0259387      0.427636364      -64.0259387      0.899051734      25.3158626       
541.36           0.900865296      25.0788326       0.423892703      -64.2642261      0.423892703      -64.2642261      0.900865296      25.0788326       
546.1            0.90264188       24.8445894       0.420185936      -64.4996645      0.420185936      -64.4996645      0.90264188       24.8445894       
550.84           0.904382383      24.6130832       0.416515585      -64.7323043      0.416515585      -64.7323043      0.904382383      24.6130832       
555.58           0.90608768       24.3842651       0.412881176      -64.962195       0.412881176      -64.962195       0.90608768       24.3842651       
560.32           0.907758621      24.1580873       0.409282237      -65.1893849      0.409282237      -65.1893849      0.907758621      24.1580873       
565.06           0.90939603       23.9345029       0.405718302      -65.4139212      0.405718302      -65.4139212      0.90939603       23.9345029       
569.8            0.911000711      23.7134661       0.402188907      -65.6358504      0.402188907      -65.6358504      0.911000711      23.7134661       
574.54           0.912573445      23.494932        0.398693594      -65.8552177      0.398693594      -65.8552177      0.912573445      23.494932        
579.28           0.914114991      23.2788564       0.395231906      -66.0720675      0.395231906      -66.0720675      0.914114991      23.2788564       
584.02           0.915626087      23.0651964       0.391803395      -66.2864434      0.391803395      -66.2864434      0.915626087      23.0651964       
588.76           0.917107453      22.8539096       0.388407614      -66.4983878      0.388407614      -66.4983878      0.917107453      22.8539096       
593.5            0.918559786      22.6449549       0.385044122      -66.7079423      0.385044122      -66.7079423      0.918559786      22.6449549       
598.24           0.919983767      22.4382917       0.381712483      -66.9151478      0.381712483      -66.9151478      0.919983767      22.4382917       
602.98           0.921380055      22.2338802       0.378412266      -67.1200441      0.378412266      -67.1200441      0.921380055      22.2338802       
