! Coilcraft 1008CS-621 Chip Inductor				
! 02 July 2002			
# MHZ S MA R 50
!Freq             MagS11           AngS11           MagS21           AngS21           MagS12           AngS12           MagS22           AngS22
1                0.0425213464     60.7697701       0.979938776      -2.17011064      0.979938776      -2.17011064      0.0425213464     60.7697701       
2.49             0.096288886      71.1509139       0.973167088      -5.37291962      0.973167088      -5.37291962      0.096288886      71.1509139       
3.98             0.150342764      72.0734489       0.964392387      -8.52989456      0.964392387      -8.52989456      0.150342764      72.0734489       
5.47             0.203216081      70.9810491       0.95333536       -11.6262601      0.95333536       -11.6262601      0.203216081      70.9810491       
6.96             0.254357358      69.1676404       0.940096256      -14.6478248      0.940096256      -14.6478248      0.254357358      69.1676404       
8.45             0.303404142      67.0489918       0.924896151      -17.5821612      0.924896151      -17.5821612      0.303404142      67.0489918       
9.94             0.350099941      64.8039226       0.908010316      -20.4190594      0.908010316      -20.4190594      0.350099941      64.8039226       
11.43            0.394273724      62.5236574       0.889735867      -23.1506826      0.889735867      -23.1506826      0.394273724      62.5236574       
12.92            0.435828841      60.2598511       0.87037117       -25.7715358      0.87037117       -25.7715358      0.435828841      60.2598511       
14.41            0.474732728      58.0435264       0.850201717      -28.278309       0.850201717      -28.278309       0.474732728      58.0435264       
15.9             0.511006163      55.8937364       0.829490701      -30.6696401      0.829490701      -30.6696401      0.511006163      55.8937364       
17.39            0.544712429      53.8220263       0.808473342      -32.9458353      0.808473342      -32.9458353      0.544712429      53.8220263       
18.88            0.575946984      51.8349683       0.787354196      -35.1085748      0.787354196      -35.1085748      0.575946984      51.8349683       
20.37            0.604828134      49.9357263       0.766306724      -37.1606278      0.766306724      -37.1606278      0.604828134      49.9357263       
21.86            0.631488994      48.1250869       0.745474488      -39.1055893      0.745474488      -39.1055893      0.631488994      48.1250869       
23.35            0.656070857      46.4021715       0.724973388      -40.9476476      0.724973388      -40.9476476      0.656070857      46.4021715       
24.84            0.678717931      44.7649463       0.704894502      -42.6913866      0.704894502      -42.6913866      0.678717931      44.7649463       
26.33            0.699573324      43.210594        0.685307183      -44.3416216      0.685307183      -44.3416216      0.699573324      43.210594        
27.82            0.718776123      41.7357886       0.666262159      -45.9032676      0.666262159      -45.9032676      0.718776123      41.7357886       
29.31            0.736459366      40.336899        0.64779448       -47.3812372      0.64779448       -47.3812372      0.736459366      40.336899        
30.8             0.752748735      39.0101383       0.629926221      -48.7803615      0.629926221      -48.7803615      0.752748735      39.0101383       
32.29            0.767761824      37.7516745       0.612668878      -50.1053339      0.612668878      -50.1053339      0.767761824      37.7516745       
33.78            0.781607811      36.5577092       0.596025462      -51.3606692      0.596025462      -51.3606692      0.781607811      36.5577092       
35.27            0.794387459      35.424534        0.579992283      -52.5506773      0.579992283      -52.5506773      0.794387459      35.424534        
36.76            0.806193321      34.3485683       0.564560459      -53.6794476      0.564560459      -53.6794476      0.806193321      34.3485683       
38.25            0.817110092      33.3263846       0.549717162      -54.7508409      0.549717162      -54.7508409      0.817110092      33.3263846       
39.74            0.827215061      32.3547237       0.535446654      -55.7684885      0.535446654      -55.7684885      0.827215061      32.3547237       
41.23            0.836578599      31.4305017       0.521731122      -56.7357951      0.521731122      -56.7357951      0.836578599      31.4305017       
42.72            0.845264681      30.5508125       0.508551354      -57.6559452      0.508551354      -57.6559452      0.845264681      30.5508125       
44.21            0.853331399      29.7129261       0.495887274      -58.5319118      0.495887274      -58.5319118      0.853331399      29.7129261       
45.7             0.860831467      28.9142839       0.483718375      -59.3664665      0.483718375      -59.3664665      0.860831467      28.9142839       
47.19            0.867812698      28.1524925       0.472024042      -60.1621902      0.472024042      -60.1621902      0.867812698      28.1524925       
48.68            0.874318453      27.4253159       0.460783815      -60.9214845      0.460783815      -60.9214845      0.874318453      27.4253159       
50.17            0.88038806       26.7306677       0.449977577      -61.6465834      0.449977577      -61.6465834      0.88038806       26.7306677       
51.66            0.886057198      26.066602        0.4395857        -62.3395636      0.4395857        -62.3395636      0.886057198      26.066602        
53.15            0.891358252      25.4313052       0.42958915       -63.0023562      0.42958915       -63.0023562      0.891358252      25.4313052       
54.64            0.896320631      24.823087        0.419969553      -63.6367566      0.419969553      -63.6367566      0.896320631      24.823087        
56.13            0.900971058      24.2403726       0.410709249      -64.2444342      0.410709249      -64.2444342      0.900971058      24.2403726       
57.62            0.90533384       23.6816944       0.401791311      -64.8269422      0.401791311      -64.8269422      0.90533384       23.6816944       
59.11            0.909431096      23.1456846       0.393199564      -65.3857256      0.393199564      -65.3857256      0.909431096      23.1456846       
60.6             0.913282978      22.631068        0.384918578      -65.9221298      0.384918578      -65.9221298      0.913282978      22.631068        
62.09            0.91690786       22.1366552       0.376933663      -66.4374079      0.376933663      -66.4374079      0.91690786       22.1366552       
63.58            0.920322512      21.6613367       0.369230849      -66.9327277      0.369230849      -66.9327277      0.920322512      21.6613367       
65.07            0.923542256      21.2040766       0.361796869      -67.4091781      0.361796869      -67.4091781      0.923542256      21.2040766       
66.56            0.926581103      20.7639075       0.354619135      -67.8677753      0.354619135      -67.8677753      0.926581103      20.7639075       
68.05            0.929451879      20.3399252       0.347685707      -68.3094681      0.347685707      -68.3094681      0.929451879      20.3399252       
69.54            0.932166338      19.9312844       0.34098527       -68.7351428      0.34098527       -68.7351428      0.932166338      19.9312844       
71.03            0.934735263      19.537194        0.334507101      -69.1456283      0.334507101      -69.1456283      0.934735263      19.537194        
72.52            0.937168557      19.1569134       0.328241046      -69.5417001      0.328241046      -69.5417001      0.937168557      19.1569134       
74.01            0.93947532       18.7897487       0.322177487      -69.9240843      0.322177487      -69.9240843      0.93947532       18.7897487       
75.5             0.94166393       18.4350495       0.316307315      -70.2934613      0.316307315      -70.2934613      0.94166393       18.4350495       
76.99            0.943742101      18.0922053       0.310621904      -70.6504689      0.310621904      -70.6504689      0.943742101      18.0922053       
78.48            0.945716948      17.7606433       0.305113085      -70.9957059      0.305113085      -70.9957059      0.945716948      17.7606433       
79.97            0.947595036      17.4398252       0.299773118      -71.3297343      0.299773118      -71.3297343      0.947595036      17.4398252       
81.46            0.949382434      17.1292451       0.294594672      -71.6530824      0.294594672      -71.6530824      0.949382434      17.1292451       
82.95            0.951084753      16.8284268       0.289570799      -71.9662468      0.289570799      -71.9662468      0.951084753      16.8284268       
84.44            0.952707185      16.5369223       0.284694915      -72.2696952      0.284694915      -72.2696952      0.952707185      16.5369223       
85.93            0.954254546      16.2543094       0.279960776      -72.5638675      0.279960776      -72.5638675      0.954254546      16.2543094       
87.42            0.955731299      15.9801902       0.275362459      -72.8491787      0.275362459      -72.8491787      0.955731299      15.9801902       
88.91            0.957141589      15.7141894       0.270894348      -73.12602        0.270894348      -73.12602        0.957141589      15.7141894       
90.4             0.958489266      15.4559527       0.266551109      -73.3947605      0.266551109      -73.3947605      0.958489266      15.4559527       
91.89            0.959777913      15.2051454       0.262327682      -73.6557488      0.262327682      -73.6557488      0.959777913      15.2051454       
93.38            0.961010864      14.9614511       0.258219257      -73.9093142      0.258219257      -73.9093142      0.961010864      14.9614511       
94.87            0.962191224      14.7245709       0.254221267      -74.1557682      0.254221267      -74.1557682      0.962191224      14.7245709       
96.36            0.963321891      14.4942216       0.25032937       -74.3954054      0.25032937       -74.3954054      0.963321891      14.4942216       
97.85            0.964405568      14.2701352       0.246539436      -74.6285049      0.246539436      -74.6285049      0.964405568      14.2701352       
99.34            0.965444779      14.0520576       0.242847539      -74.8553308      0.242847539      -74.8553308      0.965444779      14.0520576       
100.83           0.966441885      13.8397482       0.239249939      -75.0761336      0.239249939      -75.0761336      0.966441885      13.8397482       
102.32           0.967399094      13.6329784       0.235743077      -75.291151       0.235743077      -75.291151       0.967399094      13.6329784       
103.81           0.968318473      13.4315316       0.232323565      -75.5006084      0.232323565      -75.5006084      0.968318473      13.4315316       
105.3            0.969201958      13.2352016       0.228988171      -75.7047199      0.228988171      -75.7047199      0.969201958      13.2352016       
106.79           0.970051367      13.0437929       0.225733816      -75.9036889      0.225733816      -75.9036889      0.970051367      13.0437929       
108.28           0.970868403      12.8571195       0.222557565      -76.0977089      0.222557565      -76.0977089      0.970868403      12.8571195       
109.77           0.971654666      12.6750043       0.219456614      -76.2869637      0.219456614      -76.2869637      0.971654666      12.6750043       
111.26           0.97241166       12.4972788       0.216428291      -76.4716285      0.216428291      -76.4716285      0.97241166       12.4972788       
112.75           0.9731408        12.3237827       0.213470041      -76.65187        0.213470041      -76.65187        0.9731408        12.3237827       
114.24           0.973843416      12.154363        0.210579425      -76.8278468      0.210579425      -76.8278468      0.973843416      12.154363        
115.73           0.97452076       11.988874        0.207754113      -76.9997105      0.207754113      -76.9997105      0.97452076       11.988874        
117.22           0.975174014      11.8271767       0.204991875      -77.1676054      0.204991875      -77.1676054      0.975174014      11.8271767       
118.71           0.975804291      11.6691384       0.202290581      -77.3316692      0.202290581      -77.3316692      0.975804291      11.6691384       
120.2            0.97641264       11.5146326       0.199648191      -77.4920334      0.199648191      -77.4920334      0.97641264       11.5146326       
121.69           0.977000052      11.3635382       0.197062753      -77.6488236      0.197062753      -77.6488236      0.977000052      11.3635382       
123.18           0.977567466      11.2157397       0.194532398      -77.8021598      0.194532398      -77.8021598      0.977567466      11.2157397       
124.67           0.978115764      11.0711264       0.192055335      -77.9521566      0.192055335      -77.9521566      0.978115764      11.0711264       
126.16           0.978645785      10.9295928       0.189629849      -78.0989237      0.189629849      -78.0989237      0.978645785      10.9295928       
127.65           0.979158319      10.7910376       0.187254295      -78.2425662      0.187254295      -78.2425662      0.979158319      10.7910376       
129.14           0.979654119      10.655364        0.184927095      -78.3831845      0.184927095      -78.3831845      0.979654119      10.655364        
130.63           0.980133892      10.5224792       0.182646736      -78.5208747      0.182646736      -78.5208747      0.980133892      10.5224792       
132.12           0.980598314      10.3922944       0.180411766      -78.6557291      0.180411766      -78.6557291      0.980598314      10.3922944       
133.61           0.981048021      10.2647243       0.178220791      -78.7878359      0.178220791      -78.7878359      0.981048021      10.2647243       
135.1            0.981483621      10.1396873       0.176072472      -78.9172799      0.176072472      -78.9172799      0.981483621      10.1396873       
136.59           0.981905688      10.0171049       0.173965521      -79.0441423      0.173965521      -79.0441423      0.981905688      10.0171049       
138.08           0.982314769      9.89690201       0.171898703      -79.1685011      0.171898703      -79.1685011      0.982314769      9.89690201       
139.57           0.982711383      9.77900634       0.16987083       -79.290431       0.16987083       -79.290431       0.982711383      9.77900634       
141.06           0.983096022      9.66334853       0.167880757      -79.4100038      0.167880757      -79.4100038      0.983096022      9.66334853       
142.55           0.983469158      9.54986196       0.165927386      -79.5272887      0.165927386      -79.5272887      0.983469158      9.54986196       
144.04           0.983831235      9.43848255       0.164009658      -79.642352       0.164009658      -79.642352       0.983831235      9.43848255       
145.53           0.984182681      9.32914871       0.162126554      -79.7552573      0.162126554      -79.7552573      0.984182681      9.32914871       
147.02           0.984523899      9.2218012        0.160277094      -79.8660659      0.160277094      -79.8660659      0.984523899      9.2218012        
148.51           0.984855277      9.11638302       0.158460332      -79.974837       0.158460332      -79.974837       0.984855277      9.11638302       
150              0.985177181      9.01283929       0.156675357      -80.0816271      0.156675357      -80.0816271      0.985177181      9.01283929       
151.49           0.985489964      8.91111719       0.154921293      -80.186491       0.154921293      -80.186491       0.985489964      8.91111719       
152.98           0.98579396       8.81116583       0.153197292      -80.2894812      0.153197292      -80.2894812      0.98579396       8.81116583       
154.47           0.986089489      8.71293618       0.151502539      -80.3906484      0.151502539      -80.3906484      0.986089489      8.71293618       
155.96           0.986376856      8.61638099       0.149836247      -80.4900414      0.149836247      -80.4900414      0.986376856      8.61638099       
157.45           0.986656353      8.52145471       0.148197655      -80.5877072      0.148197655      -80.5877072      0.986656353      8.52145471       
158.94           0.986928259      8.42811339       0.146586031      -80.6836912      0.146586031      -80.6836912      0.986928259      8.42811339       
160.43           0.987192841      8.33631464       0.145000666      -80.7780372      0.145000666      -80.7780372      0.987192841      8.33631464       
161.92           0.987450353      8.24601758       0.143440876      -80.8707872      0.143440876      -80.8707872      0.987450353      8.24601758       
163.41           0.987701039      8.15718271       0.141906001      -80.9619821      0.141906001      -80.9619821      0.987701039      8.15718271       
164.9            0.987945134      8.06977192       0.140395401      -81.051661       0.140395401      -81.051661       0.987945134      8.06977192       
166.39           0.98818286       7.98374837       0.138908461      -81.139862       0.138908461      -81.139862       0.98818286       7.98374837       
167.88           0.988414432      7.8990765        0.137444583      -81.2266216      0.137444583      -81.2266216      0.988414432      7.8990765        
169.37           0.988640055      7.81572193       0.13600319       -81.3119753      0.13600319       -81.3119753      0.988640055      7.81572193       
170.86           0.988859926      7.73365142       0.134583723      -81.3959572      0.134583723      -81.3959572      0.988859926      7.73365142       
172.35           0.989074234      7.65283284       0.133185644      -81.4786003      0.133185644      -81.4786003      0.989074234      7.65283284       
173.84           0.989283159      7.57323512       0.131808428      -81.5599366      0.131808428      -81.5599366      0.989283159      7.57323512       
175.33           0.989486876      7.49482818       0.130451571      -81.6399969      0.130451571      -81.6399969      0.989486876      7.49482818       
176.82           0.98968555       7.41758292       0.129114581      -81.7188111      0.129114581      -81.7188111      0.98968555       7.41758292       
178.31           0.989879343      7.34147119       0.127796984      -81.796408       0.127796984      -81.796408       0.989879343      7.34147119       
179.8            0.990068408      7.26646571       0.126498321      -81.8728156      0.126498321      -81.8728156      0.990068408      7.26646571       
181.29           0.990252892      7.19254009       0.125218145      -81.948061       0.125218145      -81.948061       0.990252892      7.19254009       
182.78           0.990432938      7.11966874       0.123956025      -82.0221702      0.123956025      -82.0221702      0.990432938      7.11966874       
184.27           0.990608682      7.04782688       0.122711542      -82.0951687      0.122711542      -82.0951687      0.990608682      7.04782688       
185.76           0.990780255      6.97699048       0.121484291      -82.1670809      0.121484291      -82.1670809      0.990780255      6.97699048       
187.25           0.990947783      6.90713628       0.120273877      -82.2379306      0.120273877      -82.2379306      0.990947783      6.90713628       
188.74           0.991111389      6.83824169       0.119079918      -82.3077407      0.119079918      -82.3077407      0.991111389      6.83824169       
190.23           0.991271188      6.77028482       0.117902044      -82.3765337      0.117902044      -82.3765337      0.991271188      6.77028482       
