! Coilcraft 1008CS-100 Chip Inductor				
! 02 July 2002			
# MHZ S MA R 50
!Freq             MagS11           AngS11           MagS21           AngS21           MagS12           AngS12           MagS22           AngS22
1                0.00134359419    27.2061171       0.99880524       -0.0352378519    0.99880524       -0.0352378519    0.00134359419    27.2061171       
17.71            0.0110358925     79.8765322       0.998119349      -0.623650958     0.998119349      -0.623650958     0.0110358925     79.8765322       
34.42            0.0212531284     82.9962222       0.997631547      -1.21158778      0.997631547      -1.21158778      0.0212531284     82.9962222       
51.13            0.0314857562     83.8388986       0.997112317      -1.79907104      0.997112317      -1.79907104      0.0314857562     83.8388986       
67.84            0.0417138362     84.0326457       0.996527347      -2.38604904      0.996527347      -2.38604904      0.0417138362     84.0326457       
84.55            0.0519308619     83.9464013       0.995863286      -2.97245116      0.995863286      -2.97245116      0.0519308619     83.9464013       
101.26           0.0621328601     83.7123108       0.99511347       -3.55819858      0.99511347       -3.55819858      0.0621328601     83.7123108       
117.97           0.072316628      83.3900959       0.99427417       -4.14320824      0.99427417       -4.14320824      0.072316628      83.3900959       
134.68           0.0824792694     83.0109442       0.993343201      -4.72739475      0.993343201      -4.72739475      0.0824792694     83.0109442       
151.39           0.0926180371     82.5928495       0.992319296      -5.31067151      0.992319296      -5.31067151      0.0926180371     82.5928495       
168.1            0.102730272      82.1469842       0.991201782      -5.89295136      0.991201782      -5.89295136      0.102730272      82.1469842       
184.81           0.112813378      81.6806894       0.9899904        -6.47414705      0.9899904        -6.47414705      0.112813378      81.6806894       
201.52           0.122864811      81.199012        0.988685199      -7.0541716       0.988685199      -7.0541716       0.122864811      81.199012        
218.23           0.132882073      80.7055529       0.987286464      -7.63293856      0.987286464      -7.63293856      0.132882073      80.7055529       
234.94           0.142862713      80.2029627       0.98579467       -8.21036223      0.98579467       -8.21036223      0.142862713      80.2029627       
251.65           0.152804329      79.6932453       0.98421045       -8.78635779      0.98421045       -8.78635779      0.152804329      79.6932453       
268.36           0.162704565      79.177951        0.98253457       -9.36084151      0.98253457       -9.36084151      0.162704565      79.177951        
285.07           0.172561118      78.6583038       0.980767912      -9.93373086      0.980767912      -9.93373086      0.172561118      78.6583038       
301.78           0.182371736      78.1352881       0.978911461      -10.5049446      0.978911461      -10.5049446      0.182371736      78.1352881       
318.49           0.192134222      77.6097078       0.976966294      -11.074403       0.976966294      -11.074403       0.192134222      77.6097078       
335.2            0.201846438      77.0822295       0.974933567      -11.6420276      0.974933567      -11.6420276      0.201846438      77.0822295       
351.91           0.211506302      76.5534131       0.972814514      -12.2077419      0.972814514      -12.2077419      0.211506302      76.5534131       
368.62           0.221111795      76.0237346       0.970610434      -12.7714706      0.970610434      -12.7714706      0.221111795      76.0237346       
385.33           0.230660957      75.4936028       0.968322688      -13.3331407      0.968322688      -13.3331407      0.230660957      75.4936028       
402.04           0.240151896      74.9633726       0.965952695      -13.8926805      0.965952695      -13.8926805      0.240151896      74.9633726       
418.75           0.249582781      74.4333543       0.963501923      -14.4500204      0.963501923      -14.4500204      0.249582781      74.4333543       
435.46           0.25895185       73.9038222       0.960971888      -15.0050926      0.960971888      -15.0050926      0.25895185       73.9038222       
452.17           0.268257407      73.3750197       0.95836415       -15.5578314      0.95836415       -15.5578314      0.268257407      73.3750197       
468.88           0.277497825      72.8471647       0.955680305      -16.108173       0.955680305      -16.108173       0.277497825      72.8471647       
485.59           0.286671545      72.3204531       0.952921986      -16.6560555      0.952921986      -16.6560555      0.286671545      72.3204531       
502.3            0.295777079      71.7950624       0.950090855      -17.2014192      0.950090855      -17.2014192      0.295777079      71.7950624       
519.01           0.304813005      71.2711536       0.947188604      -17.7442065      0.947188604      -17.7442065      0.304813005      71.2711536       
535.72           0.313777976      70.7488737       0.944216948      -18.2843618      0.944216948      -18.2843618      0.313777976      70.7488737       
552.43           0.322670712      70.2283572       0.941177622      -18.8218316      0.941177622      -18.8218316      0.322670712      70.2283572       
569.14           0.331490003      69.7097276       0.938072382      -19.3565646      0.938072382      -19.3565646      0.331490003      69.7097276       
585.85           0.34023471       69.1930987       0.934902995      -19.8885115      0.934902995      -19.8885115      0.34023471       69.1930987       
602.56           0.348903764      68.6785755       0.931671243      -20.4176252      0.931671243      -20.4176252      0.348903764      68.6785755       
619.27           0.357496162      68.166255        0.928378916      -20.9438609      0.928378916      -20.9438609      0.357496162      68.166255        
635.98           0.366010973      67.6562269       0.925027811      -21.4671756      0.925027811      -21.4671756      0.366010973      67.6562269       
652.69           0.374447332      67.1485745       0.921619727      -21.9875287      0.921619727      -21.9875287      0.374447332      67.1485745       
669.4            0.382804441      66.6433748       0.918156467      -22.5048815      0.918156467      -22.5048815      0.382804441      66.6433748       
686.11           0.39108157       66.1406995       0.914639831      -23.0191975      0.914639831      -23.0191975      0.39108157       66.1406995       
702.82           0.399278051      65.6406149       0.911071617      -23.5304423      0.911071617      -23.5304423      0.399278051      65.6406149       
719.53           0.407393281      65.1431827       0.907453616      -24.0385834      0.907453616      -24.0385834      0.407393281      65.1431827       
736.24           0.415426723      64.6484598       0.903787613      -24.5435906      0.903787613      -24.5435906      0.415426723      64.6484598       
752.95           0.423377898      64.1564991       0.900075382      -25.0454354      0.900075382      -25.0454354      0.423377898      64.1564991       
769.66           0.431246388      63.6673495       0.896318686      -25.5440914      0.896318686      -25.5440914      0.431246388      63.6673495       
786.37           0.439031835      63.1810562       0.892519274      -26.0395343      0.892519274      -26.0395343      0.439031835      63.1810562       
803.08           0.446733938      62.6976609       0.888678882      -26.5317416      0.888678882      -26.5317416      0.446733938      62.6976609       
819.79           0.454352453      62.2172017       0.884799226      -27.0206926      0.884799226      -27.0206926      0.454352453      62.2172017       
836.5            0.461887189      61.7397138       0.880882008      -27.5063686      0.880882008      -27.5063686      0.461887189      61.7397138       
853.21           0.46933801       61.2652294       0.876928906      -27.9887525      0.876928906      -27.9887525      0.46933801       61.2652294       
869.92           0.47670483       60.7937777       0.872941581      -28.4678294      0.872941581      -28.4678294      0.47670483       60.7937777       
886.63           0.483987614      60.3253851       0.868921668      -28.9435856      0.868921668      -28.9435856      0.483987614      60.3253851       
903.34           0.491186373      59.8600757       0.864870784      -29.4160095      0.864870784      -29.4160095      0.491186373      59.8600757       
920.05           0.498301169      59.3978708       0.860790516      -29.8850911      0.860790516      -29.8850911      0.498301169      59.3978708       
936.76           0.505332104      58.9387895       0.85668243       -30.3508217      0.85668243       -30.3508217      0.505332104      58.9387895       
953.47           0.512279326      58.4828485       0.852548064      -30.8131947      0.852548064      -30.8131947      0.512279326      58.4828485       
970.18           0.519143026      58.0300626       0.848388929      -31.2722045      0.848388929      -31.2722045      0.519143026      58.0300626       
986.89           0.525923432      57.5804441       0.844206511      -31.7278473      0.844206511      -31.7278473      0.525923432      57.5804441       
1003.6           0.532620813      57.1340037       0.840002263      -32.1801208      0.840002263      -32.1801208      0.532620813      57.1340037       
1020.31          0.539235472      56.69075         0.835777615      -32.6290239      0.835777615      -32.6290239      0.539235472      56.69075         
1037.02          0.545767749      56.2506898       0.831533963      -33.0745568      0.831533963      -33.0745568      0.545767749      56.2506898       
1053.73          0.552218018      55.8138282       0.827272676      -33.5167213      0.827272676      -33.5167213      0.552218018      55.8138282       
1070.44          0.558586684      55.3801687       0.822995093      -33.9555203      0.822995093      -33.9555203      0.558586684      55.3801687       
1087.15          0.564874182      54.949713        0.818702522      -34.3909579      0.818702522      -34.3909579      0.564874182      54.949713        
1103.86          0.571080975      54.5224615       0.814396241      -34.8230394      0.814396241      -34.8230394      0.571080975      54.5224615       
1120.57          0.577207557      54.0984129       0.810077496      -35.2517712      0.810077496      -35.2517712      0.577207557      54.0984129       
1137.28          0.583254443      53.6775648       0.805747506      -35.6771609      0.805747506      -35.6771609      0.583254443      53.6775648       
1153.99          0.589222176      53.2599133       0.801407455      -36.0992171      0.801407455      -36.0992171      0.589222176      53.2599133       
1170.7           0.595111319      52.8454533       0.797058499      -36.5179494      0.797058499      -36.5179494      0.595111319      52.8454533       
1187.41          0.600922459      52.4341784       0.792701762      -36.9333683      0.792701762      -36.9333683      0.600922459      52.4341784       
1204.12          0.606656202      52.026081        0.78833834       -37.3454854      0.78833834       -37.3454854      0.606656202      52.026081        
1220.83          0.612313172      51.6211527       0.783969295      -37.7543129      0.783969295      -37.7543129      0.612313172      51.6211527       
1237.54          0.617894012      51.2193838       0.779595661      -38.1598641      0.779595661      -38.1598641      0.617894012      51.2193838       
1254.25          0.623399381      50.8207635       0.775218441      -38.5621531      0.775218441      -38.5621531      0.623399381      50.8207635       
1270.96          0.628829951      50.4252805       0.77083861       -38.9611946      0.77083861       -38.9611946      0.628829951      50.4252805       
1287.67          0.634186411      50.0329222       0.766457111      -39.3570042      0.766457111      -39.3570042      0.634186411      50.0329222       
1304.38          0.63946946       49.6436752       0.76207486       -39.7495979      0.76207486       -39.7495979      0.63946946       49.6436752       
1321.09          0.64467981       49.2575255       0.757692743      -40.1389928      0.757692743      -40.1389928      0.64467981       49.2575255       
1337.8           0.649818183      48.8744582       0.753311618      -40.5252063      0.753311618      -40.5252063      0.649818183      48.8744582       
1354.51          0.654885311      48.4944577       0.748932315      -40.9082565      0.748932315      -40.9082565      0.654885311      48.4944577       
1371.22          0.659881934      48.1175077       0.744555636      -41.288162       0.744555636      -41.288162       0.659881934      48.1175077       
1387.93          0.6648088        47.7435913       0.740182355      -41.6649419      0.740182355      -41.6649419      0.6648088        47.7435913       
1404.64          0.669666662      47.372691        0.735813222      -42.0386158      0.735813222      -42.0386158      0.669666662      47.372691        
1421.35          0.674456281      47.0047888       0.731448957      -42.409204       0.731448957      -42.409204       0.674456281      47.0047888       
1438.06          0.679178421      46.639866        0.727090257      -42.7767269      0.727090257      -42.7767269      0.679178421      46.639866        
1454.77          0.683833852      46.2779035       0.722737793      -43.1412054      0.722737793      -43.1412054      0.683833852      46.2779035       
1471.48          0.688423346      45.9188818       0.718392208      -43.5026608      0.718392208      -43.5026608      0.688423346      45.9188818       
1488.19          0.692947677      45.5627809       0.714054126      -43.8611148      0.714054126      -43.8611148      0.692947677      45.5627809       
1504.9           0.697407622      45.2095804       0.709724143      -44.2165893      0.709724143      -44.2165893      0.697407622      45.2095804       
1521.61          0.701803959      44.8592597       0.705402832      -44.5691065      0.705402832      -44.5691065      0.701803959      44.8592597       
1538.32          0.706137467      44.5117975       0.701090745      -44.918689       0.701090745      -44.918689       0.706137467      44.5117975       
1555.03          0.710408922      44.1671725       0.696788411      -45.2653596      0.696788411      -45.2653596      0.710408922      44.1671725       
1571.74          0.714619104      43.825363        0.692496335      -45.6091412      0.692496335      -45.6091412      0.714619104      43.825363        
1588.45          0.718768788      43.4863471       0.688215003      -45.950057       0.688215003      -45.950057       0.718768788      43.4863471       
1605.16          0.722858748      43.1501026       0.683944881      -46.2881303      0.683944881      -46.2881303      0.722858748      43.1501026       
1621.87          0.726889759      42.816607        0.679686411      -46.6233847      0.679686411      -46.6233847      0.726889759      42.816607        
1638.58          0.730862588      42.4858379       0.675440018      -46.9558438      0.675440018      -46.9558438      0.730862588      42.4858379       
1655.29          0.734778003      42.1577723       0.671206107      -47.2855314      0.671206107      -47.2855314      0.734778003      42.1577723       
1672             0.738636767      41.8323875       0.666985065      -47.6124714      0.666985065      -47.6124714      0.738636767      41.8323875       
1688.71          0.742439638      41.5096603       0.662777259      -47.9366876      0.662777259      -47.9366876      0.742439638      41.5096603       
1705.42          0.746187373      41.1895677       0.65858304       -48.2582041      0.65858304       -48.2582041      0.746187373      41.1895677       
1722.13          0.74988072       40.8720863       0.65440274       -48.577045       0.65440274       -48.577045       0.74988072       40.8720863       
1738.84          0.753520426      40.5571928       0.650236676      -48.8932344      0.650236676      -48.8932344      0.753520426      40.5571928       
1755.55          0.75710723       40.2448639       0.646085148      -49.2067964      0.646085148      -49.2067964      0.75710723       40.2448639       
1772.26          0.760641868      39.9350762       0.641948439      -49.517755       0.641948439      -49.517755       0.760641868      39.9350762       
1788.97          0.764125067      39.6278061       0.637826818      -49.8261345      0.637826818      -49.8261345      0.764125067      39.6278061       
1805.68          0.767557551      39.3230302       0.633720539      -50.1319589      0.633720539      -50.1319589      0.767557551      39.3230302       
1822.39          0.770940036      39.020725        0.629629841      -50.4352523      0.629629841      -50.4352523      0.770940036      39.020725        
1839.1           0.774273232      38.7208671       0.625554949      -50.7360387      0.625554949      -50.7360387      0.774273232      38.7208671       
1855.81          0.777557843      38.4234329       0.621496075      -51.034342       0.621496075      -51.034342       0.777557843      38.4234329       
1872.52          0.780794565      38.1283991       0.617453417      -51.3301861      0.617453417      -51.3301861      0.780794565      38.1283991       
1889.23          0.78398409       37.8357424       0.613427162      -51.6235949      0.613427162      -51.6235949      0.78398409       37.8357424       
1905.94          0.787127098      37.5454394       0.609417483      -51.9145921      0.609417483      -51.9145921      0.787127098      37.5454394       
1922.65          0.790224266      37.2574668       0.60542454       -52.2032013      0.60542454       -52.2032013      0.790224266      37.2574668       
1939.36          0.793276262      36.9718016       0.601448486      -52.4894461      0.601448486      -52.4894461      0.793276262      36.9718016       
1956.07          0.796283747      36.6884205       0.597489458      -52.7733498      0.597489458      -52.7733498      0.796283747      36.6884205       
1972.78          0.799247374      36.4073007       0.593547585      -53.0549359      0.593547585      -53.0549359      0.799247374      36.4073007       
1989.49          0.802167789      36.1284192       0.589622985      -53.3342274      0.589622985      -53.3342274      0.802167789      36.1284192       
2006.2           0.80504563       35.8517532       0.585715766      -53.6112474      0.585715766      -53.6112474      0.80504563       35.8517532       
2022.91          0.807881529      35.5772801       0.581826026      -53.8860188      0.581826026      -53.8860188      0.807881529      35.5772801       
2039.62          0.810676107      35.3049773       0.577953854      -54.1585644      0.577953854      -54.1585644      0.810676107      35.3049773       
2056.33          0.813429979      35.0348224       0.57409933       -54.4289068      0.57409933       -54.4289068      0.813429979      35.0348224       
2073.04          0.816143754      34.7667931       0.570262525      -54.6970685      0.570262525      -54.6970685      0.816143754      34.7667931       
2089.75          0.818818029      34.5008673       0.566443504      -54.9630716      0.566443504      -54.9630716      0.818818029      34.5008673       
2106.46          0.821453398      34.2370229       0.56264232       -55.2269385      0.56264232       -55.2269385      0.821453398      34.2370229       
2123.17          0.824050444      33.9752381       0.558859021      -55.488691       0.558859021      -55.488691       0.824050444      33.9752381       
