! Coilcraft 1008CS-561 Chip Inductor				
! 02 July 2002			
# MHZ S MA R 50
!Freq             MagS11           AngS11           MagS21           AngS21           MagS12           AngS12           MagS22           AngS22
1                0.0383286903     60.308194        0.981579364      -1.94390715      0.981579364      -1.94390715      0.0383286903     60.308194        
2.49             0.0864731146     71.3592332       0.975806424      -4.81670275      0.975806424      -4.81670275      0.0864731146     71.3592332       
3.98             0.13511605       72.7159935       0.968487549      -7.65527437      0.968487549      -7.65527437      0.13511605       72.7159935       
5.47             0.182953955      71.9828736       0.959320786      -10.4489997      0.959320786      -10.4489997      0.182953955      71.9828736       
6.96             0.229533167      70.4862691       0.948336588      -13.187318       0.948336588      -13.187318       0.229533167      70.4862691       
8.45             0.274557103      68.6508727       0.935669064      -15.8606341      0.935669064      -15.8606341      0.274557103      68.6508727       
9.94             0.317806234      66.6584929       0.921501116      -18.4606819      0.921501116      -18.4606819      0.317806234      66.6584929       
11.43            0.359120147      64.6017201       0.906039879      -20.9806878      0.906039879      -20.9806878      0.359120147      64.6017201       
12.92            0.398390284      62.5332852       0.889501623      -23.4154146      0.889501623      -23.4154146      0.398390284      62.5332852       
14.41            0.435554348      60.4854361       0.872101164      -25.7611215      0.872101164      -25.7611215      0.435554348      60.4854361       
15.9             0.470590533      58.4787103       0.854044227      -28.0154648      0.854044227      -28.0154648      0.470590533      58.4787103       
17.39            0.503511416      56.5263772       0.835522143      -30.1773597      0.835522143      -30.1773597      0.503511416      56.5263772       
18.88            0.53435773       54.636907        0.816708462      -32.2468189      0.816708462      -32.2468189      0.53435773       54.636907        
20.37            0.56319236       52.8154557       0.797757153      -34.2247838      0.797757153      -34.2247838      0.56319236       52.8154557       
21.86            0.590094785      51.0648218       0.778802044      -36.1129574      0.778802044      -36.1129574      0.590094785      51.0648218       
23.35            0.615156152      49.3860988       0.759957199      -37.9136465      0.759957199      -37.9136465      0.615156152      49.3860988       
24.84            0.638475061      47.7791376       0.741317967      -39.6296185      0.741317967      -39.6296185      0.638475061      47.7791376       
26.33            0.660154064      46.2428877       0.722962444      -41.2639759      0.722962444      -41.2639759      0.660154064      46.2428877       
27.82            0.680296869      44.7756516       0.704953189      -42.8200476      0.704953189      -42.8200476      0.680296869      44.7756516       
29.31            0.699006153      43.3752794       0.68733902       -44.3012985      0.68733902       -44.3012985      0.699006153      43.3752794       
30.8             0.716381938      42.0393167       0.670156804      -45.711255       0.670156804      -45.711255       0.716381938      42.0393167       
32.29            0.732520412      40.7651183       0.653433166      -47.0534459      0.653433166      -47.0534459      0.732520412      40.7651183       
33.78            0.747513142      39.5499349       0.637186068      -48.3313556      0.637186068      -48.3313556      0.747513142      39.5499349       
35.27            0.761446584      38.3909785       0.621426231      -49.5483889      0.621426231      -49.5483889      0.761446584      38.3909785       
36.76            0.774401825      37.2854721       0.606158408      -50.7078447      0.606158408      -50.7078447      0.774401825      37.2854721       
38.25            0.786454517      36.2306858       0.591382491      -51.8128976      0.591382491      -51.8128976      0.786454517      36.2306858       
39.74            0.797674929      35.2239626       0.577094459      -52.8665855      0.577094459      -52.8665855      0.797674929      35.2239626       
41.23            0.808128113      34.2627374       0.563287202      -53.8718028      0.563287202      -53.8718028      0.808128113      34.2627374       
42.72            0.817874113      33.3445484       0.549951205      -54.8312964      0.549951205      -54.8312964      0.817874113      33.3445484       
44.21            0.826968238      32.4670452       0.537075126      -55.747666       0.537075126      -55.747666       0.826968238      32.4670452       
45.7             0.835461343      31.627992        0.524646277      -56.6233653      0.524646277      -56.6233653      0.835461343      31.627992        
47.19            0.843400129      30.8252691       0.512651018      -57.4607063      0.512651018      -57.4607063      0.843400129      30.8252691       
48.68            0.850827439      30.0568718       0.50107508       -58.2618636      0.50107508       -58.2618636      0.850827439      30.0568718       
50.17            0.857782554      29.3209079       0.489903829      -59.0288801      0.489903829      -59.0288801      0.857782554      29.3209079       
51.66            0.864301471      28.6155942       0.479122476      -59.7636733      0.479122476      -59.7636733      0.864301471      28.6155942       
53.15            0.870417172      27.9392525       0.468716242      -60.4680416      0.468716242      -60.4680416      0.870417172      27.9392525       
54.64            0.876159878      27.2903047       0.458670496      -61.1436706      0.458670496      -61.1436706      0.876159878      27.2903047       
56.13            0.881557277      26.6672681       0.448970851      -61.7921402      0.448970851      -61.7921402      0.881557277      26.6672681       
57.62            0.88663475       26.0687501       0.439603244      -62.4149303      0.439603244      -62.4149303      0.88663475       26.0687501       
59.11            0.891415567      25.4934432       0.430553996      -63.0134274      0.430553996      -63.0134274      0.891415567      25.4934432       
60.6             0.895921074      24.9401203       0.42180985       -63.5889305      0.42180985       -63.5889305      0.895921074      24.9401203       
62.09            0.900170861      24.4076295       0.413358003      -64.1426568      0.413358003      -64.1426568      0.900170861      24.4076295       
63.58            0.904182918      23.8948896       0.405186119      -64.675747       0.405186119      -64.675747       0.904182918      23.8948896       
65.07            0.907973777      23.4008857       0.397282343      -65.1892703      0.397282343      -65.1892703      0.907973777      23.4008857       
66.56            0.911558638      22.9246646       0.389635302      -65.6842296      0.389635302      -65.6842296      0.911558638      22.9246646       
68.05            0.91495149       22.4653314       0.3822341        -66.1615656      0.3822341        -66.1615656      0.91495149       22.4653314       
69.54            0.918165215      22.0220452       0.375068313      -66.6221612      0.375068313      -66.6221612      0.918165215      22.0220452       
71.03            0.921211684      21.5940155       0.36812798       -67.0668453      0.36812798       -67.0668453      0.921211684      21.5940155       
72.52            0.924101848      21.1804994       0.36140359       -67.4963966      0.36140359       -67.4963966      0.924101848      21.1804994       
74.01            0.926845814      20.7807978       0.354886067      -67.9115471      0.354886067      -67.9115471      0.926845814      20.7807978       
75.5             0.92945292       20.394253        0.348566754      -68.312985       0.348566754      -68.312985       0.92945292       20.394253        
76.99            0.931931801      20.0202456       0.342437401      -68.7013578      0.342437401      -68.7013578      0.931931801      20.0202456       
78.48            0.934290446      19.6581924       0.336490144      -69.0772752      0.336490144      -69.0772752      0.934290446      19.6581924       
79.97            0.936536255      19.3075434       0.330717494      -69.4413113      0.330717494      -69.4413113      0.936536255      19.3075434       
81.46            0.938676088      18.9677802       0.325112314      -69.7940073      0.325112314      -69.7940073      0.938676088      18.9677802       
82.95            0.940716308      18.6384136       0.319667808      -70.1358734      0.319667808      -70.1358734      0.940716308      18.6384136       
84.44            0.942662823      18.3189819       0.314377503      -70.4673913      0.314377503      -70.4673913      0.942662823      18.3189819       
85.93            0.944521121      18.0090488       0.309235232      -70.7890154      0.309235232      -70.7890154      0.944521121      18.0090488       
87.42            0.94629631       17.7082023       0.304235123      -71.1011752      0.304235123      -71.1011752      0.94629631       17.7082023       
88.91            0.947993141      17.4160526       0.299371581      -71.4042765      0.299371581      -71.4042765      0.947993141      17.4160526       
90.4             0.949616039      17.1322309       0.294639276      -71.6987033      0.294639276      -71.6987033      0.949616039      17.1322309       
91.89            0.951169131      16.8563882       0.290033128      -71.9848186      0.290033128      -71.9848186      0.951169131      16.8563882       
93.38            0.952656267      16.5881941       0.285548296      -72.2629664      0.285548296      -72.2629664      0.952656267      16.5881941       
94.87            0.95408104       16.3273351       0.281180164      -72.5334726      0.281180164      -72.5334726      0.95408104       16.3273351       
96.36            0.955446809      16.0735143       0.276924331      -72.7966458      0.276924331      -72.7966458      0.955446809      16.0735143       
97.85            0.956756714      15.8264499       0.272776599      -73.052779       0.272776599      -73.052779       0.956756714      15.8264499       
99.34            0.958013693      15.5858744       0.268732964      -73.3021501      0.268732964      -73.3021501      0.958013693      15.5858744       
100.83           0.959220499      15.3515339       0.264789604      -73.5450229      0.264789604      -73.5450229      0.959220499      15.3515339       
102.32           0.960379709      15.123187        0.26094287       -73.7816481      0.26094287       -73.7816481      0.960379709      15.123187        
103.81           0.961493743      14.9006043       0.257189279      -74.0122639      0.257189279      -74.0122639      0.961493743      14.9006043       
105.3            0.96256487       14.6835675       0.253525503      -74.2370969      0.253525503      -74.2370969      0.96256487       14.6835675       
106.79           0.963595221      14.471869        0.249948363      -74.4563625      0.249948363      -74.4563625      0.963595221      14.471869        
108.28           0.964586799      14.2653111       0.246454819      -74.670266       0.246454819      -74.670266       0.964586799      14.2653111       
109.77           0.965541488      14.0637053       0.243041966      -74.8790027      0.243041966      -74.8790027      0.965541488      14.0637053       
111.26           0.966461059      13.8668723       0.239707025      -75.0827589      0.239707025      -75.0827589      0.966461059      13.8668723       
112.75           0.96734718       13.6746407       0.236447337      -75.2817119      0.236447337      -75.2817119      0.96734718       13.6746407       
114.24           0.968201426      13.4868474       0.233260358      -75.4760312      0.233260358      -75.4760312      0.968201426      13.4868474       
115.73           0.969025276      13.3033365       0.230143652      -75.6658782      0.230143652      -75.6658782      0.969025276      13.3033365       
117.22           0.96982013       13.1239592       0.227094885      -75.8514071      0.227094885      -75.8514071      0.96982013       13.1239592       
118.71           0.970587307      12.9485733       0.224111823      -76.0327653      0.224111823      -76.0327653      0.970587307      12.9485733       
120.2            0.971328054      12.777043        0.221192323      -76.2100934      0.221192323      -76.2100934      0.971328054      12.777043        
121.69           0.972043548      12.6092384       0.218334333      -76.3835261      0.218334333      -76.3835261      0.972043548      12.6092384       
123.18           0.972734904      12.4450352       0.215535882      -76.5531919      0.215535882      -76.5531919      0.972734904      12.4450352       
124.67           0.973403174      12.2843146       0.212795082      -76.7192139      0.212795082      -76.7192139      0.973403174      12.2843146       
126.16           0.974049356      12.1269626       0.21011012       -76.88171        0.21011012       -76.88171        0.974049356      12.1269626       
127.65           0.974674396      11.9728704       0.207479256      -77.040793       0.207479256      -77.040793       0.974674396      11.9728704       
129.14           0.975279187      11.8219333       0.204900819      -77.196571       0.204900819      -77.196571       0.975279187      11.8219333       
130.63           0.975864579      11.6740513       0.202373203      -77.3491476      0.202373203      -77.3491476      0.975864579      11.6740513       
132.12           0.976431377      11.5291284       0.199894867      -77.4986219      0.199894867      -77.4986219      0.976431377      11.5291284       
133.61           0.976980345      11.3870724       0.197464329      -77.6450894      0.197464329      -77.6450894      0.976980345      11.3870724       
135.1            0.977512209      11.247795        0.195080163      -77.7886413      0.195080163      -77.7886413      0.977512209      11.247795        
136.59           0.978027658      11.1112113       0.192740997      -77.9293653      0.192740997      -77.9293653      0.978027658      11.1112113       
138.08           0.978527346      10.9772398       0.190445515      -78.0673456      0.190445515      -78.0673456      0.978527346      10.9772398       
139.57           0.979011898      10.8458022       0.188192445      -78.2026631      0.188192445      -78.2026631      0.979011898      10.8458022       
141.06           0.979481906      10.7168232       0.185980567      -78.3353954      0.185980567      -78.3353954      0.979481906      10.7168232       
142.55           0.979937934      10.5902306       0.183808705      -78.4656174      0.183808705      -78.4656174      0.979937934      10.5902306       
144.04           0.980380519      10.4659547       0.181675724      -78.5934006      0.181675724      -78.5934006      0.980380519      10.4659547       
145.53           0.980810174      10.3439286       0.179580532      -78.7188143      0.179580532      -78.7188143      0.980810174      10.3439286       
147.02           0.981227386      10.2240879       0.177522079      -78.8419248      0.177522079      -78.8419248      0.981227386      10.2240879       
148.51           0.98163262       10.1063705       0.175499348      -78.9627961      0.175499348      -78.9627961      0.98163262       10.1063705       
150              0.98202632       9.99071673       0.173511361      -79.0814897      0.173511361      -79.0814897      0.98202632       9.99071673       
151.49           0.982408909      9.87706904       0.171557176      -79.198065       0.171557176      -79.198065       0.982408909      9.87706904       
152.98           0.982780791      9.76537198       0.16963588       -79.3125789      0.16963588       -79.3125789      0.982780791      9.76537198       
154.47           0.983142354      9.65557207       0.167746595      -79.4250866      0.167746595      -79.4250866      0.983142354      9.65557207       
155.96           0.983493964      9.54761779       0.165888472      -79.535641       0.165888472      -79.535641       0.983493964      9.54761779       
157.45           0.983835976      9.44145941       0.164060692      -79.6442934      0.164060692      -79.6442934      0.983835976      9.44145941       
158.94           0.984168727      9.33704896       0.162262463      -79.7510929      0.162262463      -79.7510929      0.984168727      9.33704896       
160.43           0.984492537      9.23434014       0.160493021      -79.8560872      0.160493021      -79.8560872      0.984492537      9.23434014       
161.92           0.984807718      9.13328826       0.158751626      -79.9593221      0.158751626      -79.9593221      0.984807718      9.13328826       
163.41           0.985114563      9.03385015       0.157037563      -80.0608421      0.157037563      -80.0608421      0.985114563      9.03385015       
164.9            0.985413355      8.93598412       0.155350143      -80.1606897      0.155350143      -80.1606897      0.985413355      8.93598412       
166.39           0.985704366      8.83964988       0.153688695      -80.2589064      0.153688695      -80.2589064      0.985704366      8.83964988       
167.88           0.985987856      8.74480849       0.152052575      -80.355532       0.152052575      -80.355532       0.985987856      8.74480849       
169.37           0.986264072      8.65142231       0.150441157      -80.450605       0.150441157      -80.450605       0.986264072      8.65142231       
170.86           0.986533255      8.55945493       0.148853834      -80.5441628      0.148853834      -80.5441628      0.986533255      8.55945493       
172.35           0.986795632      8.46887115       0.147290021      -80.6362413      0.147290021      -80.6362413      0.986795632      8.46887115       
173.84           0.987051424      8.3796369        0.14574915       -80.7268752      0.14574915       -80.7268752      0.987051424      8.3796369        
175.33           0.987300842      8.29171921       0.144230672      -80.8160984      0.144230672      -80.8160984      0.987300842      8.29171921       
176.82           0.987544088      8.20508616       0.142734053      -80.9039432      0.142734053      -80.9039432      0.987544088      8.20508616       
178.31           0.987781356      8.11970686       0.141258778      -80.9904412      0.141258778      -80.9904412      0.987781356      8.11970686       
179.8            0.988012834      8.03555137       0.139804346      -81.0756229      0.139804346      -81.0756229      0.988012834      8.03555137       
181.29           0.988238701      7.9525907        0.138370272      -81.1595178      0.138370272      -81.1595178      0.988238701      7.9525907        
182.78           0.98845913       7.87079676       0.136956086      -81.2421544      0.136956086      -81.2421544      0.98845913       7.87079676       
184.27           0.988674287      7.79014232       0.135561332      -81.3235603      0.135561332      -81.3235603      0.988674287      7.79014232       
185.76           0.988884332      7.710601         0.134185567      -81.4037623      0.134185567      -81.4037623      0.988884332      7.710601         
187.25           0.989089417      7.63214719       0.132828362      -81.4827864      0.132828362      -81.4827864      0.989089417      7.63214719       
188.74           0.989289693      7.55475609       0.131489301      -81.5606575      0.131489301      -81.5606575      0.989289693      7.55475609       
190.23           0.9894853        7.47840361       0.130167979      -81.6374002      0.130167979      -81.6374002      0.9894853        7.47840361       
