! Coilcraft 1008CS-470 Chip Inductor				
! 02 July 2002			
# MHZ S MA R 50
!Freq             MagS11           AngS11           MagS21           AngS21           MagS12           AngS12           MagS22           AngS22
1                0.00395066245    48.0352767       0.997362625      -0.168754035     0.997362625      -0.168754035     0.00395066245    48.0352767       
6.98             0.0208592675     78.6717854       0.996112633      -1.1765201       0.996112633      -1.1765201       0.0208592675     78.6717854       
12.96            0.0383219179     81.4011261       0.994992008      -2.18245799      0.994992008      -2.18245799      0.0383219179     81.4011261       
18.94            0.0557866241     81.9235029       0.993698471      -3.18634548      0.993698471      -3.18634548      0.0557866241     81.9235029       
24.92            0.0732069702     81.7742372       0.992175003      -4.18776564      0.992175003      -4.18776564      0.0732069702     81.7742372       
30.9             0.090561114      81.3282518       0.990400375      -5.18625076      0.990400375      -5.18625076      0.090561114      81.3282518       
36.88            0.107832347      80.7245304       0.988365671      -6.18131528      0.988365671      -6.18131528      0.107832347      80.7245304       
42.86            0.125005771      80.0272919       0.986067786      -7.17246928      0.986067786      -7.17246928      0.125005771      80.0272919       
48.84            0.142067434      79.2706712       0.983506933      -8.15922576      0.983506933      -8.15922576      0.142067434      79.2706712       
54.82            0.159004064      78.4746908       0.980685486      -9.1411053       0.980685486      -9.1411053       0.159004064      78.4746908       
60.8             0.175802993      77.6519963       0.977607354      -10.1176393      0.977607354      -10.1176393      0.175802993      77.6519963       
66.78            0.192452142      76.8110516       0.974277621      -11.0883724      0.974277621      -11.0883724      0.192452142      76.8110516       
72.76            0.208940029      75.9577949       0.970702299      -12.0528646      0.970702299      -12.0528646      0.208940029      75.9577949       
78.74            0.225255792      75.0965576       0.966888159      -13.0106929      0.966888159      -13.0106929      0.225255792      75.0965576       
84.72            0.241389206      74.230605        0.962842603      -13.9614524      0.962842603      -13.9614524      0.241389206      74.230605        
90.7             0.257330704      73.3624675       0.958573554      -14.9047574      0.958573554      -14.9047574      0.257330704      73.3624675       
96.68            0.273071387      72.4941529       0.954089372      -15.8402427      0.954089372      -15.8402427      0.273071387      72.4941529       
102.66           0.288603042      71.6272864       0.949398771      -16.7675638      0.949398771      -16.7675638      0.288603042      71.6272864       
108.64           0.303918142      70.7632055       0.944510755      -17.6863974      0.944510755      -17.6863974      0.303918142      70.7632055       
114.62           0.319009851      69.9030262       0.939434551      -18.5964422      0.939434551      -18.5964422      0.319009851      69.9030262       
120.6            0.333872022      69.0476907       0.934179551      -19.4974186      0.934179551      -19.4974186      0.333872022      69.0476907       
126.58           0.348499187      68.1980012       0.928755258      -20.3890691      0.928755258      -20.3890691      0.348499187      68.1980012       
132.56           0.362886552      67.3546457       0.923171238      -21.271158       0.923171238      -21.271158       0.362886552      67.3546457       
138.54           0.377029979      66.5182169       0.917437071      -22.1434715      0.917437071      -22.1434715      0.377029979      66.5182169       
144.52           0.390925973      65.6892275       0.911562309      -23.0058171      0.911562309      -23.0058171      0.390925973      65.6892275       
150.5            0.404571656      64.8681213       0.90555644       -23.8580235      0.90555644       -23.8580235      0.404571656      64.8681213       
156.48           0.417964755      64.0552823       0.899428849      -24.6999399      0.899428849      -24.6999399      0.417964755      64.0552823       
162.46           0.431103569      63.2510426       0.893188787      -25.5314356      0.893188787      -25.5314356      0.431103569      63.2510426       
168.44           0.443986947      62.4556879       0.886845342      -26.3523995      0.886845342      -26.3523995      0.443986947      62.4556879       
174.42           0.456614263      61.6694626       0.880407414      -27.1627392      0.880407414      -27.1627392      0.456614263      61.6694626       
180.4            0.468985383      60.8925743       0.873883691      -27.9623804      0.873883691      -27.9623804      0.468985383      60.8925743       
186.38           0.481100641      60.1251973       0.86728263       -28.7512663      0.86728263       -28.7512663      0.481100641      60.1251973       
192.36           0.492960809      59.3674755       0.860612441      -29.5293565      0.860612441      -29.5293565      0.492960809      59.3674755       
198.34           0.504567064      58.6195255       0.853881072      -30.2966266      0.853881072      -30.2966266      0.504567064      58.6195255       
204.32           0.515920966      57.8814388       0.847096197      -31.0530671      0.847096197      -31.0530671      0.515920966      57.8814388       
210.3            0.52702442       57.153284        0.840265209      -31.7986827      0.840265209      -31.7986827      0.52702442       57.153284        
216.28           0.537879656      56.4351088       0.833395209      -32.5334914      0.833395209      -32.5334914      0.537879656      56.4351088       
222.26           0.548489195      55.7269418       0.826493006      -33.2575238      0.826493006      -33.2575238      0.548489195      55.7269418       
228.24           0.558855827      55.028794        0.819565112      -33.9708222      0.819565112      -33.9708222      0.558855827      55.028794        
234.22           0.568982581      54.3406607       0.81261774       -34.6734399      0.81261774       -34.6734399      0.568982581      54.3406607       
240.2            0.578872702      53.6625221       0.805656806      -35.3654403      0.805656806      -35.3654403      0.578872702      53.6625221       
246.18           0.588529625      52.9943455       0.798687931      -36.0468961      0.798687931      -36.0468961      0.588529625      52.9943455       
252.16           0.597956954      52.3360857       0.791716442      -36.7178889      0.791716442      -36.7178889      0.597956954      52.3360857       
258.14           0.607158441      51.6876866       0.784747378      -37.3785078      0.784747378      -37.3785078      0.607158441      51.6876866       
264.12           0.616137962      51.0490821       0.777785496      -38.0288496      0.777785496      -38.0288496      0.616137962      51.0490821       
270.1            0.6248995        50.4201968       0.770835276      -38.6690175      0.770835276      -38.6690175      0.6248995        50.4201968       
276.08           0.633447128      49.8009474       0.763900928      -39.2991204      0.763900928      -39.2991204      0.633447128      49.8009474       
282.06           0.641784987      49.1912431       0.756986398      -39.9192729      0.756986398      -39.9192729      0.641784987      49.1912431       
288.04           0.649917277      48.5909864       0.750095379      -40.5295942      0.750095379      -40.5295942      0.649917277      48.5909864       
294.02           0.657848237      48.0000743       0.743231317      -41.1302076      0.743231317      -41.1302076      0.657848237      48.0000743       
300              0.665582134      47.4183982       0.736397422      -41.7212402      0.736397422      -41.7212402      0.665582134      47.4183982       
305.98           0.673123249      46.8458452       0.729596672      -42.3028223      0.729596672      -42.3028223      0.673123249      46.8458452       
311.96           0.680475868      46.2822984       0.722831828      -42.8750869      0.722831828      -42.8750869      0.680475868      46.2822984       
317.94           0.687644268      45.7276374       0.716105439      -43.4381692      0.716105439      -43.4381692      0.687644268      45.7276374       
323.92           0.694632711      45.181739        0.709419852      -43.9922066      0.709419852      -43.9922066      0.694632711      45.181739        
329.9            0.701445434      44.6444773       0.702777224      -44.5373377      0.702777224      -44.5373377      0.701445434      44.6444773       
335.88           0.70808664       44.1157247       0.696179525      -45.0737024      0.696179525      -45.0737024      0.70808664       44.1157247       
341.86           0.714560493      43.5953516       0.689628552      -45.6014414      0.689628552      -45.6014414      0.714560493      43.5953516       
347.84           0.720871112      43.0832274       0.683125936      -46.1206961      0.683125936      -46.1206961      0.720871112      43.0832274       
353.82           0.727022563      42.5792205       0.676673151      -46.631608       0.676673151      -46.631608       0.727022563      42.5792205       
359.8            0.733018856      42.0831987       0.67027152       -47.1343185      0.67027152       -47.1343185      0.733018856      42.0831987       
365.78           0.738863943      41.5950292       0.663922226      -47.6289691      0.663922226      -47.6289691      0.738863943      41.5950292       
371.76           0.744561709      41.1145796       0.65762632       -48.1157006      0.65762632       -48.1157006      0.744561709      41.1145796       
377.74           0.750115974      40.6417173       0.651384725      -48.5946532      0.651384725      -48.5946532      0.750115974      40.6417173       
383.72           0.755530487      40.1763101       0.645198248      -49.0659662      0.645198248      -49.0659662      0.755530487      40.1763101       
389.7            0.760808926      39.7182265       0.639067583      -49.5297782      0.639067583      -49.5297782      0.760808926      39.7182265       
395.68           0.765954896      39.2673357       0.63299332       -49.9862262      0.63299332       -49.9862262      0.765954896      39.2673357       
401.66           0.770971926      38.8235078       0.626975952      -50.4354464      0.626975952      -50.4354464      0.770971926      38.8235078       
407.64           0.775863469      38.3866139       0.621015878      -50.8775734      0.621015878      -50.8775734      0.775863469      38.3866139       
413.62           0.780632903      37.9565264       0.615113414      -51.3127402      0.615113414      -51.3127402      0.780632903      37.9565264       
419.6            0.785283527      37.5331188       0.609268795      -51.7410783      0.609268795      -51.7410783      0.785283527      37.5331188       
425.58           0.789818564      37.1162661       0.603482179      -52.1627177      0.603482179      -52.1627177      0.789818564      37.1162661       
431.56           0.794241159      36.705845        0.597753657      -52.5777863      0.597753657      -52.5777863      0.794241159      36.705845        
437.54           0.798554382      36.3017333       0.592083256      -52.9864106      0.592083256      -52.9864106      0.798554382      36.3017333       
443.52           0.802761223      35.9038108       0.58647094       -53.388715       0.58647094       -53.388715       0.802761223      35.9038108       
449.5            0.8068646        35.5119588       0.580916619      -53.7848219      0.580916619      -53.7848219      0.8068646        35.5119588       
455.48           0.810867352      35.1260605       0.575420153      -54.1748521      0.575420153      -54.1748521      0.810867352      35.1260605       
461.46           0.814772247      34.7460008       0.569981352      -54.558924       0.569981352      -54.558924       0.814772247      34.7460008       
467.44           0.818581979      34.3716663       0.564599984      -54.9371545      0.564599984      -54.9371545      0.818581979      34.3716663       
473.42           0.822299168      34.0029457       0.559275775      -55.309658       0.559275775      -55.309658       0.822299168      34.0029457       
479.4            0.825926364      33.6397294       0.554008416      -55.6765472      0.554008416      -55.6765472      0.825926364      33.6397294       
485.38           0.829466049      33.2819096       0.548797563      -56.0379327      0.548797563      -56.0379327      0.829466049      33.2819096       
491.36           0.832920633      32.9293805       0.54364284       -56.393923       0.54364284       -56.393923       0.832920633      32.9293805       
497.34           0.836292461      32.5820383       0.538543846      -56.7446246      0.538543846      -56.7446246      0.836292461      32.5820383       
503.32           0.839583812      32.239781        0.533500151      -57.090142       0.533500151      -57.090142       0.839583812      32.239781        
509.3            0.842796901      31.9025084       0.528511305      -57.4305776      0.528511305      -57.4305776      0.842796901      31.9025084       
515.28           0.845933878      31.5701224       0.523576834      -57.7660319      0.523576834      -57.7660319      0.845933878      31.5701224       
521.26           0.848996834      31.2425266       0.518696247      -58.0966033      0.518696247      -58.0966033      0.848996834      31.2425266       
527.24           0.851987798      30.9196266       0.513869036      -58.4223884      0.513869036      -58.4223884      0.851987798      30.9196266       
533.22           0.854908741      30.6013299       0.509094679      -58.7434816      0.509094679      -58.7434816      0.854908741      30.6013299       
539.2            0.857761576      30.2875456       0.50437264       -59.0599755      0.50437264       -59.0599755      0.857761576      30.2875456       
545.18           0.860548163      29.9781849       0.49970237       -59.3719609      0.49970237       -59.3719609      0.860548163      29.9781849       
551.16           0.863270304      29.6731607       0.495083313      -59.6795264      0.495083313      -59.6795264      0.863270304      29.6731607       
557.14           0.865929752      29.3723876       0.490514902      -59.982759       0.490514902      -59.982759       0.865929752      29.3723876       
563.12           0.868528204      29.0757822       0.485996564      -60.2817438      0.485996564      -60.2817438      0.868528204      29.0757822       
569.1            0.871067312      28.7832625       0.48152772       -60.576564       0.48152772       -60.576564       0.871067312      28.7832625       
575.08           0.873548675      28.4947486       0.477107785      -60.8673011      0.477107785      -60.8673011      0.873548675      28.4947486       
581.06           0.875973848      28.2101619       0.472736171      -61.1540349      0.472736171      -61.1540349      0.875973848      28.2101619       
587.04           0.878344338      27.9294259       0.468412287      -61.4368433      0.468412287      -61.4368433      0.878344338      27.9294259       
593.02           0.880661608      27.6524652       0.464135541      -61.7158028      0.464135541      -61.7158028      0.880661608      27.6524652       
599              0.882927078      27.3792065       0.459905337      -61.9909878      0.459905337      -61.9909878      0.882927078      27.3792065       
604.98           0.885142126      27.1095777       0.455721081      -62.2624715      0.455721081      -62.2624715      0.885142126      27.1095777       
610.96           0.887308088      26.8435086       0.45158218       -62.5303252      0.45158218       -62.5303252      0.887308088      26.8435086       
616.94           0.889426262      26.5809303       0.447488039      -62.7946187      0.447488039      -62.7946187      0.889426262      26.5809303       
622.92           0.891497906      26.3217754       0.443438068      -63.0554205      0.443438068      -63.0554205      0.891497906      26.3217754       
628.9            0.893524243      26.065978        0.439431677      -63.3127972      0.439431677      -63.3127972      0.893524243      26.065978        
634.88           0.895506457      25.8134737       0.435468278      -63.5668142      0.435468278      -63.5668142      0.895506457      25.8134737       
640.86           0.897445699      25.5641993       0.431547288      -63.8175352      0.431547288      -63.8175352      0.897445699      25.5641993       
646.84           0.899343085      25.3180933       0.427668127      -64.0650229      0.427668127      -64.0650229      0.899343085      25.3180933       
652.82           0.901199698      25.0750952       0.423830219      -64.3093381      0.423830219      -64.3093381      0.901199698      25.0750952       
658.8            0.903016591      24.8351462       0.420032992      -64.5505407      0.420032992      -64.5505407      0.903016591      24.8351462       
664.78           0.904794783      24.5981884       0.416275877      -64.7886888      0.416275877      -64.7886888      0.904794783      24.5981884       
670.76           0.906535265      24.3641654       0.412558314      -65.0238397      0.412558314      -65.0238397      0.906535265      24.3641654       
676.74           0.908238999      24.1330221       0.408879743      -65.256049       0.408879743      -65.256049       0.908238999      24.1330221       
682.72           0.909906917      23.9047044       0.405239613      -65.4853713      0.405239613      -65.4853713      0.909906917      23.9047044       
688.7            0.911539926      23.6791595       0.401637377      -65.7118599      0.401637377      -65.7118599      0.911539926      23.6791595       
694.68           0.913138905      23.4563358       0.398072495      -65.9355669      0.398072495      -65.9355669      0.913138905      23.4563358       
700.66           0.914704708      23.2361827       0.394544432      -66.1565434      0.394544432      -66.1565434      0.914704708      23.2361827       
706.64           0.916238165      23.0186508       0.391052659      -66.374839       0.391052659      -66.374839       0.916238165      23.0186508       
712.62           0.91774008       22.8036919       0.387596652      -66.5905026      0.387596652      -66.5905026      0.91774008       22.8036919       
718.6            0.919211235      22.5912586       0.384175896      -66.8035817      0.384175896      -66.8035817      0.919211235      22.5912586       
724.58           0.92065239       22.3813047       0.38078988       -67.0141229      0.38078988       -67.0141229      0.92065239       22.3813047       
730.56           0.922064281      22.1737849       0.3774381        -67.2221718      0.3774381        -67.2221718      0.922064281      22.1737849       
736.54           0.923447624      21.9686551       0.37412006       -67.4277727      0.37412006       -67.4277727      0.923447624      21.9686551       
742.52           0.924803117      21.765872        0.370835268      -67.6309694      0.370835268      -67.6309694      0.924803117      21.765872        
748.5            0.926131433      21.5653931       0.367583241      -67.8318043      0.367583241      -67.8318043      0.926131433      21.5653931       
754.48           0.927433231      21.3671772       0.3643635        -68.030319       0.3643635        -68.030319       0.927433231      21.3671772       
760.46           0.928709147      21.1711837       0.361175575      -68.2265542      0.361175575      -68.2265542      0.928709147      21.1711837       
