! Coilcraft 1008CS-390 Chip Inductor				
! 02 July 2002			
# MHZ S MA R 50
!Freq             MagS11           AngS11           MagS21           AngS21           MagS12           AngS12           MagS22           AngS22
1                0.00352754213    43.7193648       0.997453506      -0.140042642     0.997453506      -0.140042642     0.00352754213    43.7193648       
6.73             0.0167841313     77.3197808       0.996450279      -0.941589989     0.996450279      -0.941589989     0.0167841313     77.3197808       
12.46            0.0306519047     80.9023505       0.995613545      -1.74204057      0.995613545      -1.74204057      0.0306519047     80.9023505       
18.19            0.0445506112     81.8901141       0.994693453      -2.54134925      0.994693453      -2.54134925      0.0445506112     81.8901141       
23.92            0.0584356623     82.0858921       0.993641232      -3.33934028      0.993641232      -3.33934028      0.0584356623     82.0858921       
29.65            0.0722909244     81.931316        0.992437633      -4.13580149      0.992437633      -4.13580149      0.0722909244     81.931316        
35.38            0.0861061391     81.5897472       0.991073403      -4.9305055       0.991073403      -4.9305055       0.0861061391     81.5897472       
41.11            0.0998729528     81.1363549       0.989543866      -5.72321809      0.989543866      -5.72321809      0.0998729528     81.1363549       
46.84            0.113583834      80.6108635       0.987846852      -6.51370252      0.987846852      -6.51370252      0.113583834      80.6108635       
52.57            0.127231704      80.0364          0.985981751      -7.30172207      0.985981751      -7.30172207      0.127231704      80.0364          
58.3             0.140809792      79.4274355       0.983949008      -8.08704173      0.983949008      -8.08704173      0.140809792      79.4274355       
64.03            0.154311581      78.7935483       0.981749843      -8.86942951      0.981749843      -8.86942951      0.154311581      78.7935483       
69.76            0.167730779      78.1413719       0.979386072      -9.64865735      0.979386072      -9.64865735      0.167730779      78.1413719       
75.49            0.181061323      77.4756763       0.976859988      -10.4245019      0.976859988      -10.4245019      0.181061323      77.4756763       
81.22            0.194297371      76.8000019       0.974174283      -11.1967452      0.974174283      -11.1967452      0.194297371      76.8000019       
86.95            0.207433313      76.1170484       0.97133198       -11.9651751      0.97133198       -11.9651751      0.207433313      76.1170484       
92.68            0.220463774      75.4289242       0.968336392      -12.7295861      0.968336392      -12.7295861      0.220463774      75.4289242       
98.41            0.233383621      74.7373096       0.965191079      -13.4897791      0.965191079      -13.4897791      0.233383621      74.7373096       
104.14           0.246187971      74.0435687       0.961899818      -14.2455623      0.961899818      -14.2455623      0.246187971      74.0435687       
109.87           0.258872192      73.348826        0.958466572      -14.9967515      0.958466572      -14.9967515      0.258872192      73.348826        
115.6            0.271431912      72.6540224       0.954895468      -15.7431697      0.954895468      -15.7431697      0.271431912      72.6540224       
121.33           0.28386302       71.9599539       0.951190769      -16.4846483      0.951190769      -16.4846483      0.28386302       71.9599539       
127.06           0.296161667      71.267302        0.947356861      -17.2210262      0.947356861      -17.2210262      0.296161667      71.267302        
132.79           0.308324269      70.576655        0.943398224      -17.9521507      0.943398224      -17.9521507      0.308324269      70.576655        
138.52           0.320347508      69.8885251       0.939319422      -18.6778774      0.939319422      -18.6778774      0.320347508      69.8885251       
144.25           0.33222833       69.2033612       0.935125081      -19.39807        0.935125081      -19.39807        0.33222833       69.2033612       
149.98           0.343963941      68.5215588       0.930819872      -20.1126006      0.930819872      -20.1126006      0.343963941      68.5215588       
155.71           0.355551809      67.843468        0.9264085        -20.8213496      0.9264085        -20.8213496      0.355551809      67.843468        
161.44           0.366989656      67.1694001       0.921895687      -21.5242056      0.921895687      -21.5242056      0.366989656      67.1694001       
167.17           0.378275457      66.4996322       0.917286158      -22.2210655      0.917286158      -22.2210655      0.378275457      66.4996322       
172.9            0.389407434      65.8344117       0.912584627      -22.9118342      0.912584627      -22.9118342      0.389407434      65.8344117       
178.63           0.400384048      65.1739597       0.907795791      -23.5964247      0.907795791      -23.5964247      0.400384048      65.1739597       
184.36           0.411203997      64.5184738       0.902924313      -24.2747579      0.902924313      -24.2747579      0.411203997      64.5184738       
190.09           0.421866203      63.8681303       0.897974812      -24.9467623      0.897974812      -24.9467623      0.421866203      63.8681303       
195.82           0.432369813      63.2230865       0.892951857      -25.6123743      0.892951857      -25.6123743      0.432369813      63.2230865       
201.55           0.442714184      62.5834825       0.887859956      -26.2715372      0.887859956      -26.2715372      0.442714184      62.5834825       
207.28           0.452898879      61.9494422       0.882703547      -26.9242019      0.882703547      -26.9242019      0.452898879      61.9494422       
213.01           0.462923655      61.3210753       0.877486995      -27.5703263      0.877486995      -27.5703263      0.462923655      61.3210753       
218.74           0.472788461      60.6984779       0.872214578      -28.2098749      0.872214578      -28.2098749      0.472788461      60.6984779       
224.47           0.482493422      60.0817337       0.866890489      -28.8428188      0.866890489      -28.8428188      0.482493422      60.0817337       
230.2            0.492038835      59.4709151       0.861518826      -29.4691356      0.861518826      -29.4691356      0.492038835      59.4709151       
235.93           0.501425159      58.8660837       0.856103589      -30.0888089      0.856103589      -30.0888089      0.501425159      58.8660837       
241.66           0.510653006      58.2672913       0.850648675      -30.7018282      0.850648675      -30.7018282      0.510653006      58.2672913       
247.39           0.519723132      57.6745805       0.845157878      -31.3081886      0.845157878      -31.3081886      0.519723132      57.6745805       
253.12           0.528636428      57.0879852       0.839634881      -31.9078907      0.839634881      -31.9078907      0.528636428      57.0879852       
258.85           0.537393913      56.5075314       0.834083257      -32.5009401      0.834083257      -32.5009401      0.537393913      56.5075314       
264.58           0.545996725      55.9332376       0.828506469      -33.0873475      0.828506469      -33.0873475      0.545996725      55.9332376       
270.31           0.554446111      55.3651153       0.822907864      -33.667128       0.822907864      -33.667128       0.554446111      55.3651153       
276.04           0.56274342       54.8031696       0.817290675      -34.2403014      0.817290675      -34.2403014      0.56274342       54.8031696       
281.77           0.570890096      54.2473993       0.811658023      -34.8068916      0.811658023      -34.8068916      0.570890096      54.2473993       
287.5            0.578887671      53.6977978       0.80601291       -35.3669263      0.80601291       -35.3669263      0.578887671      53.6977978       
293.23           0.586737753      53.154353        0.800358228      -35.9204371      0.800358228      -35.9204371      0.586737753      53.154353        
298.96           0.594442026      52.6170481       0.794696752      -36.4674591      0.794696752      -36.4674591      0.594442026      52.6170481       
304.69           0.602002235      52.0858617       0.789031146      -37.0080307      0.789031146      -37.0080307      0.602002235      52.0858617       
310.42           0.609420186      51.5607679       0.783363963      -37.5421932      0.783363963      -37.5421932      0.609420186      51.5607679       
316.15           0.616697738      51.0417372       0.777697644      -38.0699909      0.777697644      -38.0699909      0.616697738      51.0417372       
321.88           0.623836795      50.5287364       0.772034523      -38.5914708      0.772034523      -38.5914708      0.623836795      50.5287364       
327.61           0.630839301      50.0217286       0.766376827      -39.1066823      0.766376827      -39.1066823      0.630839301      50.0217286       
333.34           0.637707236      49.5206743       0.760726681      -39.6156771      0.760726681      -39.6156771      0.637707236      49.5206743       
339.07           0.644442609      49.0255308       0.755086103      -40.1185088      0.755086103      -40.1185088      0.644442609      49.0255308       
344.8            0.651047455      48.5362529       0.749457015      -40.6152333      0.749457015      -40.6152333      0.651047455      48.5362529       
350.53           0.657523826      48.052793        0.743841241      -41.105908       0.743841241      -41.105908       0.657523826      48.052793        
356.26           0.663873794      47.5751013       0.738240508      -41.5905919      0.738240508      -41.5905919      0.663873794      47.5751013       
361.99           0.670099441      47.1031259       0.732656452      -42.0693455      0.732656452      -42.0693455      0.670099441      47.1031259       
367.72           0.676202855      46.6368134       0.72709062       -42.5422306      0.72709062       -42.5422306      0.676202855      46.6368134       
373.45           0.682186131      46.1761084       0.721544471      -43.00931        0.721544471      -43.00931        0.682186131      46.1761084       
379.18           0.688051364      45.7209543       0.716019379      -43.4706477      0.716019379      -43.4706477      0.688051364      45.7209543       
384.91           0.693800645      45.2712932       0.710516638      -43.9263084      0.710516638      -43.9263084      0.693800645      45.2712932       
390.64           0.699436062      44.8270659       0.705037462      -44.3763579      0.705037462      -44.3763579      0.699436062      44.8270659       
396.37           0.704959694      44.3882124       0.699582989      -44.8208621      0.699582989      -44.8208621      0.704959694      44.3882124       
402.1            0.71037361       43.9546715       0.694154284      -45.259888       0.694154284      -45.259888       0.71037361       43.9546715       
407.83           0.715679866      43.5263817       0.688752341      -45.6935027      0.688752341      -45.6935027      0.715679866      43.5263817       
413.56           0.720880504      43.1032806       0.683378085      -46.1217737      0.683378085      -46.1217737      0.720880504      43.1032806       
419.29           0.725977549      42.6853051       0.678032378      -46.5447688      0.678032378      -46.5447688      0.725977549      42.6853051       
425.02           0.730973007      42.2723922       0.672716016      -46.9625559      0.672716016      -46.9625559      0.730973007      42.2723922       
430.75           0.735868864      41.8644781       0.667429738      -47.375203       0.667429738      -47.375203       0.735868864      41.8644781       
436.48           0.740667085      41.461499        0.662174222      -47.7827782      0.662174222      -47.7827782      0.740667085      41.461499        
442.21           0.745369614      41.0633908       0.656950094      -48.1853493      0.656950094      -48.1853493      0.745369614      41.0633908       
447.94           0.749978367      40.6700897       0.651757924      -48.5829843      0.651757924      -48.5829843      0.749978367      40.6700897       
453.67           0.754495239      40.2815314       0.646598234      -48.9757507      0.646598234      -48.9757507      0.754495239      40.2815314       
459.4            0.758922097      39.897652        0.641471496      -49.3637158      0.641471496      -49.3637158      0.758922097      39.897652        
465.13           0.763260782      39.5183877       0.636378135      -49.7469469      0.636378135      -49.7469469      0.763260782      39.5183877       
470.86           0.767513109      39.1436748       0.631318536      -50.1255105      0.631318536      -50.1255105      0.767513109      39.1436748       
476.59           0.771680864      38.77345         0.626293037      -50.4994729      0.626293037      -50.4994729      0.771680864      38.77345         
482.32           0.775765804      38.4076502       0.621301941      -50.8689         0.621301941      -50.8689         0.775765804      38.4076502       
488.05           0.779769658      38.0462125       0.616345508      -51.2338573      0.616345508      -51.2338573      0.779769658      38.0462125       
493.78           0.783694126      37.6890748       0.611423967      -51.5944095      0.611423967      -51.5944095      0.783694126      37.6890748       
499.51           0.78754088       37.336175        0.60653751       -51.950621       0.60653751       -51.950621       0.78754088       37.336175        
505.24           0.791311561      36.9874518       0.601686296      -52.3025554      0.601686296      -52.3025554      0.791311561      36.9874518       
510.97           0.79500778       36.6428441       0.596870456      -52.650276       0.596870456      -52.650276       0.79500778       36.6428441       
516.7            0.798631119      36.3022915       0.592090088      -52.9938452      0.592090088      -52.9938452      0.798631119      36.3022915       
522.43           0.802183132      35.9657343       0.587345267      -53.3333248      0.587345267      -53.3333248      0.802183132      35.9657343       
528.16           0.805665342      35.633113        0.582636037      -53.6687761      0.582636037      -53.6687761      0.805665342      35.633113        
533.89           0.809079242      35.3043691       0.577962423      -54.0002595      0.577962423      -54.0002595      0.809079242      35.3043691       
539.62           0.812426297      34.9794444       0.573324421      -54.3278347      0.573324421      -54.3278347      0.812426297      34.9794444       
545.35           0.815707941      34.6582816       0.568722009      -54.6515608      0.568722009      -54.6515608      0.815707941      34.6582816       
551.08           0.818925582      34.3408238       0.564155143      -54.9714962      0.564155143      -54.9714962      0.818925582      34.3408238       
556.81           0.822080596      34.027015        0.55962376       -55.2876984      0.55962376       -55.2876984      0.822080596      34.027015        
562.54           0.825174334      33.7167997       0.555127779      -55.6002243      0.555127779      -55.6002243      0.825174334      33.7167997       
568.27           0.828208116      33.4101231       0.550667101      -55.9091299      0.550667101      -55.9091299      0.828208116      33.4101231       
574              0.831183236      33.1069314       0.546241612      -56.2144706      0.546241612      -56.2144706      0.831183236      33.1069314       
579.73           0.834100961      32.8071711       0.541851183      -56.5163008      0.541851183      -56.5163008      0.834100961      32.8071711       
585.46           0.836962528      32.5107896       0.537495669      -56.8146745      0.537495669      -56.8146745      0.836962528      32.5107896       
591.19           0.83976915       32.2177349       0.533174914      -57.1096445      0.533174914      -57.1096445      0.83976915       32.2177349       
596.92           0.842522013      31.927956        0.52888875       -57.4012632      0.52888875       -57.4012632      0.842522013      31.927956        
602.65           0.845222277      31.6414023       0.524636996      -57.689582       0.524636996      -57.689582       0.845222277      31.6414023       
608.38           0.847871077      31.358024        0.520419462      -57.9746516      0.520419462      -57.9746516      0.847871077      31.358024        
614.11           0.850469522      31.0777722       0.516235947      -58.2565219      0.516235947      -58.2565219      0.850469522      31.0777722       
619.84           0.853018697      30.8005985       0.512086241      -58.5352422      0.512086241      -58.5352422      0.853018697      30.8005985       
625.57           0.855519662      30.5264553       0.507970127      -58.8108607      0.507970127      -58.8108607      0.855519662      30.5264553       
631.3            0.857973453      30.2552958       0.503887378      -59.0834252      0.503887378      -59.0834252      0.857973453      30.2552958       
637.03           0.860381086      29.9870737       0.499837762      -59.3529826      0.499837762      -59.3529826      0.860381086      29.9870737       
642.76           0.862743549      29.7217436       0.49582104       -59.6195789      0.49582104       -59.6195789      0.862743549      29.7217436       
648.49           0.86506181       29.4592608       0.491836966      -59.8832597      0.491836966      -59.8832597      0.86506181       29.4592608       
654.22           0.867336816      29.1995812       0.48788529       -60.1440694      0.48788529       -60.1440694      0.867336816      29.1995812       
659.95           0.869569491      28.9426614       0.483965756      -60.4020522      0.483965756      -60.4020522      0.869569491      28.9426614       
665.68           0.871760737      28.6884588       0.480078105      -60.6572511      0.480078105      -60.6572511      0.871760737      28.6884588       
671.41           0.873911438      28.4369314       0.476222072      -60.9097087      0.476222072      -60.9097087      0.873911438      28.4369314       
677.14           0.876022455      28.1880378       0.472397389      -61.1594667      0.472397389      -61.1594667      0.876022455      28.1880378       
682.87           0.87809463       27.9417375       0.468603787      -61.4065663      0.468603787      -61.4065663      0.87809463       27.9417375       
688.6            0.880128785      27.6979904       0.464840992      -61.6510477      0.464840992      -61.6510477      0.880128785      27.6979904       
694.33           0.882125725      27.4567572       0.461108728      -61.8929508      0.461108728      -61.8929508      0.882125725      27.4567572       
700.06           0.884086235      27.2179993       0.457406717      -62.1323144      0.457406717      -62.1323144      0.884086235      27.2179993       
705.79           0.88601108       26.9816785       0.45373468       -62.369177       0.45373468       -62.369177       0.88601108       26.9816785       
711.52           0.88790101       26.7477576       0.450092337      -62.6035763      0.450092337      -62.6035763      0.88790101       26.7477576       
717.25           0.889756757      26.5161997       0.446479404      -62.8355493      0.446479404      -62.8355493      0.889756757      26.5161997       
722.98           0.891579035      26.2869687       0.4428956        -63.0651323      0.4428956        -63.0651323      0.891579035      26.2869687       
728.71           0.893368542      26.060029        0.43934064       -63.2923612      0.43934064       -63.2923612      0.893368542      26.060029        
