! Coilcraft 1008CS-471 Chip Inductor				
! 02 July 2002			
# MHZ S MA R 50
!Freq             MagS11           AngS11           MagS21           AngS21           MagS12           AngS12           MagS22           AngS22
1                0.0328926241     59.2411078       0.983584063      -1.64675104      0.983584063      -1.64675104      0.0328926241     59.2411078       
2.74             0.080507472      72.1106079       0.978274406      -4.49180537      0.978274406      -4.49180537      0.080507472      72.1106079       
4.48             0.128792858      73.5635733       0.97144397       -7.30555954      0.97144397       -7.30555954      0.128792858      73.5635733       
6.22             0.176334733      72.8181893       0.962763572      -10.0775504      0.962763572      -10.0775504      0.176334733      72.8181893       
7.96             0.222683362      71.2993329       0.952256589      -12.7972926      0.952256589      -12.7972926      0.222683362      71.2993329       
9.7              0.267544464      69.4435649       0.940050193      -15.4551961      0.940050193      -15.4551961      0.267544464      69.4435649       
11.44            0.310697329      67.4335349       0.926320453      -18.0429305      0.926320453      -18.0429305      0.310697329      67.4335349       
13.18            0.351977768      65.3610505       0.911268422      -20.5535951      0.911268422      -20.5535951      0.351977768      65.3610505       
14.92            0.391271661      63.2780243       0.895105478      -22.9817738      0.895105478      -22.9817738      0.391271661      63.2780243       
16.66            0.428510032      61.2161043       0.878042931      -25.3235076      0.878042931      -25.3235076      0.428510032      61.2161043       
18.4             0.463663847      59.1954427       0.860284418      -27.5762095      0.860284418      -27.5762095      0.463663847      59.1954427       
20.14            0.496738345      57.2290868       0.842020494      -29.7385382      0.842020494      -29.7385382      0.496738345      57.2290868       
21.88            0.527767167      55.3253995       0.823425079      -31.8102477      0.823425079      -31.8102477      0.527767167      55.3253995       
23.62            0.556806588      53.4895065       0.804653432      -33.7920274      0.804653432      -33.7920274      0.556806588      53.4895065       
25.36            0.583930121      51.7242252       0.785841376      -35.6853408      0.785841376      -35.6853408      0.583930121      51.7242252       
27.1             0.609223667      50.0306959       0.767105466      -37.4922726      0.767105466      -37.4922726      0.609223667      50.0306959       
28.84            0.632781322      48.4088323       0.748543843      -39.2153882      0.748543843      -39.2153882      0.632781322      48.4088323       
30.58            0.654701863      46.8576511       0.730237555      -40.857609       0.730237555      -40.857609       0.654701863      46.8576511       
32.32            0.675085894      45.3755223       0.712252133      -42.4221041      0.712252133      -42.4221041      0.675085894      45.3755223       
34.06            0.694033605      43.9603585       0.694639307      -43.9121991      0.694639307      -43.9121991      0.694033605      43.9603585       
35.8             0.711643067      42.6097615       0.677438724      -45.3313004      0.677438724      -45.3313004      0.711643067      42.6097615       
37.54            0.728008986      41.3211346       0.660679613      -46.6828348      0.660679613      -46.6828348      0.728008986      41.3211346       
39.28            0.743221838      40.0917694       0.644382336      -47.9702002      0.644382336      -47.9702002      0.743221838      40.0917694       
41.02            0.757367318      38.9189114       0.628559801      -49.1967295      0.628559801      -49.1967295      0.757367318      38.9189114       
42.76            0.770526022      37.7998097       0.613218734      -50.365662       0.613218734      -50.365662       0.770526022      37.7998097       
44.5             0.782773326      36.7317542       0.598360784      -51.4801237      0.598360784      -51.4801237      0.782773326      36.7317542       
46.24            0.794179399      35.7121027       0.58398349       -52.5431135      0.58398349       -52.5431135      0.794179399      35.7121027       
47.98            0.804809323      34.7382992       0.570081114      -53.5574943      0.570081114      -53.5574943      0.804809323      34.7382992       
49.72            0.81472328       33.8078875       0.556645341      -54.5259888      0.556645341      -54.5259888      0.81472328       33.8078875       
51.46            0.823976791      32.918519        0.543665873      -55.4511779      0.543665873      -55.4511779      0.823976791      32.918519        
53.2             0.832620981      32.067957        0.531130924      -56.3355018      0.531130924      -56.3355018      0.832620981      32.067957        
54.94            0.84070286       31.2540784       0.519027631      -57.1812624      0.519027631      -57.1812624      0.84070286       31.2540784       
56.68            0.848265607      30.4748732       0.507342393      -57.9906279      0.507342393      -57.9906279      0.848265607      30.4748732       
58.42            0.85534885       29.7284427       0.496061144      -58.7656374      0.496061144      -58.7656374      0.85534885       29.7284427       
60.16            0.861988942      29.0129957       0.485169575      -59.508207       0.485169575      -59.508207       0.861988942      29.0129957       
61.9             0.868219223      28.3268452       0.474653317      -60.2201353      0.474653317      -60.2201353      0.868219223      28.3268452       
63.64            0.874070262      27.668404        0.464498078      -60.9031097      0.464498078      -60.9031097      0.874070262      27.668404        
65.38            0.879570091      27.0361793       0.454689755      -61.5587129      0.454689755      -61.5587129      0.879570091      27.0361793       
67.12            0.884744424      26.4287686       0.445214522      -62.1884286      0.445214522      -62.1884286      0.884744424      26.4287686       
68.86            0.889616847      25.8448543       0.436058892      -62.793648       0.436058892      -62.793648       0.889616847      25.8448543       
70.6             0.894209012      25.2831989       0.427209764      -63.375675       0.427209764      -63.375675       0.894209012      25.2831989       
72.34            0.898540801      24.7426405       0.418654458      -63.9357321      0.418654458      -63.9357321      0.898540801      24.7426405       
74.08            0.902630477      24.2220879       0.410380739      -64.4749656      0.410380739      -64.4749656      0.902630477      24.2220879       
75.82            0.906494834      23.7205162       0.402376824      -64.9944509      0.402376824      -64.9944509      0.906494834      23.7205162       
77.56            0.910149318      23.2369629       0.394631396      -65.4951964      0.394631396      -65.4951964      0.910149318      23.2369629       
79.3             0.913608149      22.7705237       0.387133598      -65.978149       0.387133598      -65.978149       0.913608149      22.7705237       
81.04            0.916884428      22.3203485       0.37987303       -66.4441974      0.37987303       -66.4441974      0.916884428      22.3203485       
82.78            0.919990229      21.8856383       0.372839744      -66.8941764      0.372839744      -66.8941764      0.919990229      21.8856383       
84.52            0.922936696      21.4656416       0.36602423       -67.3288706      0.36602423       -67.3288706      0.922936696      21.4656416       
86.26            0.925734116      21.0596513       0.359417407      -67.7490173      0.359417407      -67.7490173      0.925734116      21.0596513       
88               0.928391996      20.6670018       0.353010606      -68.1553105      0.353010606      -68.1553105      0.928391996      20.6670018       
89.74            0.930919128      20.2870664       0.346795557      -68.548403       0.346795557      -68.548403       0.930919128      20.2870664       
91.48            0.93332365       19.9192545       0.340764375      -68.9289095      0.340764375      -68.9289095      0.93332365       19.9192545       
93.22            0.935613101      19.5630094       0.334909541      -69.2974093      0.334909541      -69.2974093      0.935613101      19.5630094       
94.96            0.937794468      19.217806        0.329223889      -69.6544484      0.329223889      -69.6544484      0.937794468      19.217806        
96.7             0.939874237      18.8831489       0.32370059       -70.0005418      0.32370059       -70.0005418      0.939874237      18.8831489       
98.44            0.941858428      18.5585704       0.318333137      -70.3361755      0.318333137      -70.3361755      0.941858428      18.5585704       
100.18           0.943752638      18.2436284       0.313115328      -70.6618083      0.313115328      -70.6618083      0.943752638      18.2436284       
101.92           0.945562071      17.9379054       0.308041252      -70.9778738      0.308041252      -70.9778738      0.945562071      17.9379054       
103.66           0.947291573      17.6410064       0.303105279      -71.284782       0.303105279      -71.284782       0.947291573      17.6410064       
105.4            0.948945657      17.3525576       0.298302038      -71.5829204      0.298302038      -71.5829204      0.948945657      17.3525576       
107.14           0.95052853       17.0722052       0.293626414      -71.872656       0.293626414      -71.872656       0.95052853       17.0722052       
108.88           0.952044118      16.7996142       0.289073525      -72.1543361      0.289073525      -72.1543361      0.952044118      16.7996142       
110.62           0.953496088      16.5344668       0.284638721      -72.42829        0.284638721      -72.42829        0.953496088      16.5344668       
112.36           0.954887865      16.2764619       0.280317561      -72.6948297      0.280317561      -72.6948297      0.954887865      16.2764619       
114.1            0.956222652      16.0253138       0.276105811      -72.9542511      0.276105811      -72.9542511      0.956222652      16.0253138       
115.84           0.957503446      15.7807511       0.271999431      -73.2068352      0.271999431      -73.2068352      0.957503446      15.7807511       
117.58           0.958733056      15.5425164       0.267994562      -73.4528485      0.267994562      -73.4528485      0.958733056      15.5425164       
119.32           0.959914113      15.3103648       0.264087523      -73.6925445      0.264087523      -73.6925445      0.959914113      15.3103648       
121.06           0.961049083      15.0840636       0.260274794      -73.926164       0.260274794      -73.926164       0.961049083      15.0840636       
122.8            0.962140282      14.8633913       0.256553015      -74.1539359      0.256553015      -74.1539359      0.962140282      14.8633913       
124.54           0.963189886      14.6481374       0.252918974      -74.3760784      0.252918974      -74.3760784      0.963189886      14.6481374       
126.28           0.964199937      14.4381012       0.2493696        -74.5927986      0.2493696        -74.5927986      0.964199937      14.4381012       
128.02           0.965172358      14.2330915       0.245901958      -74.8042944      0.245901958      -74.8042944      0.965172358      14.2330915       
129.76           0.966108957      14.0329263       0.242513237      -75.0107538      0.242513237      -75.0107538      0.966108957      14.0329263       
131.5            0.967011436      13.8374318       0.239200751      -75.2123565      0.239200751      -75.2123565      0.967011436      13.8374318       
133.24           0.967881401      13.6464424       0.235961926      -75.4092736      0.235961926      -75.4092736      0.967881401      13.6464424       
134.98           0.968720363      13.4597999       0.232794299      -75.6016685      0.232794299      -75.6016685      0.968720363      13.4597999       
136.72           0.96952975       13.2773533       0.229695511      -75.7896971      0.229695511      -75.7896971      0.96952975       13.2773533       
138.46           0.970310907      13.0989584       0.226663301      -75.9735085      0.226663301      -75.9735085      0.970310907      13.0989584       
140.2            0.971065108      12.9244772       0.2236955        -76.1532449      0.2236955        -76.1532449      0.971065108      12.9244772       
141.94           0.971793554      12.7537779       0.220790033      -76.3290426      0.220790033      -76.3290426      0.971793554      12.7537779       
143.68           0.972497381      12.5867344       0.217944907      -76.5010315      0.217944907      -76.5010315      0.972497381      12.5867344       
145.42           0.973177666      12.4232261       0.215158208      -76.6693362      0.215158208      -76.6693362      0.973177666      12.4232261       
147.16           0.973835425      12.2631373       0.212428104      -76.834076       0.212428104      -76.834076       0.973835425      12.2631373       
148.9            0.974471622      12.1063574       0.209752832      -76.995365       0.209752832      -76.995365       0.974471622      12.1063574       
150.64           0.975087172      11.9527804       0.207130701      -77.1533124      0.207130701      -77.1533124      0.975087172      11.9527804       
152.38           0.975682941      11.8023047       0.204560086      -77.3080232      0.204560086      -77.3080232      0.975682941      11.8023047       
154.12           0.976259749      11.6548327       0.202039426      -77.4595976      0.202039426      -77.4595976      0.976259749      11.6548327       
155.86           0.976818377      11.510271        0.199567219      -77.6081322      0.199567219      -77.6081322      0.976818377      11.510271        
157.6            0.977359564      11.3685298       0.197142022      -77.7537193      0.197142022      -77.7537193      0.977359564      11.3685298       
159.34           0.977884016      11.2295231       0.194762448      -77.8964476      0.194762448      -77.8964476      0.977884016      11.2295231       
161.08           0.978392399      11.093168        0.192427159      -78.0364023      0.192427159      -78.0364023      0.978392399      11.093168        
162.82           0.97888535       10.959385        0.190134872      -78.1736653      0.190134872      -78.1736653      0.97888535       10.959385        
164.56           0.979363473      10.8280979       0.187884348      -78.3083152      0.187884348      -78.3083152      0.979363473      10.8280979       
166.3            0.979827345      10.6992331       0.185674395      -78.4404274      0.185674395      -78.4404274      0.979827345      10.6992331       
168.04           0.980277513      10.57272         0.183503866      -78.5700747      0.183503866      -78.5700747      0.980277513      10.57272         
169.78           0.980714499      10.4484907       0.181371654      -78.697327       0.181371654      -78.697327       0.980714499      10.4484907       
171.52           0.981138802      10.3264797       0.179276692      -78.8222514      0.179276692      -78.8222514      0.981138802      10.3264797       
173.26           0.981550896      10.206624        0.177217954      -78.9449127      0.177217954      -78.9449127      0.981550896      10.206624        
175              0.981951233      10.0888632       0.175194447      -79.0653731      0.175194447      -79.0653731      0.981951233      10.0888632       
176.74           0.982340246      9.9731386        0.173205216      -79.1836926      0.173205216      -79.1836926      0.982340246      9.9731386        
178.48           0.982718347      9.85939405       0.171249336      -79.299929       0.171249336      -79.299929       0.982718347      9.85939405       
180.22           0.983085929      9.74757524       0.169325918      -79.414138       0.169325918      -79.414138       0.983085929      9.74757524       
181.96           0.983443369      9.63762985       0.167434101      -79.5263732      0.167434101      -79.5263732      0.983443369      9.63762985       
183.7            0.983791027      9.52950741       0.165573055      -79.6366864      0.165573055      -79.6366864      0.983791027      9.52950741       
185.44           0.984129247      9.4231592        0.163741977      -79.7451274      0.163741977      -79.7451274      0.984129247      9.4231592        
187.18           0.984458356      9.31853822       0.161940093      -79.8517445      0.161940093      -79.8517445      0.984458356      9.31853822       
188.92           0.984778672      9.2155991        0.160166652      -79.956584       0.160166652      -79.956584       0.984778672      9.2155991        
190.66           0.985090493      9.11429802       0.158420932      -80.0596907      0.158420932      -80.0596907      0.985090493      9.11429802       
192.4            0.98539411       9.01459263       0.15670223       -80.161108       0.15670223       -80.161108       0.98539411       9.01459263       
194.14           0.985689798      8.91644204       0.155009871      -80.2608776      0.155009871      -80.2608776      0.985689798      8.91644204       
195.88           0.985977823      8.81980672       0.153343198      -80.3590399      0.153343198      -80.3590399      0.985977823      8.81980672       
197.62           0.986258438      8.72464844       0.151701578      -80.4556339      0.151701578      -80.4556339      0.986258438      8.72464844       
199.36           0.986531886      8.63093026       0.150084396      -80.5506972      0.150084396      -80.5506972      0.986531886      8.63093026       
201.1            0.986798401      8.53861642       0.148491058      -80.6442664      0.148491058      -80.6442664      0.986798401      8.53861642       
202.84           0.987058208      8.44767234       0.146920989      -80.7363766      0.146920989      -80.7363766      0.987058208      8.44767234       
204.58           0.987311521      8.35806454       0.145373632      -80.8270618      0.145373632      -80.8270618      0.987311521      8.35806454       
206.32           0.987558546      8.26976063       0.143848445      -80.9163551      0.143848445      -80.9163551      0.987558546      8.26976063       
208.06           0.987799483      8.18272923       0.142344906      -81.0042882      0.142344906      -81.0042882      0.987799483      8.18272923       
209.8            0.988034521      8.09693995       0.140862508      -81.090892       0.140862508      -81.090892       0.988034521      8.09693995       
211.54           0.988263845      8.01236336       0.139400759      -81.1761964      0.139400759      -81.1761964      0.988263845      8.01236336       
213.28           0.988487629      7.92897095       0.137959181      -81.2602301      0.137959181      -81.2602301      0.988487629      7.92897095       
215.02           0.988706043      7.84673507       0.136537313      -81.3430213      0.136537313      -81.3430213      0.988706043      7.84673507       
216.76           0.988919251      7.76562892       0.135134706      -81.4245969      0.135134706      -81.4245969      0.988919251      7.76562892       
218.5            0.989127408      7.68562653       0.133750924      -81.5049832      0.133750924      -81.5049832      0.989127408      7.68562653       
220.24           0.989330666      7.60670269       0.132385545      -81.5842056      0.132385545      -81.5842056      0.989330666      7.60670269       
221.98           0.989529169      7.52883297       0.131038159      -81.6622886      0.131038159      -81.6622886      0.989529169      7.52883297       
