! Coilcraft 1008CS-150 Chip Inductor				
! 02 July 2002			
# MHZ S MA R 50
!Freq             MagS11           AngS11           MagS21           AngS21           MagS12           AngS12           MagS22           AngS22
1                0.00161331095    35.6377235       0.998689277      -0.0539292333    0.998689277      -0.0539292333    0.00161331095    35.6377235       
10.22            0.00981707589    77.7337875       0.997960429      -0.55076804      0.997960429      -0.55076804      0.00981707589    77.7337875       
19.44            0.0184289038     81.5649119       0.99746328       -1.04719101      0.99746328       -1.04719101      0.0184289038     81.5649119       
28.66            0.027062981      82.8108344       0.996974813      -1.54325909      0.996974813      -1.54325909      0.027062981      82.8108344       
37.88            0.0356980011     83.2845976       0.996456452      -2.03896618      0.996456452      -2.03896618      0.0356980011     83.2845976       
47.1             0.0443278329     83.4177132       0.995892742      -2.5342879       0.995892742      -2.5342879       0.0443278329     83.4177132       
56.32            0.0529493682     83.3683179       0.995275725      -3.02919157      0.995275725      -3.02919157      0.0529493682     83.3683179       
65.54            0.0615604382     83.2088818       0.994600743      -3.52364004      0.994600743      -3.52364004      0.0615604382     83.2088818       
74.76            0.0701592445     82.9776054       0.993864861      -4.01759343      0.993864861      -4.01759343      0.0701592445     82.9776054       
83.98            0.07874416       82.6966723       0.99306615       -4.51101015      0.99306615       -4.51101015      0.07874416       82.6966723       
93.2             0.087313648      82.3799165       0.992203319      -5.00384752      0.992203319      -5.00384752      0.087313648      82.3799165       
102.42           0.0958662253     82.0364522       0.991275509      -5.4960621       0.991275509      -5.4960621       0.0958662253     82.0364522       
111.64           0.104400444      81.6725522       0.990282169      -5.98761008      0.990282169      -5.98761008      0.104400444      81.6725522       
120.86           0.112914885      81.2926906       0.989222976      -6.47844739      0.989222976      -6.47844739      0.112914885      81.2926906       
130.08           0.12140815       80.9001553       0.988097785      -6.9685299       0.988097785      -6.9685299       0.12140815       80.9001553       
139.3            0.129878863      80.4974244       0.986906587      -7.45781353      0.986906587      -7.45781353      0.129878863      80.4974244       
148.52           0.138325665      80.0864066       0.985649491      -7.94625436      0.985649491      -7.94625436      0.138325665      80.0864066       
157.74           0.146747221      79.6686008       0.984326699      -8.4338087       0.984326699      -8.4338087       0.146747221      79.6686008       
166.96           0.155142213      79.2452035       0.982938494      -8.92043319      0.982938494      -8.92043319      0.155142213      79.2452035       
176.18           0.163509345      78.8171848       0.981485232      -9.4060848       0.981485232      -9.4060848       0.163509345      78.8171848       
185.4            0.171847342      78.3853415       0.979967328      -9.89072097      0.979967328      -9.89072097      0.171847342      78.3853415       
194.62           0.180154951      77.9503363       0.978385253      -10.3742996      0.978385253      -10.3742996      0.180154951      77.9503363       
203.84           0.188430944      77.5127264       0.976739527      -10.856779       0.976739527      -10.856779       0.188430944      77.5127264       
213.06           0.196674113      77.0729852       0.975030716      -11.3381183      0.975030716      -11.3381183      0.196674113      77.0729852       
222.28           0.204883279      76.6315185       0.973259425      -11.8182769      0.973259425      -11.8182769      0.204883279      76.6315185       
231.5            0.213057284      76.1886773       0.971426296      -12.297215       0.971426296      -12.297215       0.213057284      76.1886773       
240.72           0.221194998      75.7447675       0.969532009      -12.7748935      0.969532009      -12.7748935      0.221194998      75.7447675       
249.94           0.229295318      75.3000579       0.96757727       -13.2512737      0.96757727       -13.2512737      0.229295318      75.3000579       
259.16           0.237357167      74.8547858       0.96556282       -13.726318       0.96556282       -13.726318       0.237357167      74.8547858       
268.38           0.245379497      74.4091626       0.963489423      -14.1999892      0.963489423      -14.1999892      0.245379497      74.4091626       
277.6            0.253361287      73.9633772       0.961357871      -14.672251       0.961357871      -14.672251       0.253361287      73.9633772       
286.82           0.261301545      73.5175996       0.959168977      -15.1430679      0.959168977      -15.1430679      0.261301545      73.5175996       
296.04           0.269199309      73.0719837       0.956923577      -15.6124049      0.956923577      -15.6124049      0.269199309      73.0719837       
305.26           0.277053644      72.6266689       0.954622527      -16.0802282      0.954622527      -16.0802282      0.277053644      72.6266689       
314.48           0.284863648      72.1817826       0.952266702      -16.5465045      0.952266702      -16.5465045      0.284863648      72.1817826       
323.7            0.292628447      71.7374413       0.949856992      -17.0112014      0.949856992      -17.0112014      0.292628447      71.7374413       
332.92           0.300347198      71.293752        0.947394304      -17.4742875      0.947394304      -17.4742875      0.300347198      71.293752        
342.14           0.308019088      70.8508136       0.944879559      -17.935732       0.944879559      -17.935732       0.308019088      70.8508136       
351.36           0.315643335      70.4087171       0.942313692      -18.3955051      0.942313692      -18.3955051      0.315643335      70.4087171       
360.58           0.323219187      69.9675472       0.939697646      -18.8535778      0.939697646      -18.8535778      0.323219187      69.9675472       
369.8            0.330745924      69.5273823       0.937032379      -19.3099219      0.937032379      -19.3099219      0.330745924      69.5273823       
379.02           0.338222856      69.0882958       0.934318856      -19.7645103      0.934318856      -19.7645103      0.338222856      69.0882958       
388.24           0.345649323      68.6503557       0.93155805       -20.2173166      0.93155805       -20.2173166      0.345649323      68.6503557       
397.46           0.353024696      68.2136258       0.928750941      -20.6683151      0.928750941      -20.6683151      0.353024696      68.2136258       
406.68           0.360348378      67.7781659       0.925898516      -21.1174814      0.925898516      -21.1174814      0.360348378      67.7781659       
415.9            0.3676198        67.3440319       0.923001767      -21.5647917      0.923001767      -21.5647917      0.3676198        67.3440319       
425.12           0.374838424      66.9112762       0.920061687      -22.010223       0.920061687      -22.010223       0.374838424      66.9112762       
434.34           0.382003744      66.4799481       0.917079277      -22.4537534      0.917079277      -22.4537534      0.382003744      66.4799481       
443.56           0.389115281      66.0500938       0.914055535      -22.8953617      0.914055535      -22.8953617      0.389115281      66.0500938       
452.78           0.396172586      65.621757        0.910991463      -23.3350277      0.910991463      -23.3350277      0.396172586      65.621757        
462              0.40317524       65.1949785       0.907888063      -23.7727319      0.907888063      -23.7727319      0.40317524       65.1949785       
471.22           0.410122853      64.7697969       0.904746336      -24.2084559      0.904746336      -24.2084559      0.410122853      64.7697969       
480.44           0.417015062      64.3462484       0.90156728       -24.6421819      0.90156728       -24.6421819      0.417015062      64.3462484       
489.66           0.423851534      63.924367        0.898351894      -25.0738931      0.898351894      -25.0738931      0.423851534      63.924367        
498.88           0.430631962      63.504185        0.895101171      -25.5035734      0.895101171      -25.5035734      0.430631962      63.504185        
508.1            0.437356067      63.0857323       0.891816103      -25.9312078      0.891816103      -25.9312078      0.437356067      63.0857323       
517.32           0.444023596      62.6690374       0.888497674      -26.3567817      0.888497674      -26.3567817      0.444023596      62.6690374       
526.54           0.450634325      62.2541269       0.885146867      -26.7802818      0.885146867      -26.7802818      0.450634325      62.2541269       
535.76           0.457188052      61.8410257       0.881764656      -27.2016952      0.881764656      -27.2016952      0.457188052      61.8410257       
544.98           0.463684602      61.4297572       0.878352011      -27.62101        0.878352011      -27.62101        0.463684602      61.4297572       
554.2            0.470123827      61.0203434       0.874909893      -28.038215       0.874909893      -28.038215       0.470123827      61.0203434       
563.42           0.476505599      60.6128048       0.871439256      -28.4532998      0.871439256      -28.4532998      0.476505599      60.6128048       
572.64           0.482829819      60.2071603       0.867941049      -28.8662548      0.867941049      -28.8662548      0.482829819      60.2071603       
581.86           0.489096406      59.8034279       0.864416207      -29.2770711      0.864416207      -29.2770711      0.489096406      59.8034279       
591.08           0.495305305      59.401624        0.860865661      -29.6857405      0.860865661      -29.6857405      0.495305305      59.401624        
600.3            0.501456483      59.0017641       0.85729033       -30.0922556      0.85729033       -30.0922556      0.501456483      59.0017641       
609.52           0.507549926      58.6038622       0.853691123      -30.4966096      0.853691123      -30.4966096      0.507549926      58.6038622       
618.74           0.513585645      58.2079314       0.85006894       -30.8987965      0.85006894       -30.8987965      0.513585645      58.2079314       
627.96           0.519563668      57.8139837       0.846424669      -31.298811       0.846424669      -31.298811       0.519563668      57.8139837       
637.18           0.525484044      57.4220302       0.84275919       -31.6966483      0.84275919       -31.6966483      0.525484044      57.4220302       
646.4            0.531346841      57.0320806       0.839073367      -32.0923044      0.839073367      -32.0923044      0.531346841      57.0320806       
655.62           0.537152147      56.644144        0.835368057      -32.4857758      0.835368057      -32.4857758      0.537152147      56.644144        
664.84           0.542900067      56.2582285       0.831644102      -32.8770599      0.831644102      -32.8770599      0.542900067      56.2582285       
674.06           0.548590722      55.8743413       0.827902333      -33.2661544      0.827902333      -33.2661544      0.548590722      55.8743413       
683.28           0.554224253      55.4924887       0.82414357       -33.6530578      0.82414357       -33.6530578      0.554224253      55.4924887       
692.5            0.559800815      55.1126762       0.820368617      -34.0377691      0.820368617      -34.0377691      0.559800815      55.1126762       
701.72           0.565320581      54.7349084       0.81657827       -34.4202877      0.81657827       -34.4202877      0.565320581      54.7349084       
710.94           0.570783736      54.3591894       0.812773308      -34.800614       0.812773308      -34.800614       0.570783736      54.3591894       
720.16           0.576190482      53.9855223       0.808954499      -35.1787484      0.808954499      -35.1787484      0.576190482      53.9855223       
729.38           0.581541035      53.6139095       0.805122597      -35.5546922      0.805122597      -35.5546922      0.581541035      53.6139095       
738.6            0.586835624      53.244353        0.801278345      -35.9284471      0.801278345      -35.9284471      0.586835624      53.244353        
747.82           0.592074491      52.8768537       0.797422469      -36.3000152      0.797422469      -36.3000152      0.592074491      52.8768537       
757.04           0.597257889      52.5114121       0.793555685      -36.6693991      0.793555685      -36.6693991      0.597257889      52.5114121       
766.26           0.602386087      52.1480282       0.789678693      -37.0366021      0.789678693      -37.0366021      0.602386087      52.1480282       
775.48           0.607459361      51.7867012       0.785792182      -37.4016277      0.785792182      -37.4016277      0.607459361      51.7867012       
784.7            0.612477999      51.4274297       0.781896824      -37.7644798      0.781896824      -37.7644798      0.612477999      51.4274297       
793.92           0.617442302      51.070212        0.777993281      -38.1251629      0.777993281      -38.1251629      0.617442302      51.070212        
803.14           0.622352577      50.7150456       0.774082201      -38.4836818      0.774082201      -38.4836818      0.622352577      50.7150456       
812.36           0.627209143      50.3619276       0.770164216      -38.8400417      0.770164216      -38.8400417      0.627209143      50.3619276       
821.58           0.632012327      50.0108547       0.766239946      -39.1942482      0.766239946      -39.1942482      0.632012327      50.0108547       
830.8            0.636762464      49.661823        0.762309999      -39.5463072      0.762309999      -39.5463072      0.636762464      49.661823        
840.02           0.641459898      49.3148281       0.758374968      -39.8962252      0.758374968      -39.8962252      0.641459898      49.3148281       
849.24           0.646104981      48.9698653       0.754435432      -40.2440087      0.754435432      -40.2440087      0.646104981      48.9698653       
858.46           0.650698069      48.6269294       0.750491959      -40.5896647      0.750491959      -40.5896647      0.650698069      48.6269294       
867.68           0.655239527      48.2860149       0.746545103      -40.9332004      0.746545103      -40.9332004      0.655239527      48.2860149       
876.9            0.659729727      47.9471158       0.742595404      -41.2746236      0.742595404      -41.2746236      0.659729727      47.9471158       
886.12           0.664169045      47.6102258       0.73864339       -41.613942       0.73864339       -41.613942       0.664169045      47.6102258       
895.34           0.668557864      47.2753382       0.734689576      -41.9511638      0.734689576      -41.9511638      0.668557864      47.2753382       
904.56           0.67289657       46.942446        0.730734464      -42.2862974      0.730734464      -42.2862974      0.67289657       46.942446        
913.78           0.677185556      46.6115419       0.726778543      -42.6193515      0.726778543      -42.6193515      0.677185556      46.6115419       
923              0.681425217      46.2826181       0.722822292      -42.950335       0.722822292      -42.950335       0.681425217      46.2826181       
932.22           0.685615954      45.9556669       0.718866175      -43.279257       0.718866175      -43.279257       0.685615954      45.9556669       
941.44           0.68975817       45.6306799       0.714910644      -43.6061269      0.714910644      -43.6061269      0.68975817       45.6306799       
950.66           0.693852272      45.3076486       0.710956141      -43.9309543      0.710956141      -43.9309543      0.693852272      45.3076486       
959.88           0.69789867       44.9865644       0.707003094      -44.2537488      0.707003094      -44.2537488      0.69789867       44.9865644       
969.1            0.701897777      44.6674182       0.70305192       -44.5745205      0.70305192       -44.5745205      0.701897777      44.6674182       
978.32           0.705850008      44.3502009       0.699103026      -44.8932794      0.699103026      -44.8932794      0.705850008      44.3502009       
987.54           0.709755779      44.0349029       0.695156804      -45.2100359      0.695156804      -45.2100359      0.709755779      44.0349029       
996.76           0.713615509      43.7215147       0.69121364       -45.5248004      0.69121364       -45.5248004      0.713615509      43.7215147       
1005.98          0.717429619      43.4100264       0.687273903      -45.8375835      0.687273903      -45.8375835      0.717429619      43.4100264       
1015.2           0.721198529      43.1004281       0.683337956      -46.1483959      0.683337956      -46.1483959      0.721198529      43.1004281       
1024.42          0.724922662      42.7927095       0.679406149      -46.4572484      0.679406149      -46.4572484      0.724922662      42.7927095       
1033.64          0.728602442      42.4868602       0.675478822      -46.7641521      0.675478822      -46.7641521      0.728602442      42.4868602       
1042.86          0.732238291      42.1828698       0.671556304      -47.0691181      0.671556304      -47.0691181      0.732238291      42.1828698       
1052.08          0.735830633      41.8807276       0.667638914      -47.3721575      0.667638914      -47.3721575      0.735830633      41.8807276       
1061.3           0.739379894      41.5804228       0.663726964      -47.6732817      0.663726964      -47.6732817      0.739379894      41.5804228       
1070.52          0.742886495      41.2819445       0.65982075       -47.9725019      0.65982075       -47.9725019      0.742886495      41.2819445       
1079.74          0.746350861      40.9852816       0.655920565      -48.2698297      0.655920565      -48.2698297      0.746350861      40.9852816       
1088.96          0.749773414      40.6904231       0.652026689      -48.5652766      0.652026689      -48.5652766      0.749773414      40.6904231       
1098.18          0.753154578      40.3973577       0.648139392      -48.8588542      0.648139392      -48.8588542      0.753154578      40.3973577       
1107.4           0.756494772      40.106074        0.644258937      -49.1505742      0.644258937      -49.1505742      0.756494772      40.106074        
1116.62          0.759794417      39.8165606       0.640385578      -49.4404482      0.640385578      -49.4404482      0.759794417      39.8165606       
1125.84          0.763053933      39.528806        0.636519559      -49.728488       0.636519559      -49.728488       0.763053933      39.528806        
1135.06          0.766273736      39.2427987       0.632661116      -50.0147055      0.632661116      -50.0147055      0.766273736      39.2427987       
1144.28          0.769454244      38.958527        0.628810477      -50.2991123      0.628810477      -50.2991123      0.769454244      38.958527        
1153.5           0.772595869      38.6759792       0.624967862      -50.5817205      0.624967862      -50.5817205      0.772595869      38.6759792       
1162.72          0.775699026      38.3951436       0.621133481      -50.8625418      0.621133481      -50.8625418      0.775699026      38.3951436       
1171.94          0.778764125      38.1160084       0.61730754       -51.1415882      0.61730754       -51.1415882      0.778764125      38.1160084       
