! Coilcraft 1008CS-331 Chip Inductor				
! 02 July 2002			
# MHZ S MA R 50
!Freq             MagS11           AngS11           MagS21           AngS21           MagS12           AngS12           MagS22           AngS22
1                0.0245837938     55.1058423       0.986142709      -1.17162117      0.986142709      -1.17162117      0.0245837938     55.1058423       
3.24             0.0678425268     72.7306996       0.981999338      -3.78264838      0.981999338      -3.78264838      0.0678425268     72.7306996       
5.48             0.112301171      74.8001932       0.976587928      -6.37127141      0.976587928      -6.37127141      0.112301171      74.8001932       
7.72             0.156291412      74.3401867       0.969563323      -8.92922435      0.969563323      -8.92922435      0.156291412      74.3401867       
9.96             0.199403916      73.0307207       0.960919508      -11.4480171      0.960919508      -11.4480171      0.199403916      73.0307207       
12.2             0.241382816      71.3528062       0.950739841      -13.9196898      0.950739841      -13.9196898      0.241382816      71.3528062       
14.44            0.282032301      69.5000251       0.939150075      -16.3371049      0.939150075      -16.3371049      0.282032301      69.5000251       
16.68            0.321198971      67.5672965       0.926299622      -18.6940988      0.926299622      -18.6940988      0.321198971      67.5672965       
18.92            0.358766619      65.6075501       0.912350501      -20.9855547      0.912350501      -20.9855547      0.358766619      65.6075501       
21.16            0.394653276      63.6529602       0.897469437      -23.2074186      0.897469437      -23.2074186      0.394653276      63.6529602       
23.4             0.428808316      61.7242071       0.88182181       -25.3566725      0.88182181       -25.3566725      0.428808316      61.7242071       
25.64            0.461209178      59.8350088       0.865567028      -27.4312738      0.865567028      -27.4312738      0.461209178      59.8350088       
27.88            0.491857746      57.9945561       0.848855106      -29.4300727      0.848855106      -29.4300727      0.491857746      57.9945561       
30.12            0.520776559      56.20893         0.831824318      -31.3527148      0.831824318      -31.3527148      0.520776559      56.20893         
32.36            0.54800505       54.4819884       0.814599757      -33.1995365      0.814599757      -33.1995365      0.54800505       54.4819884       
34.6             0.573595966      52.8159556       0.797292668      -34.9714597      0.797292668      -34.9714597      0.573595966      52.8159556       
36.84            0.597612084      51.2118348       0.780000387      -36.6698895      0.780000387      -36.6698895      0.597612084      51.2118348       
39.08            0.620123305      49.6697095       0.762806743      -38.2966187      0.762806743      -38.2966187      0.620123305      49.6697095       
41.32            0.641204139      48.1889707       0.745782795      -39.8537412      0.745782795      -39.8537412      0.641204139      48.1889707       
43.56            0.660931604      46.7684916       0.72898778       -41.3435751      0.72898778       -41.3435751      0.660931604      46.7684916       
45.8             0.679383508      45.4067647       0.712470193      -42.7685953      0.712470193      -42.7685953      0.679383508      45.4067647       
48.04            0.696637079      44.1020088       0.696268915      -44.1313772      0.696268915      -44.1313772      0.696637079      44.1020088       
50.28            0.712767911      42.8522546       0.680414339      -45.4345485      0.680414339      -45.4345485      0.712767911      42.8522546       
52.52            0.727849178      41.6554116       0.664929454      -46.6807506      0.664929454      -46.6807506      0.727849178      41.6554116       
54.76            0.741951071      40.5093211       0.64983086       -47.8726068      0.64983086       -47.8726068      0.741951071      40.5093211       
57               0.755140427      39.4117972       0.635129709      -49.0126976      0.635129709      -49.0126976      0.755140427      39.4117972       
59.24            0.767480496      38.3606591       0.620832547      -50.1035413      0.620832547      -50.1035413      0.767480496      38.3606591       
61.48            0.77903084       37.3537552       0.606942064      -51.1475802      0.606942064      -51.1475802      0.77903084       37.3537552       
63.72            0.789847312      36.3889814       0.593457765      -52.1471699      0.593457765      -52.1471699      0.789847312      36.3889814       
65.96            0.799982113      35.4642945       0.580376542      -53.1045724      0.580376542      -53.1045724      0.799982113      35.4642945       
68.2             0.809483889      34.5777217       0.567693183      -54.0219521      0.567693183      -54.0219521      0.809483889      34.5777217       
70.44            0.818397875      33.7273667       0.555400793      -54.9013735      0.555400793      -54.9013735      0.818397875      33.7273667       
72.68            0.826766054      32.9114136       0.543491167      -55.744801       0.543491167      -55.744801       0.826766054      32.9114136       
74.92            0.834627335      32.1281292       0.531955096      -56.5540994      0.531955096      -56.5540994      0.834627335      32.1281292       
77.16            0.842017735      31.3758626       0.52078263       -57.3310366      0.52078263       -57.3310366      0.842017735      31.3758626       
79.4             0.848970565      30.6530454       0.509963293      -58.0772855      0.509963293      -58.0772855      0.848970565      30.6530454       
81.64            0.855516615      29.9581893       0.499486265      -58.7944278      0.499486265      -58.7944278      0.855516615      29.9581893       
83.88            0.861684329      29.2898844       0.48934053       -59.4839576      0.48934053       -59.4839576      0.861684329      29.2898844       
86.12            0.867499981      28.6467965       0.479514999      -60.1472847      0.479514999      -60.1472847      0.867499981      28.6467965       
88.36            0.872987831      28.0276639       0.469998607      -60.7857393      0.469998607      -60.7857393      0.872987831      28.0276639       
90.6             0.878170288      27.4312943       0.460780391      -61.4005756      0.460780391      -61.4005756      0.878170288      27.4312943       
92.84            0.883068045      26.8565616       0.451849555      -61.992976       0.451849555      -61.992976       0.883068045      26.8565616       
95.08            0.88770022       26.3024028       0.443195519      -62.5640549      0.443195519      -62.5640549      0.88770022       26.3024028       
97.32            0.89208448       25.7678144       0.434807955      -63.1148626      0.434807955      -63.1148626      0.89208448       25.7678144       
99.56            0.896237155      25.2518492       0.426676814      -63.6463888      0.426676814      -63.6463888      0.896237155      25.2518492       
101.8            0.900173347      24.7536135       0.41879235       -64.1595668      0.41879235       -64.1595668      0.900173347      24.7536135       
104.04           0.903907029      24.2722635       0.41114513       -64.6552759      0.41114513       -64.6552759      0.903907029      24.2722635       
106.28           0.907451135      23.8070033       0.403726043      -65.1343456      0.403726043      -65.1343456      0.907451135      23.8070033       
108.52           0.910817646      23.357081        0.396526305      -65.5975581      0.396526305      -65.5975581      0.910817646      23.357081        
110.76           0.914017663      22.9217869       0.38953746       -66.0456511      0.38953746       -66.0456511      0.914017663      22.9217869       
113              0.917061482      22.5004507       0.382751376      -66.4793213      0.382751376      -66.4793213      0.917061482      22.5004507       
115.24           0.919958655      22.0924391       0.376160243      -66.8992258      0.376160243      -66.8992258      0.919958655      22.0924391       
117.48           0.922718053      21.6971537       0.369756563      -67.3059856      0.369756563      -67.3059856      0.922718053      21.6971537       
119.72           0.925347915      21.3140286       0.363533145      -67.7001872      0.363533145      -67.7001872      0.925347915      21.3140286       
121.96           0.927855902      20.9425289       0.3574831        -68.082385       0.3574831        -68.082385       0.927855902      20.9425289       
124.2            0.930249143      20.5821482       0.351599823      -68.4531032      0.351599823      -68.4531032      0.930249143      20.5821482       
126.44           0.932534272      20.2324075       0.345876992      -68.8128378      0.345876992      -68.8128378      0.932534272      20.2324075       
128.68           0.934717473      19.8928532       0.340308555      -69.1620581      0.340308555      -69.1620581      0.934717473      19.8928532       
130.92           0.936804506      19.5630553       0.334888716      -69.5012083      0.334888716      -69.5012083      0.936804506      19.5630553       
133.16           0.938800749      19.2426068       0.329611932      -69.8307096      0.329611932      -69.8307096      0.938800749      19.2426068       
135.4            0.940711221      18.9311215       0.324472897      -70.1509609      0.324472897      -70.1509609      0.940711221      18.9311215       
137.64           0.942540609      18.6282331       0.319466536      -70.4623404      0.319466536      -70.4623404      0.942540609      18.6282331       
139.88           0.944293297      18.3335941       0.31458799       -70.7652071      0.31458799       -70.7652071      0.944293297      18.3335941       
142.12           0.945973385      18.0468745       0.309832614      -71.0599014      0.309832614      -71.0599014      0.945973385      18.0468745       
144.36           0.947584709      17.7677609       0.305195961      -71.3467469      0.305195961      -71.3467469      0.947584709      17.7677609       
146.6            0.949130866      17.4959554       0.300673775      -71.6260507      0.300673775      -71.6260507      0.949130866      17.4959554       
148.84           0.950615224      17.2311748       0.296261986      -71.898105       0.296261986      -71.898105       0.950615224      17.2311748       
151.08           0.952040944      16.9731499       0.291956696      -72.1631872      0.291956696      -72.1631872      0.952040944      16.9731499       
153.32           0.953410992      16.7216244       0.287754172      -72.4215617      0.287754172      -72.4215617      0.953410992      16.7216244       
155.56           0.954728153      16.4763542       0.283650845      -72.6734798      0.283650845      -72.6734798      0.954728153      16.4763542       
157.8            0.955995046      16.237107        0.279643291      -72.919181       0.279643291      -72.919181       0.955995046      16.237107        
160.04           0.957214131      16.0036614       0.275728235      -73.1588933      0.275728235      -73.1588933      0.957214131      16.0036614       
162.28           0.958387724      15.7758061       0.271902537      -73.3928342      0.271902537      -73.3928342      0.958387724      15.7758061       
164.52           0.959518007      15.55334         0.268163189      -73.6212109      0.268163189      -73.6212109      0.959518007      15.55334         
166.76           0.960607033      15.3360708       0.264507309      -73.8442212      0.264507309      -73.8442212      0.960607033      15.3360708       
169              0.961656738      15.1238153       0.260932131      -74.0620537      0.260932131      -74.0620537      0.961656738      15.1238153       
171.24           0.962668949      14.9163983       0.257435006      -74.2748887      0.257435006      -74.2748887      0.962668949      14.9163983       
173.48           0.963645389      14.7136524       0.254013392      -74.4828984      0.254013392      -74.4828984      0.963645389      14.7136524       
175.72           0.964587685      14.5154178       0.250664848      -74.686247       0.250664848      -74.686247       0.964587685      14.5154178       
177.96           0.965497375      14.3215416       0.247387035      -74.885092       0.247387035      -74.885092       0.965497375      14.3215416       
180.2            0.966375912      14.1318775       0.244177704      -75.0795837      0.244177704      -75.0795837      0.966375912      14.1318775       
182.44           0.967224671      13.9462856       0.2410347        -75.269866       0.2410347        -75.269866       0.967224671      13.9462856       
184.68           0.968044952      13.7646318       0.237955949      -75.4560766      0.237955949      -75.4560766      0.968044952      13.7646318       
186.92           0.968837987      13.5867878       0.23493946       -75.6383473      0.23493946       -75.6383473      0.968837987      13.5867878       
189.16           0.969604942      13.4126306       0.231983322      -75.8168046      0.231983322      -75.8168046      0.969604942      13.4126306       
191.4            0.970346924      13.2420424       0.229085693      -75.9915695      0.229085693      -75.9915695      0.970346924      13.2420424       
193.64           0.971064981      13.0749102       0.226244808      -76.1627581      0.226244808      -76.1627581      0.971064981      13.0749102       
195.88           0.971760108      12.9111256       0.223458964      -76.3304817      0.223458964      -76.3304817      0.971760108      12.9111256       
198.12           0.97243325       12.7505845       0.220726526      -76.494847       0.220726526      -76.494847       0.97243325       12.7505845       
200.36           0.973085302      12.5931871       0.21804592       -76.6559565      0.21804592       -76.6559565      0.973085302      12.5931871       
202.6            0.973717118      12.4388376       0.215415629      -76.8139088      0.215415629      -76.8139088      0.973717118      12.4388376       
204.84           0.974329507      12.2874438       0.212834196      -76.9687981      0.212834196      -76.9687981      0.974329507      12.2874438       
207.08           0.97492324       12.1389172       0.210300215      -77.1207155      0.210300215      -77.1207155      0.97492324       12.1389172       
209.32           0.975499049      11.9931728       0.207812332      -77.269748       0.207812332      -77.269748       0.975499049      11.9931728       
211.56           0.976057631      11.8501288       0.205369243      -77.4159796      0.205369243      -77.4159796      0.976057631      11.8501288       
213.8            0.976599653      11.7097064       0.202969691      -77.5594911      0.202969691      -77.5594911      0.976599653      11.7097064       
216.04           0.977125745      11.5718299       0.200612463      -77.7003599      0.200612463      -77.7003599      0.977125745      11.5718299       
218.28           0.977636512      11.4364264       0.198296389      -77.8386608      0.198296389      -77.8386608      0.977636512      11.4364264       
220.52           0.978132528      11.3034258       0.196020344      -77.9744657      0.196020344      -77.9744657      0.978132528      11.3034258       
222.76           0.978614343      11.1727604       0.193783238      -78.1078439      0.193783238      -78.1078439      0.978614343      11.1727604       
225              0.97908248       11.0443652       0.191584021      -78.2388619      0.191584021      -78.2388619      0.97908248       11.0443652       
227.24           0.979537438      10.9181772       0.18942168       -78.3675842      0.18942168       -78.3675842      0.979537438      10.9181772       
229.48           0.979979695      10.7941361       0.187295235      -78.4940726      0.187295235      -78.4940726      0.979979695      10.7941361       
231.72           0.980409708      10.6721834       0.185203741      -78.6183869      0.185203741      -78.6183869      0.980409708      10.6721834       
233.96           0.980827911      10.5522629       0.183146285      -78.7405845      0.183146285      -78.7405845      0.980827911      10.5522629       
236.2            0.981234722      10.4343202       0.181121983      -78.8607212      0.181121983      -78.8607212      0.981234722      10.4343202       
238.44           0.98163054       10.3183029       0.179129982      -78.9788504      0.179129982      -78.9788504      0.98163054       10.3183029       
240.68           0.982015745      10.2041604       0.177169458      -79.0950239      0.177169458      -79.0950239      0.982015745      10.2041604       
242.92           0.982390704      10.0918437       0.175239613      -79.2092916      0.175239613      -79.2092916      0.982390704      10.0918437       
245.16           0.982755765      9.98130571       0.173339674      -79.3217018      0.173339674      -79.3217018      0.982755765      9.98130571       
247.4            0.983111264      9.87250067       0.171468895      -79.432301       0.171468895      -79.432301       0.983111264      9.87250067       
249.64           0.983457522      9.76538452       0.169626554      -79.5411343      0.169626554      -79.5411343      0.983457522      9.76538452       
251.88           0.983794845      9.65991459       0.167811952      -79.6482452      0.167811952      -79.6482452      0.983794845      9.65991459       
254.12           0.98412353       9.55604965       0.16602441       -79.7536756      0.16602441       -79.7536756      0.98412353       9.55604965       
256.36           0.984443858      9.4537498        0.164263274      -79.8574662      0.164263274      -79.8574662      0.984443858      9.4537498        
258.6            0.984756102      9.35297643       0.162527907      -79.9596564      0.162527907      -79.9596564      0.984756102      9.35297643       
260.84           0.985060522      9.25369219       0.160817696      -80.0602841      0.160817696      -80.0602841      0.985060522      9.25369219       
263.08           0.985357368      9.15586092       0.159132042      -80.1593862      0.159132042      -80.1593862      0.985357368      9.15586092       
265.32           0.98564688       9.05944759       0.157470369      -80.2569982      0.157470369      -80.2569982      0.98564688       9.05944759       
267.56           0.985929289      8.96441829       0.155832116      -80.3531547      0.155832116      -80.3531547      0.985929289      8.96441829       
269.8            0.986204817      8.87074017       0.154216739      -80.4478889      0.154216739      -80.4478889      0.986204817      8.87074017       
272.04           0.986473676      8.77838138       0.152623712      -80.5412332      0.152623712      -80.5412332      0.986473676      8.77838138       
274.28           0.986736073      8.68731109       0.151052523      -80.6332189      0.151052523      -80.6332189      0.986736073      8.68731109       
276.52           0.986992204      8.59749937       0.149502676      -80.7238762      0.149502676      -80.7238762      0.986992204      8.59749937       
278.76           0.987242258      8.50891723       0.14797369       -80.8132346      0.14797369       -80.8132346      0.987242258      8.50891723       
281              0.987486419      8.42153654       0.146465098      -80.9013225      0.146465098      -80.9013225      0.987486419      8.42153654       
283.24           0.987724862      8.33533002       0.144976445      -80.9881675      0.144976445      -80.9881675      0.987724862      8.33533002       
285.48           0.987957756      8.25027118       0.143507292      -81.0737963      0.143507292      -81.0737963      0.987957756      8.25027118       
