! Coilcraft 1812LS-224 Chip Inductor				
! 8 August 2002			
# MHZ S MA R 50
!Freq             MagS11           AngS11           MagS21           AngS21           MagS12           AngS12           MagS22           AngS22
0.03             0.360305267      45.1432468       0.788382406      -18.9030478      0.788382406      -18.9030478      0.360305267      45.1432468       
0.05             0.515045809      43.3493634       0.71847651       -29.4776384      0.71847651       -29.4776384      0.515045809      43.3493634       
0.07             0.633808949      38.8731989       0.644070336      -38.141084       0.644070336      -38.141084       0.633808949      38.8731989       
0.09             0.720291896      34.3793379       0.574353426      -45.0843703      0.574353426      -45.0843703      0.720291896      34.3793379       
0.11             0.782521761      30.4473467       0.512955926      -50.628476       0.512955926      -50.628476       0.782521761      30.4473467       
0.13             0.827606913      27.1368613       0.460354285      -55.0838173      0.460354285      -55.0838173      0.827606913      27.1368613       
0.15             0.860769806      24.3738656       0.41571918       -58.7040598      0.41571918       -58.7040598      0.860769806      24.3738656       
0.17             0.885610503      22.0620456       0.37785966       -61.6832644      0.37785966       -61.6832644      0.885610503      22.0620456       
0.19             0.904566248      20.1142318       0.345613444      -64.1663798      0.345613444      -64.1663798      0.904566248      20.1142318       
0.21             0.919290514      18.4590087       0.317975216      -66.2611952      0.317975216      -66.2611952      0.919290514      18.4590087       
0.23             0.930917818      17.0398775       0.29411733       -68.04827        0.29411733       -68.04827        0.930917818      17.0398775       
0.25             0.94023862       15.8126189       0.273372342      -69.5883873      0.273372342      -69.5883873      0.94023862       15.8126189       
0.27             0.947812943      14.7426289       0.255205769      -70.9279358      0.255205769      -70.9279358      0.947812943      14.7426289       
0.29             0.954044276      13.8026939       0.239189632      -72.1027479      0.239189632      -72.1027479      0.954044276      13.8026939       
0.31             0.959228081      12.9712562       0.224979977      -73.1408343      0.224979977      -73.1408343      0.959228081      12.9712562       
0.33             0.963584068      12.2310958       0.212298836      -74.0643453      0.212298836      -74.0643453      0.963584068      12.2310958       
0.35             0.967277978      11.5683383       0.20092009       -74.8909887      0.20092009       -74.8909887      0.967277978      11.5683383       
0.37             0.970436521      10.9717084       0.19065852       -75.6350666      0.19065852       -75.6350666      0.970436521      10.9717084       
0.39             0.973157777      10.4319672       0.181361332      -76.3082412      0.181361332      -76.3082412      0.973157777      10.4319672       
0.41             0.975518536      9.94148344       0.172901616      -76.9201068      0.172901616      -76.9201068      0.975518536      9.94148344       
0.43             0.977579564      9.49390665       0.165173242      -77.4786222      0.165173242      -77.4786222      0.977579564      9.49390665       
0.45             0.979389422      9.08391436       0.158086896      -77.9904405      0.158086896      -77.9904405      0.979389422      9.08391436       
0.47             0.98098727       8.70701587       0.151566946      -78.4611628      0.151566946      -78.4611628      0.98098727       8.70701587       
0.49             0.982404957      8.35939842       0.145548978      -78.8955362      0.145548978      -78.8955362      0.982404957      8.35939842       
0.51             0.98366859       8.03780573       0.139977828      -79.2976093      0.139977828      -79.2976093      0.98366859       8.03780573       
0.53             0.984799728      7.73944139       0.134806005      -79.6708546      0.134806005      -79.6708546      0.984799728      7.73944139       
0.55             0.985816294      7.46189137       0.129992428      -80.0182669      0.129992428      -80.0182669      0.985816294      7.46189137       
0.57             0.986733287      7.20306159       0.125501388      -80.3424419      0.125501388      -80.3424419      0.986733287      7.20306159       
0.59             0.987563333      6.96112708       0.121301715      -80.6456403      0.121301715      -80.6456403      0.987563333      6.96112708       
0.61             0.988317119      6.73449056       0.117366084      -80.9298399      0.117366084      -80.9298399      0.988317119      6.73449056       
0.63             0.989003741      6.52174828       0.113670449      -81.1967778      0.113670449      -81.1967778      0.989003741      6.52174828       
0.65             0.989630977      6.32166181       0.110193568      -81.4479864      0.110193568      -81.4479864      0.989630977      6.32166181       
0.67             0.990205513      6.1331346        0.106916612      -81.6848219      0.106916612      -81.6848219      0.990205513      6.1331346        
0.69             0.990733117      5.95519235       0.103822835      -81.9084893      0.103822835      -81.9084893      0.990733117      5.95519235       
0.71             0.99121879       5.78696657       0.100897293      -82.1200626      0.100897293      -82.1200626      0.99121879       5.78696657       
0.73             0.991666882      5.62768067       0.0981266148     -82.3205021      0.0981266148     -82.3205021      0.991666882      5.62768067       
0.75             0.992081193      5.4766382        0.0954987974     -82.5106689      0.0954987974     -82.5106689      0.992081193      5.4766382        
0.77             0.992465053      5.33321282       0.0930030395     -82.6913375      0.0930030395     -82.6913375      0.992465053      5.33321282       
0.79             0.992821393      5.19683976       0.0906295946     -82.8632063      0.0906295946     -82.8632063      0.992821393      5.19683976       
0.81             0.993152795      5.06700845       0.0883696464     -83.0269067      0.0883696464     -83.0269067      0.993152795      5.06700845       
0.83             0.993461549      4.94325621       0.0862152012     -83.1830109      0.0862152012     -83.1830109      0.993461549      4.94325621       
0.85             0.993749684      4.82516281       0.0841589944     -83.3320389      0.0841589944     -83.3320389      0.993749684      4.82516281       
0.87             0.994019006      4.7123457        0.0821944098     -83.4744639      0.0821944098     -83.4744639      0.994019006      4.7123457        
0.89             0.99427113       4.60445592       0.0803154095     -83.6107177      0.0803154095     -83.6107177      0.99427113       4.60445592       
0.91             0.994507497      4.50117449       0.078516472      -83.741195       0.078516472      -83.741195       0.994507497      4.50117449       
0.93             0.994729402      4.40220928       0.0767925385     -83.8662574      0.0767925385     -83.8662574      0.994729402      4.40220928       
0.95             0.994938009      4.30729226       0.0751389658     -83.9862369      0.0751389658     -83.9862369      0.994938009      4.30729226       
0.97             0.995134366      4.21617707       0.0735514846     -84.1014383      0.0735514846     -84.1014383      0.995134366      4.21617707       
0.99             0.99531942       4.12863686       0.0720261627     -84.2121428      0.0720261627     -84.2121428      0.99531942       4.12863686       
1.01             0.995494026      4.04446242       0.0705593725     -84.3186094      0.0705593725     -84.3186094      0.995494026      4.04446242       
1.03             0.995658962      3.96346053       0.0691477622     -84.4210776      0.0691477622     -84.4210776      0.995658962      3.96346053       
1.05             0.995814933      3.8854524        0.0677882303     -84.5197689      0.0677882303     -84.5197689      0.995814933      3.8854524        
1.07             0.99596258       3.81027241       0.0664779025     -84.6148885      0.0664779025     -84.6148885      0.99596258       3.81027241       
1.09             0.99610249       3.7377669        0.0652141117     -84.7066271      0.0652141117     -84.7066271      0.99610249       3.7377669        
1.11             0.996235196      3.66779312       0.0639943793     -84.7951615      0.0639943793     -84.7951615      0.996235196      3.66779312       
1.13             0.996361187      3.60021825       0.0628163992     -84.8806564      0.0628163992     -84.8806564      0.996361187      3.60021825       
1.15             0.996480911      3.53491862       0.061678023      -84.9632654      0.061678023      -84.9632654      0.996480911      3.53491862       
1.17             0.996594778      3.47177886       0.0605772467     -85.0431313      0.0605772467     -85.0431313      0.996594778      3.47177886       
1.19             0.996703167      3.41069127       0.059512199      -85.120388       0.059512199      -85.120388       0.996703167      3.41069127       
1.21             0.996806424      3.35155517       0.0584811302     -85.1951603      0.0584811302     -85.1951603      0.996806424      3.35155517       
1.23             0.996904871      3.29427635       0.057482403      -85.2675651      0.057482403      -85.2675651      0.996904871      3.29427635       
1.25             0.996998801      3.23876656       0.0565144831     -85.3377119      0.0565144831     -85.3377119      0.996998801      3.23876656       
1.27             0.997088488      3.18494304       0.0555759317     -85.4057034      0.0555759317     -85.4057034      0.997088488      3.18494304       
1.29             0.997174185      3.13272809       0.0546653978     -85.4716362      0.0546653978     -85.4716362      0.997174185      3.13272809       
1.31             0.997256125      3.08204872       0.053781612      -85.5356007      0.053781612      -85.5356007      0.997256125      3.08204872       
1.33             0.997334525      3.03283627       0.0529233802     -85.5976822      0.0529233802     -85.5976822      0.997334525      3.03283627       
1.35             0.997409586      2.98502612       0.0520895782     -85.6579609      0.0520895782     -85.6579609      0.997409586      2.98502612       
1.37             0.997481496      2.93855737       0.0512791466     -85.7165124      0.0512791466     -85.7165124      0.997481496      2.93855737       
1.39             0.997550428      2.89337258       0.0504910862     -85.7734079      0.0504910862     -85.7734079      0.997550428      2.89337258       
1.41             0.997616545      2.84941758       0.0497244541     -85.8287148      0.0497244541     -85.8287148      0.997616545      2.84941758       
1.43             0.997679997      2.80664116       0.0489783592     -85.8824965      0.0489783592     -85.8824965      0.997679997      2.80664116       
1.45             0.997740926      2.76499492       0.0482519594     -85.9348131      0.0482519594     -85.9348131      0.997740926      2.76499492       
1.47             0.997799463      2.72443307       0.0475444576     -85.9857214      0.0475444576     -85.9857214      0.997799463      2.72443307       
1.49             0.997855732      2.68491227       0.0468550993     -86.0352751      0.0468550993     -86.0352751      0.997855732      2.68491227       
1.51             0.997909848      2.64639145       0.0461831695     -86.0835252      0.0461831695     -86.0835252      0.997909848      2.64639145       
1.53             0.997961918      2.60883165       0.0455279901     -86.13052        0.0455279901     -86.13052        0.997961918      2.60883165       
1.55             0.998012045      2.57219593       0.0448889178     -86.1763052      0.0448889178     -86.1763052      0.998012045      2.57219593       
1.57             0.998060322      2.53644921       0.0442653418     -86.2209242      0.0442653418     -86.2209242      0.998060322      2.53644921       
1.59             0.99810684       2.50155815       0.0436566816     -86.2644185      0.0436566816     -86.2644185      0.99810684       2.50155815       
1.61             0.998151682      2.46749107       0.0430623855     -86.306827       0.0430623855     -86.306827       0.998151682      2.46749107       
1.63             0.998194926      2.43421783       0.0424819284     -86.3481873      0.0424819284     -86.3481873      0.998194926      2.43421783       
1.65             0.998236647      2.40170973       0.0419148106     -86.3885347      0.0419148106     -86.3885347      0.998236647      2.40170973       
1.67             0.998276916      2.36993944       0.0413605561     -86.427903       0.0413605561     -86.427903       0.998276916      2.36993944       
1.69             0.998315797      2.33888092       0.0408187113     -86.4663244      0.0408187113     -86.4663244      0.998315797      2.33888092       
1.71             0.998353352      2.30850934       0.0402888436     -86.5038294      0.0402888436     -86.5038294      0.998353352      2.30850934       
1.73             0.998389642      2.278801         0.0397705402     -86.5404474      0.0397705402     -86.5404474      0.998389642      2.278801         
1.75             0.99842472       2.24973328       0.0392634071     -86.5762062      0.0392634071     -86.5762062      0.99842472       2.24973328       
1.77             0.99845864       2.2212846        0.038767068      -86.6111323      0.038767068      -86.6111323      0.99845864       2.2212846        
1.79             0.99849145       2.19343429       0.0382811632     -86.6452512      0.0382811632     -86.6452512      0.99849145       2.19343429       
1.81             0.998523198      2.16616264       0.0378053489     -86.6785871      0.0378053489     -86.6785871      0.998523198      2.16616264       
1.83             0.998553929      2.13945076       0.0373392961     -86.7111631      0.0373392961     -86.7111631      0.998553929      2.13945076       
1.85             0.998583683      2.11328058       0.03688269       -86.7430014      0.03688269       -86.7430014      0.998583683      2.11328058       
1.87             0.998612502      2.08763482       0.0364352292     -86.7741232      0.0364352292     -86.7741232      0.998612502      2.08763482       
1.89             0.998640422      2.06249689       0.0359966249     -86.8045488      0.0359966249     -86.8045488      0.998640422      2.06249689       
1.91             0.99866748       2.03785093       0.0355666005     -86.8342974      0.0355666005     -86.8342974      0.99866748       2.03785093       
1.93             0.99869371       2.0136817        0.0351448905     -86.8633877      0.0351448905     -86.8633877      0.99869371       2.0136817        
1.95             0.998719144      1.9899746        0.0347312405     -86.8918374      0.0347312405     -86.8918374      0.998719144      1.9899746        
1.97             0.998743814      1.96671562       0.0343254061     -86.9196636      0.0343254061     -86.9196636      0.998743814      1.96671562       
1.99             0.998767748      1.94389131       0.033927153      -86.9468825      0.033927153      -86.9468825      0.998767748      1.94389131       
2.01             0.998790974      1.92148874       0.0335362559     -86.9735099      0.0335362559     -86.9735099      0.998790974      1.92148874       
2.03             0.998813519      1.89949551       0.0331524983     -86.9995606      0.0331524983     -86.9995606      0.998813519      1.89949551       
2.05             0.998835408      1.87789968       0.0327756725     -87.025049       0.0327756725     -87.025049       0.998835408      1.87789968       
2.07             0.998856665      1.85668978       0.0324055783     -87.049989       0.0324055783     -87.049989       0.998856665      1.85668978       
2.09             0.998877314      1.83585477       0.0320420233     -87.0743938      0.0320420233     -87.0743938      0.998877314      1.83585477       
2.11             0.998897376      1.81538403       0.0316848225     -87.0982761      0.0316848225     -87.0982761      0.998897376      1.81538403       
2.13             0.998916872      1.79526735       0.0313337977     -87.121648       0.0313337977     -87.121648       0.998916872      1.79526735       
2.15             0.998935822      1.77549488       0.0309887771     -87.1445212      0.0309887771     -87.1445212      0.998935822      1.77549488       
2.17             0.998954245      1.75605713       0.0306495956     -87.1669071      0.0306495956     -87.1669071      0.998954245      1.75605713       
2.19             0.99897216       1.73694498       0.0303160938     -87.1888163      0.0303160938     -87.1888163      0.99897216       1.73694498       
2.21             0.998989584      1.7181496        0.0299881182     -87.2102594      0.0299881182     -87.2102594      0.998989584      1.7181496        
2.23             0.999006533      1.69966252       0.0296655206     -87.2312461      0.0296655206     -87.2312461      0.999006533      1.69966252       
2.25             0.999023024      1.68147553       0.0293481583     -87.2517861      0.0293481583     -87.2517861      0.999023024      1.68147553       
2.27             0.999039072      1.66358074       0.0290358934     -87.2718886      0.0290358934     -87.2718886      0.999039072      1.66358074       
2.29             0.999054691      1.64597051       0.0287285928     -87.2915624      0.0287285928     -87.2915624      0.999054691      1.64597051       
2.31             0.999069896      1.62863747       0.0284261281     -87.3108161      0.0284261281     -87.3108161      0.999069896      1.62863747       
2.33             0.9990847        1.61157452       0.0281283753     -87.3296577      0.0281283753     -87.3296577      0.9990847        1.61157452       
2.35             0.999099116      1.59477477       0.0278352144     -87.3480952      0.0278352144     -87.3480952      0.999099116      1.59477477       
2.37             0.999113155      1.5782316        0.0275465298     -87.366136       0.0275465298     -87.366136       0.999113155      1.5782316        
2.39             0.999126831      1.56193856       0.0272622093     -87.3837875      0.0272622093     -87.3837875      0.999126831      1.56193856       
2.41             0.999140155      1.54588947       0.0269821448     -87.4010566      0.0269821448     -87.4010566      0.999140155      1.54588947       
2.43             0.999153136      1.5300783        0.0267062315     -87.4179499      0.0267062315     -87.4179499      0.999153136      1.5300783        
2.45             0.999165787      1.51449927       0.0264343681     -87.434474       0.0264343681     -87.434474       0.999165787      1.51449927       
2.47             0.999178116      1.49914673       0.0261664566     -87.450635       0.0261664566     -87.450635       0.999178116      1.49914673       
2.49             0.999190135      1.48401525       0.0259024021     -87.4664388      0.0259024021     -87.4664388      0.999190135      1.48401525       
2.51             0.999201851      1.46909957       0.0256421127     -87.4818912      0.0256421127     -87.4818912      0.999201851      1.46909957       
2.53             0.999213273      1.45439457       0.0253854993     -87.4969976      0.0253854993     -87.4969976      0.999213273      1.45439457       
2.55             0.999224412      1.43989533       0.0251324759     -87.5117634      0.0251324759     -87.5117634      0.999224412      1.43989533       
2.57             0.999235274      1.42559703       0.0248829588     -87.5261935      0.0248829588     -87.5261935      0.999235274      1.42559703       
