! Coilcraft 1812LS-563 Chip Inductor				
! 8 August 2002			
# MHZ S MA R 50
!Freq             MagS11           AngS11           MagS21           AngS21           MagS12           AngS12           MagS22           AngS22
0.03             0.115342916      51.387731        0.932386831      -5.54705134      0.932386831      -5.54705134      0.115342916      51.387731        
0.085            0.272010483      59.6426473       0.893893765      -15.2229746      0.893893765      -15.2229746      0.272010483      59.6426473       
0.14             0.413030779      55.7366179       0.839954429      -23.9785317      0.839954429      -23.9785317      0.413030779      55.7366179       
0.195            0.529424726      50.3888385       0.777943171      -31.6200426      0.777943171      -31.6200426      0.529424726      50.3888385       
0.25             0.621712942      45.2273743       0.714694483      -38.1373388      0.714694483      -38.1373388      0.621712942      45.2273743       
0.305            0.693499886      40.6361763       0.654525083      -43.632759       0.654525083      -43.632759       0.693499886      40.6361763       
0.36             0.749029044      36.6669877       0.599518461      -48.2524868      0.599518461      -48.2524868      0.749029044      36.6669877       
0.415            0.792103303      33.2675803       0.550312794      -52.1449449      0.550312794      -52.1449449      0.792103303      33.2675803       
0.47             0.825771004      30.3585082       0.506769527      -55.4421713      0.506769527      -55.4421713      0.825771004      30.3585082       
0.525            0.852351934      27.8607244       0.468400132      -58.2544937      0.468400132      -58.2544937      0.852351934      27.8607244       
0.58             0.873571109      25.7046408       0.434601139      -60.6713236      0.434601139      -60.6713236      0.873571109      25.7046408       
0.635            0.890701443      23.8319838       0.404770076      -62.7641352      0.404770076      -62.7641352      0.890701443      23.8319838       
0.69             0.904683065      22.1950121       0.378355735      -64.5898173      0.378355735      -64.5898173      0.904683065      22.1950121       
0.745            0.916214254      20.7549483       0.354874932      -66.1936967      0.354874932      -66.1936967      0.916214254      20.7549483       
0.8              0.925817943      19.4803487       0.333913404      -67.6120365      0.333913404      -67.6120365      0.925817943      19.4803487       
0.855            0.933889505      18.3456623       0.31511995       -68.8740168      0.31511995       -68.8740168      0.933889505      18.3456623       
0.91             0.940730894      17.3300394       0.298198322      -70.0032758      0.298198322      -70.0032758      0.940730894      17.3300394       
0.965            0.946575073      16.4163752       0.282898951      -71.0190982      0.282898951      -71.0190982      0.946575073      16.4163752       
1.02             0.951603571      15.5905537       0.269011383      -71.9373296      0.269011383      -71.9373296      0.951603571      15.5905537       
1.075            0.955959213      14.8408547       0.256357724      -72.7710822      0.256357724      -72.7710822      0.955959213      14.8408547       
1.13             0.959755404      14.1574862       0.244787118      -73.5312806      0.244787118      -73.5312806      0.959755404      14.1574862       
1.185            0.963082982      13.5322185       0.234171156      -74.227087       0.234171156      -74.227087       0.963082982      13.5322185       
1.24             0.966015315      12.9580935       0.224400098      -74.8662336      0.224400098      -74.8662336      0.966015315      12.9580935       
1.295            0.968612119      12.4291957       0.215379769      -75.4552853      0.215379769      -75.4552853      0.968612119      12.4291957       
1.35             0.970922364      11.9404685       0.207029018      -75.9998471      0.207029018      -75.9998471      0.970922364      11.9404685       
1.405            0.972986481      11.4875672       0.199277624      -76.5047303      0.199277624      -76.5047303      0.972986481      11.4875672       
1.46             0.974838073      11.0667407       0.192064581      -76.9740859      0.192064581      -76.9740859      0.974838073      11.0667407       
1.515            0.97650524       10.6747351       0.185336683      -77.4115123      0.185336683      -77.4115123      0.97650524       10.6747351       
1.57             0.978011615      10.3087155       0.179047347      -77.8201432      0.179047347      -77.8201432      0.978011615      10.3087155       
1.625            0.979377186      9.96620195       0.17315564       -78.2027189      0.17315564       -78.2027189      0.979377186      9.96620195       
1.68             0.980618944      9.64501579       0.167625468      -78.5616459      0.167625468      -78.5616459      0.980618944      9.64501579       
1.735            0.981751402      9.34323637       0.162424899      -78.8990454      0.162424899      -78.8990454      0.981751402      9.34323637       
1.79             0.982787016      9.05916424       0.157525587      -79.2167939      0.157525587      -79.2167939      0.982787016      9.05916424       
1.845            0.983736522      8.79129057       0.152902294      -79.5165573      0.152902294      -79.5165573      0.983736522      8.79129057       
1.9              0.984609214      8.53827146       0.148532483      -79.7998193      0.148532483      -79.7998193      0.984609214      8.53827146       
1.955            0.985413165      8.29890623       0.144395968      -80.0679055      0.144395968      -80.0679055      0.985413165      8.29890623       
2.01             0.986155419      8.07211903       0.140474627      -80.3220036      0.140474627      -80.3220036      0.986155419      8.07211903       
2.065            0.98684214       7.85694315       0.13675214       -80.5631809      0.13675214       -80.5631809      0.98684214       7.85694315       
2.12             0.987478742      7.65250767       0.13321378       -80.792399       0.13321378       -80.792399       0.987478742      7.65250767       
2.175            0.988069996      7.45802597       0.12984622       -81.0105265      0.12984622       -81.0105265      0.988069996      7.45802597       
2.23             0.988620118      7.27278583       0.126637377      -81.2183498      0.126637377      -81.2183498      0.988620118      7.27278583       
2.285            0.989132844      7.09614094       0.123576271      -81.4165828      0.123576271      -81.4165828      0.989132844      7.09614094       
2.34             0.989611498      6.92750345       0.120652899      -81.6058747      0.120652899      -81.6058747      0.989611498      6.92750345       
2.395            0.990059039      6.7663376        0.117858137      -81.7868174      0.117858137      -81.7868174      0.990059039      6.7663376        
2.45             0.990478114      6.61215408       0.115183638      -81.9599514      0.115183638      -81.9599514      0.990478114      6.61215408       
2.505            0.990871093      6.46450514       0.112621759      -82.1257716      0.112621759      -82.1257716      0.990871093      6.46450514       
2.56             0.991240104      6.32298031       0.110165486      -82.2847314      0.110165486      -82.2847314      0.991240104      6.32298031       
2.615            0.99158706       6.18720261       0.10780837       -82.4372476      0.10780837       -82.4372476      0.99158706       6.18720261       
2.67             0.991913691      6.05682519       0.105544474      -82.5837034      0.105544474      -82.5837034      0.991913691      6.05682519       
2.725            0.992221556      5.93152845       0.10336832       -82.7244522      0.10336832       -82.7244522      0.992221556      5.93152845       
2.78             0.992512069      5.8110174        0.101274851      -82.8598202      0.101274851      -82.8598202      0.992512069      5.8110174        
2.835            0.992786512      5.69501934       0.0992593866     -82.9901089      0.0992593866     -82.9901089      0.992786512      5.69501934       
2.89             0.993046051      5.58328182       0.0973175927     -83.1155974      0.0973175927     -83.1155974      0.993046051      5.58328182       
2.945            0.993291748      5.47557078       0.0954454474     -83.2365445      0.0954454474     -83.2365445      0.993291748      5.47557078       
3                0.993524571      5.37166893       0.0936392148     -83.3531906      0.0936392148     -83.3531906      0.993524571      5.37166893       
3.055            0.993745404      5.27137429       0.0918954202     -83.4657591      0.0918954202     -83.4657591      0.993745404      5.27137429       
3.11             0.993955058      5.17449886       0.0902108277     -83.5744579      0.0902108277     -83.5744579      0.993955058      5.17449886       
3.165            0.994154274      5.0808674        0.0885824197     -83.6794808      0.0885824197     -83.6794808      0.994154274      5.0808674        
3.22             0.994343734      4.99031644       0.0870073796     -83.7810087      0.0870073796     -83.7810087      0.994343734      4.99031644       
3.275            0.994524065      4.90269326       0.085483075      -83.8792104      0.085483075      -83.8792104      0.994524065      4.90269326       
3.33             0.994695842      4.81785502       0.0840070428     -83.974244       0.0840070428     -83.974244       0.994695842      4.81785502       
3.385            0.994859598      4.73566803       0.0825769763     -84.0662573      0.0825769763     -84.0662573      0.994859598      4.73566803       
3.44             0.995015822      4.65600696       0.0811907128     -84.1553889      0.0811907128     -84.1553889      0.995015822      4.65600696       
3.495            0.99516497       4.57875425       0.0798462227     -84.2417689      0.0798462227     -84.2417689      0.99516497       4.57875425       
3.55             0.995307459      4.5037995        0.078541599      -84.3255192      0.078541599      -84.3255192      0.995307459      4.5037995        
3.605            0.99544368       4.43103895       0.0772750491     -84.4067546      0.0772750491     -84.4067546      0.99544368       4.43103895       
3.66             0.995573992      4.36037495       0.0760448855     -84.4855829      0.0760448855     -84.4855829      0.995573992      4.36037495       
3.715            0.99569873       4.29171557       0.0748495187     -84.5621059      0.0748495187     -84.5621059      0.99569873       4.29171557       
3.77             0.995818207      4.22497414       0.0736874502     -84.6364192      0.0736874502     -84.6364192      0.995818207      4.22497414       
3.825            0.995932711      4.16006893       0.072557266      -84.7086132      0.072557266      -84.7086132      0.995932711      4.16006893       
3.88             0.996042512      4.09692275       0.0714576307     -84.7787729      0.0714576307     -84.7787729      0.996042512      4.09692275       
3.935            0.996147862      4.03546269       0.0703872822     -84.8469789      0.0703872822     -84.8469789      0.996147862      4.03546269       
3.99             0.996248996      3.97561978       0.069345027      -84.9133074      0.069345027      -84.9133074      0.996248996      3.97561978       
4.045            0.996346134      3.91732879       0.0683297349     -84.9778301      0.0683297349     -84.9778301      0.996346134      3.91732879       
4.1              0.99643948       3.86052789       0.0673403359     -85.0406153      0.0673403359     -85.0406153      0.99643948       3.86052789       
4.155            0.996529227      3.80515854       0.0663758153     -85.1017274      0.0663758153     -85.1017274      0.996529227      3.80515854       
4.21             0.996615555      3.75116519       0.0654352108     -85.1612277      0.0654352108     -85.1612277      0.996615555      3.75116519       
4.265            0.996698632      3.69849512       0.0645176088     -85.2191741      0.0645176088     -85.2191741      0.996698632      3.69849512       
4.32             0.996778618      3.64709828       0.0636221417     -85.2756216      0.0636221417     -85.2756216      0.996778618      3.64709828       
4.375            0.99685566       3.5969271        0.0627479848     -85.3306225      0.0627479848     -85.3306225      0.99685566       3.5969271        
4.43             0.996929898      3.54793634       0.0618943536     -85.3842265      0.0618943536     -85.3842265      0.996929898      3.54793634       
4.485            0.997001464      3.50008296       0.0610605019     -85.4364808      0.0610605019     -85.4364808      0.997001464      3.50008296       
4.54             0.997070482      3.453326         0.0602457188     -85.4874302      0.0602457188     -85.4874302      0.997070482      3.453326         
4.595            0.997137067      3.4076264        0.0594493273     -85.5371175      0.0594493273     -85.5371175      0.997137067      3.4076264        
4.65             0.997201332      3.36294698       0.0586706816     -85.5855834      0.0586706816     -85.5855834      0.997201332      3.36294698       
4.705            0.997263378      3.31925224       0.0579091661     -85.6328667      0.0579091661     -85.6328667      0.997263378      3.31925224       
4.76             0.997323303      3.27650833       0.0571641932     -85.6790042      0.0571641932     -85.6790042      0.997323303      3.27650833       
4.815            0.997381201      3.23468291       0.0564352016     -85.7240312      0.0564352016     -85.7240312      0.997381201      3.23468291       
4.87             0.997437159      3.19374512       0.0557216554     -85.7679813      0.0557216554     -85.7679813      0.997437159      3.19374512       
4.925            0.997491259      3.15366543       0.0550230419     -85.8108865      0.0550230419     -85.8108865      0.997491259      3.15366543       
4.98             0.997543579      3.11441563       0.0543388713     -85.8527775      0.0543388713     -85.8527775      0.997543579      3.11441563       
5.035            0.997594195      3.07596872       0.0536686747     -85.8936834      0.0536686747     -85.8936834      0.997594195      3.07596872       
5.09             0.997643175      3.03829885       0.0530120031     -85.9336322      0.0530120031     -85.9336322      0.997643175      3.03829885       
5.145            0.997690587      3.00138129       0.0523684268     -85.9726506      0.0523684268     -85.9726506      0.997690587      3.00138129       
5.2              0.997736493      2.96519231       0.0517375338     -86.0107641      0.0517375338     -86.0107641      0.997736493      2.96519231       
5.255            0.997780954      2.92970921       0.0511189294     -86.0479971      0.0511189294     -86.0479971      0.997780954      2.92970921       
5.31             0.997824026      2.89491019       0.0505122351     -86.084373       0.0505122351     -86.084373       0.997824026      2.89491019       
5.365            0.997865765      2.86077435       0.0499170874     -86.119914       0.0499170874     -86.119914       0.997865765      2.86077435       
5.42             0.99790622       2.82728163       0.0493331379     -86.1546417      0.0493331379     -86.1546417      0.99790622       2.82728163       
5.475            0.997945442      2.79441277       0.0487600517     -86.1885763      0.0487600517     -86.1885763      0.997945442      2.79441277       
5.53             0.997983476      2.76214927       0.0481975073     -86.2217377      0.0481975073     -86.2217377      0.997983476      2.76214927       
5.585            0.998020367      2.73047336       0.0476451956     -86.2541445      0.0476451956     -86.2541445      0.998020367      2.73047336       
5.64             0.998056158      2.69936795       0.0471028197     -86.2858147      0.0471028197     -86.2858147      0.998056158      2.69936795       
5.695            0.998090888      2.6688166        0.0465700937     -86.3167657      0.0465700937     -86.3167657      0.998090888      2.6688166        
5.75             0.998124596      2.63880351       0.0460467429     -86.3470139      0.0460467429     -86.3470139      0.998124596      2.63880351       
5.805            0.998157319      2.60931346       0.0455325027     -86.3765751      0.0455325027     -86.3765751      0.998157319      2.60931346       
5.86             0.998189091      2.58033182       0.0450271184     -86.4054647      0.0450271184     -86.4054647      0.998189091      2.58033182       
5.915            0.998219946      2.55184448       0.0445303447     -86.4336971      0.0445303447     -86.4336971      0.998219946      2.55184448       
5.97             0.998249916      2.52383784       0.0440419453     -86.4612864      0.0440419453     -86.4612864      0.998249916      2.52383784       
6.025            0.998279032      2.49629883       0.0435616925     -86.4882459      0.0435616925     -86.4882459      0.998279032      2.49629883       
6.08             0.998307322      2.46921481       0.0430893666     -86.5145885      0.0430893666     -86.5145885      0.998307322      2.46921481       
6.135            0.998334815      2.44257361       0.0426247559     -86.5403266      0.0426247559     -86.5403266      0.998334815      2.44257361       
6.19             0.998361536      2.41636349       0.0421676561     -86.5654719      0.0421676561     -86.5654719      0.998361536      2.41636349       
6.245            0.998387512      2.39057312       0.04171787       -86.5900358      0.04171787       -86.5900358      0.998387512      2.39057312       
6.3              0.998412768      2.36519155       0.0412752073     -86.6140293      0.0412752073     -86.6140293      0.998412768      2.36519155       
6.355            0.998437325      2.34020823       0.0408394842     -86.6374627      0.0408394842     -86.6374627      0.998437325      2.34020823       
6.41             0.998461208      2.31561296       0.0404105232     -86.6603461      0.0404105232     -86.6603461      0.998461208      2.31561296       
6.465            0.998484437      2.29139587       0.0399881529     -86.6826891      0.0399881529     -86.6826891      0.998484437      2.29139587       
6.52             0.998507033      2.26754745       0.0395722073     -86.7045009      0.0395722073     -86.7045009      0.998507033      2.26754745       
6.575            0.998529016      2.24405849       0.0391625263     -86.7257903      0.0391625263     -86.7257903      0.998529016      2.24405849       
6.63             0.998550405      2.22092008       0.038758955      -86.7465658      0.038758955      -86.7465658      0.998550405      2.22092008       
6.685            0.998571218      2.19812361       0.0383613433     -86.7668355      0.0383613433     -86.7668355      0.998571218      2.19812361       
6.74             0.998591473      2.17566075       0.0379695462     -86.7866072      0.0379695462     -86.7866072      0.998591473      2.17566075       
6.795            0.998611186      2.15352342       0.0375834234     -86.8058884      0.0375834234     -86.8058884      0.998611186      2.15352342       
6.85             0.998630373      2.13170384       0.037202839      -86.8246861      0.037202839      -86.8246861      0.998630373      2.13170384       
6.905            0.998649051      2.11019443       0.0368276613     -86.8430072      0.0368276613     -86.8430072      0.998649051      2.11019443       
6.96             0.998667234      2.08898788       0.036457763      -86.8608583      0.036457763      -86.8608583      0.998667234      2.08898788       
7.015            0.998684937      2.06807709       0.0360930205     -86.8782456      0.0360930205     -86.8782456      0.998684937      2.06807709       
