! Coilcraft 1812LS-333 Chip Inductor				
! 8 August 2002			
# MHZ S MA R 50
!Freq             MagS11           AngS11           MagS21           AngS21           MagS12           AngS12           MagS22           AngS22
0.03             0.0795995437     44.2048915       0.944570828      -3.36839213      0.944570828      -3.36839213      0.0795995437     44.2048915       
0.142            0.272577923      60.1104717       0.895897091      -15.2946061      0.895897091      -15.2946061      0.272577923      60.1104717       
0.254            0.441552618      54.5950269       0.826643817      -25.809124       0.826643817      -25.809124       0.441552618      54.5950269       
0.366            0.573093748      47.9462355       0.748791268      -34.6311645      0.748791268      -34.6311645      0.573093748      47.9462355       
0.478            0.670882796      41.9875626       0.672876438      -41.8349598      0.672876438      -41.8349598      0.670882796      41.9875626       
0.59             0.742459719      36.9769126       0.604133299      -47.6645954      0.604133299      -47.6645954      0.742459719      36.9769126       
0.702            0.794967177      32.8344459       0.544100295      -52.3925572      0.544100295      -52.3925572      0.794967177      32.8344459       
0.814            0.833928404      29.4115455       0.49248524       -56.2580556      0.49248524       -56.2580556      0.833928404      29.4115455       
0.926            0.863289286      26.5656767       0.448305699      -59.4521572      0.448305699      -59.4521572      0.863289286      26.5656767       
1.038            0.885788279      24.1785648       0.410437189      -62.121621       0.410437189      -62.121621       0.885788279      24.1785648       
1.15             0.903315792      22.1568821       0.377834816      -64.3776636      0.377834816      -64.3776636      0.903315792      22.1568821       
1.262            0.917185024      20.428248        0.349602362      -66.304505       0.349602362      -66.304505       0.917185024      20.428248        
1.374            0.928319092      18.9366915       0.324997879      -67.9662851      0.324997879      -67.9662851      0.928319092      18.9366915       
1.486            0.937376257      17.6387631       0.30341649       -69.4122847      0.30341649       -69.4122847      0.937376257      17.6387631       
1.598            0.944833055      16.5004915       0.284367628      -70.6807578      0.284367628      -70.6807578      0.944833055      16.5004915       
1.71             0.951039684      15.4950856       0.267453332      -71.8017167      0.267453332      -71.8017167      0.951039684      15.4950856       
1.822            0.956257252      14.601221        0.252349722      -72.7989587      0.252349722      -72.7989587      0.956257252      14.601221        
1.934            0.960683126      13.8017676       0.238791911      -73.6915466      0.238791911      -73.6915466      0.960683126      13.8017676       
2.046            0.964468428      13.0828395       0.22656202       -74.4948999      0.22656202       -74.4948999      0.964468428      13.0828395       
2.158            0.967730271      12.4330834       0.215479734      -75.2216061      0.215479734      -75.2216061      0.967730271      12.4330834       
2.27             0.97056043       11.8431404       0.20539489       -75.8820296      0.20539489       -75.8820296      0.97056043       11.8431404       
2.382            0.973031579      11.3052353       0.196181664      -76.4847729      0.196181664      -76.4847729      0.973031579      11.3052353       
2.494            0.975201823      10.8128621       0.187733992      -77.0370303      0.187733992      -77.0370303      0.975201823      10.8128621       
2.606            0.977118041      10.3605393       0.179961941      -77.5448606      0.179961941      -77.5448606      0.977118041      10.3605393       
2.718            0.978818369      9.94361888       0.172788838      -78.0133998      0.172788838      -78.0133998      0.978818369      9.94361888       
2.83             0.980334078      9.55813616       0.166148964      -78.4470284      0.166148964      -78.4470284      0.980334078      9.55813616       
2.942            0.981690992      9.20069007       0.159985706      -78.8495042      0.159985706      -78.8495042      0.981690992      9.20069007       
3.054            0.982910586      8.8683477        0.15425006       -79.2240676      0.15425006       -79.2240676      0.982910586      8.8683477        
3.166            0.984010833      8.55856725       0.148899418      -79.5735276      0.148899418      -79.5735276      0.984010833      8.55856725       
3.278            0.98500686       8.26913564       0.143896571      -79.9003301      0.143896571      -79.9003301      0.98500686       8.26913564       
3.39             0.985911476      7.99811748       0.139208895      -80.2066148      0.139208895      -80.2066148      0.985911476      7.99811748       
3.502            0.986735581      7.74381324       0.134807672      -80.4942611      0.134807672      -80.4942611      0.986735581      7.74381324       
3.614            0.987488497      7.50472468       0.130667531      -80.7649263      0.130667531      -80.7649263      0.987488497      7.50472468       
3.726            0.988178236      7.27952612       0.126765981      -81.0200772      0.126765981      -81.0200772      0.988178236      7.27952612       
3.838            0.988811712      7.06704047       0.123083015      -81.261017       0.123083015      -81.261017       0.988811712      7.06704047       
3.95             0.989394917      6.86621912       0.119600783      -81.4889067      0.119600783      -81.4889067      0.989394917      6.86621912       
4.062            0.989933065      6.676125         0.116303309      -81.7047845      0.116303309      -81.7047845      0.989933065      6.676125         
4.174            0.99043071       6.4959182        0.113176253      -81.9095812      0.113176253      -81.9095812      0.99043071       6.4959182        
4.286            0.990891845      6.32484378       0.110206714      -82.1041338      0.110206714      -82.1041338      0.990891845      6.32484378       
4.398            0.991319979      6.16222134       0.107383046      -82.289197       0.107383046      -82.289197       0.991319979      6.16222134       
4.51             0.991718211      6.00743612       0.104694721      -82.465453       0.104694721      -82.465453       0.991718211      6.00743612       
4.622            0.992089282      5.85993124       0.102132189      -82.63352        0.102132189      -82.63352        0.992089282      5.85993124       
4.734            0.992435624      5.71920116       0.0996867741     -82.7939595      0.0996867741     -82.7939595      0.992435624      5.71920116       
4.846            0.992759405      5.58478587       0.0973505755     -82.9472826      0.0973505755     -82.9472826      0.992759405      5.58478587       
4.958            0.993062556      5.45626589       0.0951163827     -83.0939556      0.0951163827     -83.0939556      0.993062556      5.45626589       
5.07             0.993346808      5.33325798       0.0929776031     -83.2344047      0.0929776031     -83.2344047      0.993346808      5.33325798       
5.182            0.993613711      5.21541125       0.090928197      -83.3690203      0.090928197      -83.3690203      0.993613711      5.21541125       
5.294            0.99386466       5.10240389       0.0889626213     -83.4981605      0.0889626213     -83.4981605      0.99386466       5.10240389       
5.406            0.994100912      4.99394019       0.08707578       -83.6221546      0.08707578       -83.6221546      0.994100912      4.99394019       
5.518            0.994323602      4.88974799       0.0852629797     -83.7413058      0.0852629797     -83.7413058      0.994323602      4.88974799       
5.63             0.994533756      4.78957634       0.0835198912     -83.8558937      0.0835198912     -83.8558937      0.994533756      4.78957634       
5.742            0.994732304      4.69319354       0.0818425151     -83.9661767      0.0818425151     -83.9661767      0.994732304      4.69319354       
5.854            0.994920093      4.60038528       0.0802271506     -84.0723937      0.0802271506     -84.0723937      0.994920093      4.60038528       
5.966            0.995097893      4.51095309       0.0786703687     -84.1747662      0.0786703687     -84.1747662      0.995097893      4.51095309       
6.078            0.995266404      4.42471286       0.0771689877     -84.2734997      0.0771689877     -84.2734997      0.995266404      4.42471286       
6.19             0.995426267      4.34149361       0.0757200513     -84.368785       0.0757200513     -84.368785       0.995426267      4.34149361       
6.302            0.995578068      4.26113632       0.0743208091     -84.4607998      0.0743208091     -84.4607998      0.995578068      4.26113632       
6.414            0.995722345      4.1834929        0.072968699      -84.5497095      0.072968699      -84.5497095      0.995722345      4.1834929        
6.526            0.995859589      4.10842531       0.0716613316     -84.6356684      0.0716613316     -84.6356684      0.995859589      4.10842531       
6.638            0.995990254      4.03580465       0.0703964757     -84.7188205      0.0703964757     -84.7188205      0.995990254      4.03580465       
6.75             0.996114756      3.9655105        0.0691720455     -84.7993005      0.0691720455     -84.7993005      0.996114756      3.9655105        
6.862            0.99623348       3.89743017       0.0679860892     -84.8772345      0.0679860892     -84.8772345      0.99623348       3.89743017       
6.974            0.996346778      3.83145813       0.0668367783     -84.9527405      0.0668367783     -84.9527405      0.996346778      3.83145813       
7.086            0.996454979      3.76749544       0.0657223978     -85.0259293      0.0657223978     -85.0259293      0.996454979      3.76749544       
7.198            0.996558385      3.70544922       0.0646413379     -85.0969047      0.0646413379     -85.0969047      0.996558385      3.70544922       
7.31             0.996657278      3.64523225       0.0635920861     -85.1657644      0.0635920861     -85.1657644      0.996657278      3.64523225       
7.422            0.996751916      3.58676249       0.0625732197     -85.2326003      0.0625732197     -85.2326003      0.996751916      3.58676249       
7.534            0.996842542      3.52996274       0.0615833993     -85.2974989      0.0615833993     -85.2974989      0.996842542      3.52996274       
7.646            0.996929379      3.47476025       0.0606213631     -85.3605415      0.0606213631     -85.3605415      0.996929379      3.47476025       
7.758            0.997012638      3.42108646       0.059685921      -85.421805       0.059685921      -85.421805       0.997012638      3.42108646       
7.87             0.997092511      3.36887665       0.0587759498     -85.4813619      0.0587759498     -85.4813619      0.997092511      3.36887665       
7.982            0.997169181      3.3180697        0.0578903886     -85.5392806      0.0578903886     -85.5392806      0.997169181      3.3180697        
8.094            0.997242817      3.26860784       0.0570282344     -85.5956259      0.0570282344     -85.5956259      0.997242817      3.26860784       
8.206            0.997313577      3.22043643       0.0561885384     -85.6504588      0.0561885384     -85.6504588      0.997313577      3.22043643       
8.318            0.997381609      3.17350375       0.055370402      -85.7038374      0.055370402      -85.7038374      0.997381609      3.17350375       
8.43             0.99744705       3.12776078       0.0545729742     -85.7558166      0.0545729742     -85.7558166      0.99744705       3.12776078       
8.542            0.997510032      3.08316107       0.053795448      -85.8064483      0.053795448      -85.8064483      0.997510032      3.08316107       
8.654            0.997570674      3.03966055       0.0530370575     -85.855782       0.0530370575     -85.855782       0.997570674      3.03966055       
8.766            0.997629092      2.99721738       0.0522970757     -85.9038643      0.0522970757     -85.9038643      0.997629092      2.99721738       
8.878            0.997685393      2.95579182       0.0515748119     -85.9507399      0.0515748119     -85.9507399      0.997685393      2.95579182       
8.99             0.997739676      2.91534608       0.0508696096     -85.9964509      0.0508696096     -85.9964509      0.997739676      2.91534608       
9.102            0.997792037      2.87584423       0.0501808439     -86.0410376      0.0501808439     -86.0410376      0.997792037      2.87584423       
9.214            0.997842565      2.83725207       0.0495079204     -86.0845381      0.0495079204     -86.0845381      0.997842565      2.83725207       
9.326            0.997891344      2.79953703       0.0488502727     -86.126989       0.0488502727     -86.126989       0.997891344      2.79953703       
9.438            0.997938452      2.76266807       0.0482073612     -86.1684247      0.0482073612     -86.1684247      0.997938452      2.76266807       
9.55             0.997983965      2.7266156        0.0475786713     -86.2088785      0.0475786713     -86.2088785      0.997983965      2.7266156        
9.662            0.998027953      2.6913514        0.046963712      -86.2483817      0.046963712      -86.2483817      0.998027953      2.6913514        
9.774            0.998070483      2.65684851       0.0463620149     -86.2869644      0.0463620149     -86.2869644      0.998070483      2.65684851       
9.886            0.998111617      2.62308122       0.0457731322     -86.3246552      0.0457731322     -86.3246552      0.998111617      2.62308122       
9.998            0.998151415      2.59002493       0.0451966363     -86.3614816      0.0451966363     -86.3614816      0.998151415      2.59002493       
10.11            0.998189934      2.55765614       0.0446321183     -86.3974696      0.0446321183     -86.3974696      0.998189934      2.55765614       
10.222           0.998227226      2.52595238       0.0440791871     -86.4326443      0.0440791871     -86.4326443      0.998227226      2.52595238       
10.334           0.998263343      2.49489213       0.0435374685     -86.4670295      0.0435374685     -86.4670295      0.998263343      2.49489213       
10.446           0.998298331      2.4644548        0.043006604      -86.5006481      0.043006604      -86.5006481      0.998298331      2.4644548        
10.558           0.998332238      2.43462067       0.0424862504     -86.5335219      0.0424862504     -86.5335219      0.998332238      2.43462067       
10.67            0.998365105      2.40537083       0.0419760787     -86.5656717      0.0419760787     -86.5656717      0.998365105      2.40537083       
10.782           0.998396975      2.37668716       0.0414757735     -86.5971178      0.0414757735     -86.5971178      0.998396975      2.37668716       
10.894           0.998427885      2.34855228       0.0409850324     -86.6278791      0.0409850324     -86.6278791      0.998427885      2.34855228       
11.006           0.998457873      2.32094952       0.040503565      -86.6579741      0.040503565      -86.6579741      0.998457873      2.32094952       
11.118           0.998486974      2.29386286       0.0400310927     -86.6874204      0.0400310927     -86.6874204      0.998486974      2.29386286       
11.23            0.998515222      2.26727695       0.0395673478     -86.7162348      0.0395673478     -86.7162348      0.998515222      2.26727695       
11.342           0.998542649      2.241177         0.0391120732     -86.7444336      0.0391120732     -86.7444336      0.998542649      2.241177         
11.454           0.998569285      2.21554882       0.0386650218     -86.7720322      0.0386650218     -86.7720322      0.998569285      2.21554882       
11.566           0.998595159      2.19037877       0.038225956      -86.7990456      0.038225956      -86.7990456      0.998595159      2.19037877       
11.678           0.998620299      2.16565372       0.0377946471     -86.8254881      0.0377946471     -86.8254881      0.998620299      2.16565372       
11.79            0.998644731      2.14136104       0.0373708753     -86.8513733      0.0373708753     -86.8513733      0.998644731      2.14136104       
11.902           0.99866848       2.11748857       0.0369544289     -86.8767145      0.0369544289     -86.8767145      0.99866848       2.11748857       
12.014           0.998691571      2.09402461       0.036545104      -86.9015243      0.036545104      -86.9015243      0.998691571      2.09402461       
12.126           0.998714027      2.07095789       0.0361427043     -86.9258148      0.0361427043     -86.9258148      0.998714027      2.07095789       
12.238           0.998735869      2.04827753       0.0357470405     -86.9495978      0.0357470405     -86.9495978      0.998735869      2.04827753       
12.35            0.998757118      2.02597308       0.0353579302     -86.9728844      0.0353579302     -86.9728844      0.998757118      2.02597308       
12.462           0.998777795      2.00403442       0.0349751975     -86.9956855      0.0349751975     -86.9956855      0.998777795      2.00403442       
12.574           0.998797918      1.98245183       0.0345986729     -87.0180113      0.0345986729     -87.0180113      0.998797918      1.98245183       
12.686           0.998817507      1.9612159        0.0342281927     -87.0398719      0.0342281927     -87.0398719      0.998817507      1.9612159        
12.798           0.998836579      1.94031757       0.0338635988     -87.0612768      0.0338635988     -87.0612768      0.998836579      1.94031757       
12.91            0.99885515       1.91974808       0.0335047387     -87.0822352      0.0335047387     -87.0822352      0.99885515       1.91974808       
13.022           0.998873238      1.89949898       0.0331514651     -87.102756       0.0331514651     -87.102756       0.998873238      1.89949898       
13.134           0.998890856      1.8795621        0.0328036358     -87.1228478      0.0328036358     -87.1228478      0.998890856      1.8795621        
13.246           0.998908021      1.85992954       0.0324611132     -87.1425185      0.0324611132     -87.1425185      0.998908021      1.85992954       
13.358           0.998924747      1.84059368       0.0321237643     -87.1617763      0.0321237643     -87.1617763      0.998924747      1.84059368       
13.47            0.998941047      1.82154714       0.0317914608     -87.1806286      0.0317914608     -87.1806286      0.998941047      1.82154714       
13.582           0.998956934      1.80278278       0.0314640781     -87.1990826      0.0314640781     -87.1990826      0.998956934      1.80278278       
13.694           0.998972421      1.78429372       0.0311414961     -87.2171455      0.0311414961     -87.2171455      0.998972421      1.78429372       
13.806           0.998987521      1.76607325       0.0308235985     -87.2348238      0.0308235985     -87.2348238      0.998987521      1.76607325       
13.918           0.999002245      1.74811493       0.0305102725     -87.2521242      0.0305102725     -87.2521242      0.999002245      1.74811493       
14.03            0.999016603      1.73041249       0.0302014092     -87.2690528      0.0302014092     -87.2690528      0.999016603      1.73041249       
14.142           0.999030608      1.71295988       0.0298969028     -87.2856155      0.0298969028     -87.2856155      0.999030608      1.71295988       
14.254           0.999044269      1.69575122       0.029596651      -87.3018182      0.029596651      -87.3018182      0.999044269      1.69575122       
