! Coilcraft 1812LS-104 Chip Inductor				
! 8 August 2002			
# MHZ S MA R 50
!Freq             MagS11           AngS11           MagS21           AngS21           MagS12           AngS12           MagS22           AngS22
0.03             0.188380172      50.6324286       0.892474436      -9.39161157      0.892474436      -9.39161157      0.188380172      50.6324286       
0.065            0.348522239      53.9624201       0.843436721      -19.5202535      0.843436721      -19.5202535      0.348522239      53.9624201       
0.1              0.486014214      49.859489        0.780754624      -28.4163055      0.780754624      -28.4163055      0.486014214      49.859489        
0.135            0.595037084      44.7838155       0.713715972      -35.9655235      0.713715972      -35.9655235      0.595037084      44.7838155       
0.17             0.678602609      40.016153        0.648897508      -42.2555757      0.648897508      -42.2555757      0.678602609      40.016153        
0.205            0.74191067       35.8453483       0.589614278      -47.464516       0.589614278      -47.464516       0.74191067       35.8453483       
0.24             0.789928707      32.2816599       0.536958129      -51.7852092      0.536958129      -51.7852092      0.789928707      32.2816599       
0.275            0.826650372      29.2549717       0.490838714      -55.3906102      0.490838714      -55.3906102      0.826650372      29.2549717       
0.31             0.855063024      26.6801712       0.450654259      -58.4236173      0.450654259      -58.4236173      0.855063024      26.6801712       
0.345            0.877335078      24.4785934       0.415647933      -60.9979407      0.415647933      -60.9979407      0.877335078      24.4785934       
0.38             0.895025953      22.5836955       0.385073445      -63.2026533      0.385073445      -63.2026533      0.895025953      22.5836955       
0.415            0.909258879      20.9411583       0.358260713      -65.1072421      0.358260713      -65.1072421      0.909258879      20.9411583       
0.45             0.920848838      19.5072568       0.334633854      -66.7660331      0.334633854      -66.7660331      0.920848838      19.5072568       
0.485            0.930393228      18.2469214       0.313708429      -68.2217367      0.313708429      -68.2217367      0.930393228      18.2469214       
0.52             0.938335031      17.1319787       0.295080939      -69.5081793      0.295080939      -69.5081793      0.938335031      17.1319787       
0.555            0.94500668       16.1396942       0.278416481      -70.6523716      0.278416481      -70.6523716      0.94500668       16.1396942       
0.59             0.950660629      15.2516139       0.263437034      -71.6760646      0.263437034      -71.6760646      0.950660629      15.2516139       
0.625            0.955490812      14.4526592       0.249911254      -72.5969218      0.249911254      -72.5969218      0.955490812      14.4526592       
0.66             0.959647857      13.7304252       0.237645939      -73.4294049      0.237645939      -73.4294049      0.959647857      13.7304252       
0.695            0.963249979      13.0746362       0.226479031      -74.1854475      0.226479031      -74.1854475      0.963249979      13.0746362       
0.73             0.966390874      12.4767231       0.216273954      -74.8749705      0.216273954      -74.8749705      0.966390874      12.4767231       
0.765            0.969145485      11.9294938       0.206915043      -75.5062801      0.206915043      -75.5062801      0.969145485      11.9294938       
0.8              0.971574284      11.4268743       0.198303856      -76.086377       0.198303856      -76.086377       0.971574284      11.4268743       
0.835            0.973726457      10.9637045       0.190356202      -76.6211988      0.190356202      -76.6211988      0.973726457      10.9637045       
0.87             0.975642318      10.5355764       0.18299974       -77.115811       0.18299974       -77.115811       0.975642318      10.5355764       
0.905            0.977355144      10.1387038       0.17617202       -77.5745596      0.17617202       -77.5745596      0.977355144      10.1387038       
0.94             0.97889259       9.76981908       0.169818896      -78.0011922      0.169818896      -78.0011922      0.97889259       9.76981908       
0.975            0.98027778       9.42608808       0.163893223      -78.3989568      0.163893223      -78.3989568      0.98027778       9.42608808       
1.01             0.981530165      9.10504189       0.158353781      -78.7706812      0.158353781      -78.7706812      0.981530165      9.10504189       
1.045            0.982666199      8.80452052       0.153164396      -79.1188384      0.153164396      -79.1188384      0.982666199      8.80452052       
1.08             0.983699871      8.52262666       0.148293201      -79.4455997      0.148293201      -79.4455997      0.983699871      8.52262666       
1.115            0.984643135      8.25768735       0.143712025      -79.7528791      0.143712025      -79.7528791      0.984643135      8.25768735       
1.15             0.985506254      8.00822217       0.139395882      -80.0423701      0.139395882      -80.0423701      0.985506254      8.00822217       
1.185            0.986298076      7.77291656       0.135322538      -80.3155764      0.135322538      -80.3155764      0.986298076      7.77291656       
1.22             0.987026264      7.55059944       0.131472147      -80.5738372      0.131472147      -80.5738372      0.987026264      7.55059944       
1.255            0.987697476      7.34022433       0.127826945      -80.8183493      0.127826945      -80.8183493      0.987697476      7.34022433       
1.29             0.988317525      7.14085336       0.124370985      -81.0501853      0.124370985      -81.0501853      0.988317525      7.14085336       
1.325            0.9888915        6.9516436        0.121089915      -81.2703092      0.121089915      -81.2703092      0.9888915        6.9516436        
1.36             0.989423872      6.7718355        0.117970782      -81.4795898      0.117970782      -81.4795898      0.989423872      6.7718355        
1.395            0.989918583      6.60074283       0.115001871      -81.6788119      0.115001871      -81.6788119      0.989918583      6.60074283       
1.43             0.990379118      6.43774416       0.112172561      -81.8686866      0.112172561      -81.8686866      0.990379118      6.43774416       
1.465            0.990808568      6.28227538       0.1094732        -82.0498593      0.1094732        -82.0498593      0.990808568      6.28227538       
1.5              0.991209681      6.13382333       0.106894999      -82.2229171      0.106894999      -82.2229171      0.991209681      6.13382333       
1.535            0.991584908      5.99192017       0.104429939      -82.3883955      0.104429939      -82.3883955      0.991584908      5.99192017       
1.57             0.991936439      5.85613853       0.102070685      -82.5467837      0.102070685      -82.5467837      0.991936439      5.85613853       
1.605            0.992266239      5.72608725       0.0998105231     -82.6985295      0.0998105231     -82.6985295      0.992266239      5.72608725       
1.64             0.99257607       5.60140765       0.0976432882     -82.8440436      0.0976432882     -82.8440436      0.99257607       5.60140765       
1.675            0.992867521      5.4817702        0.0955633144     -82.9837034      0.0955633144     -82.9837034      0.992867521      5.4817702        
1.71             0.993142024      5.3668717        0.0935653845     -83.1178563      0.0935653845     -83.1178563      0.993142024      5.3668717        
1.745            0.993400875      5.25643266       0.0916446865     -83.2468224      0.0916446865     -83.2468224      0.993400875      5.25643266       
1.78             0.993645246      5.15019506       0.0897967752     -83.3708975      0.0897967752     -83.3708975      0.993645246      5.15019506       
1.815            0.993876203      5.04792031       0.0880175386     -83.4903548      0.0880175386     -83.4903548      0.993876203      5.04792031       
1.85             0.994094715      4.94938751       0.086303167      -83.6054477      0.086303167      -83.6054477      0.994094715      4.94938751       
1.885            0.994301663      4.8543918        0.0846501259     -83.7164111      0.0846501259     -83.7164111      0.994301663      4.8543918        
1.92             0.994497853      4.76274296       0.0830551319     -83.823463       0.0830551319     -83.823463       0.994497853      4.76274296       
1.955            0.994684021      4.67426411       0.0815151307     -83.9268063      0.0815151307     -83.9268063      0.994684021      4.67426411       
1.99             0.994860841      4.5887906        0.0800272777     -84.0266299      0.0800272777     -84.0266299      0.994860841      4.5887906        
2.025            0.99502893       4.50616894       0.0785889203     -84.1231098      0.0785889203     -84.1231098      0.99502893       4.50616894       
2.06             0.995188856      4.42625587       0.077197582      -84.2164104      0.077197582      -84.2164104      0.995188856      4.42625587       
2.095            0.99534114       4.34891757       0.0758509483     -84.3066852      0.0758509483     -84.3066852      0.99534114       4.34891757       
2.13             0.995486263      4.27402883       0.0745468533     -84.3940779      0.0745468533     -84.3940779      0.995486263      4.27402883       
2.165            0.995624669      4.20147245       0.0732832687     -84.478723       0.0732832687     -84.478723       0.995624669      4.20147245       
2.2              0.995756765      4.13113853       0.0720582921     -84.5607466      0.0720582921     -84.5607466      0.995756765      4.13113853       
2.235            0.995882932      4.06292397       0.0708701385     -84.6402671      0.0708701385     -84.6402671      0.995882932      4.06292397       
2.27             0.996003518      3.99673192       0.0697171305     -84.7173956      0.0697171305     -84.7173956      0.996003518      3.99673192       
2.305            0.996118848      3.93247135       0.0685976909     -84.7922366      0.0685976909     -84.7922366      0.996118848      3.93247135       
2.34             0.996229223      3.87005658       0.0675103353     -84.8648884      0.0675103353     -84.8648884      0.996229223      3.87005658       
2.375            0.996334924      3.80940691       0.0664536649     -84.9354437      0.0664536649     -84.9354437      0.996334924      3.80940691       
2.41             0.996436209      3.75044629       0.0654263612     -85.0039897      0.0654263612     -85.0039897      0.996436209      3.75044629       
2.445            0.996533322      3.69310294       0.0644271798     -85.0706087      0.0644271798     -85.0706087      0.996533322      3.69310294       
2.48             0.996626488      3.6373091        0.0634549453     -85.1353785      0.0634549453     -85.1353785      0.996626488      3.6373091        
2.515            0.996715917      3.58300072       0.0625085469     -85.1983727      0.0625085469     -85.1983727      0.996715917      3.58300072       
2.55             0.996801806      3.53011724       0.0615869338     -85.2596605      0.0615869338     -85.2596605      0.996801806      3.53011724       
2.585            0.996884338      3.47860133       0.0606891112     -85.3193079      0.0606891112     -85.3193079      0.996884338      3.47860133       
2.62             0.996963686      3.4283987        0.0598141369     -85.377377       0.0598141369     -85.377377       0.996963686      3.4283987        
2.655            0.997040009      3.37945788       0.0589611175     -85.4339268      0.0589611175     -85.4339268      0.997040009      3.37945788       
2.69             0.997113459      3.33173005       0.0581292055     -85.4890132      0.0581292055     -85.4890132      0.997113459      3.33173005       
2.725            0.997184177      3.28516889       0.0573175964     -85.5426893      0.0573175964     -85.5426893      0.997184177      3.28516889       
2.76             0.997252296      3.23973038       0.0565255259     -85.5950056      0.0565255259     -85.5950056      0.997252296      3.23973038       
2.795            0.997317941      3.1953727        0.0557522677     -85.6460097      0.0557522677     -85.6460097      0.997317941      3.1953727        
2.83             0.997381228      3.15205607       0.0549971307     -85.6957473      0.0549971307     -85.6957473      0.997381228      3.15205607       
2.865            0.997442268      3.10974263       0.0542594574     -85.7442617      0.0542594574     -85.7442617      0.997442268      3.10974263       
2.9              0.997501164      3.06839636       0.0535386216     -85.7915939      0.0535386216     -85.7915939      0.997501164      3.06839636       
2.935            0.997558015      3.0279829        0.0528340265     -85.8377832      0.0528340265     -85.8377832      0.997558015      3.0279829        
2.97             0.997612912      2.98846953       0.0521451033     -85.882867       0.0521451033     -85.882867       0.997612912      2.98846953       
3.005            0.997665944      2.94982502       0.0514713094     -85.9268808      0.0514713094     -85.9268808      0.997665944      2.94982502       
3.04             0.997717191      2.91201958       0.0508121266     -85.9698586      0.0508121266     -85.9698586      0.997717191      2.91201958       
3.075            0.997766731      2.87502475       0.0501670606     -86.0118328      0.0501670606     -86.0118328      0.997766731      2.87502475       
3.11             0.997814639      2.83881335       0.0495356386     -86.0528342      0.0495356386     -86.0528342      0.997814639      2.83881335       
3.145            0.997860983      2.80335941       0.0489174089     -86.0928925      0.0489174089     -86.0928925      0.997860983      2.80335941       
3.18             0.997905829      2.76863807       0.0483119394     -86.1320357      0.0483119394     -86.1320357      0.997905829      2.76863807       
3.215            0.997949239      2.73462556       0.0477188168     -86.1702909      0.0477188168     -86.1702909      0.997949239      2.73462556       
3.25             0.997991273      2.70129913       0.0471376453     -86.2076838      0.0471376453     -86.2076838      0.997991273      2.70129913       
3.285            0.998031987      2.66863699       0.0465680457     -86.2442391      0.0465680457     -86.2442391      0.998031987      2.66863699       
3.32             0.998071433      2.63661824       0.0460096548     -86.2799802      0.0460096548     -86.2799802      0.998071433      2.63661824       
3.355            0.998109662      2.60522288       0.0454621244     -86.3149299      0.0454621244     -86.3149299      0.998109662      2.60522288       
3.39             0.998146721      2.5744317        0.0449251206     -86.3491096      0.0449251206     -86.3491096      0.998146721      2.5744317        
3.425            0.998182658      2.5442263        0.0443983229     -86.3825401      0.0443983229     -86.3825401      0.998182658      2.5442263        
3.46             0.998217514      2.514589         0.0438814238     -86.4152412      0.0438814238     -86.4152412      0.998217514      2.514589         
3.495            0.99825133       2.48550282       0.0433741279     -86.4472319      0.0433741279     -86.4472319      0.99825133       2.48550282       
3.53             0.998284148      2.45695146       0.0428761515     -86.4785304      0.0428761515     -86.4785304      0.998284148      2.45695146       
3.565            0.998316002      2.42891925       0.0423872219     -86.5091543      0.0423872219     -86.5091543      0.998316002      2.42891925       
3.6              0.99834693       2.40139114       0.0419070769     -86.5391201      0.0419070769     -86.5391201      0.99834693       2.40139114       
3.635            0.998376964      2.37435262       0.0414354645     -86.5684441      0.0414354645     -86.5684441      0.998376964      2.37435262       
3.67             0.998406138      2.34778978       0.040972142      -86.5971416      0.040972142      -86.5971416      0.998406138      2.34778978       
3.705            0.998434483      2.32168919       0.0405168759     -86.6252275      0.0405168759     -86.6252275      0.998434483      2.32168919       
3.74             0.998462027      2.29603795       0.0400694415     -86.652716       0.0400694415     -86.652716       0.998462027      2.29603795       
3.775            0.998488799      2.2708236        0.0396296222     -86.6796206      0.0396296222     -86.6796206      0.998488799      2.2708236        
3.81             0.998514825      2.24603418       0.0391972093     -86.7059546      0.0391972093     -86.7059546      0.998514825      2.24603418       
3.845            0.998540133      2.22165813       0.0387720019     -86.7317305      0.0387720019     -86.7317305      0.998540133      2.22165813       
3.88             0.998564745      2.19768432       0.0383538059     -86.7569604      0.0383538059     -86.7569604      0.998564745      2.19768432       
3.915            0.998588686      2.174102         0.0379424344     -86.7816559      0.0379424344     -86.7816559      0.998588686      2.174102         
3.95             0.998611978      2.15090082       0.0375377071     -86.8058282      0.0375377071     -86.8058282      0.998611978      2.15090082       
3.985            0.998634642      2.12807079       0.0371394497     -86.8294881      0.0371394497     -86.8294881      0.998634642      2.12807079       
4.02             0.9986567        2.10560224       0.0367474943     -86.8526458      0.0367474943     -86.8526458      0.9986567        2.10560224       
4.055            0.998678171      2.08348586       0.0363616784     -86.8753114      0.0363616784     -86.8753114      0.998678171      2.08348586       
4.09             0.998699074      2.06171264       0.0359818453     -86.8974942      0.0359818453     -86.8974942      0.998699074      2.06171264       
4.125            0.998719427      2.04027389       0.0356078436     -86.9192035      0.0356078436     -86.9192035      0.998719427      2.04027389       
4.16             0.998739247      2.01916121       0.0352395267     -86.940448       0.0352395267     -86.940448       0.998739247      2.01916121       
4.195            0.998758552      1.99836645       0.034876753      -86.9612363      0.034876753      -86.9612363      0.998758552      1.99836645       
4.23             0.998777357      1.97788177       0.0345193858     -86.9815765      0.0345193858     -86.9815765      0.998777357      1.97788177       
4.265            0.998795678      1.95769956       0.0341672924     -87.0014764      0.0341672924     -87.0014764      0.998795678      1.95769956       
4.3              0.99881353       1.93781246       0.0338203448     -87.0209435      0.0338203448     -87.0209435      0.99881353       1.93781246       
4.335            0.998830926      1.91821335       0.033478419      -87.0399851      0.033478419      -87.0399851      0.998830926      1.91821335       
4.37             0.998847881      1.89889534       0.0331413947     -87.0586081      0.0331413947     -87.0586081      0.998847881      1.89889534       
4.405            0.998864407      1.87985175       0.0328091558     -87.0768191      0.0328091558     -87.0768191      0.998864407      1.87985175       
4.44             0.998880518      1.86107612       0.0324815896     -87.0946246      0.0324815896     -87.0946246      0.998880518      1.86107612       
4.475            0.998896225      1.84256219       0.0321585869     -87.1120307      0.0321585869     -87.1120307      0.998896225      1.84256219       
