! Coilcraft 1812LS-123 Chip Inductor				
! 8 August 2002			
# MHZ S MA R 50
!Freq             MagS11           AngS11           MagS21           AngS21           MagS12           AngS12           MagS22           AngS22
0.03             0.0358267392     36.5722445       0.971461889      -1.25911608      0.971461889      -1.25911608      0.0358267392     36.5722445       
0.264            0.191911057      65.9297456       0.938235317      -10.7636872      0.938235317      -10.7636872      0.191911057      65.9297456       
0.498            0.33855726       61.7856075       0.891347376      -19.5541268      0.891347376      -19.5541268      0.33855726       61.7856075       
0.732            0.463298139      55.8796893       0.833598945      -27.3941672      0.833598945      -27.3941672      0.463298139      55.8796893       
0.966            0.564828445      50.1685524       0.771654451      -34.201413       0.771654451      -34.201413       0.564828445      50.1685524       
1.2              0.645413107      45.0700916       0.710579615      -40.0191775      0.710579615      -40.0191775      0.645413107      45.0700916       
1.434            0.708659346      40.6470168       0.653319139      -44.9568822      0.653319139      -44.9568822      0.708659346      40.6470168       
1.668            0.758213049      36.8493468       0.601182069      -49.14437        0.601182069      -49.14437        0.758213049      36.8493468       
1.902            0.797203676      33.594622        0.554468339      -52.706581       0.554468339      -52.706581       0.797203676      33.594622        
2.136            0.828118514      30.798244        0.51294551       -55.7529525      0.51294551       -55.7529525      0.828118514      30.798244        
2.37             0.852861437      28.38434         0.476145205      -58.3749283      0.476145205      -58.3749283      0.852861437      28.38434         
2.604            0.872865366      26.2885849       0.443526734      -60.6471313      0.443526734      -60.6471313      0.872865366      26.2885849       
2.838            0.889203167      24.4578362       0.414558926      -62.6298094      0.414558926      -62.6298094      0.889203167      24.4578362       
3.072            0.902679334      22.8486834       0.388756214      -64.3714483      0.388756214      -64.3714483      0.902679334      22.8486834       
3.306            0.913900362      21.4257917       0.365690805      -65.9111129      0.365690805      -65.9111129      0.913900362      21.4257917       
3.54             0.923326922      20.160377        0.344993197      -67.2803956      0.344993197      -67.2803956      0.923326922      20.160377        
3.774            0.931311949      19.0289153       0.326347531      -68.5049793      0.326347531      -68.5049793      0.931311949      19.0289153       
4.008            0.938128314      18.0120915       0.309485118      -69.605868       0.309485118      -69.605868       0.938128314      18.0120915       
4.242            0.943988932      17.0939604       0.294177737      -70.6003493      0.294177737      -70.6003493      0.943988932      17.0939604       
4.476            0.94906145       16.2612826       0.280231423      -71.5027441      0.280231423      -71.5027441      0.94906145       16.2612826       
4.71             0.953479035      15.5030002       0.267481006      -72.3249923      0.267481006      -72.3249923      0.953479035      15.5030002       
4.944            0.957348361      14.8098235       0.25578545       -73.077111       0.25578545       -73.077111       0.957348361      14.8098235       
5.178            0.960755573      14.1739032       0.245023929      -73.767555       0.245023929      -73.767555       0.960755573      14.1739032       
5.412            0.963770767      13.5885702       0.235092563      -74.4035019      0.235092563      -74.4035019      0.963770767      13.5885702       
5.646            0.966451397      13.048128        0.22590171       -74.9910786      0.22590171       -74.9910786      0.966451397      13.048128        
5.88             0.968844875      12.5476863       0.21737372       -75.5355432      0.21737372       -75.5355432      0.968844875      12.5476863       
6.114            0.970990586      12.0830257       0.209441081      -76.04143        0.209441081      -76.04143        0.970990586      12.0830257       
6.348            0.972921442      11.6504897       0.202044875      -76.5126684      0.202044875      -76.5126684      0.972921442      11.6504897       
6.582            0.974665107      11.2468949       0.195133501      -76.9526782      0.195133501      -76.9526782      0.974665107      11.2468949       
6.816            0.976244962      10.8694586       0.188661604      -77.3644491      0.188661604      -77.3644491      0.976244962      10.8694586       
7.05             0.977680869      10.5157385       0.182589186      -77.7506048      0.182589186      -77.7506048      0.977680869      10.5157385       
7.284            0.978989783      10.1835831       0.176880856      -78.1134569      0.176880856      -78.1134569      0.978989783      10.1835831       
7.518            0.980186246      9.87109003       0.171505201      -78.4550493      0.171505201      -78.4550493      0.980186246      9.87109003       
7.752            0.981282786      9.57657177       0.166434253      -78.7771957      0.166434253      -78.7771957      0.981282786      9.57657177       
7.986            0.982290236      9.29852627       0.161643042      -79.0815104      0.161643042      -79.0815104      0.982290236      9.29852627       
8.22             0.983218006      9.03561253       0.157109207      -79.369435       0.157109207      -79.369435       0.983218006      9.03561253       
8.454            0.984074298      8.78662983       0.152812673      -79.6422605      0.152812673      -79.6422605      0.984074298      8.78662983       
8.688            0.984866286      8.55049998       0.14873537       -79.9011466      0.14873537       -79.9011466      0.984866286      8.55049998       
8.922            0.985600269      8.32625227       0.144860992      -80.1471376      0.144860992      -80.1471376      0.985600269      8.32625227       
9.156            0.986281793      8.11301049       0.141174792      -80.3811762      0.141174792      -80.3811762      0.986281793      8.11301049       
9.39             0.986915756      7.90998184       0.137663398      -80.6041158      0.137663398      -80.6041158      0.986915756      7.90998184       
9.624            0.9875065        7.71644726       0.134314663      -80.8167306      0.134314663      -80.8167306      0.9875065        7.71644726       
9.858            0.988057879      7.53175318       0.131117528      -81.0197245      0.131117528      -81.0197245      0.988057879      7.53175318       
10.092           0.98857333       7.35530422       0.128061903      -81.2137387      0.128061903      -81.2137387      0.98857333       7.35530422       
10.326           0.989055921      7.18655696       0.125138565      -81.3993589      0.125138565      -81.3993589      0.989055921      7.18655696       
10.56            0.989508399      7.02501438       0.122339069      -81.5771209      0.122339069      -81.5771209      0.989508399      7.02501438       
10.794           0.98993323       6.87022107       0.119655666      -81.7475157      0.119655666      -81.7475157      0.98993323       6.87022107       
11.028           0.990332631      6.72175898       0.117081235      -81.9109941      0.117081235      -81.9109941      0.990332631      6.72175898       
11.262           0.990708602      6.5792437        0.114609222      -82.0679709      0.114609222      -82.0679709      0.990708602      6.5792437        
11.496           0.991062949      6.44232116       0.112233582      -82.2188282      0.112233582      -82.2188282      0.991062949      6.44232116       
11.73            0.991397308      6.31066468       0.109948736      -82.3639186      0.109948736      -82.3639186      0.991397308      6.31066468       
11.964           0.991713162      6.18397244       0.107749522      -82.503568       0.107749522      -82.503568       0.991713162      6.18397244       
12.198           0.992011857      6.06196511       0.105631159      -82.6380782      0.105631159      -82.6380782      0.992011857      6.06196511       
12.432           0.992294622      5.94438386       0.103589215      -82.7677288      0.103589215      -82.7677288      0.992294622      5.94438386       
12.666           0.992562574      5.83098848       0.101619573      -82.8927793      0.101619573      -82.8927793      0.992562574      5.83098848       
12.9             0.992816735      5.72155577       0.0997184039     -83.0134711      0.0997184039     -83.0134711      0.992816735      5.72155577       
13.134           0.99305804       5.61587805       0.0978821438     -83.1300286      0.0978821438     -83.1300286      0.99305804       5.61587805       
13.368           0.993287346      5.51376184       0.0961074699     -83.2426611      0.0961074699     -83.2426611      0.993287346      5.51376184       
13.602           0.99350544       5.41502668       0.0943912814     -83.3515639      0.0943912814     -83.3515639      0.99350544       5.41502668       
13.836           0.993713042      5.31950405       0.092730681      -83.4569193      0.092730681      -83.4569193      0.993713042      5.31950405       
14.07            0.99391082       5.22703642       0.0911229586     -83.5588976      0.0911229586     -83.5588976      0.99391082       5.22703642       
14.304           0.994099385      5.13747634       0.0895655767     -83.6576587      0.0895655767     -83.6576587      0.994099385      5.13747634       
14.538           0.994279302      5.05068568       0.0880561566     -83.7533518      0.0880561566     -83.7533518      0.994279302      5.05068568       
14.772           0.994451096      4.96653488       0.0865924667     -83.8461175      0.0865924667     -83.8461175      0.994451096      4.96653488       
15.006           0.994615248      4.88490232       0.0851724109     -83.9360873      0.0851724109     -83.9360873      0.994615248      4.88490232       
15.24            0.994772207      4.80567371       0.0837940188     -84.023385       0.0837940188     -84.023385       0.994772207      4.80567371       
15.474           0.994922389      4.72874157       0.0824554362     -84.1081272      0.0824554362     -84.1081272      0.994922389      4.72874157       
15.708           0.995066179      4.65400469       0.0811549172     -84.1904233      0.0811549172     -84.1904233      0.995066179      4.65400469       
15.942           0.995203934      4.58136771       0.0798908158     -84.2703768      0.0798908158     -84.2703768      0.995203934      4.58136771       
16.176           0.99533599       4.51074072       0.0786615793     -84.348085       0.0786615793     -84.348085       0.99533599       4.51074072       
16.41            0.995462655      4.44203882       0.0774657416     -84.4236399      0.0774657416     -84.4236399      0.995462655      4.44203882       
16.644           0.995584221      4.37518185       0.0763019175     -84.4971284      0.0763019175     -84.4971284      0.995584221      4.37518185       
16.878           0.995700956      4.31009401       0.0751687971     -84.5686327      0.0751687971     -84.5686327      0.995700956      4.31009401       
17.112           0.995813114      4.24670357       0.0740651405     -84.6382304      0.0740651405     -84.6382304      0.995813114      4.24670357       
17.346           0.99592093       4.18494265       0.0729897737     -84.7059951      0.0729897737     -84.7059951      0.99592093       4.18494265       
17.58            0.996024626      4.12474692       0.071941584      -84.7719964      0.071941584      -84.7719964      0.996024626      4.12474692       
17.814           0.996124408      4.06605537       0.0709195161     -84.8363005      0.0709195161     -84.8363005      0.996124408      4.06605537       
18.048           0.996220471      4.00881013       0.0699225683     -84.8989701      0.0699225683     -84.8989701      0.996220471      4.00881013       
18.282           0.996312996      3.95295624       0.0689497895     -84.9600646      0.0689497895     -84.9600646      0.996312996      3.95295624       
18.516           0.996402154      3.89844151       0.0680002759     -85.0196406      0.0680002759     -85.0196406      0.996402154      3.89844151       
18.75            0.996488105      3.8452163        0.067073168      -85.0777518      0.067073168      -85.0777518      0.996488105      3.8452163        
18.984           0.996571002      3.79323339       0.0661676479     -85.1344493      0.0661676479     -85.1344493      0.996571002      3.79323339       
19.218           0.996650986      3.74244784       0.065282937      -85.1897818      0.065282937      -85.1897818      0.996650986      3.74244784       
19.452           0.996728191      3.69281685       0.0644182938     -85.2437955      0.0644182938     -85.2437955      0.996728191      3.69281685       
19.686           0.996802743      3.64429962       0.0635730112     -85.2965344      0.0635730112     -85.2965344      0.996802743      3.64429962       
19.92            0.996874761      3.59685725       0.0627464151     -85.3480408      0.0627464151     -85.3480408      0.996874761      3.59685725       
20.154           0.996944358      3.55045264       0.061937862      -85.3983546      0.061937862      -85.3983546      0.996944358      3.55045264       
20.388           0.99701164       3.50505037       0.0611467379     -85.447514       0.0611467379     -85.447514       0.99701164       3.50505037       
20.622           0.997076707      3.4606166        0.0603724558     -85.4955557      0.0603724558     -85.4955557      0.997076707      3.4606166        
20.856           0.997139654      3.417119         0.0596144552     -85.5425144      0.0596144552     -85.5425144      0.997139654      3.417119         
21.09            0.997200572      3.37452666       0.0588721999     -85.5884234      0.0588721999     -85.5884234      0.997200572      3.37452666       
21.324           0.997259544      3.33281002       0.0581451768     -85.6333147      0.0581451768     -85.6333147      0.997259544      3.33281002       
21.558           0.997316652      3.29194079       0.0574328951     -85.6772185      0.0574328951     -85.6772185      0.997316652      3.29194079       
21.792           0.997371972      3.25189188       0.0567348846     -85.7201642      0.0567348846     -85.7201642      0.997371972      3.25189188       
22.026           0.997425576      3.21263734       0.056050695      -85.7621795      0.056050695      -85.7621795      0.997425576      3.21263734       
22.26            0.997477534      3.1741523        0.0553798946     -85.8032911      0.0553798946     -85.8032911      0.997477534      3.1741523        
22.494           0.99752791       3.13641291       0.0547220695     -85.8435246      0.0547220695     -85.8435246      0.99752791       3.13641291       
22.728           0.997576767      3.09939633       0.0540768226     -85.8829045      0.0540768226     -85.8829045      0.997576767      3.09939633       
22.962           0.997624164      3.06308059       0.0534437729     -85.9214542      0.0534437729     -85.9214542      0.997624164      3.06308059       
23.196           0.997670156      3.02744463       0.0528225545     -85.9591963      0.0528225545     -85.9591963      0.997670156      3.02744463       
23.43            0.997714798      2.99246823       0.0522128161     -85.9961523      0.0522128161     -85.9961523      0.997714798      2.99246823       
23.664           0.99775814       2.95813195       0.05161422       -86.0323429      0.05161422       -86.0323429      0.99775814       2.95813195       
23.898           0.997800231      2.9244171        0.0510264417     -86.0677881      0.0510264417     -86.0677881      0.997800231      2.9244171        
24.132           0.997841116      2.89130572       0.0504491691     -86.1025069      0.0504491691     -86.1025069      0.997841116      2.89130572       
24.366           0.99788084       2.85878055       0.0498821021     -86.1365175      0.0498821021     -86.1365175      0.99788084       2.85878055       
24.6             0.997919446      2.82682494       0.0493249516     -86.1698377      0.0493249516     -86.1698377      0.997919446      2.82682494       
24.834           0.997956971      2.7954229        0.0487774397     -86.2024843      0.0487774397     -86.2024843      0.997956971      2.7954229        
25.068           0.997993457      2.76455902       0.0482392984     -86.2344736      0.0482392984     -86.2344736      0.997993457      2.76455902       
25.302           0.998028938      2.73421845       0.0477102699     -86.2658211      0.0477102699     -86.2658211      0.998028938      2.73421845       
25.536           0.998063449      2.7043869        0.0471901053     -86.296542       0.0471901053     -86.296542       0.998063449      2.7043869        
25.77            0.998097025      2.67505057       0.0466785652     -86.3266505      0.0466785652     -86.3266505      0.998097025      2.67505057       
26.004           0.998129697      2.64619617       0.0461754182     -86.3561607      0.0461754182     -86.3561607      0.998129697      2.64619617       
26.238           0.998161496      2.61781088       0.0456804416     -86.3850858      0.0456804416     -86.3850858      0.998161496      2.61781088       
26.472           0.99819245       2.58988233       0.04519342       -86.4134388      0.04519342       -86.4134388      0.99819245       2.58988233       
26.706           0.998222588      2.56239857       0.044714146      -86.4412319      0.044714146      -86.4412319      0.998222588      2.56239857       
26.94            0.998251938      2.53534807       0.0442424189     -86.4684772      0.0442424189     -86.4684772      0.998251938      2.53534807       
27.174           0.998280523      2.5087197        0.0437780451     -86.4951859      0.0437780451     -86.4951859      0.998280523      2.5087197        
27.408           0.99830837       2.4825027        0.0433208376     -86.5213693      0.0433208376     -86.5213693      0.99830837       2.4825027        
27.642           0.998335502      2.45668669       0.0428706154     -86.5470378      0.0428706154     -86.5470378      0.998335502      2.45668669       
27.876           0.998361941      2.4312616        0.0424272039     -86.5722018      0.0424272039     -86.5722018      0.998361941      2.4312616        
28.11            0.998387709      2.40621773       0.041990434      -86.596871       0.041990434      -86.596871       0.998387709      2.40621773       
28.344           0.998412828      2.38154568       0.0415601423     -86.621055       0.0415601423     -86.621055       0.998412828      2.38154568       
28.578           0.998437316      2.35723636       0.0411361706     -86.6447628      0.0411361706     -86.6447628      0.998437316      2.35723636       
28.812           0.998461195      2.33328097       0.0407183659     -86.6680033      0.0407183659     -86.6680033      0.998461195      2.33328097       
29.046           0.998484481      2.309671         0.04030658       -86.690785       0.04030658       -86.690785       0.998484481      2.309671         
29.28            0.998507193      2.2863982        0.0399006695     -86.7131159      0.0399006695     -86.7131159      0.998507193      2.2863982        
29.514           0.998529348      2.2634546        0.0395004954     -86.735004       0.0395004954     -86.735004       0.998529348      2.2634546        
29.748           0.998550963      2.24083245       0.0391059231     -86.7564568      0.0391059231     -86.7564568      0.998550963      2.24083245       
