! Coilcraft 1812LS-273 Chip Inductor				
! 8 August 2002			
# MHZ S MA R 50
!Freq             MagS11           AngS11           MagS21           AngS21           MagS12           AngS12           MagS22           AngS22
0.03             0.0655997785     45.0072293       0.95474758       -2.78514159      0.95474758       -2.78514159      0.0655997785     45.0072293       
0.165            0.260908149      61.6772129       0.905816428      -14.6879933      0.905816428      -14.6879933      0.260908149      61.6772129       
0.3              0.431309093      55.7357515       0.836877807      -25.2098412      0.836877807      -25.2098412      0.431309093      55.7357515       
0.435            0.564403838      48.8655385       0.758940036      -34.0634901      0.758940036      -34.0634901      0.564403838      48.8655385       
0.57             0.663682682      42.7598032       0.682579383      -41.3098496      0.682579383      -41.3098496      0.663682682      42.7598032       
0.705            0.736540796      37.6398383       0.613196768      -47.1837288      0.613196768      -47.1837288      0.736540796      37.6398383       
0.84             0.790089402      33.412114        0.552463852      -51.9530252      0.552463852      -51.9530252      0.790089402      33.412114        
0.975            0.829876541      29.9210617       0.500164729      -55.8553057      0.500164729      -55.8553057      0.829876541      29.9210617       
1.11             0.859888518      27.0198014       0.455352202      -59.0814419      0.455352202      -59.0814419      0.859888518      27.0198014       
1.245            0.882902414      24.5870505       0.416913742      -61.7785891      0.416913742      -61.7785891      0.882902414      24.5870505       
1.38             0.900840329      22.5273029       0.38380484       -64.0585399      0.38380484       -64.0585399      0.900840329      22.5273029       
1.515            0.915039945      20.7665646       0.355124601      -66.0060924      0.355124601      -66.0060924      0.915039945      20.7665646       
1.65             0.926442836      19.2476521       0.330124639      -67.6859027      0.330124639      -67.6859027      0.926442836      19.2476521       
1.785            0.935721079      17.9261932       0.308193439      -69.1476896      0.308193439      -69.1476896      0.935721079      17.9261932       
1.92             0.943361567      16.7675068       0.288834267      -70.4300697      0.288834267      -70.4300697      0.943361567      16.7675068       
2.055            0.949722308      15.7442492       0.271643709      -71.5633531      0.271643709      -71.5633531      0.949722308      15.7442492       
2.19             0.955070347      14.8346617       0.256293173      -72.5715805      0.256293173      -72.5715805      0.955070347      14.8346617       
2.325            0.959607608      14.0212691       0.24251376       -73.4740143      0.24251376       -73.4740143      0.959607608      14.0212691       
2.46             0.963488746      13.2899088       0.230084188      -74.2862379      0.230084188      -74.2862379      0.963488746      13.2899088       
2.595            0.966833637      12.6290035       0.218821262      -75.0209743      0.218821262      -75.0209743      0.966833637      12.6290035       
2.73             0.96973624       12.029011        0.208572386      -75.6887001      0.208572386      -75.6887001      0.96973624       12.029011        
2.865            0.97227097       11.4820056       0.199209668      -76.2981118      0.199209668      -76.2981118      0.97227097       11.4820056       
3                0.974497332      10.9813563       0.190625285      -76.8564823      0.190625285      -76.8564823      0.974497332      10.9813563       
3.135            0.97646334       10.521477        0.182727807      -77.369937       0.182727807      -77.369937       0.97646334       10.521477        
3.27             0.978208059      10.097632        0.175439275      -77.8436684      0.175439275      -77.8436684      0.978208059      10.097632        
3.405            0.979763524      9.70578209       0.168692864      -78.2821052      0.168692864      -78.2821052      0.979763524      9.70578209       
3.54             0.981156192      9.3424628        0.162431007      -78.6890466      0.162431007      -78.6890466      0.981156192      9.3424628        
3.675            0.982408067      9.00468696       0.156603873      -79.0677686      0.156603873      -79.0677686      0.982408067      9.00468696       
3.81             0.983537565      8.68986602       0.151168134      -79.4211112      0.151168134      -79.4211112      0.983537565      8.68986602       
3.945            0.984560188      8.39574645       0.146085954      -79.7515472      0.146085954      -79.7515472      0.984560188      8.39574645       
4.08             0.985489064      8.1203577        0.141324155      -80.0612397      0.141324155      -80.0612397      0.985489064      8.1203577        
4.215            0.986335364      7.86196955       0.136853537      -80.3520888      0.136853537      -80.3520888      0.986335364      7.86196955       
4.35             0.987108643      7.61905683       0.1326483        -80.62577        0.1326483        -80.62577        0.987108643      7.61905683       
4.485            0.987817114      7.39027019       0.128685575      -80.8837662      0.128685575      -80.8837662      0.987817114      7.39027019       
4.62             0.988467865      7.17441161       0.124945017      -81.1273948      0.124945017      -81.1273948      0.988467865      7.17441161       
4.755            0.989067037      6.97041392       0.121408478      -81.3578296      0.121408478      -81.3578296      0.989067037      6.97041392       
4.89             0.989619979      6.77732355       0.118059712      -81.57612        0.118059712      -81.57612        0.989619979      6.77732355       
5.025            0.990131359      6.59428587       0.114884141      -81.7832071      0.114884141      -81.7832071      0.990131359      6.59428587       
5.16             0.99060527       6.42053276       0.111868646      -81.979937       0.111868646      -81.979937       0.99060527       6.42053276       
5.295            0.991045312      6.255372         0.10900139       -82.1670726      0.10900139       -82.1670726      0.991045312      6.255372         
5.43             0.991454662      6.09817817       0.106271667      -82.3453036      0.106271667      -82.3453036      0.991454662      6.09817817       
5.565            0.991836132      5.94838481       0.103669769      -82.5152549      0.103669769      -82.5152549      0.991836132      5.94838481       
5.7              0.992192217      5.80547768       0.101186877      -82.677494       0.101186877      -82.677494       0.992192217      5.80547768       
5.835            0.992525138      5.66898889       0.0988149579     -82.8325376      0.0988149579     -82.8325376      0.992525138      5.66898889       
5.97             0.992836879      5.53849182       0.0965466832     -82.9808571      0.0965466832     -82.9808571      0.992836879      5.53849182       
6.105            0.993129214      5.4135967        0.0943753509     -83.1228834      0.0943753509     -83.1228834      0.993129214      5.4135967        
6.24             0.993403733      5.2939467        0.0922948221     -83.259011       0.0922948221     -83.259011       0.993403733      5.2939467        
6.375            0.993661869      5.17921458       0.0902994626     -83.389602       0.0902994626     -83.389602       0.993661869      5.17921458       
6.51             0.993904909      5.06909964       0.0883840926     -83.5149892      0.0883840926     -83.5149892      0.993904909      5.06909964       
6.645            0.994134019      4.96332514       0.0865439421     -83.6354791      0.0865439421     -83.6354791      0.994134019      4.96332514       
6.78             0.994350253      4.86163596       0.084774611      -83.7513544      0.084774611      -83.7513544      0.994350253      4.86163596       
6.915            0.994554564      4.7637965        0.0830720344     -83.8628761      0.0830720344     -83.8628761      0.994554564      4.7637965        
7.05             0.994747821      4.6695889        0.0814324515     -83.970286       0.0814324515     -83.970286       0.994747821      4.6695889        
7.185            0.994930815      4.57881138       0.0798523775     -84.0738078      0.0798523775     -84.0738078      0.994930815      4.57881138       
7.32             0.995104264      4.49127679       0.0783285789     -84.1736491      0.0783285789     -84.1736491      0.995104264      4.49127679       
7.455            0.995268827      4.40681132       0.0768580516     -84.2700031      0.0768580516     -84.2700031      0.995268827      4.40681132       
7.59             0.995425105      4.32525332       0.0754380006     -84.3630491      0.0754380006     -84.3630491      0.995425105      4.32525332       
7.725            0.995573649      4.24645229       0.0740658224     -84.4529545      0.0740658224     -84.4529545      0.995573649      4.24645229       
7.86             0.995714966      4.1702679        0.0727390892     -84.5398751      0.0727390892     -84.5398751      0.995714966      4.1702679        
7.995            0.995849519      4.09656915       0.0714555336     -84.6239567      0.0714555336     -84.6239567      0.995849519      4.09656915       
8.13             0.995977737      4.02523364       0.0702130366     -84.7053353      0.0702130366     -84.7053353      0.995977737      4.02523364       
8.265            0.996100013      3.95614686       0.0690096148     -84.7841384      0.0690096148     -84.7841384      0.996100013      3.95614686       
8.4              0.996216713      3.88920155       0.0678434103     -84.8604852      0.0678434103     -84.8604852      0.996216713      3.88920155       
8.535            0.996328171      3.82429715       0.0667126809     -84.9344877      0.0667126809     -84.9344877      0.996328171      3.82429715       
8.67             0.996434699      3.76133931       0.065615791      -85.006251       0.065615791      -85.006251       0.996434699      3.76133931       
8.805            0.996536585      3.70023938       0.0645512038     -85.0758737      0.0645512038     -85.0758737      0.996536585      3.70023938       
8.94             0.996634095      3.64091399       0.063517474      -85.1434488      0.063517474      -85.1434488      0.996634095      3.64091399       
9.075            0.996727479      3.58328469       0.0625132409     -85.2090635      0.0625132409     -85.2090635      0.996727479      3.58328469       
9.21             0.996816966      3.52727758       0.0615372226     -85.2728003      0.0615372226     -85.2728003      0.996816966      3.52727758       
9.345            0.996902772      3.47282298       0.0605882101     -85.3347367      0.0605882101     -85.3347367      0.996902772      3.47282298       
9.48             0.996985095      3.41985514       0.0596650624     -85.394946       0.0596650624     -85.394946       0.996985095      3.41985514       
9.615            0.997064123      3.36831196       0.0587667017     -85.4534975      0.0587667017     -85.4534975      0.997064123      3.36831196       
9.75             0.997140029      3.31813475       0.0578921093     -85.5104565      0.0578921093     -85.5104565      0.997140029      3.31813475       
9.885            0.997212975      3.269268         0.0570403212     -85.5658849      0.0570403212     -85.5658849      0.997212975      3.269268         
10.02            0.997283114      3.22165914       0.0562104249     -85.6198413      0.0562104249     -85.6198413      0.997283114      3.22165914       
10.155           0.997350588      3.1752584        0.0554015557     -85.6723811      0.0554015557     -85.6723811      0.997350588      3.1752584        
10.29            0.99741553       3.13001858       0.0546128939     -85.7235568      0.0546128939     -85.7235568      0.99741553       3.13001858       
10.425           0.997478065      3.08589491       0.0538436617     -85.7734185      0.0538436617     -85.7734185      0.997478065      3.08589491       
10.56            0.99753831       3.04284489       0.0530931207     -85.8220134      0.0530931207     -85.8220134      0.99753831       3.04284489       
10.695           0.997596374      3.00082814       0.0523605693     -85.8693864      0.0523605693     -85.8693864      0.997596374      3.00082814       
10.83            0.997652363      2.95980629       0.0516453406     -85.9155803      0.0516453406     -85.9155803      0.997652363      2.95980629       
10.965           0.997706372      2.91974283       0.0509468        -85.9606357      0.0509468        -85.9606357      0.997706372      2.91974283       
11.1             0.997758495      2.88060302       0.0502643438     -86.0045912      0.0502643438     -86.0045912      0.997758495      2.88060302       
11.235           0.997808815      2.84235379       0.0495973968     -86.0474837      0.0495973968     -86.0474837      0.997808815      2.84235379       
11.37            0.997857417      2.80496359       0.0489454108     -86.0893481      0.0489454108     -86.0893481      0.997857417      2.80496359       
11.505           0.997904375      2.76840239       0.0483078634     -86.1302179      0.0483078634     -86.1302179      0.997904375      2.76840239       
11.64            0.997949762      2.7326415        0.0476842558     -86.1701248      0.0476842558     -86.1701248      0.997949762      2.7326415        
11.775           0.997993648      2.69765357       0.0470741123     -86.2090993      0.0470741123     -86.2090993      0.997993648      2.69765357       
11.91            0.998036096      2.66341246       0.0464769781     -86.2471702      0.0464769781     -86.2471702      0.998036096      2.66341246       
12.045           0.998077168      2.6298932        0.0458924192     -86.2843654      0.0458924192     -86.2843654      0.998077168      2.6298932        
12.18            0.998116922      2.59707192       0.04532002       -86.3207111      0.04532002       -86.3207111      0.998116922      2.59707192       
12.315           0.998155412      2.56492578       0.0447593836     -86.3562326      0.0447593836     -86.3562326      0.998155412      2.56492578       
12.45            0.998192691      2.53343296       0.0442101299     -86.3909541      0.0442101299     -86.3909541      0.998192691      2.53343296       
12.585           0.998228809      2.50257252       0.0436718948     -86.4248987      0.0436718948     -86.4248987      0.998228809      2.50257252       
12.72            0.998263811      2.47232444       0.0431443298     -86.4580883      0.0431443298     -86.4580883      0.998263811      2.47232444       
12.855           0.998297742      2.44266953       0.042627101      -86.4905442      0.042627101      -86.4905442      0.998297742      2.44266953       
12.99            0.998330645      2.41358937       0.0421198879     -86.5222866      0.0421198879     -86.5222866      0.998330645      2.41358937       
13.125           0.998362559      2.38506633       0.0416223835     -86.5533348      0.0416223835     -86.5533348      0.998362559      2.38506633       
13.26            0.998393523      2.35708346       0.0411342929     -86.5837074      0.0411342929     -86.5837074      0.998393523      2.35708346       
13.395           0.998423572      2.32962451       0.0406553332     -86.6134223      0.0406553332     -86.6134223      0.998423572      2.32962451       
13.53            0.998452743      2.30267387       0.0401852327     -86.6424964      0.0401852327     -86.6424964      0.998452743      2.30267387       
13.665           0.998481066      2.27621655       0.0397237302     -86.6709461      0.0397237302     -86.6709461      0.998481066      2.27621655       
13.8             0.998508574      2.25023812       0.0392705749     -86.6987871      0.0392705749     -86.6987871      0.998508574      2.25023812       
13.935           0.998535297      2.22472474       0.0388255255     -86.7260344      0.0388255255     -86.7260344      0.998535297      2.22472474       
14.07            0.998561263      2.19966307       0.0383883498     -86.7527026      0.0383883498     -86.7527026      0.998561263      2.19966307       
14.205           0.998586499      2.17504028       0.0379588246     -86.7788054      0.0379588246     -86.7788054      0.998586499      2.17504028       
14.34            0.998611031      2.15084405       0.037536735      -86.8043561      0.037536735      -86.8043561      0.998611031      2.15084405       
14.475           0.998634884      2.12706247       0.0371218739     -86.8293676      0.0371218739     -86.8293676      0.998634884      2.12706247       
14.61            0.998658081      2.10368411       0.0367140419     -86.8538521      0.0367140419     -86.8538521      0.998658081      2.10368411       
14.745           0.998680646      2.08069792       0.0363130471     -86.8778214      0.0363130471     -86.8778214      0.998680646      2.08069792       
14.88            0.9987026        2.05809329       0.0359187041     -86.9012869      0.0359187041     -86.9012869      0.9987026        2.05809329       
15.015           0.998723963      2.03585995       0.0355308345     -86.9242594      0.0355308345     -86.9242594      0.998723963      2.03585995       
15.15            0.998744755      2.01398802       0.035149266      -86.9467494      0.035149266      -86.9467494      0.998744755      2.01398802       
15.285           0.998764996      1.99246796       0.0347738324     -86.968767       0.0347738324     -86.968767       0.998764996      1.99246796       
15.42            0.998784703      1.97129056       0.0344043733     -86.9903218      0.0344043733     -86.9903218      0.998784703      1.97129056       
15.555           0.998803894      1.95044693       0.0340407339     -87.0114231      0.0340407339     -87.0114231      0.998803894      1.95044693       
15.69            0.998822585      1.92992849       0.0336827646     -87.0320798      0.0336827646     -87.0320798      0.998822585      1.92992849       
15.825           0.998840793      1.90972694       0.0333303209     -87.0523007      0.0333303209     -87.0523007      0.998840793      1.90972694       
15.96            0.998858532      1.88983427       0.0329832633     -87.0720938      0.0329832633     -87.0720938      0.998858532      1.88983427       
16.095           0.998875818      1.87024274       0.0326414568     -87.0914673      0.0326414568     -87.0914673      0.998875818      1.87024274       
16.23            0.998892665      1.85094486       0.0323047709     -87.1104286      0.0323047709     -87.1104286      0.998892665      1.85094486       
16.365           0.998909086      1.83193338       0.0319730795     -87.1289852      0.0319730795     -87.1289852      0.998909086      1.83193338       
16.5             0.998925094      1.81320129       0.0316462603     -87.1471441      0.0316462603     -87.1471441      0.998925094      1.81320129       
16.635           0.998940702      1.79474183       0.0313241954     -87.1649122      0.0313241954     -87.1649122      0.998940702      1.79474183       
16.77            0.998955922      1.77654842       0.0310067703     -87.1822958      0.0310067703     -87.1822958      0.998955922      1.77654842       
16.905           0.998970765      1.75861471       0.0306938743     -87.1993014      0.0306938743     -87.1993014      0.998970765      1.75861471       
17.04            0.998985242      1.74093455       0.0303854002     -87.2159349      0.0303854002     -87.2159349      0.998985242      1.74093455       
17.175           0.998999365      1.72350197       0.0300812442     -87.2322022      0.0300812442     -87.2322022      0.998999365      1.72350197       
