! Coilcraft 1812LS-154 Chip Inductor				
! 8 August 2002			
# MHZ S MA R 50
!Freq             MagS11           AngS11           MagS21           AngS21           MagS12           AngS12           MagS22           AngS22
0.03             0.27293552       46.1905158       0.83463026       -13.6498694      0.83463026       -13.6498694      0.27293552       46.1905158       
0.06             0.453661903      46.8475444       0.765017839      -25.6340189      0.765017839      -25.6340189      0.453661903      46.8475444       
0.09             0.594953067      41.9166977       0.684499746      -35.4966111      0.684499746      -35.4966111      0.594953067      41.9166977       
0.12             0.696834344      36.7005833       0.606775883      -43.3406736      0.606775883      -43.3406736      0.696834344      36.7005833       
0.15             0.768744565      32.1603759       0.537948998      -49.5223325      0.537948998      -49.5223325      0.768744565      32.1603759       
0.18             0.819736422      28.3918807       0.479267533      -54.4187963      0.479267533      -54.4187963      0.819736422      28.3918807       
0.21             0.856482015      25.2936692       0.429906592      -58.343006       0.429906592      -58.343006       0.856482015      25.2936692       
0.24             0.883503123      22.7370565       0.388443774      -61.5325478      0.388443774      -61.5325478      0.883503123      22.7370565       
0.27             0.903792324      20.609121        0.353461431      -64.1622199      0.353461431      -64.1622199      0.903792324      20.609121        
0.3              0.919333348      18.8198739       0.323739052      -66.359828       0.323739052      -66.359828       0.919333348      18.8198739       
0.33             0.931458058      17.2998086       0.298283393      -68.2193262      0.298283393      -68.2193262      0.931458058      17.2998086       
0.36             0.941076324      15.9956378       0.276304015      -69.8105278      0.276304015      -69.8105278      0.941076324      15.9956378       
0.39             0.948821548      14.8663986       0.257176188      -71.1859805      0.257176188      -71.1859805      0.948821548      14.8663986       
0.42             0.955143032      13.8803714       0.240405782      -72.3857739      0.240405782      -72.3857739      0.955143032      13.8803714       
0.45             0.960365273      13.0127654       0.225600137      -73.4409016      0.225600137      -73.4409016      0.960365273      13.0127654       
0.48             0.964726632      12.2440108       0.212445152      -74.3756315      0.212445152      -74.3756315      0.964726632      12.2440108       
0.51             0.968404968      11.5585035       0.200687677      -75.2091938      0.200687677      -75.2091938      0.968404968      11.5585035       
0.54             0.971534937      10.9436795       0.190122075      -75.9569975      0.190122075      -75.9569975      0.971534937      10.9436795       
0.57             0.974219863      10.3893279       0.180579992      -76.6315182      0.180579992      -76.6315182      0.974219863      10.3893279       
0.6              0.976540009      9.88707725       0.171922546      -77.2429537      0.171922546      -77.2429537      0.976540009      9.88707725       
0.63             0.97855844       9.43000675       0.164034324      -77.7997143      0.164034324      -77.7997143      0.97855844       9.43000675       
0.66             0.980325229      9.01235087       0.156818744      -78.3087929      0.156818744      -78.3087929      0.980325229      9.01235087       
0.69             0.981880521      8.62927153       0.150194447      -78.7760491      0.150194447      -78.7760491      0.981880521      8.62927153       
0.72             0.983256793      8.27668136       0.144092468      -79.2064268      0.144092468      -79.2064268      0.983256793      8.27668136       
0.75             0.984480535      7.95110543       0.138454004      -79.6041253      0.138454004      -79.6041253      0.984480535      7.95110543       
0.78             0.985573526      7.64957194       0.133228636      -79.9727333      0.133228636      -79.9727333      0.985573526      7.64957194       
0.81             0.986553797      7.36952531       0.128372908      -80.3153348      0.128372908      -80.3153348      0.986553797      7.36952531       
0.84             0.987436379      7.1087565        0.123849181      -80.6345946      0.123849181      -80.6345946      0.987436379      7.1087565        
0.87             0.98823388       6.86534666       0.119624702      -80.9328268      0.119624702      -80.9328268      0.98823388       6.86534666       
0.9              0.988956938      6.63762148       0.115670846      -81.21205        0.115670846      -81.21205        0.988956938      6.63762148       
0.93             0.989614578      6.42411364       0.111962489      -81.474033       0.111962489      -81.474033       0.989614578      6.42411364       
0.96             0.990214499      6.22353208       0.108477499      -81.7203322      0.108477499      -81.7203322      0.990214499      6.22353208       
0.99             0.990763296      6.03473644       0.105196303      -81.9523221      0.105196303      -81.9523221      0.990763296      6.03473644       
1.02             0.99126665       5.85671587       0.102101531      -82.1712213      0.102101531      -82.1712213      0.99126665       5.85671587       
1.05             0.991729471      5.68857123       0.0991777194     -82.3781139      0.0991777194     -82.3781139      0.991729471      5.68857123       
1.08             0.992156024      5.52950017       0.0964110565     -82.5739673      0.0964110565     -82.5739673      0.992156024      5.52950017       
1.11             0.992550023      5.37878452       0.0937891693     -82.7596476      0.0937891693     -82.7596476      0.992550023      5.37878452       
1.14             0.992914721      5.23577959       0.0913009425     -82.9359324      0.0913009425     -82.9359324      0.992914721      5.23577959       
1.17             0.993252971      5.09990503       0.0889363636     -83.1035218      0.0889363636     -83.1035218      0.993252971      5.09990503       
1.2              0.993567287      4.97063706       0.0866863901     -83.2630481      0.0866863901     -83.2630481      0.993567287      4.97063706       
1.23             0.993859891      4.84750177       0.0845428356     -83.4150832      0.0845428356     -83.4150832      0.993859891      4.84750177       
1.26             0.994132751      4.73006931       0.0824982711     -83.560146       0.0824982711     -83.560146       0.994132751      4.73006931       
1.29             0.994387617      4.61794897       0.0805459401     -83.6987086      0.0805459401     -83.6987086      0.994387617      4.61794897       
1.32             0.994626048      4.51078477       0.0786796846     -83.8312008      0.0786796846     -83.8312008      0.994626048      4.51078477       
1.35             0.994849436      4.40825174       0.0768938801     -83.9580154      0.0768938801     -83.9580154      0.994849436      4.40825174       
1.38             0.995059032      4.31005264       0.0751833799     -84.0795117      0.0751833799     -84.0795117      0.995059032      4.31005264       
1.41             0.995255954      4.21591503       0.0735434653     -84.196019       0.0735434653     -84.196019       0.995255954      4.21591503       
1.44             0.995441211      4.12558876       0.0719698021     -84.30784        0.0719698021     -84.30784        0.995441211      4.12558876       
1.47             0.995615715      4.03884378       0.0704584027     -84.4152529      0.0704584027     -84.4152529      0.995615715      4.03884378       
1.5              0.995780286      3.95546811       0.0690055918     -84.5185141      0.0690055918     -84.5185141      0.995780286      3.95546811       
1.53             0.995935669      3.87526614       0.0676079771     -84.6178606      0.0676079771     -84.6178606      0.995935669      3.87526614       
1.56             0.996082541      3.79805708       0.0662624222     -84.7135113      0.0662624222     -84.7135113      0.996082541      3.79805708       
1.59             0.996221516      3.72367357       0.064966023      -84.8056686      0.064966023      -84.8056686      0.996221516      3.72367357       
1.62             0.996353154      3.65196047       0.0637160871     -84.8945207      0.0637160871     -84.8945207      0.996353154      3.65196047       
1.65             0.996477966      3.58277378       0.0625101144     -84.9802421      0.0625101144     -84.9802421      0.996477966      3.58277378       
1.68             0.996596417      3.51597963       0.0613457806     -85.0629948      0.0613457806     -85.0629948      0.996596417      3.51597963       
1.71             0.996708937      3.45145344       0.0602209219     -85.14293        0.0602209219     -85.14293        0.996708937      3.45145344       
1.74             0.996815915      3.3890791        0.0591335215     -85.2201885      0.0591335215     -85.2201885      0.996815915      3.3890791        
1.77             0.996917713      3.32874829       0.0580816972     -85.2949016      0.0580816972     -85.2949016      0.996917713      3.32874829       
1.8              0.997014661      3.27035981       0.0570636908     -85.367192       0.0570636908     -85.367192       0.997014661      3.27035981       
1.83             0.997107063      3.21381904       0.0560778576     -85.4371745      0.0560778576     -85.4371745      0.997107063      3.21381904       
1.86             0.9971952        3.15903737       0.0551226575     -85.5049567      0.0551226575     -85.5049567      0.9971952        3.15903737       
1.89             0.997279333      3.10593177       0.0541966472     -85.5706392      0.0541966472     -85.5706392      0.997279333      3.10593177       
1.92             0.9973597        3.05442437       0.0532984723     -85.6343166      0.0532984723     -85.6343166      0.9973597        3.05442437       
1.95             0.997436524      3.00444199       0.0524268607     -85.6960777      0.0524268607     -85.6960777      0.997436524      3.00444199       
1.98             0.99751001       2.9559159        0.0515806166     -85.7560059      0.0515806166     -85.7560059      0.99751001       2.9559159        
2.01             0.99758035       2.90878139       0.0507586147     -85.8141797      0.0507586147     -85.8141797      0.99758035       2.90878139       
2.04             0.99764772       2.86297753       0.0499597952     -85.8706731      0.0499597952     -85.8706731      0.99764772       2.86297753       
2.07             0.997712286      2.81844691       0.0491831591     -85.9255557      0.0491831591     -85.9255557      0.997712286      2.81844691       
2.1              0.997774201      2.77513536       0.0484277637     -85.9788932      0.0484277637     -85.9788932      0.997774201      2.77513536       
2.13             0.997833608      2.73299172       0.0476927192     -86.0307478      0.0476927192     -86.0307478      0.997833608      2.73299172       
2.16             0.99789064       2.69196767       0.0469771844     -86.0811781      0.0469771844     -86.0811781      0.99789064       2.69196767       
2.19             0.997945423      2.65201751       0.046280364      -86.1302394      0.046280364      -86.1302394      0.997945423      2.65201751       
2.22             0.997998072      2.61309799       0.0456015051     -86.1779843      0.0456015051     -86.1779843      0.997998072      2.61309799       
2.25             0.998048696      2.57516815       0.0449398947     -86.2244623      0.0449398947     -86.2244623      0.998048696      2.57516815       
2.28             0.998097398      2.53818916       0.0442948569     -86.2697206      0.0442948569     -86.2697206      0.998097398      2.53818916       
2.31             0.998144274      2.50212421       0.0436657506     -86.3138038      0.0436657506     -86.3138038      0.998144274      2.50212421       
2.34             0.998189411      2.46693835       0.0430519675     -86.3567542      0.0430519675     -86.3567542      0.998189411      2.46693835       
2.37             0.998232896      2.43259838       0.0424529296     -86.3986118      0.0424529296     -86.3986118      0.998232896      2.43259838       
2.4              0.998274807      2.39907278       0.0418680876     -86.4394151      0.0418680876     -86.4394151      0.998274807      2.39907278       
2.43             0.998315218      2.36633154       0.0412969193     -86.4792001      0.0412969193     -86.4792001      0.998315218      2.36633154       
2.46             0.998354199      2.33434612       0.0407389275     -86.5180013      0.0407389275     -86.5180013      0.998354199      2.33434612       
2.49             0.998391817      2.30308936       0.040193639      -86.5558517      0.040193639      -86.5558517      0.998391817      2.30308936       
2.52             0.998428133      2.27253536       0.0396606028     -86.5927824      0.0396606028     -86.5927824      0.998428133      2.27253536       
2.55             0.998463205      2.24265945       0.0391393892     -86.6288232      0.0391393892     -86.6288232      0.998463205      2.24265945       
2.58             0.998497089      2.21343809       0.038629588      -86.6640025      0.038629588      -86.6640025      0.998497089      2.21343809       
2.61             0.998529838      2.18484882       0.0381308081     -86.6983473      0.0381308081     -86.6983473      0.998529838      2.18484882       
2.64             0.998561499      2.1568702        0.0376426758     -86.7318833      0.0376426758     -86.7318833      0.998561499      2.1568702        
2.67             0.998592121      2.12948174       0.0371648341     -86.7646353      0.0371648341     -86.7646353      0.998592121      2.12948174       
2.7              0.998621747      2.10266385       0.036696942      -86.7966266      0.036696942      -86.7966266      0.998621747      2.10266385       
2.73             0.998650419      2.07639782       0.0362386731     -86.8278797      0.0362386731     -86.8278797      0.998650419      2.07639782       
2.76             0.998678176      2.05066573       0.0357897152     -86.8584162      0.0357897152     -86.8584162      0.998678176      2.05066573       
2.79             0.998705056      2.02545042       0.0353497695     -86.8882563      0.0353497695     -86.8882563      0.998705056      2.02545042       
2.82             0.998731095      2.00073548       0.0349185499     -86.9174199      0.0349185499     -86.9174199      0.998731095      2.00073548       
2.85             0.998756325      1.97650517       0.034495782      -86.9459255      0.034495782      -86.9459255      0.998756325      1.97650517       
2.88             0.99878078       1.95274441       0.0340812031     -86.9737912      0.0340812031     -86.9737912      0.99878078       1.95274441       
2.91             0.99880449       1.92943873       0.0336745611     -87.001034       0.0336745611     -87.001034       0.99880449       1.92943873       
2.94             0.998827483      1.90657427       0.0332756141     -87.0276705      0.0332756141     -87.0276705      0.998827483      1.90657427       
2.97             0.998849787      1.88413769       0.0328841301     -87.0537164      0.0328841301     -87.0537164      0.998849787      1.88413769       
3                0.998871429      1.86211622       0.032499886      -87.0791867      0.032499886      -87.0791867      0.998871429      1.86211622       
3.03             0.998892433      1.84049757       0.0321226679     -87.1040959      0.0321226679     -87.1040959      0.998892433      1.84049757       
3.06             0.998912822      1.81926993       0.0317522699     -87.1284579      0.0317522699     -87.1284579      0.998912822      1.81926993       
3.09             0.998932621      1.79842197       0.0313884943     -87.1522859      0.0313884943     -87.1522859      0.998932621      1.79842197       
3.12             0.998951849      1.77794276       0.0310311508     -87.1755927      0.0310311508     -87.1755927      0.998951849      1.77794276       
3.15             0.998970528      1.75782181       0.0306800564     -87.1983904      0.0306800564     -87.1983904      0.998970528      1.75782181       
3.18             0.998988678      1.73804901       0.030335035      -87.2206909      0.030335035      -87.2206909      0.998988678      1.73804901       
3.21             0.999006317      1.71861464       0.029995917      -87.2425053      0.029995917      -87.2425053      0.999006317      1.71861464       
3.24             0.999023462      1.69950933       0.0296625389     -87.2638444      0.0296625389     -87.2638444      0.999023462      1.69950933       
3.27             0.999040132      1.68072404       0.0293347435     -87.2847186      0.0293347435     -87.2847186      0.999040132      1.68072404       
3.3              0.999056342      1.66225009       0.029012379      -87.3051378      0.029012379      -87.3051378      0.999056342      1.66225009       
3.33             0.999072109      1.64407908       0.0286952993     -87.3251116      0.0286952993     -87.3251116      0.999072109      1.64407908       
3.36             0.999087446      1.62620292       0.0283833633     -87.3446492      0.0283833633     -87.3446492      0.999087446      1.62620292       
3.39             0.999102369      1.60861382       0.028076435      -87.3637592      0.028076435      -87.3637592      0.999102369      1.60861382       
3.42             0.999116891      1.59130423       0.0277743829     -87.3824502      0.0277743829     -87.3824502      0.999116891      1.59130423       
3.45             0.999131025      1.5742669        0.0274770804     -87.4007302      0.0274770804     -87.4007302      0.999131025      1.5742669        
3.48             0.999144784      1.55749479       0.0271844051     -87.4186072      0.0271844051     -87.4186072      0.999144784      1.55749479       
3.51             0.999158179      1.54098114       0.0268962387     -87.4360884      0.0268962387     -87.4360884      0.999158179      1.54098114       
3.54             0.999171224      1.52471938       0.026612467      -87.4531811      0.026612467      -87.4531811      0.999171224      1.52471938       
3.57             0.999183927      1.50870319       0.0263329795     -87.4698922      0.0263329795     -87.4698922      0.999183927      1.50870319       
3.6              0.999196301      1.49292645       0.0260576696     -87.4862284      0.0260576696     -87.4862284      0.999196301      1.49292645       
3.63             0.999208356      1.47738323       0.0257864339     -87.5021959      0.0257864339     -87.5021959      0.999208356      1.47738323       
3.66             0.9992201        1.46206781       0.0255191726     -87.5178008      0.0255191726     -87.5178008      0.9992201        1.46206781       
3.69             0.999231544      1.44697464       0.0252557891     -87.533049       0.0252557891     -87.533049       0.999231544      1.44697464       
3.72             0.999242697      1.43209837       0.0249961898     -87.5479461      0.0249961898     -87.5479461      0.999242697      1.43209837       
3.75             0.999253568      1.4174338        0.0247402843     -87.5624974      0.0247402843     -87.5624974      0.999253568      1.4174338        
3.78             0.999264164      1.40297591       0.0244879848     -87.5767082      0.0244879848     -87.5767082      0.999264164      1.40297591       
3.81             0.999274494      1.38871983       0.0242392065     -87.5905833      0.0242392065     -87.5905833      0.999274494      1.38871983       
3.84             0.999284565      1.37466083       0.0239938669     -87.6041276      0.0239938669     -87.6041276      0.999284565      1.37466083       
