! Coilcraft 1812LS-473 Chip Inductor				
! 8 August 2002			
# MHZ S MA R 50
!Freq             MagS11           AngS11           MagS21           AngS21           MagS12           AngS12           MagS22           AngS22
0.03             0.103836728      48.0735689       0.93381994       -4.74550078      0.93381994       -4.74550078      0.103836728      48.0735689       
0.097            0.266192509      59.3815443       0.894262174      -14.8426776      0.894262174      -14.8426776      0.266192509      59.3815443       
0.164            0.412974131      55.4950966       0.838252428      -23.9532309      0.838252428      -23.9532309      0.412974131      55.4950966       
0.231            0.53324033       49.9869804       0.773717693      -31.8603908      0.773717693      -31.8603908      0.53324033       49.9869804       
0.298            0.627657049      44.6890748       0.708172592      -38.5576849      0.708172592      -38.5576849      0.627657049      44.6890748       
0.365            0.700344131      40.0083846       0.646238508      -44.1649004      0.646238508      -44.1649004      0.700344131      40.0083846       
0.432            0.756029105      35.989362        0.590029004      -48.8475772      0.590029004      -48.8475772      0.756029105      35.989362        
0.499            0.798857141      32.5683583       0.540091965      -52.7701375      0.540091965      -52.7701375      0.798857141      32.5683583       
0.566            0.832087937      29.6563309       0.496172059      -56.0762551      0.496172059      -56.0762551      0.832087937      29.6563309       
0.633            0.858161522      27.1673147       0.457676833      -58.8841936      0.457676833      -58.8841936      0.858161522      27.1673147       
0.7              0.878867027      25.0270423       0.423922134      -61.2885982      0.423922134      -61.2885982      0.878867027      25.0270423       
0.767            0.895509091      23.1741738       0.394246831      -63.3643323      0.394246831      -63.3643323      0.895509091      23.1741738       
0.834            0.909041645      21.5589965       0.368058535      -65.1704552      0.368058535      -65.1704552      0.909041645      21.5589965       
0.901            0.92016722       20.141484        0.34484574       -66.7536712      0.34484574       -66.7536712      0.92016722       20.141484        
0.968            0.92940814       18.8894143       0.32417497       -68.1511075      0.32417497       -68.1511075      0.92940814       18.8894143       
1.035            0.93715688       17.7767635       0.305682144      -69.3924771      0.305682144      -69.3924771      0.93715688       17.7767635       
1.102            0.943711589      16.7824056       0.289062485      -70.5017372      0.289062485      -70.5017372      0.943711589      16.7824056       
1.169            0.949301239      15.889086        0.274060874      -71.4983534      0.274060874      -71.4983534      0.949301239      15.889086        
1.236            0.954103537      15.08262         0.260463341      -72.3982635      0.260463341      -72.3982635      0.954103537      15.08262         
1.303            0.958257811      14.3512698       0.248089861      -73.2146151      0.248089861      -73.2146151      0.958257811      14.3512698       
1.37             0.961874351      13.6852576       0.236788383      -73.9583328      0.236788383      -73.9583328      0.961874351      13.6852576       
1.437            0.965041262      13.0763868       0.226429936      -74.6385564      0.226429936      -74.6385564      0.965041262      13.0763868       
1.504            0.967829529      12.5177438       0.216904641      -75.262983       0.216904641      -75.262983       0.967829529      12.5177438       
1.571            0.970296809      12.0034627       0.208118461      -75.8381348      0.208118461      -75.8381348      0.970296809      12.0034627       
1.638            0.97249029       11.5285388       0.199990562      -76.369571       0.199990562      -76.369571       0.97249029       11.5285388       
1.705            0.974448865      11.0886789       0.192451151      -76.8620565      0.192451151      -76.8620565      0.974448865      11.0886789       
1.772            0.976204811      10.6801822       0.185439711      -77.319696       0.185439711      -77.319696       0.976204811      10.6801822       
1.839            0.977785077      10.2998429       0.178903558      -77.7460436      0.178903558      -77.7460436      0.977785077      10.2998429       
1.906            0.979212305      9.94487146       0.172796638      -78.1441908      0.172796638      -78.1441908      0.979212305      9.94487146       
1.973            0.980505617      9.61283009       0.167078545      -78.5168382      0.167078545      -78.5168382      0.980505617      9.61283009       
2.04             0.981681254      9.30157986       0.161713696      -78.8663552      0.161713696      -78.8663552      0.981681254      9.30157986       
2.107            0.982753075      9.00923675       0.156670649      -79.1948282      0.156670649      -79.1948282      0.982753075      9.00923675       
2.174            0.983732962      8.73413525       0.151921524      -79.5041018      0.151921524      -79.5041018      0.983732962      8.73413525       
2.241            0.98463115       8.47479787       0.147441526      -79.7958122      0.147441526      -79.7958122      0.98463115       8.47479787       
2.308            0.985456492      8.22990964       0.143208533      -80.0714156      0.143208533      -80.0714156      0.985456492      8.22990964       
2.375            0.986216674      7.99829658       0.139202749      -80.3322122      0.139202749      -80.3322122      0.986216674      7.99829658       
2.442            0.986918394      7.77890743       0.135406417      -80.5793664      0.135406417      -80.5793664      0.986918394      7.77890743       
2.509            0.987567515      7.5707982        0.131803557      -80.8139239      0.131803557      -80.8139239      0.987567515      7.5707982        
2.576            0.988169181      7.37311889       0.128379759      -81.0368263      0.128379759      -81.0368263      0.988169181      7.37311889       
2.643            0.988727923      7.1851022        0.125121995      -81.248924       0.125121995      -81.248924       0.988727923      7.1851022        
2.71             0.989247743      7.00605379       0.122018456      -81.4509864      0.122018456      -81.4509864      0.989247743      7.00605379       
2.777            0.989732187      6.83534383       0.119058418      -81.6437116      0.119058418      -81.6437116      0.989732187      6.83534383       
2.844            0.990184406      6.67239975       0.116232121      -81.8277343      0.116232121      -81.8277343      0.990184406      6.67239975       
2.911            0.990607208      6.51669993       0.113530661      -82.0036331      0.113530661      -82.0036331      0.990607208      6.51669993       
2.978            0.9910031        6.36776816       0.110945901      -82.1719361      0.110945901      -82.1719361      0.9910031        6.36776816       
3.045            0.991374328      6.22516884       0.108470392      -82.3331264      0.108470392      -82.3331264      0.991374328      6.22516884       
3.112            0.991722908      6.0885028        0.106097301      -82.487647       0.106097301      -82.487647       0.991722908      6.0885028        
3.179            0.992050653      5.95740352       0.103820347      -82.6359046      0.103820347      -82.6359046      0.992050653      5.95740352       
3.246            0.992359197      5.83153395       0.101633751      -82.7782735      0.101633751      -82.7782735      0.992359197      5.83153395       
3.313            0.992650019      5.71058356       0.099532184      -82.9150982      0.099532184      -82.9150982      0.992650019      5.71058356       
3.38             0.992924455      5.59426583       0.0975107264     -83.046697       0.0975107264     -83.046697       0.992924455      5.59426583       
3.447            0.99318372       5.48231598       0.0955648276     -83.1733641      0.0955648276     -83.1733641      0.99318372       5.48231598       
3.514            0.993428914      5.37448892       0.0936902739     -83.2953715      0.0936902739     -83.2953715      0.993428914      5.37448892       
3.581            0.993661043      5.27055753       0.0918831571     -83.4129718      0.0918831571     -83.4129718      0.993661043      5.27055753       
3.648            0.993881021      5.17031096       0.090139848      -83.5263992      0.090139848      -83.5263992      0.993881021      5.17031096       
3.715            0.994089685      5.0735533        0.0884569718     -83.6358714      0.0884569718     -83.6358714      0.994089685      5.0735533        
3.782            0.994287801      4.98010218       0.0868313865     -83.7415912      0.0868313865     -83.7415912      0.994287801      4.98010218       
3.849            0.994476069      4.88978774       0.0852601632     -83.8437474      0.0852601632     -83.8437474      0.994476069      4.88978774       
3.916            0.994655134      4.80245147       0.0837405681     -83.9425162      0.0837405681     -83.9425162      0.994655134      4.80245147       
3.983            0.994825587      4.71794535       0.0822700471     -84.0380624      0.0822700471     -84.0380624      0.994825587      4.71794535       
4.05             0.994987973      4.63613098       0.0808462112     -84.1305397      0.0808462112     -84.1305397      0.994987973      4.63613098       
4.117            0.995142794      4.55687882       0.079466823      -84.2200923      0.079466823      -84.2200923      0.995142794      4.55687882       
4.184            0.995290513      4.48006746       0.0781297856     -84.3068551      0.0781297856     -84.3068551      0.995290513      4.48006746       
4.251            0.995431559      4.40558305       0.0768331312     -84.3909549      0.0768331312     -84.3909549      0.995431559      4.40558305       
4.318            0.995566327      4.33331866       0.0755750118     -84.4725106      0.0755750118     -84.4725106      0.995566327      4.33331866       
4.385            0.995695185      4.26317384       0.0743536899     -84.5516339      0.0743536899     -84.5516339      0.995695185      4.26317384       
4.452            0.995818474      4.19505405       0.0731675305     -84.62843        0.0731675305     -84.62843        0.995818474      4.19505405       
4.519            0.995936508      4.1288703        0.0720149938     -84.7029978      0.0720149938     -84.7029978      0.995936508      4.1288703        
4.586            0.996049583      4.06453872       0.0708946284     -84.7754307      0.0708946284     -84.7754307      0.996049583      4.06453872       
4.653            0.996157972      4.00198021       0.0698050648     -84.8458165      0.0698050648     -84.8458165      0.996157972      4.00198021       
4.72             0.996261928      3.94112009       0.06874501       -84.9142384      0.06874501       -84.9142384      0.996261928      3.94112009       
4.787            0.996361691      3.88188781       0.0677132422     -84.9807747      0.0677132422     -84.9807747      0.996361691      3.88188781       
4.854            0.996457481      3.82421668       0.0667086057     -85.0454996      0.0667086057     -85.0454996      0.996457481      3.82421668       
4.921            0.996549506      3.76804357       0.0657300071     -85.1084833      0.0657300071     -85.1084833      0.996549506      3.76804357       
4.988            0.996637958      3.71330872       0.0647764104     -85.1697921      0.0647764104     -85.1697921      0.996637958      3.71330872       
5.055            0.996723021      3.6599555        0.0638468341     -85.2294889      0.0638468341     -85.2294889      0.996723021      3.6599555        
5.122            0.996804862      3.6079302        0.0629403469     -85.2876334      0.0629403469     -85.2876334      0.996804862      3.6079302        
5.189            0.996883642      3.55718187       0.0620560651     -85.3442821      0.0620560651     -85.3442821      0.996883642      3.55718187       
5.256            0.996959509      3.5076621        0.0611931494     -85.3994888      0.0611931494     -85.3994888      0.996959509      3.5076621        
5.323            0.997032605      3.45932492       0.0603508022     -85.4533043      0.0603508022     -85.4533043      0.997032605      3.45932492       
5.39             0.997103061      3.4121266        0.0595282649     -85.5057772      0.0595282649     -85.5057772      0.997103061      3.4121266        
5.457            0.997171001      3.36602556       0.0587248158     -85.5569535      0.0587248158     -85.5569535      0.997171001      3.36602556       
5.524            0.997236541      3.32098219       0.0579397677     -85.606877       0.0579397677     -85.606877       0.997236541      3.32098219       
5.591            0.997299792      3.27695877       0.0571724658     -85.6555896      0.0571724658     -85.6555896      0.997299792      3.27695877       
5.658            0.997360858      3.23391937       0.0564222861     -85.7031308      0.0564222861     -85.7031308      0.997360858      3.23391937       
5.725            0.997419836      3.1918297        0.0556886335     -85.7495387      0.0556886335     -85.7495387      0.997419836      3.1918297        
5.792            0.997476818      3.15065705       0.0549709399     -85.7948493      0.0549709399     -85.7948493      0.997476818      3.15065705       
5.859            0.997531892      3.11037019       0.054268663      -85.8390969      0.054268663      -85.8390969      0.997531892      3.11037019       
5.926            0.99758514       3.0709393        0.0535812849     -85.8823146      0.0535812849     -85.8823146      0.99758514       3.0709393        
5.993            0.99763664       3.03233588       0.0529083102     -85.9245336      0.0529083102     -85.9245336      0.99763664       3.03233588       
6.06             0.997686466      2.99453266       0.0522492656     -85.965784       0.0522492656     -85.965784       0.997686466      2.99453266       
6.127            0.997734688      2.95750358       0.0516036981     -86.0060943      0.0516036981     -86.0060943      0.997734688      2.95750358       
6.194            0.997781373      2.92122369       0.050971174      -86.0454919      0.050971174      -86.0454919      0.997781373      2.92122369       
6.261            0.997826581      2.88566909       0.0503512782     -86.0840029      0.0503512782     -86.0840029      0.997826581      2.88566909       
6.328            0.997870375      2.85081689       0.0497436128     -86.1216524      0.0497436128     -86.1216524      0.997870375      2.85081689       
6.395            0.997912809      2.81664516       0.0491477964     -86.1584644      0.0491477964     -86.1584644      0.997912809      2.81664516       
6.462            0.997953938      2.78313286       0.0485634636     -86.1944618      0.0485634636     -86.1944618      0.997953938      2.78313286       
6.529            0.997993812      2.75025981       0.0479902634     -86.2296665      0.0479902634     -86.2296665      0.997993812      2.75025981       
6.596            0.998032481      2.71800666       0.0474278593     -86.2640995      0.0474278593     -86.2640995      0.998032481      2.71800666       
6.663            0.99806999       2.68635481       0.046875928      -86.297781       0.046875928      -86.297781       0.99806999       2.68635481       
6.73             0.998106384      2.6552864        0.046334159      -86.3307303      0.046334159      -86.3307303      0.998106384      2.6552864        
6.797            0.998141703      2.62478429       0.0458022539     -86.362966       0.0458022539     -86.362966       0.998141703      2.62478429       
6.864            0.998175989      2.59483198       0.0452799261     -86.3945057      0.0452799261     -86.3945057      0.998175989      2.59483198       
6.931            0.998209278      2.56541362       0.0447668996     -86.4253665      0.0447668996     -86.4253665      0.998209278      2.56541362       
6.998            0.998241608      2.53651395       0.0442629092     -86.4555648      0.0442629092     -86.4555648      0.998241608      2.53651395       
7.065            0.998273012      2.50811829       0.0437676994     -86.4851162      0.0437676994     -86.4851162      0.998273012      2.50811829       
7.132            0.998303524      2.48021251       0.0432810246     -86.5140358      0.0432810246     -86.5140358      0.998303524      2.48021251       
7.199            0.998333175      2.45278302       0.042802648      -86.542338       0.042802648      -86.542338       0.998333175      2.45278302       
7.266            0.998361996      2.42581669       0.0423323414     -86.5700367      0.0423323414     -86.5700367      0.998361996      2.42581669       
7.333            0.998390014      2.3993009        0.0418698852     -86.5971451      0.0418698852     -86.5971451      0.998390014      2.3993009        
7.4              0.998417258      2.37322346       0.0414150673     -86.6236762      0.0414150673     -86.6236762      0.998417258      2.37322346       
7.467            0.998443754      2.34757265       0.0409676834     -86.6496422      0.0409676834     -86.6496422      0.998443754      2.34757265       
7.534            0.998469526      2.32233712       0.0405275365     -86.6750549      0.0405275365     -86.6750549      0.998469526      2.32233712       
7.601            0.9984946        2.29750596       0.0400944363     -86.6999256      0.0400944363     -86.6999256      0.9984946        2.29750596       
7.668            0.998518997      2.2730686        0.0396681991     -86.7242653      0.0396681991     -86.7242653      0.998518997      2.2730686        
7.735            0.998542741      2.24901486       0.0392486476     -86.7480844      0.0392486476     -86.7480844      0.998542741      2.24901486       
7.802            0.998565852      2.22533491       0.0388356107     -86.7713929      0.0388356107     -86.7713929      0.998565852      2.22533491       
7.869            0.998588351      2.20201924       0.0384289227     -86.7942006      0.0384289227     -86.7942006      0.998588351      2.20201924       
7.936            0.998610256      2.17905866       0.0380284239     -86.8165167      0.0380284239     -86.8165167      0.998610256      2.17905866       
8.003            0.998631588      2.1564443        0.0376339596     -86.8383502      0.0376339596     -86.8383502      0.998631588      2.1564443        
8.07             0.998652363      2.13416756       0.0372453804     -86.8597096      0.0372453804     -86.8597096      0.998652363      2.13416756       
8.137            0.998672599      2.11222015       0.0368625416     -86.8806032      0.0368625416     -86.8806032      0.998672599      2.11222015       
8.204            0.998692312      2.09059402       0.0364853034     -86.9010389      0.0364853034     -86.9010389      0.998692312      2.09059402       
8.271            0.998711519      2.06928141       0.0361135304     -86.9210243      0.0361135304     -86.9210243      0.998711519      2.06928141       
8.338            0.998730234      2.04827478       0.0357470914     -86.9405668      0.0357470914     -86.9405668      0.998730234      2.04827478       
8.405            0.998748472      2.02756685       0.0353858597     -86.9596732      0.0353858597     -86.9596732      0.998748472      2.02756685       
8.472            0.998766248      2.00715056       0.0350297122     -86.9783505      0.0350297122     -86.9783505      0.998766248      2.00715056       
8.539            0.998783574      1.98701907       0.0346785299     -86.9966049      0.0346785299     -86.9966049      0.998783574      1.98701907       
