! Coilcraft 1812LS-183 Chip Inductor				
! 8 August 2002			
# MHZ S MA R 50
!Freq             MagS11           AngS11           MagS21           AngS21           MagS12           AngS12           MagS22           AngS22
0.03             0.0449558463     45.1007905       0.968790895      -1.8836692       0.968790895      -1.8836692       0.0449558463     45.1007905       
0.2              0.215678571      65.3556344       0.930939263      -12.1560904      0.930939263      -12.1560904      0.215678571      65.3556344       
0.37             0.370796187      60.1884472       0.87681695       -21.5261618      0.87681695       -21.5261618      0.370796187      60.1884472       
0.54             0.499121957      53.780894        0.811964056      -29.7307655      0.811964056      -29.7307655      0.499121957      53.780894        
0.71             0.600602041      47.824661        0.744467851      -36.7182064      0.744467851      -36.7182064      0.600602041      47.824661        
0.88             0.679027742      42.640675        0.679757911      -42.5840267      0.679757911      -42.5840267      0.679027742      42.640675        
1.05             0.739181432      38.2287976       0.620537826      -47.4862574      0.620537826      -47.4862574      0.739181432      38.2287976       
1.22             0.78542384       34.4971083       0.567687408      -51.5908017      0.567687408      -51.5908017      0.78542384       34.4971083       
1.39             0.82125163       31.3365583       0.521102272      -55.046337       0.521102272      -55.046337       0.82125163       31.3365583       
1.56             0.849308132      28.6464862       0.480237798      -57.976818       0.480237798      -57.976818       0.849308132      28.6464862       
1.73             0.871540513      26.3417118       0.444406391      -60.4820879      0.444406391      -60.4820879      0.871540513      26.3417118       
1.9              0.889370985      24.3527531       0.412921444      -62.6413584      0.412921444      -62.6413584      0.889370985      24.3527531       
2.07             0.903839378      22.6237895       0.385158025      -64.5171828      0.385158025      -64.5171828      0.903839378      22.6237895       
2.24             0.915710683      21.1101816       0.360572052      -66.1590211      0.360572052      -66.1590211      0.915710683      21.1101816       
2.41             0.925552758      19.776194        0.338700378      -67.6061589      0.338700378      -67.6061589      0.925552758      19.776194        
2.58             0.933791498      18.5931022       0.319153088      -68.8899988      0.319153088      -68.8899988      0.933791498      18.5931022       
2.75             0.940749799      17.5376842       0.301603437      -70.0358245      0.301603437      -70.0358245      0.940749799      17.5376842       
2.92             0.946675136      16.5910434       0.285777837      -71.0641484      0.285777837      -71.0641484      0.946675136      16.5910434       
3.09             0.9517592        15.7376959       0.271446877      -71.9917398      0.271446877      -71.9917398      0.9517592        15.7376959       
3.26             0.956151995      14.9648664       0.258417641      -72.8324112      0.258417641      -72.8324112      0.956151995      14.9648664       
3.43             0.959972046      14.2619419       0.246527307      -73.5976225      0.246527307      -73.5976225      0.959972046      14.2619419       
3.6              0.96331387       13.6200471       0.23563788       -74.2969479      0.23563788       -74.2969479      0.96331387       13.6200471       
3.77             0.966253497      13.0317124       0.225631902      -74.9384391      0.225631902      -74.9384391      0.966253497      13.0317124       
3.94             0.968852586      12.4906136       0.21640894       -75.5289101      0.21640894       -75.5289101      0.968852586      12.4906136       
4.11             0.971161527      11.9913648       0.207882745      -76.0741617      0.207882745      -76.0741617      0.971161527      11.9913648       
4.28             0.973221798      11.5293544       0.199978916      -76.5791598      0.199978916      -76.5791598      0.973221798      11.5293544       
4.45             0.975067774      11.1006131       0.192633004      -77.048178       0.192633004      -77.048178       0.975067774      11.1006131       
4.62             0.976728126      10.7017078       0.185788948      -77.4849124      0.185788948      -77.4849124      0.976728126      10.7017078       
4.79             0.978226911      10.3296555       0.179397785      -77.8925749      0.179397785      -77.8925749      0.978226911      10.3296555       
4.96             0.97958443       9.98185269       0.173416596      -78.2739688      0.173416596      -78.2739688      0.97958443       9.98185269       
5.13             0.980817904      9.65601786       0.167807614      -78.6315515      0.167807614      -78.6315515      0.980817904      9.65601786       
5.3              0.981942018      9.35014371       0.162537492      -78.9674849      0.162537492      -78.9674849      0.981942018      9.35014371       
5.47             0.98296935       9.06245764       0.157576685      -79.2836791      0.157576685      -79.2836791      0.98296935       9.06245764       
5.64             0.983910726      8.79138881       0.152898936      -79.5818269      0.152898936      -79.5818269      0.983910726      8.79138881       
5.81             0.984775502      8.53554048       0.148480832      -79.863434       0.148480832      -79.863434       0.984775502      8.53554048       
5.98             0.985571796      8.29366678       0.144301442      -80.1298439      0.144301442      -80.1298439      0.985571796      8.29366678       
6.15             0.98630668       8.06465307       0.140341995      -80.3822589      0.140341995      -80.3822589      0.98630668       8.06465307       
6.32             0.986986334      7.84749922       0.136585616      -80.6217583      0.136585616      -80.6217583      0.986986334      7.84749922       
6.49             0.987616183      7.64130542       0.133017092      -80.8493133      0.133017092      -80.8493133      0.987616183      7.64130542       
6.66             0.988201         7.44525995       0.129622678      -81.0658004      0.129622678      -81.0658004      0.988201         7.44525995       
6.83             0.988745         7.2586288        0.126389924      -81.2720125      0.126389924      -81.2720125      0.988745         7.2586288        
7                0.989251914      7.08074661       0.123307528      -81.4686686      0.123307528      -81.4686686      0.989251914      7.08074661       
7.17             0.989725057      6.91100888       0.120365208      -81.6564223      0.120365208      -81.6564223      0.989725057      6.91100888       
7.34             0.990167382      6.74886522       0.11755359       -81.8358686      0.11755359       -81.8358686      0.990167382      6.74886522       
7.51             0.990581524      6.59381347       0.114864111      -82.0075509      0.114864111      -82.0075509      0.990581524      6.59381347       
7.68             0.990969842      6.44539452       0.112288937      -82.1719659      0.112288937      -82.1719659      0.990969842      6.44539452       
7.85             0.991334453      6.30318788       0.109820881      -82.3295691      0.109820881      -82.3295691      0.991334453      6.30318788       
8.02             0.991677261      6.16680767       0.107453343      -82.4807783      0.107453343      -82.4807783      0.991677261      6.16680767       
8.19             0.991999982      6.03589917       0.105180253      -82.6259778      0.105180253      -82.6259778      0.991999982      6.03589917       
8.36             0.992304165      5.91013576       0.102996013      -82.7655217      0.102996013      -82.7655217      0.992304165      5.91013576       
8.53             0.992591214      5.78921618       0.100895458      -82.8997366      0.100895458      -82.8997366      0.992591214      5.78921618       
8.7              0.9928624        5.67286214       0.0988738149     -83.0289244      0.0988738149     -83.0289244      0.9928624        5.67286214       
8.87             0.993118878      5.56081621       0.0969266614     -83.1533644      0.0969266614     -83.1533644      0.993118878      5.56081621       
9.04             0.993361702      5.45283983       0.0950498997     -83.2733155      0.0950498997     -83.2733155      0.993361702      5.45283983       
9.21             0.99359183       5.34871171       0.0932397251     -83.3890181      0.0932397251     -83.3890181      0.99359183       5.34871171       
9.38             0.993810138      5.24822623       0.0914926008     -83.5006955      0.0914926008     -83.5006955      0.993810138      5.24822623       
9.55             0.994017427      5.15119215       0.0898052348     -83.6085555      0.0898052348     -83.6085555      0.994017427      5.15119215       
9.72             0.994214433      5.05743129       0.0881745593     -83.7127917      0.0881745593     -83.7127917      0.994214433      5.05743129       
9.89             0.994401828      4.96677753       0.0865977121     -83.8135848      0.0865977121     -83.8135848      0.994401828      4.96677753       
10.06            0.994580231      4.87907574       0.0850720192     -83.9111036      0.0850720192     -83.9111036      0.994580231      4.87907574       
10.23            0.994750214      4.79418093       0.0835949806     -84.0055056      0.0835949806     -84.0055056      0.994750214      4.79418093       
10.4             0.994912301      4.71195743       0.0821642554     -84.0969386      0.0821642554     -84.0969386      0.994912301      4.71195743       
10.57            0.995066977      4.63227813       0.0807776502     -84.185541       0.0807776502     -84.185541       0.995066977      4.63227813       
10.74            0.995214689      4.55502385       0.0794331073     -84.2714425      0.0794331073     -84.2714425      0.995214689      4.55502385       
10.91            0.995355852      4.48008271       0.0781286945     -84.354765       0.0781286945     -84.354765       0.995355852      4.48008271       
11.08            0.99549085       4.4073496        0.0768625958     -84.4356229      0.0768625958     -84.4356229      0.99549085       4.4073496        
11.25            0.995620038      4.33672566       0.0756331025     -84.514124       0.0756331025     -84.514124       0.995620038      4.33672566       
11.42            0.995743747      4.26811784       0.0744386059     -84.5903697      0.0744386059     -84.5903697      0.995743747      4.26811784       
11.59            0.995862285      4.20143844       0.0732775898     -84.6644556      0.0732775898     -84.6644556      0.995862285      4.20143844       
11.76            0.995975936      4.13660481       0.0721486241     -84.7364718      0.0721486241     -84.7364718      0.995975936      4.13660481       
11.93            0.996084967      4.07353891       0.0710503586     -84.8065033      0.0710503586     -84.8065033      0.996084967      4.07353891       
12.1             0.996189626      4.01216704       0.0699815179     -84.8746307      0.0699815179     -84.8746307      0.996189626      4.01216704       
12.27            0.996290145      3.95241952       0.0689408958     -84.9409298      0.0689408958     -84.9409298      0.996290145      3.95241952       
12.44            0.996386739      3.89423046       0.067927351      -85.0054725      0.067927351      -85.0054725      0.996386739      3.89423046       
12.61            0.996479612      3.83753745       0.0669398029     -85.068327       0.0669398029     -85.068327       0.996479612      3.83753745       
12.78            0.996568952      3.78228138       0.0659772273     -85.1295577      0.0659772273     -85.1295577      0.996568952      3.78228138       
12.95            0.996654937      3.72840619       0.0650386532     -85.1892257      0.0650386532     -85.1892257      0.996654937      3.72840619       
13.12            0.996737733      3.67585872       0.0641231588     -85.2473891      0.0641231588     -85.2473891      0.996737733      3.67585872       
13.29            0.996817496      3.62458847       0.0632298692     -85.304103       0.0632298692     -85.304103       0.996817496      3.62458847       
13.46            0.996894372      3.57454748       0.0623579527     -85.3594196      0.0623579527     -85.3594196      0.996894372      3.57454748       
13.63            0.996968499      3.52569015       0.0615066186     -85.4133888      0.0615066186     -85.4133888      0.996968499      3.52569015       
13.8             0.997040007      3.47797311       0.0606751149     -85.4660579      0.0606751149     -85.4660579      0.997040007      3.47797311       
13.97            0.997109017      3.43135509       0.0598627254     -85.5174717      0.0598627254     -85.5174717      0.997109017      3.43135509       
14.14            0.997175645      3.38579676       0.0590687679     -85.5676734      0.0590687679     -85.5676734      0.997175645      3.38579676       
14.31            0.997239998      3.34126066       0.0582925925     -85.6167036      0.0582925925     -85.6167036      0.997239998      3.34126066       
14.48            0.997302178      3.29771106       0.0575335792     -85.6646013      0.0575335792     -85.6646013      0.997302178      3.29771106       
14.65            0.997362282      3.25511389       0.0567911364     -85.7114037      0.0567911364     -85.7114037      0.997362282      3.25511389       
14.82            0.997420401      3.2134366        0.0560646995     -85.7571463      0.0560646995     -85.7571463      0.997420401      3.2134366        
14.99            0.997476621      3.17264815       0.055353729      -85.8018627      0.055353729      -85.8018627      0.997476621      3.17264815       
15.16            0.997531024      3.13271883       0.0546577095     -85.8455855      0.0546577095     -85.8455855      0.997531024      3.13271883       
15.33            0.997583685      3.09362026       0.0539761482     -85.8883454      0.0539761482     -85.8883454      0.997583685      3.09362026       
15.5             0.997634679      3.05532531       0.0533085735     -85.930172       0.0533085735     -85.930172       0.997634679      3.05532531       
15.67            0.997684074      3.01780799       0.0526545343     -85.9710935      0.0526545343     -85.9710935      0.997684074      3.01780799       
15.84            0.997731936      2.98104343       0.0520135985     -86.0111369      0.0520135985     -86.0111369      0.997731936      2.98104343       
16.01            0.997778326      2.9450078        0.0513853521     -86.0503282      0.0513853521     -86.0503282      0.997778326      2.9450078        
16.18            0.997823305      2.90967828       0.0507693986     -86.0886921      0.0507693986     -86.0886921      0.997823305      2.90967828       
16.35            0.997866928      2.87503299       0.0501653575     -86.1262524      0.0501653575     -86.1262524      0.997866928      2.87503299       
16.52            0.997909247      2.84105091       0.0495728641     -86.1630317      0.0495728641     -86.1630317      0.997909247      2.84105091       
16.69            0.997950315      2.80771192       0.0489915682     -86.199052       0.0489915682     -86.199052       0.997950315      2.80771192       
16.86            0.997990179      2.77499667       0.0484211336     -86.234334       0.0484211336     -86.234334       0.997990179      2.77499667       
17.03            0.998028884      2.7428866        0.0478612376     -86.268898       0.0478612376     -86.268898       0.998028884      2.7428866        
17.2             0.998066475      2.71136386       0.04731157       -86.3027632      0.04731157       -86.3027632      0.998066475      2.71136386       
17.37            0.998102993      2.6804113        0.0467718326     -86.335948       0.0467718326     -86.335948       0.998102993      2.6804113        
17.54            0.998138478      2.65001244       0.0462417388     -86.3684702      0.0462417388     -86.3684702      0.998138478      2.65001244       
17.71            0.998172967      2.62015141       0.0457210127     -86.4003469      0.0457210127     -86.4003469      0.998172967      2.62015141       
17.88            0.998206496      2.59081296       0.0452093891     -86.4315945      0.0452093891     -86.4315945      0.998206496      2.59081296       
18.05            0.9982391        2.56198241       0.0447066124     -86.4622287      0.0447066124     -86.4622287      0.9982391        2.56198241       
18.22            0.998270812      2.5336456        0.0442124367     -86.4922647      0.0442124367     -86.4922647      0.998270812      2.5336456        
18.39            0.998301663      2.50578891       0.043726625      -86.5217171      0.043726625      -86.5217171      0.998301663      2.50578891       
18.56            0.998331683      2.47839922       0.043248949      -86.5505999      0.043248949      -86.5505999      0.998331683      2.47839922       
18.73            0.998360901      2.45146388       0.0427791884     -86.5789265      0.0427791884     -86.5789265      0.998360901      2.45146388       
18.9             0.998389344      2.42497067       0.0423171311     -86.60671        0.0423171311     -86.60671        0.998389344      2.42497067       
19.07            0.998417039      2.39890784       0.0418625723     -86.6339629      0.0418625723     -86.6339629      0.998417039      2.39890784       
19.24            0.99844401       2.37326403       0.0414153144     -86.6606972      0.0414153144     -86.6606972      0.99844401       2.37326403       
19.41            0.998470281      2.34802828       0.0409751668     -86.6869244      0.0409751668     -86.6869244      0.998470281      2.34802828       
19.58            0.998495876      2.32319001       0.0405419452     -86.7126557      0.0405419452     -86.7126557      0.998495876      2.32319001       
19.75            0.998520817      2.298739         0.0401154719     -86.7379019      0.0401154719     -86.7379019      0.998520817      2.298739         
19.92            0.998545124      2.27466538       0.0396955752     -86.7626734      0.0396955752     -86.7626734      0.998545124      2.27466538       
20.09            0.998568819      2.25095962       0.0392820888     -86.78698        0.0392820888     -86.78698        0.998568819      2.25095962       
20.26            0.998591921      2.22761248       0.0388748525     -86.8108315      0.0388748525     -86.8108315      0.998591921      2.22761248       
20.43            0.998614447      2.20461506       0.0384737109     -86.8342371      0.0384737109     -86.8342371      0.998614447      2.20461506       
20.6             0.998636417      2.18195874       0.0380785141     -86.8572057      0.0380785141     -86.8572057      0.998636417      2.18195874       
20.77            0.998657848      2.15963517       0.0376891168     -86.879746       0.0376891168     -86.879746       0.998657848      2.15963517       
20.94            0.998678756      2.13763628       0.0373053784     -86.9018662      0.0373053784     -86.9018662      0.998678756      2.13763628       
21.11            0.998699156      2.11595426       0.0369271631     -86.9235744      0.0369271631     -86.9235744      0.998699156      2.11595426       
21.28            0.998719065      2.09458155       0.036554339      -86.9448782      0.036554339      -86.9448782      0.998719065      2.09458155       
21.45            0.998738497      2.07351082       0.0361867787     -86.9657852      0.0361867787     -86.9657852      0.998738497      2.07351082       
21.62            0.998757466      2.05273497       0.0358243585     -86.9863025      0.0358243585     -86.9863025      0.998757466      2.05273497       
