! Coilcraft 1812LS-823 Chip Inductor				
! 8 August 2002			
# MHZ S MA R 50
!Freq             MagS11           AngS11           MagS21           AngS21           MagS12           AngS12           MagS22           AngS22
0.03             0.158247941      50.9997445       0.908770599      -7.77753586      0.908770599      -7.77753586      0.158247941      50.9997445       
0.065            0.294666546      56.45771         0.872462608      -16.3497444      0.872462608      -16.3497444      0.294666546      56.45771         
0.1              0.418563046      53.6831923       0.824261763      -24.1523943      0.824261763      -24.1523943      0.418563046      53.6831923       
0.135            0.523121593      49.3757426       0.769708941      -31.0536522      0.769708941      -31.0536522      0.523121593      49.3757426       
0.17             0.608297496      44.980834        0.713775565      -37.0428818      0.713775565      -37.0428818      0.608297496      44.980834        
0.205            0.676442551      40.9220396       0.659797267      -42.1873155      0.659797267      -42.1873155      0.676442551      40.9220396       
0.24             0.730585326      37.3104292       0.609584782      -46.5894879      0.609584782      -46.5894879      0.730585326      37.3104292       
0.275            0.773613876      34.144519        0.563874886      -50.3589949      0.563874886      -50.3589949      0.773613876      34.144519        
0.31             0.807969669      31.3830106       0.522761025      -53.5978503      0.522761025      -53.5978503      0.807969669      31.3830106       
0.345            0.835598752      28.9740062       0.485999567      -56.3947488      0.485999567      -56.3947488      0.835598752      28.9740062       
0.38             0.858007462      26.866747        0.453198189      -58.8240897      0.453198189      -58.8240897      0.858007462      26.866747        
0.415            0.876346428      25.0158718       0.423921136      -60.9471383      0.423921136      -60.9471383      0.876346428      25.0158718       
0.45             0.891491088      23.3824645       0.397743108      -62.8139182      0.397743108      -62.8139182      0.891491088      23.3824645       
0.485            0.904108507      21.9337848       0.374273793      -64.4651714      0.374273793      -64.4651714      0.904108507      21.9337848       
0.52             0.914709382      20.6425301       0.35316658       -65.9341158      0.35316658       -65.9341158      0.914709382      20.6425301       
0.555            0.923687279      19.4860005       0.334119229      -67.2479236      0.334119229      -67.2479236      0.923687279      19.4860005       
0.59             0.931347806      18.445314        0.316870808      -68.4289228      0.316870808      -68.4289228      0.931347806      18.445314        
0.625            0.937930193      17.5047264       0.301197173      -69.495558       0.301197173      -69.495558       0.937930193      17.5047264       
0.66             0.943623247      16.6510624       0.28690615       -70.4631517      0.28690615       -70.4631517      0.943623247      16.6510624       
0.695            0.948577195      15.8732495       0.273832954      -71.3445064      0.273832954      -71.3445064      0.948577195      15.8732495       
0.73             0.952912521      15.161939        0.261836094      -72.1503809      0.261836094      -72.1503809      0.952912521      15.161939        
0.765            0.956726591      14.5091997       0.250793812      -72.8898676      0.250793812      -72.8898676      0.956726591      14.5091997       
0.8              0.960098671      13.9082712       0.240601041      -73.5706927      0.240601041      -73.5706927      0.960098671      13.9082712       
0.835            0.963093743      13.3533631       0.231166842      -74.1994562      0.231166842      -74.1994562      0.963093743      13.3533631       
0.87             0.965765435      12.8394934       0.222412248      -74.7818248      0.222412248      -74.7818248      0.965765435      12.8394934       
0.905            0.968158285      12.3623558       0.21426846       -75.3226871      0.21426846       -75.3226871      0.968158285      12.3623558       
0.94             0.970309504      11.9182126       0.206675333      -75.8262802      0.206675333      -75.8262802      0.970309504      11.9182126       
0.975            0.972250359      11.5038056       0.199580115      -76.2962926      0.199580115      -76.2962926      0.972250359      11.5038056       
1.01             0.974007262      11.1162838       0.192936387      -76.7359483      0.192936387      -76.7359483      0.974007262      11.1162838       
1.045            0.975602641      10.7531426       0.186703168      -77.1480771      0.186703168      -77.1480771      0.975602641      10.7531426       
1.08             0.977055632      10.412174        0.180844169      -77.5351717      0.180844169      -77.5351717      0.977055632      10.412174        
1.115            0.978382636      10.0914245       0.175327156      -77.8994357      0.175327156      -77.8994357      0.978382636      10.0914245       
1.15             0.979597773      9.78916027       0.170123415      -78.2428244      0.170123415      -78.2428244      0.979597773      9.78916027       
1.185            0.980713251      9.50383738       0.165207292      -78.5670776      0.165207292      -78.5670776      0.980713251      9.50383738       
1.22             0.981739661      9.23407703       0.16055581       -78.8737487      0.16055581       -78.8737487      0.981739661      9.23407703       
1.255            0.982686232      8.97864423       0.156148332      -79.1642284      0.156148332      -79.1642284      0.982686232      8.97864423       
1.29             0.983561031      8.73642979       0.151966276      -79.4397658      0.151966276      -79.4397658      0.983561031      8.73642979       
1.325            0.984371135      8.50643489       0.147992871      -79.7014851      0.147992871      -79.7014851      0.984371135      8.50643489       
1.36             0.985122772      8.28775784       0.144212945      -79.9504011      0.144212945      -79.9504011      0.985122772      8.28775784       
1.395            0.985821438      8.07958265       0.140612742      -80.187432       0.140612742      -80.187432       0.985821438      8.07958265       
1.43             0.986472003      7.88116921       0.137179762      -80.4134108      0.137179762      -80.4134108      0.986472003      7.88116921       
1.465            0.987078787      7.69184474       0.133902624      -80.6290942      0.133902624      -80.6290942      0.987078787      7.69184474       
1.5              0.987645638      7.51099638       0.130770945      -80.8351718      0.130770945      -80.8351718      0.987645638      7.51099638       
1.535            0.98817599       7.33806471       0.127775232      -81.0322731      0.127775232      -81.0322731      0.98817599       7.33806471       
1.57             0.988672918      7.1725381        0.124906793      -81.2209735      0.124906793      -81.2209735      0.988672918      7.1725381        
1.605            0.989139176      7.01394775       0.122157654      -81.4018005      0.122157654      -81.4018005      0.989139176      7.01394775       
1.64             0.989577244      6.86186336       0.119520486      -81.5752382      0.119520486      -81.5752382      0.989577244      6.86186336       
1.675            0.989989353      6.71588923       0.116988544      -81.7417318      0.116988544      -81.7417318      0.989989353      6.71588923       
1.71             0.990377519      6.57566092       0.114555608      -81.9016914      0.114555608      -81.9016914      0.990377519      6.57566092       
1.745            0.990743567      6.44084222       0.112215934      -82.0554952      0.112215934      -82.0554952      0.990743567      6.44084222       
1.78             0.991089148      6.3111225        0.109964212      -82.2034928      0.109964212      -82.2034928      0.991089148      6.3111225        
1.815            0.991415764      6.18621433       0.107795524      -82.3460076      0.107795524      -82.3460076      0.991415764      6.18621433       
1.85             0.991724781      6.06585136       0.105705307      -82.4833393      0.105705307      -82.4833393      0.991724781      6.06585136       
1.885            0.992017444      5.94978644       0.103689326      -82.6157662      0.103689326      -82.6157662      0.992017444      5.94978644       
1.92             0.992294889      5.83778994       0.101743644      -82.7435466      0.101743644      -82.7435466      0.992294889      5.83778994       
1.955            0.992558156      5.72964819       0.0998645934     -82.8669211      0.0998645934     -82.8669211      0.992558156      5.72964819       
1.99             0.992808195      5.62516219       0.0980487565     -82.9861136      0.0980487565     -82.9861136      0.992808195      5.62516219       
2.025            0.99304588       5.52414633       0.0962929444     -83.1013331      0.0962929444     -83.1013331      0.99304588       5.52414633       
2.06             0.993272013      5.42642728       0.0945941775     -83.2127746      0.0945941775     -83.2127746      0.993272013      5.42642728       
2.095            0.993487331      5.33184304       0.092949669      -83.3206206      0.092949669      -83.3206206      0.993487331      5.33184304       
2.13             0.993692515      5.24024201       0.0913568097     -83.4250417      0.0913568097     -83.4250417      0.993692515      5.24024201       
2.165            0.99388819       5.15148215       0.0898131542     -83.5261978      0.0898131542     -83.5261978      0.99388819       5.15148215       
2.2              0.994074935      5.06543027       0.0883164083     -83.6242388      0.0883164083     -83.6242388      0.994074935      5.06543027       
2.235            0.994253286      4.98196136       0.0868644173     -83.7193055      0.0868644173     -83.7193055      0.994253286      4.98196136       
2.27             0.994423739      4.90095794       0.085455156      -83.8115302      0.085455156      -83.8115302      0.994423739      4.90095794       
2.305            0.994586753      4.82230953       0.0840867189     -83.901037       0.0840867189     -83.901037       0.994586753      4.82230953       
2.34             0.994742753      4.74591214       0.0827573116     -83.9879432      0.0827573116     -83.9879432      0.994742753      4.74591214       
2.375            0.994892137      4.67166777       0.081465243      -84.0723591      0.081465243      -84.0723591      0.994892137      4.67166777       
2.41             0.995035272      4.59948404       0.0802089176     -84.1543885      0.0802089176     -84.1543885      0.995035272      4.59948404       
2.445            0.995172502      4.52927374       0.0789868294     -84.2341296      0.0789868294     -84.2341296      0.995172502      4.52927374       
2.48             0.995304145      4.4609545        0.0777975553     -84.3116751      0.0777975553     -84.3116751      0.995304145      4.4609545        
2.515            0.995430501      4.39444848       0.0766397498     -84.3871126      0.0766397498     -84.3871126      0.995430501      4.39444848       
2.55             0.995551846      4.329682         0.0755121397     -84.460525       0.0755121397     -84.460525       0.995551846      4.329682         
2.585            0.995668443      4.26658536       0.0744135191     -84.5319905      0.0744135191     -84.5319905      0.995668443      4.26658536       
2.62             0.995780533      4.20509247       0.0733427453     -84.6015836      0.0733427453     -84.6015836      0.995780533      4.20509247       
2.655            0.995888345      4.14514072       0.0722987349     -84.6693745      0.0722987349     -84.6693745      0.995888345      4.14514072       
2.69             0.995992093      4.08667067       0.0712804596     -84.7354302      0.0712804596     -84.7354302      0.995992093      4.08667067       
2.725            0.996091976      4.02962592       0.0702869428     -84.7998138      0.0702869428     -84.7998138      0.996091976      4.02962592       
2.76             0.996188183      3.97395288       0.0693172567     -84.8625857      0.0693172567     -84.8625857      0.996188183      3.97395288       
2.795            0.996280891      3.9196006        0.0683705192     -84.923803       0.0683705192     -84.923803       0.996280891      3.9196006        
2.83             0.996370265      3.86652062       0.0674458908     -84.9835201      0.0674458908     -84.9835201      0.996370265      3.86652062       
2.865            0.996456461      3.81466681       0.0665425727     -85.0417887      0.0665425727     -85.0417887      0.996456461      3.81466681       
2.9              0.996539627      3.76399527       0.0656598036     -85.0986581      0.0656598036     -85.0986581      0.996539627      3.76399527       
2.935            0.996619902      3.71446411       0.0647968583     -85.1541751      0.0647968583     -85.1541751      0.996619902      3.71446411       
2.97             0.996697415      3.66603346       0.0639530449     -85.2083844      0.0639530449     -85.2083844      0.996697415      3.66603346       
3.005            0.996772291      3.61866522       0.0631277035     -85.2613287      0.0631277035     -85.2613287      0.996772291      3.61866522       
3.04             0.996844646      3.57232306       0.062320204      -85.3130486      0.062320204      -85.3130486      0.996844646      3.57232306       
3.075            0.99691459       3.52697228       0.0615299446     -85.3635828      0.0615299446     -85.3635828      0.99691459       3.52697228       
3.11             0.996982227      3.48257972       0.0607563501     -85.4129684      0.0607563501     -85.4129684      0.996982227      3.48257972       
3.145            0.997047655      3.43911369       0.0599988707     -85.4612407      0.0599988707     -85.4612407      0.997047655      3.43911369       
3.18             0.997110968      3.39654386       0.0592569803     -85.5084337      0.0592569803     -85.5084337      0.997110968      3.39654386       
3.215            0.997172254      3.35484121       0.0585301755     -85.5545794      0.0585301755     -85.5545794      0.997172254      3.35484121       
3.25             0.997231595      3.31397799       0.0578179743     -85.599709       0.0578179743     -85.599709       0.997231595      3.31397799       
3.285            0.997289073      3.27392757       0.0571199148     -85.6438519      0.0571199148     -85.6438519      0.997289073      3.27392757       
3.32             0.997344762      3.23466447       0.0564355547     -85.6870364      0.0564355547     -85.6870364      0.997344762      3.23466447       
3.355            0.997398733      3.19616425       0.0557644695     -85.7292897      0.0557644695     -85.7292897      0.997398733      3.19616425       
3.39             0.997451055      3.15840347       0.0551062523     -85.7706377      0.0551062523     -85.7706377      0.997451055      3.15840347       
3.425            0.997501791      3.12135964       0.0544605124     -85.8111052      0.0544605124     -85.8111052      0.997501791      3.12135964       
3.46             0.997551003      3.08501116       0.053826875      -85.8507162      0.053826875      -85.8507162      0.997551003      3.08501116       
3.495            0.997598751      3.0493373        0.0532049799     -85.8894935      0.0532049799     -85.8894935      0.997598751      3.0493373        
3.53             0.997645088      3.01431815       0.0525944812     -85.9274589      0.0525944812     -85.9274589      0.997645088      3.01431815       
3.565            0.997690068      2.97993456       0.0519950463     -85.9646336      0.0519950463     -85.9646336      0.997690068      2.97993456       
3.6              0.997733741      2.94616813       0.0514063554     -86.0010378      0.0514063554     -86.0010378      0.997733741      2.94616813       
3.635            0.997776157      2.91300115       0.0508281009     -86.0366907      0.0508281009     -86.0366907      0.997776157      2.91300115       
3.67             0.997817359      2.8804166        0.050259987      -86.0716111      0.050259987      -86.0716111      0.997817359      2.8804166        
3.705            0.997857392      2.84839809       0.0497017286     -86.1058167      0.0497017286     -86.1058167      0.997857392      2.84839809       
3.74             0.997896298      2.81692981       0.0491530514     -86.1393249      0.0491530514     -86.1393249      0.997896298      2.81692981       
3.775            0.997934117      2.78599658       0.0486136912     -86.172152       0.0486136912     -86.172152       0.997934117      2.78599658       
3.81             0.997970886      2.75558375       0.0480833933     -86.2043139      0.0480833933     -86.2043139      0.997970886      2.75558375       
3.845            0.998006642      2.72567718       0.0475619122     -86.2358258      0.0475619122     -86.2358258      0.998006642      2.72567718       
3.88             0.99804142       2.69626327       0.0470490112     -86.2667025      0.0470490112     -86.2667025      0.99804142       2.69626327       
3.915            0.998075254      2.66732889       0.0465444619     -86.296958       0.0465444619     -86.296958       0.998075254      2.66732889       
3.95             0.998108174      2.63886136       0.0460480442     -86.3266059      0.0460480442     -86.3266059      0.998108174      2.63886136       
3.985            0.998140211      2.61084846       0.0455595453     -86.3556592      0.0455595453     -86.3556592      0.998140211      2.61084846       
4.02             0.998171396      2.58327839       0.04507876       -86.3841305      0.04507876       -86.3841305      0.998171396      2.58327839       
4.055            0.998201755      2.55613974       0.04460549       -86.4120318      0.04460549       -86.4120318      0.998201755      2.55613974       
4.09             0.998231315      2.5294215        0.0441395437     -86.4393747      0.0441395437     -86.4393747      0.998231315      2.5294215        
4.125            0.998260102      2.50311304       0.0436807361     -86.4661705      0.0436807361     -86.4661705      0.998260102      2.50311304       
4.16             0.998288142      2.47720406       0.0432288883     -86.4924298      0.0432288883     -86.4924298      0.998288142      2.47720406       
4.195            0.998315456      2.45168462       0.0427838272     -86.518163       0.0427838272     -86.518163       0.998315456      2.45168462       
4.23             0.998342069      2.42654511       0.0423453856     -86.5433802      0.0423453856     -86.5433802      0.998342069      2.42654511       
4.265            0.998368002      2.40177622       0.0419134016     -86.5680909      0.0419134016     -86.5680909      0.998368002      2.40177622       
4.3              0.998393276      2.37736895       0.0414877185     -86.5923042      0.0414877185     -86.5923042      0.998393276      2.37736895       
4.335            0.998417911      2.35331459       0.0410681847     -86.6160292      0.0410681847     -86.6160292      0.998417911      2.35331459       
4.37             0.998441926      2.32960469       0.0406546535     -86.6392744      0.0406546535     -86.6392744      0.998441926      2.32960469       
4.405            0.998465339      2.3062311        0.0402469827     -86.6620479      0.0402469827     -86.6620479      0.998465339      2.3062311        
4.44             0.99848817       2.28318589       0.0398450345     -86.6843578      0.0398450345     -86.6843578      0.99848817       2.28318589       
4.475            0.998510435      2.2604614        0.0394486756     -86.7062116      0.0394486756     -86.7062116      0.998510435      2.2604614        
