! Coilcraft 1812LS-153 Chip Inductor				
! 8 August 2002			
# MHZ S MA R 50
!Freq             MagS11           AngS11           MagS21           AngS21           MagS12           AngS12           MagS22           AngS22
0.03             0.0408911914     40.5127623       0.969276075      -1.57042405      0.969276075      -1.57042405      0.0408911914     40.5127623       
0.252            0.225437286      64.7577336       0.926578662      -12.7130636      0.926578662      -12.7130636      0.225437286      64.7577336       
0.474            0.390907753      58.9687699       0.865897743      -22.7579937      0.865897743      -22.7579937      0.390907753      58.9687699       
0.696            0.524441322      52.116602        0.794333345      -31.4056035      0.794333345      -31.4056035      0.524441322      52.116602        
0.918            0.627197944      45.9131044       0.721549141      -38.635303       0.721549141      -38.635303       0.627197944      45.9131044       
1.14             0.70459751       40.6259752       0.653385163      -44.5999993      0.653385163      -44.5999993      0.70459751       40.6259752       
1.362            0.76265815       36.2025971       0.592299394      -49.5104469      0.592299394      -49.5104469      0.76265815       36.2025971       
1.584            0.806474839      32.5125914       0.538743159      -53.5708074      0.538743159      -53.5708074      0.806474839      32.5125914       
1.806            0.83991689       29.4219665       0.492221754      -56.9544978      0.492221754      -56.9544978      0.83991689       29.4219665       
2.028            0.865789129      26.8149085       0.451898019      -59.8004717      0.451898019      -59.8004717      0.865789129      26.8149085       
2.25             0.886090573      24.597418        0.416883881      -62.217282       0.416883881      -62.217282       0.886090573      24.597418        
2.472            0.902243417      22.6950733       0.386361844      -64.2890022      0.386361844      -64.2890022      0.902243417      22.6950733       
2.694            0.915265718      21.0494232       0.359624135      -66.08076        0.359624135      -66.08076        0.915265718      21.0494232       
2.916            0.925893691      19.6145468       0.336075574      -67.6432556      0.336075574      -67.6432556      0.925893691      19.6145468       
3.138            0.93466619       18.3542032       0.31522241       -69.01625        0.31522241       -69.01625        0.93466619       18.3542032       
3.36             0.94198267       17.2395981       0.296657176      -70.2311923      0.296657176      -70.2311923      0.94198267       17.2395981       
3.582            0.948143043      16.2476766       0.280043806      -71.313182       0.280043806      -71.313182       0.948143043      16.2476766       
3.804            0.953375296      15.3598283       0.265104523      -72.2824314      0.265104523      -72.2824314      0.953375296      15.3598283       
4.026            0.957854797      14.5609081       0.251608889      -73.1553605      0.251608889      -73.1553605      0.957854797      14.5609081       
4.248            0.961717964      13.8384926       0.239364855      -73.9454215      0.239364855      -73.9454215      0.961717964      13.8384926       
4.47             0.965072038      13.1823128       0.228211562      -74.6637234      0.228211562      -74.6637234      0.965072038      13.1823128       
4.692            0.968002161      12.5838185       0.21801357       -75.3195098      0.21801357       -75.3195098      0.968002161      12.5838185       
4.914            0.970576557      12.0358411       0.20865624       -75.9205271      0.20865624       -75.9205271      0.970576557      12.0358411       
5.136            0.972850368      11.5323313       0.200042036      -76.4733108      0.200042036      -76.4733108      0.972850368      11.5323313       
5.358            0.974868527      11.0681525       0.192087551      -76.9834093      0.192087551      -76.9834093      0.974868527      11.0681525       
5.58             0.976667922      10.638918        0.184721113      -77.4555608      0.184721113      -77.4555608      0.976667922      10.638918        
5.802            0.978279054      10.2408612       0.177880844      -77.8938344      0.177880844      -77.8938344      0.978279054      10.2408612       
6.024            0.979727311      9.87073078       0.17151308       -78.3017424      0.17151308       -78.3017424      0.979727311      9.87073078       
6.246            0.981033956      9.52570711       0.165571081      -78.682332       0.165571081      -78.682332       0.981033956      9.52570711       
6.468            0.982216902      9.20333353       0.160013971      -79.0382583      0.160013971      -79.0382583      0.982216902      9.20333353       
6.69             0.983291322      8.90146043       0.154805861      -79.3718455      0.154805861      -79.3718455      0.983291322      8.90146043       
6.912            0.984270138      8.61819925       0.149915126      -79.6851361      0.149915126      -79.6851361      0.984270138      8.61819925       
7.134            0.985164405      8.35188436       0.145313797      -79.9799321      0.145313797      -79.9799321      0.985164405      8.35188436       
7.356            0.985983627      8.10104144       0.140977054      -80.2578291      0.140977054      -80.2578291      0.985983627      8.10104144       
7.578            0.98673601       7.86436099       0.136882805      -80.520245       0.136882805      -80.520245       0.98673601       7.86436099       
7.8              0.987428667      7.64067611       0.133011322      -80.7684437      0.133011322      -80.7684437      0.987428667      7.64067611       
8.022            0.988067789      7.42894374       0.129344938      -81.0035556      0.129344938      -81.0035556      0.988067789      7.42894374       
8.244            0.988658786      7.22822877       0.125867787      -81.2265942      0.125867787      -81.2265942      0.988658786      7.22822877       
8.466            0.989206399      7.03769054       0.122565583      -81.4384714      0.122565583      -81.4384714      0.989206399      7.03769054       
8.688            0.989714799      6.85657128       0.119425431      -81.6400093      0.119425431      -81.6400093      0.989714799      6.85657128       
8.91             0.990187666      6.68418615       0.11643566       -81.8319514      0.11643566       -81.8319514      0.990187666      6.68418615       
9.132            0.990628259      6.51991482       0.113585685      -82.0149713      0.113585685      -82.0149713      0.990628259      6.51991482       
9.354            0.991039468      6.36319398       0.110865886      -82.189681       0.110865886      -82.189681       0.991039468      6.36319398       
9.576            0.991423867      6.21351105       0.108267498      -82.3566377      0.108267498      -82.3566377      0.991423867      6.21351105       
9.798            0.991783756      6.0703986        0.105782518      -82.5163497      0.105782518      -82.5163497      0.991783756      6.0703986        
10.02            0.992121189      5.93342948       0.103403631      -82.6692817      0.103403631      -82.6692817      0.992121189      5.93342948       
10.242           0.992438009      5.80221265       0.10112413       -82.8158593      0.10112413       -82.8158593      0.992438009      5.80221265       
10.464           0.992735876      5.67638939       0.0989378597     -82.9564731      0.0989378597     -82.9564731      0.992735876      5.67638939       
10.686           0.993016283      5.5556301        0.0968391604     -83.0914822      0.0968391604     -83.0914822      0.993016283      5.5556301        
10.908           0.993280578      5.4396314        0.094822818      -83.2212171      0.094822818      -83.2212171      0.993280578      5.4396314        
11.13            0.993529982      5.32811356       0.0928840224     -83.3459829      0.0928840224     -83.3459829      0.993529982      5.32811356       
11.352           0.993765601      5.22081827       0.0910183288     -83.4660613      0.0910183288     -83.4660613      0.993765601      5.22081827       
11.574           0.993988442      5.11750665       0.0892216241     -83.581713       0.0892216241     -83.581713       0.993988442      5.11750665       
11.796           0.994199418      5.01795741       0.0874900967     -83.6931794      0.0874900967     -83.6931794      0.994199418      5.01795741       
12.018           0.994399363      4.92196533       0.0858202094     -83.8006847      0.0858202094     -83.8006847      0.994399363      4.92196533       
12.24            0.994589039      4.82933979       0.0842086752     -83.9044372      0.0842086752     -83.9044372      0.994589039      4.82933979       
12.462           0.994769143      4.7399035        0.0826524357     -84.0046305      0.0826524357     -84.0046305      0.994769143      4.7399035        
12.684           0.994940312      4.65349138       0.0811486417     -84.1014451      0.0811486417     -84.1014451      0.994940312      4.65349138       
12.906           0.995103132      4.56994952       0.0796946357     -84.1950494      0.0796946357     -84.1950494      0.995103132      4.56994952       
13.128           0.995258142      4.48913424       0.0782879361     -84.2856004      0.0782879361     -84.2856004      0.995258142      4.48913424       
13.35            0.995405836      4.41091128       0.0769262228     -84.3732451      0.0769262228     -84.3732451      0.995405836      4.41091128       
13.572           0.99554667       4.33515501       0.0756073245     -84.4581211      0.0756073245     -84.4581211      0.99554667       4.33515501       
13.794           0.995681066      4.26174779       0.0743292069     -84.540357       0.0743292069     -84.540357       0.995681066      4.26174779       
14.016           0.995809412      4.19057932       0.0730899622     -84.6200737      0.0730899622     -84.6200737      0.995809412      4.19057932       
14.238           0.995932068      4.12154607       0.0718877994     -84.6973846      0.0718877994     -84.6973846      0.995932068      4.12154607       
14.46            0.996049368      4.05455079       0.0707210352     -84.7723962      0.0707210352     -84.7723962      0.996049368      4.05455079       
14.682           0.99616162       3.98950205       0.0695880868     -84.8452088      0.0695880868     -84.8452088      0.99616162       3.98950205       
14.904           0.996269112      3.92631378       0.0684874639     -84.9159167      0.0684874639     -84.9159167      0.996269112      3.92631378       
15.126           0.99637211       3.86490489       0.067417762      -84.9846087      0.067417762      -84.9846087      0.99637211       3.86490489       
15.348           0.996470862      3.80519895       0.0663776571     -85.0513686      0.0663776571     -85.0513686      0.996470862      3.80519895       
15.57            0.996565599      3.74712383       0.065365899      -85.1162757      0.065365899      -85.1162757      0.996565599      3.74712383       
15.792           0.996656537      3.69061139       0.0643813071     -85.1794045      0.0643813071     -85.1794045      0.996656537      3.69061139       
16.014           0.996743876      3.63559725       0.0634227651     -85.2408256      0.0634227651     -85.2408256      0.996743876      3.63559725       
16.236           0.996827805      3.58202051       0.062489217      -85.300606       0.062489217      -85.300606       0.996827805      3.58202051       
16.458           0.996908499      3.5298235        0.0615796628     -85.3588088      0.0615796628     -85.3588088      0.996908499      3.5298235        
16.68            0.996986122      3.47895162       0.0606931553     -85.4154939      0.0606931553     -85.4154939      0.996986122      3.47895162       
16.902           0.997060828      3.42935308       0.0598287961     -85.4707181      0.0598287961     -85.4707181      0.997060828      3.42935308       
17.124           0.997132762      3.38097876       0.058985733      -85.5245353      0.058985733      -85.5245353      0.997132762      3.38097876       
17.346           0.997202059      3.33378204       0.0581631568     -85.5769966      0.0581631568     -85.5769966      0.997202059      3.33378204       
17.568           0.997268846      3.28771862       0.0573602986     -85.6281505      0.0573602986     -85.6281505      0.997268846      3.28771862       
17.79            0.997333242      3.2427464        0.0565764276     -85.6780433      0.0565764276     -85.6780433      0.997333242      3.2427464        
18.012           0.99739536       3.19882534       0.0558108484     -85.7267188      0.0558108484     -85.7267188      0.99739536       3.19882534       
18.234           0.997455307      3.15591732       0.0550628993     -85.7742187      0.0550628993     -85.7742187      0.997455307      3.15591732       
18.456           0.99751318       3.11398604       0.0543319499     -85.8205828      0.0543319499     -85.8205828      0.99751318       3.11398604       
18.678           0.997569075      3.07299692       0.0536173994     -85.8658491      0.0536173994     -85.8658491      0.997569075      3.07299692       
18.9             0.99762308       3.03291699       0.0529186753     -85.9100535      0.0529186753     -85.9100535      0.99762308       3.03291699       
19.122           0.997675278      2.99371479       0.0522352309     -85.9532305      0.0522352309     -85.9532305      0.997675278      2.99371479       
19.344           0.99772575       2.95536031       0.0515665446     -85.995413       0.0515665446     -85.995413       0.99772575       2.95536031       
19.566           0.997774568      2.91782487       0.0509121183     -86.0366322      0.0509121183     -86.0366322      0.997774568      2.91782487       
19.788           0.997821804      2.88108108       0.0502714759     -86.0769181      0.0502714759     -86.0769181      0.997821804      2.88108108       
20.01            0.997867526      2.84510275       0.0496441623     -86.1162992      0.0496441623     -86.1162992      0.997867526      2.84510275       
20.232           0.997911795      2.80986485       0.049029742      -86.154803       0.049029742      -86.154803       0.997911795      2.80986485       
20.454           0.997954672      2.7753434        0.0484277986     -86.1924555      0.0484277986     -86.1924555      0.997954672      2.7753434        
20.676           0.997996215      2.74151546       0.047837933      -86.2292817      0.047837933      -86.2292817      0.997996215      2.74151546       
20.898           0.998036476      2.70835905       0.0472597633     -86.2653055      0.0472597633     -86.2653055      0.998036476      2.70835905       
21.12            0.998075508      2.67585313       0.0466929231     -86.3005498      0.0466929231     -86.3005498      0.998075508      2.67585313       
21.342           0.998113358      2.6439775        0.0461370616     -86.3350366      0.0461370616     -86.3350366      0.998113358      2.6439775        
21.564           0.998150074      2.61271279       0.0455918419     -86.3687868      0.0455918419     -86.3687868      0.998150074      2.61271279       
21.786           0.998185698      2.58204044       0.0450569409     -86.4018206      0.0450569409     -86.4018206      0.998185698      2.58204044       
22.008           0.998220274      2.55194262       0.0445320485     -86.4341573      0.0445320485     -86.4341573      0.998220274      2.55194262       
22.23            0.99825384       2.52240219       0.0440168667     -86.4658154      0.0440168667     -86.4658154      0.99825384       2.52240219       
22.452           0.998286434      2.4934027        0.0435111094     -86.4968126      0.0435111094     -86.4968126      0.998286434      2.4934027        
22.674           0.998318094      2.46492835       0.0430145015     -86.5271659      0.0430145015     -86.5271659      0.998318094      2.46492835       
22.896           0.998348852      2.43696394       0.0425267784     -86.5568918      0.0425267784     -86.5568918      0.998348852      2.43696394       
23.118           0.998378742      2.40949484       0.0420476859     -86.586006       0.0420476859     -86.586006       0.998378742      2.40949484       
23.34            0.998407796      2.382507         0.0415769791     -86.6145234      0.0415769791     -86.6145234      0.998407796      2.382507         
23.562           0.998436042      2.35598685       0.0411144224     -86.6424586      0.0411144224     -86.6424586      0.998436042      2.35598685       
23.784           0.99846351       2.32992138       0.0406597888     -86.6698256      0.0406597888     -86.6698256      0.99846351       2.32992138       
24.006           0.998490227      2.30429803       0.0402128599     -86.6966376      0.0402128599     -86.6966376      0.998490227      2.30429803       
24.228           0.998516219      2.27910468       0.0397734249     -86.7229076      0.0397734249     -86.7229076      0.998516219      2.27910468       
24.45            0.998541511      2.25432969       0.039341281      -86.7486478      0.039341281      -86.7486478      0.998541511      2.25432969       
24.672           0.998566126      2.22996181       0.0389162324     -86.7738703      0.0389162324     -86.7738703      0.998566126      2.22996181       
24.894           0.998590088      2.20599019       0.0384980902     -86.7985863      0.0384980902     -86.7985863      0.998590088      2.20599019       
25.116           0.998613418      2.18240437       0.0380866724     -86.822807       0.0380866724     -86.822807       0.998613418      2.18240437       
25.338           0.998636137      2.15919424       0.037681803      -86.8465429      0.037681803      -86.8465429      0.998636137      2.15919424       
25.56            0.998658265      2.13635006       0.0372833122     -86.8698042      0.0372833122     -86.8698042      0.998658265      2.13635006       
25.782           0.998679822      2.11386242       0.0368910363     -86.8926007      0.0368910363     -86.8926007      0.998679822      2.11386242       
26.004           0.998700826      2.09172221       0.0365048168     -86.9149418      0.0365048168     -86.9149418      0.998700826      2.09172221       
26.226           0.998721294      2.06992066       0.0361245005     -86.9368366      0.0361245005     -86.9368366      0.998721294      2.06992066       
26.448           0.998741243      2.04844925       0.0357499397     -86.9582938      0.0357499397     -86.9582938      0.998741243      2.04844925       
26.67            0.99876069       2.02729979       0.0353809913     -86.9793219      0.0353809913     -86.9793219      0.99876069       2.02729979       
26.892           0.99877965       2.00646432       0.0350175169     -86.9999289      0.0350175169     -86.9999289      0.99877965       2.00646432       
27.114           0.998798138      1.98593517       0.0346593826     -87.0201226      0.0346593826     -87.0201226      0.998798138      1.98593517       
27.336           0.998816169      1.96570489       0.0343064591     -87.0399106      0.0343064591     -87.0399106      0.998816169      1.96570489       
27.558           0.998833756      1.94576629       0.0339586208     -87.0593         0.0339586208     -87.0593         0.998833756      1.94576629       
27.78            0.998850913      1.9261124        0.0336157465     -87.0782979      0.0336157465     -87.0782979      0.998850913      1.9261124        
28.002           0.998867653      1.90673647       0.0332777186     -87.0969109      0.0332777186     -87.0969109      0.998867653      1.90673647       
28.224           0.998883987      1.88763197       0.0329444233     -87.1151455      0.0329444233     -87.1151455      0.998883987      1.88763197       
