! Coilcraft 1812LS-824 Chip Inductor				
! 8 August 2002			
# MHZ S MA R 50
!Freq             MagS11           AngS11           MagS21           AngS21           MagS12           AngS12           MagS22           AngS22
0.03             0.706905052      27.4778793       0.49537655       -41.1801743      0.49537655       -41.1801743      0.706905052      27.4778793       
0.037            0.768203162      25.0885258       0.445739809      -46.9507469      0.445739809      -46.9507469      0.768203162      25.0885258       
0.044            0.814059418      22.7993401       0.402222213      -51.6535006      0.402222213      -51.6535006      0.814059418      22.7993401       
0.051            0.848551239      20.7460832       0.364661246      -55.5146968      0.364661246      -55.5146968      0.848551239      20.7460832       
0.058            0.874803261      18.9489901       0.332398573      -58.7168185      0.332398573      -58.7168185      0.874803261      18.9489901       
0.065            0.895071272      17.3884022       0.304660545      -61.40124        0.304660545      -61.40124        0.895071272      17.3884022       
0.072            0.910952672      16.0336808       0.280717754      -63.6758885      0.280717754      -63.6758885      0.910952672      16.0336808       
0.079            0.923577136      14.8539489       0.259938166      -65.6230028      0.259938166      -65.6230028      0.923577136      14.8539489       
0.086            0.93374935       13.8216833       0.241794449      -67.3055443      0.241794449      -67.3055443      0.93374935       13.8216833       
0.093            0.942048989      12.9135239       0.225854017      -68.7721051      0.225854017      -68.7721051      0.942048989      12.9135239       
0.1              0.948899088      12.1100578       0.21176425       -70.0605482      0.21176425       -70.0605482      0.948899088      12.1100578       
0.107            0.954612549      11.3952842       0.199237887      -71.2006768      0.199237887      -71.2006768      0.954612549      11.3952842       
0.114            0.959423921      10.7560373       0.188040312      -72.2161895      0.188040312      -72.2161895      0.959423921      10.7560373       
0.121            0.963511286      10.1814638       0.177979062      -73.1261169      0.177979062      -73.1261169      0.963511286      10.1814638       
0.128            0.967011509      9.66258307       0.16889542       -73.9458862      0.16889542       -73.9458862      0.967011509      9.66258307       
0.135            0.970030993      9.19192868       0.160657736      -74.6881151      0.160657736      -74.6881151      0.970030993      9.19192868       
0.142            0.972653353      8.76326014       0.153156161      -75.3632109      0.153156161      -75.3632109      0.972653353      8.76326014       
0.149            0.974944956      8.37133294       0.14629849       -75.9798248      0.14629849       -75.9798248      0.974944956      8.37133294       
0.156            0.976958974      8.01171529       0.140006881      -76.5452018      0.140006881      -76.5452018      0.976958974      8.01171529       
0.163            0.978738386      7.68064189       0.134215242      -77.0654511      0.134215242      -77.0654511      0.978738386      7.68064189       
0.17             0.980318213      7.37489685       0.128867156      -77.5457573      0.128867156      -77.5457573      0.980318213      7.37489685       
0.177            0.981727208      7.09171962       0.123914215      -77.990547       0.123914215      -77.990547       0.981727208      7.09171962       
0.184            0.982989151      6.82872899       0.119314677      -78.4036209      0.119314677      -78.4036209      0.982989151      6.82872899       
0.191            0.984123837      6.58386147       0.115032378      -78.7882596      0.115032378      -78.7882596      0.984123837      6.58386147       
0.198            0.985147849      6.35532098       0.111035849      -79.1473089      0.111035849      -79.1473089      0.985147849      6.35532098       
0.205            0.98607516       6.14153764       0.107297589      -79.4832491      0.107297589      -79.4832491      0.98607516       6.14153764       
0.212            0.98691761       5.94113381       0.103793467      -79.7982511      0.103793467      -79.7982511      0.98691761       5.94113381       
0.219            0.987685282      5.75289595       0.100502233      -80.094223       0.100502233      -80.094223       0.987685282      5.75289595       
0.226            0.988386807      5.5757512        0.0974050979     -80.3728485      0.0974050979     -80.3728485      0.988386807      5.5757512        
0.233            0.989029605      5.40874785       0.0944853996     -80.635619       0.0944853996     -80.635619       0.989029605      5.40874785       
0.24             0.989620083      5.25103889       0.0917283087     -80.8838595      0.0917283087     -80.8838595      0.989620083      5.25103889       
0.247            0.990163801      5.10186814       0.0891205875     -81.1187518      0.0891205875     -81.1187518      0.990163801      5.10186814       
0.254            0.990665594      4.96055854       0.0866503843     -81.3413527      0.0866503843     -81.3413527      0.990665594      4.96055854       
0.261            0.99112969       4.82650213       0.0843070577     -81.5526103      0.0843070577     -81.5526103      0.99112969       4.82650213       
0.268            0.991559796      4.69915155       0.0820810277     -81.7533776      0.0820810277     -81.7533776      0.991559796      4.69915155       
0.275            0.991959173      4.57801275       0.0799636474     -81.9444239      0.0799636474     -81.9444239      0.991959173      4.57801275       
0.282            0.992330699      4.46263866       0.0779470934     -82.126445       0.0779470934     -82.126445       0.992330699      4.46263866       
0.289            0.992676923      4.35262384       0.0760242701     -82.3000716      0.0760242701     -82.3000716      0.992676923      4.35262384       
0.296            0.993000108      4.2475997        0.0741887284     -82.4658767      0.0741887284     -82.4658767      0.993000108      4.2475997        
0.303            0.993302267      4.14723053       0.0724345933     -82.6243821      0.0724345933     -82.6243821      0.993302267      4.14723053       
0.31             0.9935852        4.05120983       0.0707565026     -82.7760641      0.0707565026     -82.7760641      0.9935852        4.05120983       
0.317            0.993850515      3.95925732       0.0691495521     -82.9213582      0.0691495521     -82.9213582      0.993850515      3.95925732       
0.324            0.994099657      3.87111614       0.067609248      -83.0606632      0.067609248      -83.0606632      0.994099657      3.87111614       
0.331            0.994333924      3.7865505        0.0661314652     -83.1943452      0.0661314652     -83.1943452      0.994333924      3.7865505        
0.338            0.994554487      3.70534357       0.0647124103     -83.3227411      0.0647124103     -83.3227411      0.994554487      3.70534357       
0.345            0.994762401      3.62729563       0.0633485893     -83.4461608      0.0633485893     -83.4461608      0.994762401      3.62729563       
0.352            0.994958623      3.55222238       0.0620367787     -83.5648905      0.0620367787     -83.5648905      0.994958623      3.55222238       
0.359            0.995144021      3.47995354       0.0607739997     -83.6791945      0.0607739997     -83.6791945      0.995144021      3.47995354       
0.366            0.995319383      3.41033154       0.0595574958     -83.7893175      0.0595574958     -83.7893175      0.995319383      3.41033154       
0.373            0.995485426      3.34321032       0.0583847127     -83.8954863      0.0583847127     -83.8954863      0.995485426      3.34321032       
0.38             0.995642803      3.27845434       0.0572532794     -83.9979111      0.0572532794     -83.9979111      0.995642803      3.27845434       
0.387            0.995792112      3.21593766       0.0561609932     -84.0967875      0.0561609932     -84.0967875      0.995792112      3.21593766       
0.394            0.9959339        3.15554306       0.0551058042     -84.1922976      0.0551058042     -84.1922976      0.9959339        3.15554306       
0.401            0.996068666      3.09716136       0.0540858026     -84.2846109      0.0540858026     -84.2846109      0.996068666      3.09716136       
0.408            0.996196871      3.04069069       0.0530992071     -84.3738854      0.0530992071     -84.3738854      0.996196871      3.04069069       
0.415            0.996318936      2.98603595       0.0521443544     -84.4602689      0.0521443544     -84.4602689      0.996318936      2.98603595       
0.422            0.99643525       2.9331082        0.0512196892     -84.5438994      0.0512196892     -84.5438994      0.99643525       2.9331082        
0.429            0.996546171      2.88182421       0.050323756      -84.6249063      0.050323756      -84.6249063      0.996546171      2.88182421       
0.436            0.99665203       2.83210599       0.049455191      -84.7034106      0.049455191      -84.7034106      0.99665203       2.83210599       
0.443            0.996753132      2.78388039       0.0486127151     -84.7795258      0.0486127151     -84.7795258      0.996753132      2.78388039       
0.45             0.996849759      2.73707874       0.0477951277     -84.8533587      0.0477951277     -84.8533587      0.996849759      2.73707874       
0.457            0.996942174      2.69163651       0.0470013001     -84.9250094      0.0470013001     -84.9250094      0.996942174      2.69163651       
0.464            0.997030618      2.64749299       0.0462301711     -84.9945722      0.0462301711     -84.9945722      0.997030618      2.64749299       
0.471            0.997115318      2.60459104       0.0454807413     -85.0621359      0.0454807413     -85.0621359      0.997115318      2.60459104       
0.478            0.997196482      2.56287678       0.0447520691     -85.127784       0.0447520691     -85.127784       0.997196482      2.56287678       
0.485            0.997274307      2.52229944       0.0440432665     -85.1915954      0.0440432665     -85.1915954      0.997274307      2.52229944       
0.492            0.997348972      2.48281107       0.0433534951     -85.2536446      0.0433534951     -85.2536446      0.997348972      2.48281107       
0.499            0.997420648      2.44436638       0.0426819632     -85.3140017      0.0426819632     -85.3140017      0.997420648      2.44436638       
0.506            0.997489492      2.40692253       0.0420279221     -85.3727334      0.0420279221     -85.3727334      0.997489492      2.40692253       
0.513            0.997555652      2.37043903       0.0413906635     -85.4299024      0.0413906635     -85.4299024      0.997555652      2.37043903       
0.52             0.997619266      2.33487751       0.0407695167     -85.4855682      0.0407695167     -85.4855682      0.997619266      2.33487751       
0.527            0.997680463      2.30020161       0.0401638463     -85.5397872      0.0401638463     -85.5397872      0.997680463      2.30020161       
0.534            0.997739365      2.26637688       0.0395730498     -85.5926129      0.0395730498     -85.5926129      0.997739365      2.26637688       
0.541            0.997796084      2.2333706        0.0389965554     -85.6440959      0.0389965554     -85.6440959      0.997796084      2.2333706        
0.548            0.997850727      2.20115172       0.0384338203     -85.6942843      0.0384338203     -85.6942843      0.997850727      2.20115172       
0.555            0.997903395      2.16969073       0.0378843286     -85.7432238      0.0378843286     -85.7432238      0.997903395      2.16969073       
0.562            0.99795418       2.13895959       0.0373475899     -85.7909579      0.0373475899     -85.7909579      0.99795418       2.13895959       
0.569            0.998003172      2.1089316        0.0368231379     -85.8375278      0.0368231379     -85.8375278      0.998003172      2.1089316        
0.576            0.998050454      2.07958135       0.0363105285     -85.8829728      0.0363105285     -85.8829728      0.998050454      2.07958135       
0.583            0.998096103      2.05088466       0.0358093386     -85.9273302      0.0358093386     -85.9273302      0.998096103      2.05088466       
0.59             0.998140195      2.02281846       0.0353191652     -85.9706357      0.0353191652     -85.9706357      0.998140195      2.02281846       
0.597            0.998182798      1.99536076       0.0348396239     -86.0129231      0.0348396239     -86.0129231      0.998182798      1.99536076       
0.604            0.998223979      1.96849058       0.0343703481     -86.0542249      0.0343703481     -86.0542249      0.998223979      1.96849058       
0.611            0.998263799      1.9421879        0.0339109875     -86.0945718      0.0339109875     -86.0945718      0.998263799      1.9421879        
0.618            0.998302318      1.91643357       0.033461208      -86.1339933      0.033461208      -86.1339933      0.998302318      1.91643357       
0.625            0.998339591      1.89120932       0.03302069       -86.1725175      0.03302069       -86.1725175      0.998339591      1.89120932       
0.632            0.99837567       1.86649767       0.0325891279     -86.2101711      0.0325891279     -86.2101711      0.99837567       1.86649767       
0.639            0.998410606      1.8422819        0.0321662296     -86.2469799      0.0321662296     -86.2469799      0.998410606      1.8422819        
0.646            0.998444446      1.81854601       0.0317517154     -86.2829682      0.0317517154     -86.2829682      0.998444446      1.81854601       
0.653            0.998477233      1.79527468       0.0313453176     -86.3181595      0.0313453176     -86.3181595      0.998477233      1.79527468       
0.66             0.998509012      1.77245323       0.0309467796     -86.3525763      0.0309467796     -86.3525763      0.998509012      1.77245323       
0.667            0.998539822      1.75006759       0.0305558556     -86.3862398      0.0305558556     -86.3862398      0.998539822      1.75006759       
0.674            0.998569702      1.72810429       0.03017231       -86.4191707      0.03017231       -86.4191707      0.998569702      1.72810429       
0.681            0.998598687      1.70655037       0.0297959167     -86.4513885      0.0297959167     -86.4513885      0.998598687      1.70655037       
0.688            0.998626813      1.68539344       0.0294264588     -86.482912       0.0294264588     -86.482912       0.998626813      1.68539344       
0.695            0.998654113      1.66462157       0.0290637279     -86.5137592      0.0290637279     -86.5137592      0.998654113      1.66462157       
0.702            0.998680617      1.64422331       0.0287075241     -86.5439475      0.0287075241     -86.5439475      0.998680617      1.64422331       
0.709            0.998706356      1.62418768       0.0283576551     -86.5734932      0.0283576551     -86.5734932      0.998706356      1.62418768       
0.716            0.998731358      1.60450409       0.0280139364     -86.6024123      0.0280139364     -86.6024123      0.998731358      1.60450409       
0.723            0.99875565       1.58516239       0.0276761902     -86.6307199      0.0276761902     -86.6307199      0.99875565       1.58516239       
0.73             0.998779258      1.56615279       0.0273442458     -86.6584305      0.0273442458     -86.6584305      0.998779258      1.56615279       
0.737            0.998802207      1.5474659        0.0270179387     -86.6855583      0.0270179387     -86.6855583      0.998802207      1.5474659        
0.744            0.99882452       1.52909265       0.0266971107     -86.7121164      0.0266971107     -86.7121164      0.99882452       1.52909265       
0.751            0.99884622       1.51102433       0.0263816094     -86.7381179      0.0263816094     -86.7381179      0.99884622       1.51102433       
0.758            0.998867328      1.49325252       0.026071288      -86.763575       0.026071288      -86.763575       0.998867328      1.49325252       
0.765            0.998887864      1.47576915       0.0257660051     -86.7884995      0.0257660051     -86.7884995      0.998887864      1.47576915       
0.772            0.998907849      1.45856639       0.0254656243     -86.8129028      0.0254656243     -86.8129028      0.998907849      1.45856639       
0.779            0.998927301      1.44163674       0.0251700141     -86.8367958      0.0251700141     -86.8367958      0.998927301      1.44163674       
0.786            0.998946238      1.42497293       0.0248790478     -86.8601889      0.0248790478     -86.8601889      0.998946238      1.42497293       
0.793            0.998964677      1.40856795       0.0245926029     -86.8830921      0.0245926029     -86.8830921      0.998964677      1.40856795       
0.8              0.998982635      1.39241505       0.0243105613     -86.9055152      0.0243105613     -86.9055152      0.998982635      1.39241505       
0.807            0.999000127      1.37650771       0.024032809      -86.9274672      0.024032809      -86.9274672      0.999000127      1.37650771       
0.814            0.999017169      1.3608396        0.0237592359     -86.9489571      0.0237592359     -86.9489571      0.999017169      1.3608396        
0.821            0.999033774      1.34540466       0.0234897355     -86.9699933      0.0234897355     -86.9699933      0.999033774      1.34540466       
0.828            0.999049958      1.33019698       0.023224205      -86.990584       0.023224205      -86.990584       0.999049958      1.33019698       
0.835            0.999065733      1.31521089       0.0229625451     -87.010737       0.0229625451     -87.010737       0.999065733      1.31521089       
0.842            0.999081113      1.30044088       0.0227046597     -87.0304598      0.0227046597     -87.0304598      0.999081113      1.30044088       
0.849            0.999096108      1.28588163       0.0224504557     -87.0497596      0.0224504557     -87.0497596      0.999096108      1.28588163       
0.856            0.999110732      1.271528         0.0221998432     -87.0686432      0.0221998432     -87.0686432      0.999110732      1.271528         
0.863            0.999124995      1.257375         0.0219527353     -87.0871172      0.0219527353     -87.0871172      0.999124995      1.257375         
0.87             0.999138909      1.24341781       0.0217090478     -87.1051879      0.0217090478     -87.1051879      0.999138909      1.24341781       
0.877            0.999152484      1.22965176       0.0214686989     -87.1228613      0.0214686989     -87.1228613      0.999152484      1.22965176       
0.884            0.99916573       1.21607234       0.0212316099     -87.1401433      0.0212316099     -87.1401433      0.99916573       1.21607234       
0.891            0.999178656      1.20267516       0.020997704      -87.1570393      0.020997704      -87.1570393      0.999178656      1.20267516       
0.898            0.999191273      1.18945597       0.0207669073     -87.1735545      0.0207669073     -87.1735545      0.999191273      1.18945597       
0.905            0.999203589      1.17641068       0.0205391478     -87.1896941      0.0205391478     -87.1896941      0.999203589      1.17641068       
0.912            0.999215612      1.16353528       0.020314356      -87.2054627      0.020314356      -87.2054627      0.999215612      1.16353528       
0.919            0.999227351      1.15082591       0.0200924641     -87.220865       0.0200924641     -87.220865       0.999227351      1.15082591       
