! Coilcraft 1812LS-124 Chip Inductor				
! 8 August 2002			
# MHZ S MA R 50
!Freq             MagS11           AngS11           MagS21           AngS21           MagS12           AngS12           MagS22           AngS22
0.03             0.230017547      46.2836983       0.857311671      -11.1816419      0.857311671      -11.1816419      0.230017547      46.2836983       
0.072            0.441621529      48.2545489       0.779067734      -25.0202959      0.779067734      -25.0202959      0.441621529      48.2545489       
0.114            0.602180577      42.229023        0.686174232      -36.144621       0.686174232      -36.144621       0.602180577      42.229023        
0.156            0.712491389      36.1975034       0.598082571      -44.7119003      0.598082571      -44.7119003      0.712491389      36.1975034       
0.198            0.786779092      31.1858987       0.522355559      -51.2552895      0.522355559      -51.2552895      0.786779092      31.1858987       
0.24             0.837393347      27.1728319       0.459654304      -56.3014081      0.459654304      -56.3014081      0.837393347      27.1728319       
0.282            0.872706837      23.9635486       0.4082293        -60.2585913      0.4082293        -60.2585913      0.872706837      23.9635486       
0.324            0.898015209      21.3715493       0.365925601      -63.4195056      0.365925601      -63.4195056      0.898015209      21.3715493       
0.366            0.916633172      19.2502915       0.330836546      -65.9895962      0.330836546      -65.9895962      0.916633172      19.2502915       
0.408            0.930661967      17.4905322       0.301434977      -68.1134974      0.301434977      -68.1134974      0.930661967      17.4905322       
0.45             0.941462547      16.0117379       0.27653991       -69.8943351      0.27653991       -69.8943351      0.941462547      16.0117379       
0.492            0.949937953      14.7542872       0.255247007      -71.4068563      0.255247007      -71.4068563      0.949937953      14.7542872       
0.534            0.956702006      13.6735794       0.236862776      -72.7061857      0.236862776      -72.7061857      0.956702006      13.6735794       
0.576            0.9621816        12.7358245       0.220851861      -73.8336719      0.220851861      -73.8336719      0.9621816        12.7358245       
0.618            0.966679999      11.9150812       0.206797225      -74.8208311      0.206797225      -74.8208311      0.966679999      11.9150812       
0.66             0.970416881      11.1911741       0.194370756      -75.6920452      0.194370756      -75.6920452      0.970416881      11.1911741       
0.702            0.973554229      10.5482164       0.18331168       -76.4664372      0.18331168       -76.4664372      0.973554229      10.5482164       
0.744            0.976213436      9.97355312       0.173410677      -77.1591952      0.173410677      -77.1591952      0.976213436      9.97355312       
0.786            0.978486828      9.45699357       0.164498135      -77.7825214      0.164498135      -77.7825214      0.978486828      9.45699357       
0.828            0.98044558       8.99024957       0.156435372      -78.3463238      0.156435372      -78.3463238      0.98044558       8.99024957       
0.87             0.982145237      8.5665174        0.149108038      -78.8587252      0.149108038      -78.8587252      0.982145237      8.5665174        
0.912            0.98362964       8.18016397       0.142421098      -79.3264443      0.142421098      -79.3264443      0.98362964       8.18016397       
0.954            0.984933755      7.8264883        0.136294985      -79.7550848      0.136294985      -79.7550848      0.984933755      7.8264883        
0.996            0.986085736      7.50153841       0.130662617      -80.1493549      0.130662617      -80.1493549      0.986085736      7.50153841       
1.038            0.987108451      7.20196921       0.125467076      -80.5132391      0.125467076      -80.5132391      0.987108451      7.20196921       
1.08             0.98802063       6.92493136       0.120659774      -80.8501306      0.120659774      -80.8501306      0.98802063       6.92493136       
1.122            0.988837727      6.66798343       0.116198999      -81.1629368      0.116198999      -81.1629368      0.988837727      6.66798343       
1.164            0.989572586      6.42902193       0.112048752      -81.454163       0.112048752      -81.454163       0.989572586      6.42902193       
1.206            0.990235951      6.20622524       0.108177812      -81.725979       0.108177812      -81.725979       0.990235951      6.20622524       
1.248            0.990836863      5.99800818       0.104558975      -81.9802732      0.104558975      -81.9802732      0.990836863      5.99800818       
1.29             0.991382977      5.8029851        0.10116843       -82.2186971      0.10116843       -82.2186971      0.991382977      5.8029851        
1.332            0.991880806      5.6199396        0.0979852544     -82.4427007      0.0979852544     -82.4427007      0.991880806      5.6199396        
1.374            0.992335921      5.44779961       0.0949909883     -82.6535624      0.0949909883     -82.6535624      0.992335921      5.44779961       
1.416            0.992753111      5.2856167        0.092169287      -82.8524137      0.092169287      -82.8524137      0.992753111      5.2856167        
1.458            0.993136509      5.13254881       0.0895056273     -83.0402595      0.0895056273     -83.0402595      0.993136509      5.13254881       
1.5              0.993489698      4.98784583       0.0869870625     -83.2179954      0.0869870625     -83.2179954      0.993489698      4.98784583       
1.542            0.993815798      4.85083745       0.084602015      -83.3864222      0.084602015      -83.3864222      0.993815798      4.85083745       
1.584            0.994117533      4.72092281       0.082340101      -83.5462578      0.082340101      -83.5462578      0.994117533      4.72092281       
1.626            0.994397294      4.59756182       0.0801919812     -83.698148       0.0801919812     -83.698148       0.994397294      4.59756182       
1.668            0.994657181      4.48026768       0.0781492334     -83.8426751      0.0781492334     -83.8426751      0.994657181      4.48026768       
1.71             0.994899051      4.36860047       0.0762042429     -83.9803657      0.0762042429     -83.9803657      0.994899051      4.36860047       
1.752            0.995124546      4.26216166       0.0743501087     -84.1116967      0.0743501087     -84.1116967      0.995124546      4.26216166       
1.794            0.995335126      4.16058938       0.0725805617     -84.2371018      0.0725805617     -84.2371018      0.995335126      4.16058938       
1.836            0.99553209       4.06355431       0.0708898947     -84.3569756      0.0708898947     -84.3569756      0.99553209       4.06355431       
1.878            0.995716597      3.97075611       0.0692729007     -84.4716783      0.0692729007     -84.4716783      0.995716597      3.97075611       
1.92             0.995889686      3.8819203        0.0677248196     -84.5815391      0.0677248196     -84.5815391      0.995889686      3.8819203        
1.962            0.996052288      3.79679555       0.0662412916     -84.6868596      0.0662412916     -84.6868596      0.996052288      3.79679555       
2.004            0.996205242      3.71515129       0.0648183156     -84.7879168      0.0648183156     -84.7879168      0.996205242      3.71515129       
2.046            0.996349304      3.63677564       0.0634522138     -84.8849652      0.0634522138     -84.8849652      0.996349304      3.63677564       
2.088            0.996485155      3.56147352       0.0621395994     -84.9782391      0.0621395994     -84.9782391      0.996485155      3.56147352       
2.13             0.996613413      3.48906503       0.0608773485     -85.067955       0.0608773485     -85.067955       0.996613413      3.48906503       
2.172            0.996734638      3.41938403       0.0596625752     -85.1543127      0.0596625752     -85.1543127      0.996734638      3.41938403       
2.214            0.996849341      3.35227683       0.0584926094     -85.2374971      0.0584926094     -85.2374971      0.996849341      3.35227683       
2.256            0.996957984      3.28760105       0.057364977      -85.3176796      0.057364977      -85.3176796      0.996957984      3.28760105       
2.298            0.997060991      3.2252246        0.0562773825     -85.3950193      0.0562773825     -85.3950193      0.997060991      3.2252246        
2.34             0.997158748      3.16502478       0.0552276929     -85.4696641      0.0552276929     -85.4696641      0.997158748      3.16502478       
2.382            0.997251608      3.10688744       0.0542139237     -85.5417514      0.0542139237     -85.5417514      0.997251608      3.10688744       
2.424            0.997339895      3.05070627       0.0532342263     -85.6114095      0.0532342263     -85.6114095      0.997339895      3.05070627       
2.466            0.997423907      2.99638213       0.0522868767     -85.6787579      0.0522868767     -85.6787579      0.997423907      2.99638213       
2.508            0.997503917      2.94382246       0.0513702648     -85.7439084      0.0513702648     -85.7439084      0.997503917      2.94382246       
2.55             0.997580178      2.89294073       0.0504828857     -85.8069651      0.0504828857     -85.8069651      0.997580178      2.89294073       
2.592            0.997652921      2.84365598       0.0496233306     -85.868026       0.0496233306     -85.868026       0.997652921      2.84365598       
2.634            0.99772236       2.79589238       0.04879028       -85.9271825      0.04879028       -85.9271825      0.99772236       2.79589238       
2.676            0.997788694      2.74957878       0.0479824962     -85.9845206      0.0479824962     -85.9845206      0.997788694      2.74957878       
2.718            0.997852105      2.70464844       0.0471988173     -86.0401208      0.0471988173     -86.0401208      0.997852105      2.70464844       
2.76             0.997912764      2.66103862       0.0464381514     -86.094059       0.0464381514     -86.094059       0.997912764      2.66103862       
2.802            0.997970829      2.61869031       0.0456994715     -86.1464063      0.0456994715     -86.1464063      0.997970829      2.61869031       
2.844            0.998026444      2.57754799       0.0449818108     -86.1972299      0.0449818108     -86.1972299      0.998026444      2.57754799       
2.886            0.998079747      2.53755931       0.0442842582     -86.2465931      0.0442842582     -86.2465931      0.998079747      2.53755931       
2.928            0.998130865      2.49867493       0.0436059543     -86.2945553      0.0436059543     -86.2945553      0.998130865      2.49867493       
2.97             0.998179914      2.46084827       0.0429460882     -86.341173       0.0429460882     -86.341173       0.998179914      2.46084827       
3.012            0.998227006      2.42403534       0.0423038936     -86.3864992      0.0423038936     -86.3864992      0.998227006      2.42403534       
3.054            0.998272243      2.38819453       0.0416786462     -86.4305842      0.0416786462     -86.4305842      0.998272243      2.38819453       
3.096            0.99831572       2.35328649       0.0410696606     -86.4734755      0.0410696606     -86.4734755      0.99831572       2.35328649       
3.138            0.998357529      2.31927398       0.0404762879     -86.5152182      0.0404762879     -86.5152182      0.998357529      2.31927398       
3.18             0.998397752      2.28612169       0.0398979131     -86.5558547      0.0398979131     -86.5558547      0.998397752      2.28612169       
3.222            0.998436469      2.25379614       0.0393339532     -86.5954256      0.0393339532     -86.5954256      0.998436469      2.25379614       
3.264            0.998473753      2.22226558       0.0387838549     -86.6339691      0.0387838549     -86.6339691      0.998473753      2.22226558       
3.306            0.998509674      2.19149985       0.0382470928     -86.6715216      0.0382470928     -86.6715216      0.998509674      2.19149985       
3.348            0.998544298      2.16147031       0.0377231678     -86.7081177      0.0377231678     -86.7081177      0.998544298      2.16147031       
3.39             0.998577684      2.13214971       0.0372116053     -86.7437902      0.0372116053     -86.7437902      0.998577684      2.13214971       
3.432            0.998609892      2.10351215       0.0367119538     -86.7785702      0.0367119538     -86.7785702      0.998609892      2.10351215       
3.474            0.998640974      2.07553296       0.0362237835     -86.8124875      0.0362237835     -86.8124875      0.998640974      2.07553296       
3.516            0.998670983      2.04818864       0.035746685      -86.8455703      0.035746685      -86.8455703      0.998670983      2.04818864       
3.558            0.998699967      2.02145681       0.0352802682     -86.8778455      0.0352802682     -86.8778455      0.998699967      2.02145681       
3.6              0.998727971      1.99531613       0.0348241608     -86.9093388      0.0348241608     -86.9093388      0.998727971      1.99531613       
3.642            0.998755037      1.96974621       0.0343780081     -86.9400746      0.0343780081     -86.9400746      0.998755037      1.96974621       
3.684            0.998781208      1.94472762       0.033941471      -86.9700762      0.033941471      -86.9700762      0.998781208      1.94472762       
3.726            0.99880652       1.92024178       0.0335142259     -86.9993659      0.0335142259     -86.9993659      0.99880652       1.92024178       
3.768            0.998831011      1.89627095       0.0330959633     -87.0279648      0.0330959633     -87.0279648      0.998831011      1.89627095       
3.81             0.998854714      1.87279816       0.0326863876     -87.0558933      0.0326863876     -87.0558933      0.998854714      1.87279816       
3.852            0.998877663      1.84980718       0.0322852158     -87.0831708      0.0322852158     -87.0831708      0.998877663      1.84980718       
3.894            0.998899888      1.82728247       0.0318921771     -87.1098157      0.0318921771     -87.1098157      0.998899888      1.82728247       
3.936            0.998921418      1.80520916       0.0315070121     -87.1358457      0.0315070121     -87.1358457      0.998921418      1.80520916       
3.978            0.998942282      1.783573         0.0311294725     -87.1612777      0.0311294725     -87.1612777      0.998942282      1.783573         
4.02             0.998962506      1.76236033       0.0307593203     -87.186128       0.0307593203     -87.186128       0.998962506      1.76236033       
4.062            0.998982114      1.74155807       0.0303963271     -87.210412       0.0303963271     -87.210412       0.998982114      1.74155807       
4.104            0.999001131      1.72115366       0.030040274      -87.2341447      0.030040274      -87.2341447      0.999001131      1.72115366       
4.146            0.999019579      1.70113503       0.0296909508     -87.2573401      0.0296909508     -87.2573401      0.999019579      1.70113503       
4.188            0.99903748       1.68149063       0.0293481559     -87.2800118      0.0293481559     -87.2800118      0.99903748       1.68149063       
4.23             0.999054854      1.66220934       0.0290116955     -87.302173       0.0290116955     -87.302173       0.999054854      1.66220934       
4.272            0.999071721      1.64328048       0.0286813834     -87.3238362      0.0286813834     -87.3238362      0.999071721      1.64328048       
4.314            0.999088099      1.62469379       0.0283570406     -87.3450132      0.0283570406     -87.3450132      0.999088099      1.62469379       
4.356            0.999104007      1.60643941       0.0280384951     -87.3657157      0.0280384951     -87.3657157      0.999104007      1.60643941       
4.398            0.999119461      1.58850784       0.0277255814     -87.3859545      0.0277255814     -87.3859545      0.999119461      1.58850784       
4.44             0.999134478      1.57088994       0.0274181402     -87.4057403      0.0274181402     -87.4057403      0.999134478      1.57088994       
4.482            0.999149072      1.55357692       0.027116018      -87.4250833      0.027116018      -87.4250833      0.999149072      1.55357692       
4.524            0.99916326       1.53656032       0.0268190673     -87.443993       0.0268190673     -87.443993       0.99916326       1.53656032       
4.566            0.999177053      1.51983198       0.0265271459     -87.462479       0.0265271459     -87.462479       0.999177053      1.51983198       
4.608            0.999190467      1.50338403       0.0262401165     -87.4805501      0.0262401165     -87.4805501      0.999190467      1.50338403       
4.65             0.999203514      1.48720891       0.0259578471     -87.4982149      0.0259578471     -87.4982149      0.999203514      1.48720891       
4.692            0.999216207      1.47129929       0.0256802102     -87.5154818      0.0256802102     -87.5154818      0.999216207      1.47129929       
4.734            0.999228556      1.45564815       0.0254070829     -87.5323585      0.0254070829     -87.5323585      0.999228556      1.45564815       
4.776            0.999240575      1.44024866       0.0251383466     -87.5488528      0.0251383466     -87.5488528      0.999240575      1.44024866       
4.818            0.999252272      1.42509427       0.0248738868     -87.564972       0.0248738868     -87.564972       0.999252272      1.42509427       
4.86             0.999263659      1.41017865       0.0246135929     -87.580723       0.0246135929     -87.580723       0.999263659      1.41017865       
4.902            0.999274746      1.39549566       0.0243573582     -87.5961126      0.0243573582     -87.5961126      0.999274746      1.39549566       
4.944            0.999285542      1.38103939       0.0241050794     -87.6111473      0.0241050794     -87.6111473      0.999285542      1.38103939       
4.986            0.999296056      1.36680413       0.023856657      -87.6258333      0.023856657      -87.6258333      0.999296056      1.36680413       
5.028            0.999306298      1.35278435       0.0236119945     -87.6401766      0.0236119945     -87.6401766      0.999306298      1.35278435       
5.07             0.999316274      1.33897472       0.0233709987     -87.6541828      0.0233709987     -87.6541828      0.999316274      1.33897472       
5.112            0.999325995      1.32537005       0.0231335796     -87.6678574      0.0231335796     -87.6678574      0.999325995      1.32537005       
5.154            0.999335467      1.31196536       0.0228996498     -87.6812059      0.0228996498     -87.6812059      0.999335467      1.31196536       
5.196            0.999344697      1.29875581       0.0226691251     -87.6942331      0.0226691251     -87.6942331      0.999344697      1.29875581       
5.238            0.999353694      1.2857367        0.0224419236     -87.7069439      0.0224419236     -87.7069439      0.999353694      1.2857367        
5.28             0.999362464      1.27290351       0.0222179664     -87.7193431      0.0222179664     -87.7193431      0.999362464      1.27290351       
5.322            0.999371013      1.26025185       0.0219971768     -87.731435       0.0219971768     -87.731435       0.999371013      1.26025185       
5.364            0.999379348      1.24777745       0.0217794806     -87.7432239      0.0217794806     -87.7432239      0.999379348      1.24777745       
