! Coilcraft 1812LS-684 Chip Inductor				
! 8 August 2002			
# MHZ S MA R 50
!Freq             MagS11           AngS11           MagS21           AngS21           MagS12           AngS12           MagS22           AngS22
0.03             0.668425903      29.7290094       0.534693449      -38.3108626      0.534693449      -38.3108626      0.668425903      29.7290094       
0.037            0.733250708      27.4759863       0.486384893      -44.0710384      0.486384893      -44.0710384      0.733250708      27.4759863       
0.044            0.783190616      25.1973244       0.442777918      -48.855144       0.442777918      -48.855144       0.783190616      25.1973244       
0.051            0.821633336      23.0864976       0.404249225      -52.8428133      0.404249225      -52.8428133      0.821633336      23.0864976       
0.058            0.851426076      21.1981548       0.370536019      -56.1892576      0.370536019      -56.1892576      0.851426076      21.1981548       
0.065            0.874754724      19.5322097       0.341121967      -59.0208893      0.341121967      -59.0208893      0.874754724      19.5322097       
0.072            0.893237886      18.0687872       0.315433818      -61.4379181      0.315433818      -61.4379181      0.893237886      18.0687872       
0.079            0.908059565      16.7827113       0.292929358      -63.5189522      0.292929358      -63.5189522      0.908059565      16.7827113       
0.086            0.920085529      15.6492969       0.273129878      -65.3255599      0.273129878      -65.3255599      0.920085529      15.6492969       
0.093            0.92995249       14.646424        0.255626653      -66.9061277      0.255626653      -66.9061277      0.92995249       14.646424        
0.1              0.938132868      13.7550414       0.240076408      -68.2989138      0.240076408      -68.2989138      0.938132868      13.7550414       
0.107            0.944980827      12.9590412       0.226192949      -69.534394       0.226192949      -69.534394       0.944980827      12.9590412       
0.114            0.950764784      12.2449126       0.21373819       -70.6370412      0.21373819       -70.6370412      0.950764784      12.2449126       
0.121            0.955690406      11.6013504       0.202513889      -71.6266697      0.202513889      -71.6266697      0.955690406      11.6013504       
0.128            0.959916972      11.0188879       0.192354539      -72.5194526      0.192354539      -72.5194526      0.959916972      11.0188879       
0.135            0.963569103      10.4895774       0.183121445      -73.3286952      0.183121445      -73.3286952      0.963569103      10.4895774       
0.142            0.966745267      10.006722        0.174697871      -74.0654263      0.174697871      -74.0654263      0.966745267      10.006722        
0.149            0.969523981      9.56465561       0.166985109      -74.738853       0.166985109      -74.738853       0.969523981      9.56465561       
0.156            0.971968407      9.15856235       0.15989929       -75.3567145      0.15989929       -75.3567145      0.971968407      9.15856235       
0.163            0.97412977       8.78433029       0.153368817      -75.9255572      0.153368817      -75.9255572      0.97412977       8.78433029       
0.17             0.976049935      8.43843243       0.14733228       -76.4509524      0.14733228       -76.4509524      0.976049935      8.43843243       
0.177            0.977763364      8.11782984       0.141736762      -76.9376685      0.141736762      -76.9376685      0.977763364      8.11782984       
0.184            0.979298622      7.81989258       0.136536463      -77.3898085      0.136536463      -77.3898085      0.979298622      7.81989258       
0.191            0.980679534      7.54233504       0.131691576      -77.8109207      0.131691576      -77.8109207      0.980679534      7.54233504       
0.198            0.981926095      7.28316269       0.127167356      -78.2040883      0.127167356      -78.2040883      0.981926095      7.28316269       
0.205            0.983055177      7.04062821       0.122933362      -78.5720023      0.122933362      -78.5720023      0.983055177      7.04062821       
0.212            0.984081096      6.81319511       0.11896282       -78.9170216      0.11896282       -78.9170216      0.984081096      6.81319511       
0.219            0.985016058      6.59950743       0.115232099      -79.2412218      0.115232099      -79.2412218      0.985016058      6.59950743       
0.226            0.985870522      6.39836441       0.111720268      -79.5464364      0.111720268      -79.5464364      0.985870522      6.39836441       
0.233            0.986653489      6.20869928       0.108408732      -79.8342909      0.108408732      -79.8342909      0.986653489      6.20869928       
0.24             0.987372738      6.02956134       0.105280914      -80.1062311      0.105280914      -80.1062311      0.987372738      6.02956134       
0.247            0.98803502       5.86010077       0.102321996      -80.3635471      0.102321996      -80.3635471      0.98803502       5.86010077       
0.254            0.988646215      5.69955579       0.0995186918     -80.6073938      0.0995186918     -80.6073938      0.988646215      5.69955579       
0.261            0.989211465      5.54724169       0.0968590598     -80.8388077      0.0968590598     -80.8388077      0.989211465      5.54724169       
0.268            0.989735282      5.40254139       0.0943323358     -81.0587221      0.0943323358     -81.0587221      0.989735282      5.40254139       
0.275            0.990221635      5.26489743       0.0919287945     -81.2679789      0.0919287945     -81.2679789      0.990221635      5.26489743       
0.282            0.990674031      5.13380495       0.0896396281     -81.4673403      0.0896396281     -81.4673403      0.990674031      5.13380495       
0.289            0.991095574      5.00880574       0.0874568415     -81.6574971      0.0874568415     -81.6574971      0.991095574      5.00880574       
0.296            0.991489022      4.88948299       0.0853731613     -81.8390775      0.0853731613     -81.8390775      0.991489022      4.88948299       
0.303            0.99185683       4.77545675       0.0833819573     -82.0126538      0.0833819573     -82.0126538      0.99185683       4.77545675       
0.31             0.992201192      4.66638002       0.0814771734     -82.1787483      0.0814771734     -82.1787483      0.992201192      4.66638002       
0.317            0.992524071      4.56193521       0.0796532668     -82.3378388      0.0796532668     -82.3378388      0.992524071      4.56193521       
0.324            0.992827228      4.46183118       0.0779051557     -82.4903632      0.0779051557     -82.4903632      0.992827228      4.46183118       
0.331            0.993112247      4.36580051       0.0762281724     -82.6367235      0.0762281724     -82.6367235      0.993112247      4.36580051       
0.338            0.993380555      4.27359719       0.0746180224     -82.7772895      0.0746180224     -82.7772895      0.993380555      4.27359719       
0.345            0.993633444      4.18499448       0.0730707478     -82.9124018      0.0730707478     -82.9124018      0.993633444      4.18499448       
0.352            0.993872078      4.09978314       0.0715826955     -83.0423749      0.0715826955     -83.0423749      0.993872078      4.09978314       
0.359            0.994097518      4.01776971       0.0701504883     -83.1674992      0.0701504883     -83.1674992      0.994097518      4.01776971       
0.366            0.994310725      3.93877512       0.0687709996     -83.2880437      0.0687709996     -83.2880437      0.994310725      3.93877512       
0.373            0.994512575      3.86263335       0.0674413307     -83.4042577      0.0674413307     -83.4042577      0.994512575      3.86263335       
0.38             0.994703865      3.78919026       0.0661587907     -83.5163726      0.0661587907     -83.5163726      0.994703865      3.78919026       
0.387            0.994885324      3.71830258       0.0649208777     -83.6246035      0.0649208777     -83.6246035      0.994885324      3.71830258       
0.394            0.99505762       3.64983696       0.0637252635     -83.7291506      0.0637252635     -83.7291506      0.99505762       3.64983696       
0.401            0.995221364      3.58366913       0.0625697779     -83.8302005      0.0625697779     -83.8302005      0.995221364      3.58366913       
0.408            0.995377116      3.51968313       0.0614523963     -83.9279272      0.0614523963     -83.9279272      0.995377116      3.51968313       
0.415            0.995525391      3.45777065       0.0603712272     -84.0224933      0.0603712272     -84.0224933      0.995525391      3.45777065       
0.422            0.995666665      3.39783041       0.0593245021     -84.1140509      0.0593245021     -84.1140509      0.995666665      3.39783041       
0.429            0.995801373      3.33976758       0.0583105651     -84.2027422      0.0583105651     -84.2027422      0.995801373      3.33976758       
0.436            0.995929921      3.28349332       0.0573278644     -84.2887008      0.0573278644     -84.2887008      0.995929921      3.28349332       
0.443            0.996052679      3.22892424       0.0563749442     -84.3720517      0.0563749442     -84.3720517      0.996052679      3.22892424       
0.45             0.996169993      3.17598209       0.0554504376     -84.4529124      0.0554504376     -84.4529124      0.996169993      3.17598209       
0.457            0.996282182      3.12459328       0.0545530597     -84.5313934      0.0545530597     -84.5313934      0.996282182      3.12459328       
0.464            0.996389542      3.07468861       0.0536816017     -84.6075987      0.0536816017     -84.6075987      0.996389542      3.07468861       
0.471            0.996492349      3.02620288       0.0528349253     -84.6816261      0.0528349253     -84.6816261      0.996492349      3.02620288       
0.478            0.996590858      2.97907467       0.0520119576     -84.7535678      0.0520119576     -84.7535678      0.996590858      2.97907467       
0.485            0.996685306      2.93324603       0.0512116868     -84.8235108      0.0512116868     -84.8235108      0.996685306      2.93324603       
0.492            0.996775915      2.88866228       0.0504331574     -84.8915373      0.0504331574     -84.8915373      0.996775915      2.88866228       
0.499            0.996862891      2.84527171       0.0496754668     -84.9577248      0.0496754668     -84.9577248      0.996862891      2.84527171       
0.506            0.996946428      2.80302546       0.0489377616     -85.0221468      0.0489377616     -85.0221468      0.996946428      2.80302546       
0.513            0.997026704      2.7618773        0.048219234      -85.0848728      0.048219234      -85.0848728      0.997026704      2.7618773        
0.52             0.997103889      2.72178342       0.0475191193     -85.1459683      0.0475191193     -85.1459683      0.997103889      2.72178342       
0.527            0.99717814       2.68270233       0.0468366927     -85.2054959      0.0468366927     -85.2054959      0.99717814       2.68270233       
0.534            0.997249604      2.64459467       0.0461712668     -85.2635145      0.0461712668     -85.2635145      0.997249604      2.64459467       
0.541            0.99731842       2.6074231        0.0455221894     -85.3200802      0.0455221894     -85.3200802      0.99731842       2.6074231        
0.548            0.997384717      2.57115215       0.044888841      -85.3752463      0.044888841      -85.3752463      0.997384717      2.57115215       
0.555            0.997448617      2.53574812       0.044270633      -85.4290634      0.044270633      -85.4290634      0.997448617      2.53574812       
0.562            0.997510235      2.50117896       0.0436670059     -85.4815796      0.0436670059     -85.4815796      0.997510235      2.50117896       
0.569            0.997569679      2.46741421       0.0430774272     -85.5328406      0.0430774272     -85.5328406      0.997569679      2.46741421       
0.576            0.997627049      2.43442481       0.0425013899     -85.58289        0.0425013899     -85.58289        0.997627049      2.43442481       
0.583            0.997682441      2.40218315       0.0419384111     -85.6317693      0.0419384111     -85.6317693      0.997682441      2.40218315       
0.59             0.997735946      2.37066285       0.0413880308     -85.6795181      0.0413880308     -85.6795181      0.997735946      2.37066285       
0.597            0.997787648      2.3398388        0.04084981       -85.7261739      0.04084981       -85.7261739      0.997787648      2.3398388        
0.604            0.997837628      2.30968701       0.0403233298     -85.7717728      0.0403233298     -85.7717728      0.997837628      2.30968701       
0.611            0.99788596       2.2801846        0.0398081906     -85.8163492      0.0398081906     -85.8163492      0.99788596       2.2801846        
0.618            0.997932717      2.2513097        0.0393040103     -85.8599357      0.0393040103     -85.8599357      0.997932717      2.2513097        
0.625            0.997977966      2.22304141       0.0388104241     -85.9025637      0.0388104241     -85.9025637      0.997977966      2.22304141       
0.632            0.998021772      2.19535975       0.038327083      -85.9442631      0.038327083      -85.9442631      0.998021772      2.19535975       
0.639            0.998064194      2.16824561       0.0378536532     -85.9850626      0.0378536532     -85.9850626      0.998064194      2.16824561       
0.646            0.998105291      2.1416807        0.037389815      -86.0249895      0.037389815      -86.0249895      0.998105291      2.1416807        
0.653            0.998145116      2.1156475        0.0369352627     -86.0640701      0.0369352627     -86.0640701      0.998145116      2.1156475        
0.66             0.998183722      2.09012922       0.036489703      -86.1023294      0.036489703      -86.1023294      0.998183722      2.09012922       
0.667            0.998221158      2.06510979       0.0360528551     -86.1397914      0.0360528551     -86.1397914      0.998221158      2.06510979       
0.674            0.998257469      2.04057378       0.0356244496     -86.1764794      0.0356244496     -86.1764794      0.998257469      2.04057378       
0.681            0.998292701      2.0165064        0.0352042282     -86.2124152      0.0352042282     -86.2124152      0.998292701      2.0165064        
0.688            0.998326896      1.99289345       0.0347919429     -86.2476201      0.0347919429     -86.2476201      0.998326896      1.99289345       
0.695            0.998360093      1.9697213        0.0343873557     -86.2821145      0.0343873557     -86.2821145      0.998360093      1.9697213        
0.702            0.998392331      1.94697686       0.0339902378     -86.3159177      0.0339902378     -86.3159177      0.998392331      1.94697686       
0.709            0.998423645      1.92464755       0.0336003697     -86.3490487      0.0336003697     -86.3490487      0.998423645      1.92464755       
0.716            0.998454071      1.90272128       0.0332175401     -86.3815252      0.0332175401     -86.3815252      0.998454071      1.90272128       
0.723            0.998483642      1.88118643       0.032841546      -86.4133647      0.032841546      -86.4133647      0.998483642      1.88118643       
0.73             0.998512388      1.8600318        0.0324721921     -86.4445837      0.0324721921     -86.4445837      0.998512388      1.8600318        
0.737            0.99854034       1.83924665       0.0321092903     -86.4751982      0.0321092903     -86.4751982      0.99854034       1.83924665       
0.744            0.998567526      1.8188206        0.0317526598     -86.5052235      0.0317526598     -86.5052235      0.998567526      1.8188206        
0.751            0.998593973      1.79874368       0.0314021263     -86.5346745      0.0314021263     -86.5346745      0.998593973      1.79874368       
0.758            0.998619709      1.77900628       0.0310575219     -86.5635652      0.0310575219     -86.5635652      0.998619709      1.77900628       
0.765            0.998644757      1.75959914       0.0307186848     -86.5919094      0.0307186848     -86.5919094      0.998644757      1.75959914       
0.772            0.998669141      1.74051332       0.0303854592     -86.6197203      0.0303854592     -86.6197203      0.998669141      1.74051332       
0.779            0.998692884      1.72174022       0.0300576946     -86.6470104      0.0300576946     -86.6470104      0.998692884      1.72174022       
0.786            0.998716009      1.70327153       0.029735246      -86.6737921      0.029735246      -86.6737921      0.998716009      1.70327153       
0.793            0.998738535      1.68509924       0.0294179733     -86.700077       0.0294179733     -86.700077       0.998738535      1.68509924       
0.8              0.998760484      1.66721561       0.0291057416     -86.7258765      0.0291057416     -86.7258765      0.998760484      1.66721561       
0.807            0.998781873      1.64961316       0.0287984203     -86.7512016      0.0287984203     -86.7512016      0.998781873      1.64961316       
0.814            0.998802721      1.6322847        0.0284958834     -86.7760626      0.0284958834     -86.7760626      0.998802721      1.6322847        
0.821            0.998823047      1.61522325       0.0281980093     -86.8004699      0.0281980093     -86.8004699      0.998823047      1.61522325       
0.828            0.998842866      1.59842206       0.0279046803     -86.824433       0.0279046803     -86.824433       0.998842866      1.59842206       
0.835            0.998862195      1.58187464       0.0276157826     -86.8479616      0.0276157826     -86.8479616      0.998862195      1.58187464       
0.842            0.99888105       1.56557468       0.0273312064     -86.8710646      0.0273312064     -86.8710646      0.99888105       1.56557468       
0.849            0.998899445      1.5495161        0.0270508453     -86.8937509      0.0270508453     -86.8937509      0.998899445      1.5495161        
0.856            0.998917395      1.533693         0.0267745964     -86.916029       0.0267745964     -86.916029       0.998917395      1.533693         
0.863            0.998934913      1.51809968       0.02650236       -86.9379069      0.02650236       -86.9379069      0.998934913      1.51809968       
0.87             0.998952013      1.50273063       0.0262340399     -86.9593926      0.0262340399     -86.9593926      0.998952013      1.50273063       
0.877            0.998968707      1.4875805        0.0259695428     -86.9804937      0.0259695428     -86.9804937      0.998968707      1.4875805        
0.884            0.998985008      1.47264411       0.0257087781     -87.0012175      0.0257087781     -87.0012175      0.998985008      1.47264411       
0.891            0.999000927      1.45791645       0.0254516584     -87.0215712      0.0254516584     -87.0215712      0.999000927      1.45791645       
0.898            0.999016475      1.44339267       0.0251980987     -87.0415615      0.0251980987     -87.0415615      0.999016475      1.44339267       
0.905            0.999031665      1.42906804       0.024948017      -87.0611951      0.024948017      -87.0611951      0.999031665      1.42906804       
0.912            0.999046505      1.41493802       0.0247013334     -87.0804783      0.0247013334     -87.0804783      0.999046505      1.41493802       
0.919            0.999061006      1.40099816       0.0244579706     -87.0994174      0.0244579706     -87.0994174      0.999061006      1.40099816       
