! Coilcraft 1812LS-334 Chip Inductor				
! 8 August 2002			
# MHZ S MA R 50
!Freq             MagS11           AngS11           MagS21           AngS21           MagS12           AngS12           MagS22           AngS22
0.03             0.474645494      39.6887965       0.703410069      -25.5262653      0.703410069      -25.5262653      0.474645494      39.6887965       
0.05             0.643637708      35.4435971       0.604601719      -38.122325       0.604601719      -38.122325       0.643637708      35.4435971       
0.07             0.75347899       30.1656869       0.51463681       -47.3674826      0.51463681       -47.3674826      0.75347899       30.1656869       
0.09             0.823263336      25.7202407       0.440871305      -54.1340458      0.440871305      -54.1340458      0.823263336      25.7202407       
0.11             0.868581762      22.2039148       0.382217897      -59.1797234      0.382217897      -59.1797234      0.868581762      22.2039148       
0.13             0.899045919      19.4347036       0.335625783      -63.0364675      0.335625783      -63.0364675      0.899045919      19.4347036       
0.15             0.920264782      17.2288708       0.298234257      -66.0577347      0.298234257      -66.0577347      0.920264782      17.2288708       
0.17             0.935534011      15.4444683       0.267809598      -68.4778085      0.267809598      -68.4778085      0.935534011      15.4444683       
0.19             0.946842623      13.9782265       0.242697936      -70.454555       0.242697936      -70.454555       0.946842623      13.9782265       
0.21             0.955430333      12.7557289       0.221689021      -72.0967781      0.221689021      -72.0967781      0.955430333      12.7557289       
0.23             0.962095078      11.7229528       0.203893387      -73.4812608      0.203893387      -73.4812608      0.962095078      11.7229528       
0.25             0.967366132      10.8401487       0.188650205      -74.6634311      0.188650205      -74.6634311      0.967366132      10.8401487       
0.27             0.971604327      10.0776184       0.175461954      -75.6841495      0.175461954      -75.6841495      0.971604327      10.0776184       
0.29             0.975061814      9.41282898       0.16394884       -76.5741179      0.16394884       -76.5741179      0.975061814      9.41282898       
0.31             0.977918751      8.82843037       0.153816983      -77.3568067      0.153816983      -77.3568067      0.977918751      8.82843037       
0.33             0.980306446      8.31087751       0.144836032      -78.0504399      0.144836032      -78.0504399      0.980306446      8.31087751       
0.35             0.982322336      7.84946008       0.136823242      -78.6693683      0.136823242      -78.6693683      0.982322336      7.84946008       
0.37             0.984039896      7.43560916       0.129632002      -79.225037       0.129632002      -79.225037       0.984039896      7.43560916       
0.39             0.98551535       7.06239464       0.123143468      -79.7266801      0.123143468      -79.7266801      0.98551535       7.06239464       
0.41             0.986792295      6.7241559        0.117260377      -80.1818258      0.117260377      -80.1818258      0.986792295      6.7241559        
0.43             0.987904946      6.41622693       0.111902419      -80.5966711      0.111902419      -80.5966711      0.987904946      6.41622693       
0.45             0.988880454      6.13472909       0.107002743      -80.9763619      0.107002743      -80.9763619      0.988880454      6.13472909       
0.47             0.989740582      5.87641318       0.102505277      -81.3252055      0.102505277      -81.3252055      0.989740582      5.87641318       
0.49             0.990502939      5.6385377        0.0983626583     -81.6468343      0.0983626583     -81.6468343      0.990502939      5.6385377        
0.51             0.991181894      5.41877414       0.0945346223     -81.9443326      0.0945346223     -81.9443326      0.991181894      5.41877414       
0.53             0.991789263      5.21513253       0.0909867294     -82.2203355      0.0909867294     -82.2203355      0.991789263      5.21513253       
0.55             0.992334842      5.02590244       0.0876893563     -82.4771081      0.0876893563     -82.4771081      0.992334842      5.02590244       
0.57             0.992826798      4.84960582       0.0846168879     -82.7166075      0.0846168879     -82.7166075      0.992826798      4.84960582       
0.59             0.993271991      4.68495906       0.0817470656     -82.940534       0.0817470656     -82.940534       0.993271991      4.68495906       
0.61             0.993676215      4.53084217       0.0790604584     -83.150371       0.0790604584     -83.150371       0.993676215      4.53084217       
0.63             0.994044388      4.38627364       0.0765400297     -83.3474192      0.0765400297     -83.3474192      0.994044388      4.38627364       
0.65             0.994380712      4.25038976       0.0741707815     -83.5328235      0.0741707815     -83.5328235      0.994380712      4.25038976       
0.67             0.994688791      4.12242754       0.0719394597     -83.7075955      0.0719394597     -83.7075955      0.994688791      4.12242754       
0.69             0.994971729      4.00171051       0.0698343091     -83.8726326      0.0698343091     -83.8726326      0.994971729      4.00171051       
0.71             0.995232216      3.8876368        0.0678448677     -84.0287335      0.0678448677     -84.0287335      0.995232216      3.8876368        
0.73             0.995472588      3.7796692        0.0659617949     -84.1766115      0.0659617949     -84.1766115      0.995472588      3.7796692        
0.75             0.995694885      3.67732674       0.0641767255     -84.3169055      0.0641767255     -84.3169055      0.995694885      3.67732674       
0.77             0.995900893      3.58017749       0.0624821459     -84.4501894      0.0624821459     -84.4501894      0.995900893      3.58017749       
0.79             0.99609218       3.48783254       0.060871289      -84.5769804      0.060871289      -84.5769804      0.99609218       3.48783254       
0.81             0.996270131      3.39994074       0.0593380438     -84.6977456      0.0593380438     -84.6977456      0.996270131      3.39994074       
0.83             0.99643597       3.31618429       0.0578768783     -84.8129081      0.0578768783     -84.8129081      0.99643597       3.31618429       
0.85             0.996590783      3.23627483       0.0564827726     -84.9228517      0.0564827726     -84.9228517      0.996590783      3.23627483       
0.87             0.996735536      3.15995014       0.0551511609     -85.027926       0.0551511609     -85.027926       0.996735536      3.15995014       
0.89             0.99687109       3.08697125       0.0538778818     -85.1284495      0.0538778818     -85.1284495      0.99687109       3.08697125       
0.91             0.996998218      3.01711994       0.0526591343     -85.2247132      0.0526591343     -85.2247132      0.996998218      3.01711994       
0.93             0.99711761       2.95019651       0.0514914399     -85.3169837      0.0514914399     -85.3169837      0.99711761       2.95019651       
0.95             0.997229888      2.88601788       0.0503716092     -85.4055053      0.0503716092     -85.4055053      0.997229888      2.88601788       
0.97             0.997335612      2.82441587       0.0492967123     -85.4905027      0.0492967123     -85.4905027      0.997335612      2.82441587       
0.99             0.997435286      2.76523578       0.0482640532     -85.5721827      0.0482640532     -85.5721827      0.997435286      2.76523578       
1.01             0.997529369      2.708335         0.0472711471     -85.6507359      0.0472711471     -85.6507359      0.997529369      2.708335         
1.03             0.997618275      2.65358189       0.0463156997     -85.7263384      0.0463156997     -85.7263384      0.997618275      2.65358189       
1.05             0.99770238       2.60085474       0.0453955897     -85.7991532      0.0453955897     -85.7991532      0.99770238       2.60085474       
1.07             0.997782027      2.55004086       0.0445088527     -85.869331       0.0445088527     -85.869331       0.997782027      2.55004086       
1.09             0.997857528      2.50103573       0.0436536672     -85.9370119      0.0436536672     -85.9370119      0.997857528      2.50103573       
1.11             0.997929169      2.45374232       0.0428283413     -86.0023258      0.0428283413     -86.0023258      0.997929169      2.45374232       
1.13             0.997997211      2.4080704        0.042031302      -86.0653938      0.042031302      -86.0653938      0.997997211      2.4080704        
1.15             0.998061892      2.36393597       0.0412610847     -86.1263285      0.0412610847     -86.1263285      0.998061892      2.36393597       
1.17             0.998123433      2.3212607        0.040516324      -86.1852348      0.040516324      -86.1852348      0.998123433      2.3212607        
1.19             0.998182033      2.27997151       0.0397957453     -86.2422109      0.0397957453     -86.2422109      0.998182033      2.27997151       
1.21             0.99823788       2.24000012       0.039098158      -86.2973485      0.039098158      -86.2973485      0.99823788       2.24000012       
1.23             0.998291145      2.20128263       0.0384224479     -86.3507332      0.0384224479     -86.3507332      0.998291145      2.20128263       
1.25             0.998341984      2.16375923       0.0377675718     -86.4024454      0.0377675718     -86.4024454      0.998341984      2.16375923       
1.27             0.998390543      2.12737382       0.0371325514     -86.4525604      0.0371325514     -86.4525604      0.998390543      2.12737382       
1.29             0.998436958      2.09207379       0.0365164691     -86.5011489      0.0365164691     -86.5011489      0.998436958      2.09207379       
1.31             0.998481354      2.05780969       0.0359184625     -86.5482772      0.0359184625     -86.5482772      0.998481354      2.05780969       
1.33             0.998523847      2.02453504       0.0353377209     -86.594008       0.0353377209     -86.594008       0.998523847      2.02453504       
1.35             0.998564543      1.99220609       0.0347734813     -86.6383998      0.0347734813     -86.6383998      0.998564543      1.99220609       
1.37             0.998603543      1.96078165       0.0342250249     -86.6815081      0.0342250249     -86.6815081      0.998603543      1.96078165       
1.39             0.998640941      1.93022286       0.033691674      -86.723385       0.033691674      -86.723385       0.998640941      1.93022286       
1.41             0.998676822      1.90049306       0.0331727893     -86.7640798      0.0331727893     -86.7640798      0.998676822      1.90049306       
1.43             0.998711269      1.87155764       0.0326677667     -86.8036389      0.0326677667     -86.8036389      0.998711269      1.87155764       
1.45             0.998744355      1.84338387       0.0321760355     -86.8421064      0.0321760355     -86.8421064      0.998744355      1.84338387       
1.47             0.998776152      1.81594082       0.0316970559     -86.8795237      0.0316970559     -86.8795237      0.998776152      1.81594082       
1.49             0.998806726      1.78919918       0.0312303167     -86.9159301      0.0312303167     -86.9159301      0.998806726      1.78919918       
1.51             0.998836139      1.7631312        0.0307753338     -86.9513629      0.0307753338     -86.9513629      0.998836139      1.7631312        
1.53             0.998864447      1.73771058       0.0303316482     -86.9858574      0.0303316482     -86.9858574      0.998864447      1.73771058       
1.55             0.998891706      1.71291235       0.0298988246     -87.019447       0.0298988246     -87.019447       0.998891706      1.71291235       
1.57             0.998917967      1.68871284       0.0294764495     -87.0521634      0.0294764495     -87.0521634      0.998917967      1.68871284       
1.59             0.998943277      1.66508953       0.0290641303     -87.0840367      0.0290641303     -87.0840367      0.998943277      1.66508953       
1.61             0.99896768       1.64202104       0.0286614938     -87.1150956      0.0286614938     -87.1150956      0.99896768       1.64202104       
1.63             0.99899122       1.61948701       0.0282681851     -87.1453672      0.0282681851     -87.1453672      0.99899122       1.61948701       
1.65             0.999013937      1.59746809       0.0278838662     -87.1748775      0.0278838662     -87.1748775      0.999013937      1.59746809       
1.67             0.999035867      1.57594583       0.0275082154     -87.203651       0.0275082154     -87.203651       0.999035867      1.57594583       
1.69             0.999057046      1.55490266       0.027140926      -87.2317111      0.027140926      -87.2317111      0.999057046      1.55490266       
1.71             0.999077508      1.53432184       0.0267817059     -87.2590801      0.0267817059     -87.2590801      0.999077508      1.53432184       
1.73             0.999097283      1.51418738       0.026430276      -87.2857793      0.026430276      -87.2857793      0.999097283      1.51418738       
1.75             0.999116402      1.49448402       0.0260863704     -87.3118289      0.0260863704     -87.3118289      0.999116402      1.49448402       
1.77             0.999134893      1.47519721       0.0257497347     -87.3372483      0.0257497347     -87.3372483      0.999134893      1.47519721       
1.79             0.999152783      1.45631302       0.0254201261     -87.3620558      0.0254201261     -87.3620558      0.999152783      1.45631302       
1.81             0.999170096      1.43781815       0.0250973125     -87.386269       0.0250973125     -87.386269       0.999170096      1.43781815       
1.83             0.999186856      1.41969988       0.0247810718     -87.4099048      0.0247810718     -87.4099048      0.999186856      1.41969988       
1.85             0.999203087      1.40194602       0.0244711915     -87.4329791      0.0244711915     -87.4329791      0.999203087      1.40194602       
1.87             0.999218809      1.38454492       0.0241674681     -87.4555073      0.0241674681     -87.4555073      0.999218809      1.38454492       
1.89             0.999234043      1.36748541       0.0238697068     -87.4775039      0.0238697068     -87.4775039      0.999234043      1.36748541       
1.91             0.999248808      1.35075679       0.0235777209     -87.498983       0.0235777209     -87.498983       0.999248808      1.35075679       
1.93             0.999263123      1.33434881       0.0232913314     -87.519958       0.0232913314     -87.519958       0.999263123      1.33434881       
1.95             0.999277005      1.31825163       0.0230103665     -87.5404416      0.0230103665     -87.5404416      0.999277005      1.31825163       
1.97             0.999290471      1.30245581       0.0227346615     -87.5604461      0.0227346615     -87.5604461      0.999290471      1.30245581       
1.99             0.999303536      1.28695227       0.0224640583     -87.5799831      0.0224640583     -87.5799831      0.999303536      1.28695227       
2.01             0.999316216      1.27173234       0.022198405      -87.599064       0.022198405      -87.599064       0.999316216      1.27173234       
2.03             0.999328524      1.25678763       0.0219375557     -87.6176994      0.0219375557     -87.6176994      0.999328524      1.25678763       
2.05             0.999340475      1.24211012       0.0216813702     -87.6358995      0.0216813702     -87.6358995      0.999340475      1.24211012       
2.07             0.999352081      1.22769208       0.0214297136     -87.6536743      0.0214297136     -87.6536743      0.999352081      1.22769208       
2.09             0.999363355      1.21352608       0.0211824563     -87.6710332      0.0211824563     -87.6710332      0.999363355      1.21352608       
2.11             0.999374309      1.19960498       0.0209394734     -87.6879851      0.0209394734     -87.6879851      0.999374309      1.19960498       
2.13             0.999384954      1.18592188       0.020700645      -87.7045386      0.020700645      -87.7045386      0.999384954      1.18592188       
2.15             0.9993953        1.17247017       0.0204658553     -87.7207022      0.0204658553     -87.7207022      0.9993953        1.17247017       
2.17             0.999405359      1.15924346       0.0202349929     -87.7364837      0.0202349929     -87.7364837      0.999405359      1.15924346       
2.19             0.999415139      1.1462356        0.0200079505     -87.7518907      0.0200079505     -87.7518907      0.999415139      1.1462356        
2.21             0.999424651      1.13344065       0.0197846247     -87.7669304      0.0197846247     -87.7669304      0.999424651      1.13344065       
2.23             0.999433903      1.12085292       0.0195649156     -87.7816099      0.0195649156     -87.7816099      0.999433903      1.12085292       
2.25             0.999442905      1.10846688       0.0193487271     -87.7959358      0.0193487271     -87.7959358      0.999442905      1.10846688       
2.27             0.999451663      1.09627721       0.0191359663     -87.8099145      0.0191359663     -87.8099145      0.999451663      1.09627721       
2.29             0.999460187      1.08427878       0.0189265436     -87.8235522      0.0189265436     -87.8235522      0.999460187      1.08427878       
2.31             0.999468484      1.07246663       0.0187203725     -87.8368546      0.0187203725     -87.8368546      0.999468484      1.07246663       
2.33             0.99947656       1.06083598       0.0185173695     -87.8498274      0.0185173695     -87.8498274      0.99947656       1.06083598       
2.35             0.999484424      1.04938219       0.0183174538     -87.862476       0.0183174538     -87.862476       0.999484424      1.04938219       
2.37             0.999492081      1.03810081       0.0181205474     -87.8748054      0.0181205474     -87.8748054      0.999492081      1.03810081       
2.39             0.999499539      1.02698752       0.017926575      -87.8868207      0.017926575      -87.8868207      0.999499539      1.02698752       
2.41             0.999506803      1.01603812       0.0177354636     -87.8985264      0.0177354636     -87.8985264      0.999506803      1.01603812       
2.43             0.999513879      1.0052486        0.0175471429     -87.9099271      0.0175471429     -87.9099271      0.999513879      1.0052486        
2.45             0.999520773      0.994615036      0.0173615445     -87.9210271      0.0173615445     -87.9210271      0.999520773      0.994615036      
2.47             0.99952749       0.98413365       0.0171786025     -87.9318304      0.0171786025     -87.9318304      0.99952749       0.98413365       
2.49             0.999534036      0.973800783      0.016998253      -87.9423409      0.016998253      -87.9423409      0.999534036      0.973800783      
2.51             0.999540416      0.963612891      0.0168204341     -87.9525624      0.0168204341     -87.9525624      0.999540416      0.963612891      
2.53             0.999546634      0.953566542      0.016645086      -87.9624984      0.016645086      -87.9624984      0.999546634      0.953566542      
2.55             0.999552695      0.943658411      0.0164721507     -87.9721522      0.0164721507     -87.9721522      0.999552695      0.943658411      
2.57             0.999558604      0.933885279      0.0163015718     -87.9815271      0.0163015718     -87.9815271      0.999558604      0.933885279      
