! Coilcraft 1812LS-564 Chip Inductor				
! 8 August 2002			
# MHZ S MA R 50
!Freq             MagS11           AngS11           MagS21           AngS21           MagS12           AngS12           MagS22           AngS22
0.03             0.619424839      34.0489124       0.597683837      -35.4693276      0.597683837      -35.4693276      0.619424839      34.0489124       
0.037            0.688584905      31.6331842       0.549176374      -41.1184785      0.549176374      -41.1184785      0.688584905      31.6331842       
0.044            0.743253552      29.1567018       0.504255201      -45.8990371      0.504255201      -45.8990371      0.743253552      29.1567018       
0.051            0.786286944      26.8332265       0.46368246       -49.9471048      0.46368246       -49.9471048      0.786286944      26.8332265       
0.058            0.820269773      24.7314206       0.427522012      -53.38881        0.427522012      -53.38881        0.820269773      24.7314206       
0.065            0.847297509      22.8596289       0.39549037       -56.3323563      0.39549037       -56.3323563      0.847297509      22.8596289       
0.072            0.868989452      21.2023983       0.367164647      -58.8670395      0.367164647      -58.8670395      0.868989452      21.2023983       
0.079            0.886571287      19.7364169       0.342092656      -61.0651726      0.342092656      -61.0651726      0.886571287      19.7364169       
0.086            0.900964468      18.4373559       0.319845318      -62.9848617      0.319845318      -62.9848617      0.900964468      18.4373559       
0.093            0.912862247      17.2826231       0.30003787       -64.672733       0.30003787       -64.672733       0.912862247      17.2826231       
0.1              0.922788773      16.2522818       0.282335323      -66.16629        0.282335323      -66.16629        0.922788773      16.2522818       
0.107            0.931143217      15.3291681       0.266450545      -67.4958356      0.266450545      -67.4958356      0.931143217      15.3291681       
0.114            0.938232148      14.49868         0.252139365      -68.6859964      0.252139365      -68.6859964      0.938232148      14.49868         
0.121            0.944293124      13.7484593       0.239194814      -69.7569132      0.239194814      -69.7569132      0.944293124      13.7484593       
0.128            0.949511902      13.0680595       0.227441532      -70.7251683      0.227441532      -70.7251683      0.949511902      13.0680595       
0.135            0.954035037      12.4486407       0.216730739      -71.6045046      0.216730739      -71.6045046      0.954035037      12.4486407       
0.142            0.95797916       11.8827043       0.206935894      -72.4063866      0.206935894      -72.4063866      0.95797916       11.8827043       
0.149            0.961437865      11.3638692       0.197949033      -73.1404392      0.197949033      -73.1404392      0.961437865      11.3638692       
0.156            0.964486856      10.8866847       0.189677712      -73.8147915      0.189677712      -73.8147915      0.964486856      10.8866847       
0.163            0.96718783       10.4464764       0.182042479      -74.43635        0.182042479      -74.43635        0.96718783       10.4464764       
0.17             0.969591432      10.0392198       0.17497478       -75.0110143      0.17497478       -75.0110143      0.969591432      10.0392198       
0.177            0.971739514      9.66143528       0.168415239      -75.5438513      0.168415239      -75.5438513      0.971739514      9.66143528       
0.184            0.973666883      9.3101027        0.162312228      -76.0392336      0.162312228      -76.0392336      0.973666883      9.3101027        
0.191            0.975402666      8.98259017       0.156620685      -76.5009531      0.156620685      -76.5009531      0.975402666      8.98259017       
0.198            0.976971371      8.67659549       0.151301141      -76.9323128      0.151301141      -76.9323128      0.976971371      8.67659549       
0.205            0.978393735      8.39009744       0.146318896      -77.3362016      0.146318896      -77.3362016      0.978393735      8.39009744       
0.212            0.979687393      8.12131518       0.141643342      -77.7151571      0.141643342      -77.7151571      0.979687393      8.12131518       
0.219            0.980867413      7.86867432       0.137247391      -78.0714161      0.137247391      -78.0714161      0.980867413      7.86867432       
0.226            0.981946732      7.63077845       0.133106993      -78.4069579      0.133106993      -78.4069579      0.981946732      7.63077845       
0.233            0.982936503      7.40638513       0.12920073       -78.7235398      0.12920073       -78.7235398      0.982936503      7.40638513       
0.24             0.98384638       7.19438558       0.125509473      -79.022727       0.125509473      -79.022727       0.98384638       7.19438558       
0.247            0.984684754      6.9937875        0.122016091      -79.3059181      0.122016091      -79.3059181      0.984684754      6.9937875        
0.254            0.985458947      6.80370034       0.118705196      -79.5743663      0.118705196      -79.5743663      0.985458947      6.80370034       
0.261            0.986175366      6.62332282       0.115562937      -79.8291977      0.115562937      -79.8291977      0.986175366      6.62332282       
0.268            0.98683964       6.4519321        0.11257681       -80.0714273      0.11257681       -80.0714273      0.98683964       6.4519321        
0.275            0.987456729      6.28887457       0.109735501      -80.3019718      0.109735501      -80.3019718      0.987456729      6.28887457       
0.282            0.988031019      6.13355783       0.107028753      -80.5216612      0.107028753      -80.5216612      0.988031019      6.13355783       
0.289            0.988566395      5.98544378       0.104447243      -80.7312491      0.104447243      -80.7312491      0.988566395      5.98544378       
0.296            0.989066314      5.84404257       0.101982482      -80.9314209      0.101982482      -80.9314209      0.989066314      5.84404257       
0.303            0.989533854      5.70890742       0.0996267228     -81.1228014      0.0996267228     -81.1228014      0.989533854      5.70890742       
0.31             0.989971769      5.57962997       0.0973728822     -81.3059615      0.0973728822     -81.3059615      0.989971769      5.57962997       
0.317            0.990382524      5.4558363        0.0952144725     -81.4814236      0.0952144725     -81.4814236      0.990382524      5.4558363        
0.324            0.990768333      5.3371834        0.0931455401     -81.6496667      0.0931455401     -81.6496667      0.990768333      5.3371834        
0.331            0.991131189      5.22335608       0.0911606128     -81.8111309      0.0911606128     -81.8111309      0.991131189      5.22335608       
0.338            0.991472888      5.11406422       0.0892546517     -81.9662212      0.0892546517     -81.9662212      0.991472888      5.11406422       
0.345            0.991795055      5.00904032       0.0874230102     -82.115311       0.0874230102     -82.115311       0.991795055      5.00904032       
0.352            0.992099162      4.90803737       0.0856613966     -82.2587448      0.0856613966     -82.2587448      0.992099162      4.90803737       
0.359            0.992386541      4.81082697       0.0839658409     -82.3968413      0.0839658409     -82.3968413      0.992386541      4.81082697       
0.366            0.992658408      4.71719757       0.0823326658     -82.5298955      0.0823326658     -82.5298955      0.992658408      4.71719757       
0.373            0.992915867      4.62695297       0.0807584599     -82.6581813      0.0807584599     -82.6581813      0.992915867      4.62695297       
0.38             0.993159925      4.53991097       0.0792400549     -82.7819526      0.0792400549     -82.7819526      0.993159925      4.53991097       
0.387            0.993391505      4.45590215       0.0777745037     -82.9014457      0.0777745037     -82.9014457      0.993391505      4.45590215       
0.394            0.993611448      4.37476876       0.0763590623     -83.0168808      0.0763590623     -83.0168808      0.993611448      4.37476876       
0.401            0.993820527      4.29636376       0.0749911722     -83.1284627      0.0749911722     -83.1284627      0.993820527      4.29636376       
0.408            0.994019453      4.22054992       0.0736684451     -83.2363831      0.0736684451     -83.2363831      0.994019453      4.22054992       
0.415            0.994208876      4.147199         0.0723886494     -83.3408206      0.0723886494     -83.3408206      0.994208876      4.147199         
0.422            0.994389398      4.07619105       0.0711496972     -83.4419427      0.0711496972     -83.4419427      0.994389398      4.07619105       
0.429            0.994561572      4.00741377       0.0699496332     -83.5399059      0.0699496332     -83.5399059      0.994561572      4.00741377       
0.436            0.994725909      3.94076188       0.0687866244     -83.6348572      0.0687866244     -83.6348572      0.994725909      3.94076188       
0.443            0.994882881      3.87613659       0.0676589508     -83.7269343      0.0676589508     -83.7269343      0.994882881      3.87613659       
0.45             0.995032925      3.81344511       0.0665649964     -83.8162668      0.0665649964     -83.8162668      0.995032925      3.81344511       
0.457            0.995176446      3.75260024       0.0655032423     -83.9029763      0.0655032423     -83.9029763      0.995176446      3.75260024       
0.464            0.99531382       3.69351988       0.0644722587     -83.9871774      0.0644722587     -83.9871774      0.99531382       3.69351988       
0.471            0.995445396      3.63612675       0.0634706991     -84.068978       0.0634706991     -84.068978       0.995445396      3.63612675       
0.478            0.995571498      3.58034796       0.062497294      -84.1484798      0.062497294      -84.1484798      0.995571498      3.58034796       
0.485            0.995692427      3.52611479       0.0615508457     -84.2257787      0.0615508457     -84.2257787      0.995692427      3.52611479       
0.492            0.995808465      3.47336231       0.0606302232     -84.3009654      0.0606302232     -84.3009654      0.995808465      3.47336231       
0.499            0.995919875      3.4220292        0.0597343577     -84.3741255      0.0597343577     -84.3741255      0.995919875      3.4220292        
0.506            0.9960269        3.37205744       0.0588622382     -84.4453401      0.0588622382     -84.4453401      0.9960269        3.37205744       
0.513            0.99612977       3.32339214       0.0580129081     -84.5146857      0.0580129081     -84.5146857      0.99612977       3.32339214       
0.52             0.996228698      3.2759813        0.0571854611     -84.5822351      0.0571854611     -84.5822351      0.996228698      3.2759813        
0.527            0.996323885      3.22977565       0.0563790382     -84.648057       0.0563790382     -84.648057       0.996323885      3.22977565       
0.534            0.996415518      3.18472844       0.0555928248     -84.7122168      0.0555928248     -84.7122168      0.996415518      3.18472844       
0.541            0.996503773      3.14079532       0.0548260475     -84.7747764      0.0548260475     -84.7747764      0.996503773      3.14079532       
0.548            0.996588816      3.09793416       0.0540779719     -84.8357947      0.0540779719     -84.8357947      0.996588816      3.09793416       
0.555            0.9966708        3.05610492       0.0533479        -84.8953276      0.0533479        -84.8953276      0.9966708        3.05610492       
0.562            0.996749873      3.01526953       0.052635168      -84.9534284      0.052635168      -84.9534284      0.996749873      3.01526953       
0.569            0.99682617       2.97539175       0.0519391441     -85.0101477      0.0519391441     -85.0101477      0.99682617       2.97539175       
0.576            0.996899822      2.9364371        0.0512592271     -85.0655336      0.0512592271     -85.0655336      0.996899822      2.9364371        
0.583            0.996970949      2.89837272       0.0505948437     -85.1196321      0.0505948437     -85.1196321      0.996970949      2.89837272       
0.59             0.997039666      2.86116729       0.049945448      -85.172487       0.049945448      -85.172487       0.997039666      2.86116729       
0.597            0.997106082      2.82479093       0.0493105189     -85.22414        0.0493105189     -85.22414        0.997106082      2.82479093       
0.604            0.997170298      2.78921513       0.0486895593     -85.274631       0.0486895593     -85.274631       0.997170298      2.78921513       
0.611            0.99723241       2.75441269       0.0480820945     -85.3239979      0.0480820945     -85.3239979      0.99723241       2.75441269       
0.618            0.997292511      2.72035759       0.047487671      -85.3722772      0.047487671      -85.3722772      0.997292511      2.72035759       
0.625            0.997350687      2.68702499       0.0469058554     -85.4195036      0.0469058554     -85.4195036      0.997350687      2.68702499       
0.632            0.997407018      2.65439112       0.0463362333     -85.4657102      0.0463362333     -85.4657102      0.997407018      2.65439112       
0.639            0.997461582      2.62243326       0.0457784081     -85.5109288      0.0457784081     -85.5109288      0.997461582      2.62243326       
0.646            0.997514453      2.59112964       0.0452320002     -85.5551898      0.0452320002     -85.5551898      0.997514453      2.59112964       
0.653            0.9975657        2.56045942       0.0446966462     -85.5985224      0.0446966462     -85.5985224      0.9975657        2.56045942       
0.66             0.997615388      2.53040265       0.0441719978     -85.6409544      0.0441719978     -85.6409544      0.997615388      2.53040265       
0.667            0.997663581      2.50094017       0.0436577212     -85.6825125      0.0436577212     -85.6825125      0.997663581      2.50094017       
0.674            0.997710338      2.47205365       0.0431534962     -85.7232223      0.0431534962     -85.7232223      0.997710338      2.47205365       
0.681            0.997755715      2.44372549       0.0426590159     -85.7631085      0.0426590159     -85.7631085      0.997755715      2.44372549       
0.688            0.997799766      2.41593878       0.0421739854     -85.8021945      0.0421739854     -85.8021945      0.997799766      2.41593878       
0.695            0.997842543      2.38867731       0.0416981218     -85.840503       0.0416981218     -85.840503       0.997842543      2.38867731       
0.702            0.997884093      2.36192549       0.0412311533     -85.8780558      0.0412311533     -85.8780558      0.997884093      2.36192549       
0.709            0.997924462      2.33566837       0.0407728187     -85.9148736      0.0407728187     -85.9148736      0.997924462      2.33566837       
0.716            0.997963697      2.30989154       0.0403228669     -85.9509766      0.0403228669     -85.9509766      0.997963697      2.30989154       
0.723            0.998001837      2.28458117       0.0398810564     -85.9863841      0.0398810564     -85.9863841      0.998001837      2.28458117       
0.73             0.998038923      2.25972394       0.0394471549     -86.0211144      0.0394471549     -86.0211144      0.998038923      2.25972394       
0.737            0.998074994      2.23530704       0.039020939      -86.0551856      0.039020939      -86.0551856      0.998074994      2.23530704       
0.744            0.998110087      2.21131814       0.0386021933     -86.0886147      0.0386021933     -86.0886147      0.998110087      2.21131814       
0.751            0.998144235      2.18774536       0.0381907106     -86.1214183      0.0381907106     -86.1214183      0.998144235      2.18774536       
0.758            0.998177472      2.16457725       0.0377862912     -86.1536122      0.0377862912     -86.1536122      0.998177472      2.16457725       
0.765            0.99820983       2.14180279       0.0373887427     -86.1852118      0.0373887427     -86.1852118      0.99820983       2.14180279       
0.772            0.99824134       2.11941135       0.0369978796     -86.2162318      0.0369978796     -86.2162318      0.99824134       2.11941135       
0.779            0.99827203       2.09739266       0.0366135228     -86.2466864      0.0366135228     -86.2466864      0.99827203       2.09739266       
0.786            0.998301929      2.07573685       0.0362355        -86.2765893      0.0362355        -86.2765893      0.998301929      2.07573685       
0.793            0.998331063      2.05443436       0.0358636444     -86.3059538      0.0358636444     -86.3059538      0.998331063      2.05443436       
0.8              0.998359458      2.03347598       0.0354977953     -86.3347925      0.0354977953     -86.3347925      0.998359458      2.03347598       
0.807            0.998387138      2.01285282       0.0351377975     -86.3631178      0.0351377975     -86.3631178      0.998387138      2.01285282       
0.814            0.998414126      1.99255629       0.034783501      -86.3909415      0.034783501      -86.3909415      0.998414126      1.99255629       
0.821            0.998440445      1.97257808       0.034434761      -86.4182751      0.034434761      -86.4182751      0.998440445      1.97257808       
0.828            0.998466118      1.95291017       0.0340914374     -86.4451295      0.0340914374     -86.4451295      0.998466118      1.95291017       
0.835            0.998491163      1.9335448        0.0337533949     -86.4715156      0.0337533949     -86.4715156      0.998491163      1.9335448        
0.842            0.998515602      1.91447448       0.0334205026     -86.4974435      0.0334205026     -86.4974435      0.998515602      1.91447448       
0.849            0.998539453      1.89569196       0.0330926339     -86.5229232      0.0330926339     -86.5229232      0.998539453      1.89569196       
0.856            0.998562735      1.8771902        0.0327696664     -86.5479644      0.0327696664     -86.5479644      0.998562735      1.8771902        
0.863            0.998585464      1.85896242       0.0324514814     -86.5725763      0.0324514814     -86.5725763      0.998585464      1.85896242       
0.87             0.998607659      1.84100205       0.0321379642     -86.5967678      0.0321379642     -86.5967678      0.998607659      1.84100205       
0.877            0.998629335      1.82330272       0.0318290038     -86.6205478      0.0318290038     -86.6205478      0.998629335      1.82330272       
0.884            0.998650508      1.80585826       0.0315244924     -86.6439246      0.0315244924     -86.6439246      0.998650508      1.80585826       
0.891            0.998671194      1.7886627        0.0312243259     -86.6669062      0.0312243259     -86.6669062      0.998671194      1.7886627        
0.898            0.998691405      1.77171024       0.0309284031     -86.6895006      0.0309284031     -86.6895006      0.998691405      1.77171024       
0.905            0.998711157      1.75499529       0.0306366262     -86.7117152      0.0306366262     -86.7117152      0.998711157      1.75499529       
0.912            0.998730463      1.73851239       0.0303489001     -86.7335576      0.0303489001     -86.7335576      0.998730463      1.73851239       
0.919            0.998749335      1.72225627       0.030065133      -86.7550347      0.030065133      -86.7550347      0.998749335      1.72225627       
