! Coilcraft 1812LS-223 Chip Inductor				
! 8 August 2002			
# MHZ S MA R 50
!Freq             MagS11           AngS11           MagS21           AngS21           MagS12           AngS12           MagS22           AngS22
0.03             0.0588156501     40.0953503       0.955758564      -2.27147772      0.955758564      -2.27147772      0.0588156501     40.0953503       
0.212            0.271554591      61.0578499       0.900509346      -15.3012964      0.900509346      -15.3012964      0.271554591      61.0578499       
0.394            0.45383922       54.3879253       0.823063816      -26.6332503      0.823063816      -26.6332503      0.45383922       54.3879253       
0.576            0.591557594      47.0441264       0.737376702      -35.9548013      0.737376702      -35.9548013      0.591557594      47.0441264       
0.758            0.690834944      40.7186602       0.655785809      -43.409702       0.655785809      -43.409702       0.690834944      40.7186602       
0.94             0.761538186      35.5412777       0.583624717      -49.3313355      0.583624717      -49.3313355      0.761538186      35.5412777       
1.122            0.812245826      31.3460114       0.521881434      -54.060465       0.521881434      -54.060465       0.812245826      31.3460114       
1.304            0.849199291      27.9321289       0.469679708      -57.8794531      0.469679708      -57.8794531      0.849199291      27.9321289       
1.486            0.876653999      25.1271791       0.425598642      -61.0043606      0.425598642      -61.0043606      0.876653999      25.1271791       
1.668            0.89745782       22.796156        0.388223246      -63.5957716      0.388223246      -63.5957716      0.89745782       22.796156        
1.85             0.913521444      20.8365193       0.356326679      -65.7722981      0.356326679      -65.7722981      0.913521444      20.8365193       
2.032            0.926142538      19.1708984       0.328902065      -67.6219587      0.328902065      -67.6219587      0.926142538      19.1708984       
2.214            0.936216973      17.7406964       0.305141487      -69.210708       0.305141487      -69.210708       0.936216973      17.7406964       
2.396            0.944374314      16.5011606       0.284401569      -70.5885605      0.284401569      -70.5885605      0.944374314      16.5011606       
2.578            0.951064912      15.4177546       0.266169981      -71.7939233      0.266169981      -71.7939233      0.951064912      15.4177546       
2.76             0.956616473      14.4635303       0.250037149      -72.8566616      0.250037149      -72.8566616      0.956616473      14.4635303       
2.942            0.96127133       13.6172271       0.235673696      -73.8002797      0.235673696      -73.8002797      0.96127133       13.6172271       
3.124            0.965211401      12.8618921       0.222812902      -74.6434872      0.222812902      -74.6434872      0.965211401      12.8618921       
3.306            0.968575161      12.1838693       0.211237194      -75.4013368      0.211237194      -75.4013368      0.968575161      12.1838693       
3.488            0.971469387      11.5720534       0.200767782      -76.0860601      0.200767782      -76.0860601      0.971469387      11.5720534       
3.67             0.973977396      11.0173321       0.191256675      -76.7076878      0.191256675      -76.7076878      0.973977396      11.0173321       
3.852            0.976164919      10.5121661       0.182580516      -77.2745171      0.182580516      -77.2745171      0.976164919      10.5121661       
4.034            0.978084342      10.0502691       0.174635797      -77.7934656      0.174635797      -77.7934656      0.978084342      10.0502691       
4.216            0.979777807      9.62636097       0.167335108      -78.2703435      0.167335108      -78.2703435      0.979777807      9.62636097       
4.398            0.981279518      9.23597732       0.160604187      -78.7100644      0.160604187      -78.7100644      0.981279518      9.23597732       
4.58             0.982617455      8.87531927       0.154379584      -79.1168106      0.154379584      -79.1168106      0.982617455      8.87531927       
4.762            0.983814683      8.54113534       0.148606794      -79.4941625      0.148606794      -79.4941625      0.983814683      8.54113534       
4.944            0.98489035       8.23062718       0.14323876       -79.8452029      0.14323876       -79.8452029      0.98489035       8.23062718       
5.126            0.985860455      7.94137404       0.138234656      -80.1725998      0.138234656      -80.1725998      0.985860455      7.94137404       
5.308            0.986738449      7.67127167       0.133558905      -80.4786734      0.133558905      -80.4786734      0.986738449      7.67127167       
5.49             0.987535704      7.41848264       0.129180372      -80.7654508      0.129180372      -80.7654508      0.987535704      7.41848264       
5.672            0.98826189       7.18139564       0.125071696      -81.0347104      0.125071696      -81.0347104      0.98826189       7.18139564       
5.854            0.988925267      6.95859198       0.121208744      -81.2880191      0.121208744      -81.2880191      0.988925267      6.95859198       
6.036            0.98953293       6.74881782       0.117570152      -81.5267622      0.117570152      -81.5267622      0.98953293       6.74881782       
6.218            0.990090994      6.55096105       0.114136941      -81.7521694      0.114136941      -81.7521694      0.990090994      6.55096105       
6.4              0.990604758      6.36403194       0.110892198      -81.9653356      0.110892198      -81.9653356      0.990604758      6.36403194       
6.582            0.991078829      6.1871468        0.107820803      -82.1672389      0.107820803      -82.1672389      0.991078829      6.1871468        
6.764            0.991517228      6.01951428       0.104909201      -82.358756       0.104909201      -82.358756       0.991517228      6.01951428       
6.946            0.991923478      5.86042362       0.102145203      -82.5406745      0.102145203      -82.5406745      0.991923478      5.86042362       
7.128            0.992300676      5.70923474       0.0995178241     -82.7137043      0.0995178241     -82.7137043      0.992300676      5.70923474       
7.31             0.992651554      5.56536966       0.0970171336     -82.8784866      0.0970171336     -82.8784866      0.992651554      5.56536966       
7.492            0.992978527      5.42830522       0.0946341366     -83.0356024      0.0946341366     -83.0356024      0.992978527      5.42830522       
7.674            0.99328374       5.29756672       0.0923606651     -83.185579       0.0923606651     -83.185579       0.99328374       5.29756672       
7.856            0.993569101      5.17272248       0.0901892857     -83.3288964      0.0901892857     -83.3288964      0.993569101      5.17272248       
8.038            0.993836313      5.05337908       0.0881132198     -83.465992       0.0881132198     -83.465992       0.993836313      5.05337908       
8.22             0.994086897      4.93917724       0.0861262728     -83.5972657      0.0861262728     -83.5972657      0.994086897      4.93917724       
8.402            0.994322219      4.8297882        0.0842227732     -83.7230838      0.0842227732     -83.7230838      0.994322219      4.8297882        
8.584            0.994543507      4.72491054       0.0823975187     -83.843782       0.0823975187     -83.843782       0.994543507      4.72491054       
8.766            0.994751867      4.62426744       0.0806457287     -83.9596689      0.0806457287     -83.9596689      0.994751867      4.62426744       
8.948            0.994948296      4.5276042        0.0789630029     -84.0710286      0.0789630029     -84.0710286      0.994948296      4.5276042        
9.13             0.995133698      4.43468609       0.077345284      -84.1781233      0.077345284      -84.1781233      0.995133698      4.43468609       
9.312            0.995308891      4.34529642       0.0757888254     -84.2811947      0.0757888254     -84.2811947      0.995308891      4.34529642       
9.494            0.99547462       4.25923489       0.0742901618     -84.3804668      0.0742901618     -84.3804668      0.99547462       4.25923489       
9.676            0.99563156       4.17631602       0.0728460837     -84.4761469      0.0728460837     -84.4761469      0.99563156       4.17631602       
9.858            0.995780329      4.09636782       0.071453614      -84.5684273      0.071453614      -84.5684273      0.995780329      4.09636782       
10.04            0.99592149       4.01923062       0.0701099876     -84.6574867      0.0701099876     -84.6574867      0.99592149       4.01923062       
10.222           0.996055559      3.94475594       0.0688126329     -84.7434914      0.0688126329     -84.7434914      0.996055559      3.94475594       
10.404           0.996183006      3.87280558       0.067559155      -84.8265961      0.067559155      -84.8265961      0.996183006      3.87280558       
10.586           0.996304266      3.8032507        0.0663473213     -84.9069452      0.0663473213     -84.9069452      0.996304266      3.8032507        
10.768           0.996419737      3.73597108       0.0651750475     -84.9846735      0.0651750475     -84.9846735      0.996419737      3.73597108       
10.95            0.996529784      3.67085438       0.0640403858     -85.059907       0.0640403858     -85.059907       0.996529784      3.67085438       
11.132           0.996634745      3.60779554       0.0629415138     -85.1327635      0.0629415138     -85.1327635      0.996634745      3.60779554       
11.314           0.996734932      3.54669618       0.0618767249     -85.2033535      0.0618767249     -85.2033535      0.996734932      3.54669618       
11.496           0.996830632      3.48746406       0.0608444187     -85.2717806      0.0608444187     -85.2717806      0.996830632      3.48746406       
11.678           0.996922112      3.43001266       0.0598430934     -85.3381419      0.0598430934     -85.3381419      0.996922112      3.43001266       
11.86            0.997009618      3.37426069       0.0588713384     -85.4025288      0.0588713384     -85.4025288      0.997009618      3.37426069       
12.042           0.997093379      3.32013175       0.0579278267     -85.4650272      0.0579278267     -85.4650272      0.997093379      3.32013175       
12.224           0.997173606      3.26755392       0.0570113099     -85.5257178      0.0570113099     -85.5257178      0.997173606      3.26755392       
12.406           0.997250498      3.21645948       0.0561206117     -85.5846769      0.0561206117     -85.5846769      0.997250498      3.21645948       
12.588           0.997324239      3.16678458       0.055254623      -85.6419762      0.055254623      -85.6419762      0.997324239      3.16678458       
12.77            0.997394998      3.11846897       0.0544122973     -85.6976836      0.0544122973     -85.6976836      0.997394998      3.11846897       
12.952           0.997462935      3.07145579       0.0535926463     -85.7518631      0.0535926463     -85.7518631      0.997462935      3.07145579       
13.134           0.9975282        3.02569126       0.0527947356     -85.8045751      0.0527947356     -85.8045751      0.9975282        3.02569126       
13.316           0.997590932      2.98112455       0.0520176818     -85.855877       0.0520176818     -85.855877       0.997590932      2.98112455       
13.498           0.997651259      2.93770753       0.0512606482     -85.9058227      0.0512606482     -85.9058227      0.997651259      2.93770753       
13.68            0.997709305      2.89539461       0.0505228425     -85.9544638      0.0505228425     -85.9544638      0.997709305      2.89539461       
13.862           0.997765183      2.85414259       0.0498035134     -86.0018488      0.0498035134     -86.0018488      0.997765183      2.85414259       
14.044           0.997819         2.81391049       0.0491019483     -86.0480238      0.0491019483     -86.0480238      0.997819         2.81391049       
14.226           0.997870857      2.7746594        0.0484174706     -86.0930327      0.0484174706     -86.0930327      0.997870857      2.7746594        
14.408           0.997920847      2.73635236       0.0477494377     -86.1369171      0.0477494377     -86.1369171      0.997920847      2.73635236       
14.59            0.997969059      2.69895426       0.0470972387     -86.1797165      0.0470972387     -86.1797165      0.997969059      2.69895426       
14.772           0.998015576      2.6624317        0.0464602926     -86.2214685      0.0464602926     -86.2214685      0.998015576      2.6624317        
14.954           0.998060477      2.62675289       0.0458380463     -86.2622088      0.0458380463     -86.2622088      0.998060477      2.62675289       
15.136           0.998103836      2.59188756       0.0452299732     -86.3019715      0.0452299732     -86.3019715      0.998103836      2.59188756       
15.318           0.998145722      2.55780686       0.0446355716     -86.3407891      0.0446355716     -86.3407891      0.998145722      2.55780686       
15.5             0.998186201      2.52448332       0.0440543631     -86.3786924      0.0440543631     -86.3786924      0.998186201      2.52448332       
15.682           0.998225336      2.4918907        0.0434858912     -86.415711       0.0434858912     -86.415711       0.998225336      2.4918907        
15.864           0.998263184      2.46000397       0.0429297203     -86.4518728      0.0429297203     -86.4518728      0.998263184      2.46000397       
16.046           0.998299801      2.42879924       0.0423854345     -86.4872049      0.0423854345     -86.4872049      0.998299801      2.42879924       
16.228           0.998335239      2.39825366       0.0418526363     -86.5217328      0.0418526363     -86.5217328      0.998335239      2.39825366       
16.41            0.998369549      2.36834542       0.0413309458     -86.555481       0.0413309458     -86.555481       0.998369549      2.36834542       
16.592           0.998402777      2.33905364       0.0408199996     -86.5884728      0.0408199996     -86.5884728      0.998402777      2.33905364       
16.774           0.998434967      2.31035835       0.0403194498     -86.6207307      0.0403194498     -86.6207307      0.998434967      2.31035835       
16.956           0.998466162      2.28224042       0.0398289637     -86.6522761      0.0398289637     -86.6522761      0.998466162      2.28224042       
17.138           0.998496402      2.25468154       0.0393482224     -86.6831294      0.0393482224     -86.6831294      0.998496402      2.25468154       
17.32            0.998525725      2.22766417       0.0388769203     -86.7133102      0.0388769203     -86.7133102      0.998525725      2.22766417       
17.502           0.998554167      2.20117148       0.0384147645     -86.7428373      0.0384147645     -86.7428373      0.998554167      2.20117148       
17.684           0.998581763      2.17518735       0.037961474      -86.7717287      0.037961474      -86.7717287      0.998581763      2.17518735       
17.866           0.998608544      2.14969629       0.0375167794     -86.8000016      0.0375167794     -86.8000016      0.998608544      2.14969629       
18.048           0.998634543      2.12468345       0.0370804219     -86.8276726      0.0370804219     -86.8276726      0.998634543      2.12468345       
18.23            0.998659788      2.10013456       0.036652153      -86.8547575      0.036652153      -86.8547575      0.998659788      2.10013456       
18.412           0.998684309      2.07603593       0.0362317339     -86.8812714      0.0362317339     -86.8812714      0.998684309      2.07603593       
18.594           0.998708131      2.05237437       0.0358189354     -86.907229       0.0358189354     -86.907229       0.998708131      2.05237437       
18.776           0.99873128       2.02913723       0.0354135368     -86.9326443      0.0354135368     -86.9326443      0.99873128       2.02913723       
18.958           0.998753781      2.00631233       0.0350153259     -86.9575306      0.0350153259     -86.9575306      0.998753781      2.00631233       
19.14            0.998775657      1.98388795       0.0346240987     -86.981901       0.0346240987     -86.981901       0.998775657      1.98388795       
19.322           0.99879693       1.96185282       0.0342396587     -87.0057678      0.0342396587     -87.0057678      0.99879693       1.96185282       
19.504           0.998817622      1.94019607       0.0338618166     -87.0291428      0.0338618166     -87.0291428      0.998817622      1.94019607       
19.686           0.998837752      1.91890725       0.0334903904     -87.0520376      0.0334903904     -87.0520376      0.998837752      1.91890725       
19.868           0.99885734       1.89797629       0.0331252044     -87.0744632      0.0331252044     -87.0744632      0.99885734       1.89797629       
20.05            0.998876405      1.87739347       0.0327660894     -87.0964301      0.0327660894     -87.0964301      0.998876405      1.87739347       
20.232           0.998894965      1.85714942       0.0324128823     -87.1179484      0.0324128823     -87.1179484      0.998894965      1.85714942       
20.414           0.998913035      1.83723513       0.0320654256     -87.1390281      0.0320654256     -87.1390281      0.998913035      1.83723513       
20.596           0.998930633      1.81764186       0.0317235675     -87.1596784      0.0317235675     -87.1596784      0.998930633      1.81764186       
20.778           0.998947775      1.79836122       0.0313871615     -87.1799084      0.0313871615     -87.1799084      0.998947775      1.79836122       
20.96            0.998964474      1.77938509       0.0310560661     -87.1997269      0.0310560661     -87.1997269      0.998964474      1.77938509       
21.142           0.998980746      1.76070562       0.0307301447     -87.2191421      0.0307301447     -87.2191421      0.998980746      1.76070562       
21.324           0.998996603      1.74231524       0.0304092653     -87.2381622      0.0304092653     -87.2381622      0.998996603      1.74231524       
21.506           0.99901206       1.72420665       0.0300933003     -87.2567949      0.0300933003     -87.2567949      0.99901206       1.72420665       
21.688           0.999027128      1.70637275       0.0297821265     -87.2750477      0.0297821265     -87.2750477      0.999027128      1.70637275       
21.87            0.999041821      1.68880672       0.0294756247     -87.2929278      0.0294756247     -87.2929278      0.999041821      1.68880672       
22.052           0.999056149      1.67150195       0.0291736797     -87.3104421      0.0291736797     -87.3104421      0.999056149      1.67150195       
22.234           0.999070123      1.65445203       0.0288761799     -87.3275972      0.0288761799     -87.3275972      0.999070123      1.65445203       
22.416           0.999083755      1.63765077       0.0285830174     -87.3443995      0.0285830174     -87.3443995      0.999083755      1.63765077       
22.598           0.999097055      1.62109219       0.0282940878     -87.3608552      0.0282940878     -87.3608552      0.999097055      1.62109219       
22.78            0.999110033      1.60477048       0.02800929       -87.3769703      0.02800929       -87.3769703      0.999110033      1.60477048       
22.962           0.999122697      1.58868003       0.027728526      -87.3927505      0.027728526      -87.3927505      0.999122697      1.58868003       
23.144           0.999135058      1.5728154        0.027451701      -87.4082011      0.027451701      -87.4082011      0.999135058      1.5728154        
