! Coilcraft 1812LS-393 Chip Inductor				
! 8 August 2002			
# MHZ S MA R 50
!Freq             MagS11           AngS11           MagS21           AngS21           MagS12           AngS12           MagS22           AngS22
0.03             0.0878930769     48.1364949       0.943616892      -3.97771179      0.943616892      -3.97771179      0.0878930769     48.1364949       
0.122            0.27624161       60.4279953       0.89646505       -15.5456007      0.89646505       -15.5456007      0.27624161       60.4279953       
0.214            0.440663109      54.9166814       0.829232612      -25.7765439      0.829232612      -25.7765439      0.440663109      54.9166814       
0.306            0.569567829      48.3782981       0.753513696      -34.4062757      0.753513696      -34.4062757      0.569567829      48.3782981       
0.398            0.666225382      42.4958393       0.679268092      -41.4958351      0.679268092      -41.4958351      0.666225382      42.4958393       
0.49             0.737561862      37.5224376       0.611600296      -47.2660758      0.611600296      -47.2660758      0.737561862      37.5224376       
0.582            0.790270959      33.3900379       0.552145713      -51.9692444      0.552145713      -51.9692444      0.790270959      33.3900379       
0.674            0.829616375      29.9607786       0.500757473      -55.8304422      0.500757473      -55.8304422      0.829616375      29.9607786       
0.766            0.85941155       27.0994606       0.456576947      -59.0318169      0.456576947      -59.0318169      0.85941155       27.0994606       
0.858            0.88233355       24.6923484       0.418568442      -61.7147433      0.418568442      -61.7147433      0.88233355       24.6923484       
0.95             0.900247751      22.648796        0.385746093      -63.9872646      0.385746093      -63.9872646      0.900247751      22.648796        
1.042            0.914459876      20.8979572       0.357251436      -65.9317583      0.357251436      -65.9317583      0.914459876      20.8979572       
1.134            0.925893531      19.384709        0.3323661        -67.6113134      0.3323661        -67.6113134      0.925893531      19.384709        
1.226            0.935210729      18.0660452       0.310499643      -69.0746281      0.310499643      -69.0746281      0.935210729      18.0660452       
1.318            0.942892777      16.9082012       0.291170124      -70.3596493      0.291170124      -70.3596493      0.942892777      16.9082012       
1.41             0.949294651      15.8844564       0.27398455       -71.4962455      0.27398455       -71.4962455      0.949294651      15.8844564       
1.502            0.954681826      14.9734804       0.258621712      -72.5081645      0.258621712      -72.5081645      0.954681826      14.9734804       
1.594            0.959255487      14.1580949       0.244817969      -73.4144742      0.244817969      -73.4144742      0.959255487      14.1580949       
1.686            0.963170021      13.4243453       0.232355807      -74.2306297      0.232355807      -74.2306297      0.963170021      13.4243453       
1.778            0.966545299      12.7608004       0.221054743      -74.9692693      0.221054743      -74.9692693      0.966545299      12.7608004       
1.87             0.969475411      12.1580216       0.210764139      -75.6408149      0.210764139      -75.6408149      0.969475411      12.1580216       
1.962            0.972034974      11.6081563       0.201357526      -76.2539289      0.201357526      -76.2539289      0.972034974      11.6081563       
2.054            0.97428372       11.1046254       0.192728108      -76.8158637      0.192728108      -76.8158637      0.97428372       11.1046254       
2.146            0.976269895      10.6418793       0.184785201      -77.3327336      0.184785201      -77.3327336      0.976269895      10.6418793       
2.238            0.978032785      10.2152075       0.177451381      -77.8097267      0.177451381      -77.8097267      0.978032785      10.2152075       
2.33             0.979604631      9.82058855       0.170660209      -78.2512713      0.170660209      -78.2512713      0.979604631      9.82058855       
2.422            0.981012082      9.45456955       0.164354386      -78.661169       0.164354386      -78.661169       0.981012082      9.45456955       
2.514            0.982277312      9.11417076       0.158484271      -79.0427006      0.158484271      -79.0427006      0.982277312      9.11417076       
2.606            0.983418888      8.79680808       0.153006658      -79.3987114      0.153006658      -79.3987114      0.983418888      8.79680808       
2.698            0.984452451      8.50023012       0.147883791      -79.7316806      0.147883791      -79.7316806      0.984452451      8.50023012       
2.79             0.985391248      8.2224669        0.143082537      -80.0437778      0.143082537      -80.0437778      0.985391248      8.2224669        
2.882            0.986246557      7.96178761       0.138573714      -80.3369098      0.138573714      -80.3369098      0.986246557      7.96178761       
2.974            0.987028029      7.71666567       0.134331524      -80.6127586      0.134331524      -80.6127586      0.987028029      7.71666567       
3.066            0.987743961      7.48574974       0.130333083      -80.8728135      0.130333083      -80.8728135      0.987743961      7.48574974       
3.158            0.988401514      7.26783945       0.126558026      -81.1183982      0.126558026      -81.1183982      0.988401514      7.26783945       
3.25             0.989006898      7.06186502       0.122988174      -81.3506922      0.122988174      -81.3506922      0.989006898      7.06186502       
3.342            0.989565517      6.86687012       0.119607247      -81.5707506      0.119607247      -81.5707506      0.989565517      6.86687012       
3.434            0.990082092      6.68199731       0.116400631      -81.7795198      0.116400631      -81.7795198      0.990082092      6.68199731       
3.526            0.990560764      6.50647564       0.113355168      -81.9778507      0.113355168      -81.9778507      0.990560764      6.50647564       
3.618            0.991005173      6.33961009       0.11045898       -82.1665111      0.11045898       -82.1665111      0.991005173      6.33961009       
3.71             0.991418533      6.18077246       0.10770132       -82.3461947      0.10770132       -82.3461947      0.991418533      6.18077246       
3.802            0.991803688      6.02939364       0.105072443      -82.5175308      0.105072443      -82.5175308      0.991803688      6.02939364       
3.894            0.992163163      5.88495679       0.10256349       -82.6810906      0.10256349       -82.6810906      0.992163163      5.88495679       
3.986            0.992499206      5.74699153       0.100166389      -82.8373943      0.100166389      -82.8373943      0.992499206      5.74699153       
4.078            0.992813823      5.61506886       0.0978737758     -82.9869168      0.0978737758     -82.9869168      0.992813823      5.61506886       
4.17             0.993108809      5.4887967        0.095678912      -83.1300918      0.095678912      -83.1300918      0.993108809      5.4887967        
4.262            0.993385776      5.36781605       0.0935756246     -83.267317       0.0935756246     -83.267317       0.993385776      5.36781605       
4.354            0.993646171      5.25179759       0.0915582463     -83.398957       0.0915582463     -83.398957       0.993646171      5.25179759       
4.446            0.993891299      5.14043865       0.089621566      -83.5253473      0.089621566      -83.5253473      0.993891299      5.14043865       
4.538            0.994122339      5.0334606        0.0877607833     -83.6467966      0.0877607833     -83.6467966      0.994122339      5.0334606        
4.63             0.994340356      4.93060652       0.0859714695     -83.7635898      0.0859714695     -83.7635898      0.994340356      4.93060652       
4.722            0.994546318      4.83163914       0.0842495323     -83.8759901      0.0842495323     -83.8759901      0.994546318      4.83163914       
4.814            0.994741103      4.73633896       0.0825911845     -83.9842411      0.0825911845     -83.9842411      0.994741103      4.73633896       
4.906            0.99492551       4.6445027        0.0809929165     -84.0885682      0.0809929165     -84.0885682      0.99492551       4.6445027        
4.998            0.995100267      4.55594174       0.079451471      -84.189181       0.079451471      -84.189181       0.995100267      4.55594174       
5.09             0.995266041      4.4704809        0.0779638214     -84.2862739      0.0779638214     -84.2862739      0.995266041      4.4704809        
5.182            0.995423441      4.38795724       0.0765271512     -84.3800279      0.0765271512     -84.3800279      0.995423441      4.38795724       
5.274            0.995573023      4.30821899       0.0751388365     -84.4706117      0.0751388365     -84.4706117      0.995573023      4.30821899       
5.366            0.9957153        4.23112466       0.0737964298     -84.5581825      0.0737964298     -84.5581825      0.9957153        4.23112466       
5.458            0.995850742      4.15654215       0.0724976455     -84.6428871      0.0724976455     -84.6428871      0.995850742      4.15654215       
5.55             0.995979782      4.08434798       0.0712403468     -84.7248628      0.0712403468     -84.7248628      0.995979782      4.08434798       
5.642            0.996102819      4.01442664       0.0700225337     -84.8042381      0.0700225337     -84.8042381      0.996102819      4.01442664       
5.734            0.99622022       3.94666991       0.0688423322     -84.8811332      0.0688423322     -84.8811332      0.99622022       3.94666991       
5.826            0.996332327      3.88097634       0.0676979849     -84.9556612      0.0676979849     -84.9556612      0.996332327      3.88097634       
5.918            0.996439453      3.8172507        0.0665878418     -85.0279278      0.0665878418     -85.0279278      0.996439453      3.8172507        
6.01             0.99654189       3.7554035        0.0655103524     -85.0980326      0.0655103524     -85.0980326      0.99654189       3.7554035        
6.102            0.996639908      3.69535062       0.0644640581     -85.1660693      0.0644640581     -85.1660693      0.996639908      3.69535062       
6.194            0.996733758      3.63701286       0.0634475858     -85.232126       0.0634475858     -85.232126       0.996733758      3.63701286       
6.286            0.996823673      3.5803156        0.0624596416     -85.2962856      0.0624596416     -85.2962856      0.996823673      3.5803156        
6.378            0.996909871      3.52518849       0.0614990051     -85.3586265      0.0614990051     -85.3586265      0.996909871      3.52518849       
6.47             0.996992553      3.47156513       0.0605645246     -85.4192226      0.0605645246     -85.4192226      0.996992553      3.47156513       
6.562            0.997071907      3.41938281       0.0596551118     -85.4781436      0.0596551118     -85.4781436      0.997071907      3.41938281       
6.654            0.99714811       3.36858226       0.0587697381     -85.5354554      0.0587697381     -85.5354554      0.99714811       3.36858226       
6.746            0.997221326      3.3191074        0.0579074301     -85.5912205      0.0579074301     -85.5912205      0.997221326      3.3191074        
6.838            0.997291708      3.27090515       0.0570672661     -85.6454979      0.0570672661     -85.6454979      0.997291708      3.27090515       
6.93             0.9973594        3.2239252        0.0562483731     -85.6983434      0.0562483731     -85.6983434      0.9973594        3.2239252        
7.022            0.997424537      3.17811989       0.0554499228     -85.7498101      0.0554499228     -85.7498101      0.997424537      3.17811989       
7.114            0.997487245      3.13344397       0.0546711297     -85.7999483      0.0546711297     -85.7999483      0.997487245      3.13344397       
7.206            0.997547642      3.08985449       0.0539112477     -85.8488057      0.0539112477     -85.8488057      0.997547642      3.08985449       
7.298            0.997605841      3.04731065       0.0531695681     -85.8964276      0.0531695681     -85.8964276      0.997605841      3.04731065       
7.39             0.997661944      3.00577368       0.0524454169     -85.9428569      0.0524454169     -85.9428569      0.997661944      3.00577368       
7.482            0.997716051      2.96520667       0.0517381531     -85.9881348      0.0517381531     -85.9881348      0.997716051      2.96520667       
7.574            0.997768254      2.92557451       0.0510471664     -86.0323         0.0510471664     -86.0323         0.997768254      2.92557451       
7.666            0.99781864       2.88684377       0.0503718756     -86.0753897      0.0503718756     -86.0753897      0.99781864       2.88684377       
7.758            0.997867292      2.84898257       0.0497117266     -86.1174392      0.0497117266     -86.1174392      0.997867292      2.84898257       
7.85             0.997914287      2.81196053       0.0490661914     -86.158482       0.0490661914     -86.158482       0.997914287      2.81196053       
7.942            0.997959698      2.77574866       0.0484347659     -86.1985503      0.0484347659     -86.1985503      0.997959698      2.77574866       
8.034            0.998003595      2.7403193        0.0478169691     -86.2376746      0.0478169691     -86.2376746      0.998003595      2.7403193        
8.126            0.998046042      2.70564601       0.0472123413     -86.2758841      0.0472123413     -86.2758841      0.998046042      2.70564601       
8.218            0.998087102      2.67170356       0.0466204436     -86.3132066      0.0466204436     -86.3132066      0.998087102      2.67170356       
8.31             0.998126833      2.6384678        0.0460408561     -86.3496687      0.0460408561     -86.3496687      0.998126833      2.6384678        
8.402            0.998165291      2.60591564       0.0454731771     -86.3852959      0.0454731771     -86.3852959      0.998165291      2.60591564       
8.494            0.998202527      2.574025         0.0449170224     -86.4201124      0.0449170224     -86.4201124      0.998202527      2.574025         
8.586            0.998238592      2.54277471       0.0443720239     -86.4541415      0.0443720239     -86.4541415      0.998238592      2.54277471       
8.678            0.998273533      2.51214452       0.0438378292     -86.4874053      0.0438378292     -86.4874053      0.998273533      2.51214452       
8.77             0.998307396      2.48211501       0.0433141004     -86.5199251      0.0433141004     -86.5199251      0.998307396      2.48211501       
8.862            0.998340221      2.45266756       0.0428005136     -86.5517213      0.0428005136     -86.5517213      0.998340221      2.45266756       
8.954            0.99837205       2.42378433       0.0422967581     -86.5828133      0.0422967581     -86.5828133      0.99837205       2.42378433       
9.046            0.998402922      2.39544817       0.0418025357     -86.6132199      0.0418025357     -86.6132199      0.998402922      2.39544817       
9.138            0.998432873      2.36764265       0.0413175602     -86.6429588      0.0413175602     -86.6429588      0.998432873      2.36764265       
9.23             0.998461937      2.34035196       0.0408415568     -86.6720473      0.0408415568     -86.6720473      0.998461937      2.34035196       
9.322            0.998490149      2.31356094       0.0403742613     -86.7005017      0.0403742613     -86.7005017      0.998490149      2.31356094       
9.414            0.998517538      2.287255         0.0399154198     -86.7283378      0.0399154198     -86.7283378      0.998517538      2.287255         
9.506            0.998544137      2.26142013       0.0394647883     -86.7555707      0.0394647883     -86.7555707      0.998544137      2.26142013       
9.598            0.998569973      2.23604282       0.0390221319     -86.7822149      0.0390221319     -86.7822149      0.998569973      2.23604282       
9.69             0.998595074      2.21111011       0.0385872247     -86.8082844      0.0385872247     -86.8082844      0.998595074      2.21111011       
9.782            0.998619465      2.1866095        0.0381598492     -86.8337924      0.0381598492     -86.8337924      0.998619465      2.1866095        
9.874            0.998643173      2.16252897       0.037739796      -86.8587518      0.037739796      -86.8587518      0.998643173      2.16252897       
9.966            0.99866622       2.13885692       0.0373268633     -86.8831749      0.0373268633     -86.8831749      0.99866622       2.13885692       
10.058           0.99868863       2.1155822        0.0369208567     -86.9070736      0.0369208567     -86.9070736      0.99868863       2.1155822        
10.15            0.998710425      2.09269404       0.0365215889     -86.9304591      0.0365215889     -86.9304591      0.998710425      2.09269404       
10.242           0.998731624      2.07018207       0.036128879      -86.9533424      0.036128879      -86.9533424      0.998731624      2.07018207       
10.334           0.998752249      2.04803628       0.0357425528     -86.975734       0.0357425528     -86.975734       0.998752249      2.04803628       
10.426           0.998772318      2.026247         0.0353624422     -86.9976438      0.0353624422     -86.9976438      0.998772318      2.026247         
10.518           0.99879185       2.00480493       0.0349883846     -87.0190817      0.0349883846     -87.0190817      0.99879185       2.00480493       
10.61            0.998810862      1.98370105       0.0346202236     -87.0400569      0.0346202236     -87.0400569      0.998810862      1.98370105       
10.702           0.99882937       1.96292669       0.0342578075     -87.0605783      0.0342578075     -87.0605783      0.99882937       1.96292669       
10.794           0.998847392      1.94247344       0.0339009903     -87.0806545      0.0339009903     -87.0806545      0.998847392      1.94247344       
10.886           0.998864942      1.9223332        0.0335496305     -87.1002937      0.0335496305     -87.1002937      0.998864942      1.9223332        
10.978           0.998882035      1.90249811       0.0332035916     -87.119504       0.0332035916     -87.119504       0.998882035      1.90249811       
11.07            0.998898686      1.8829606        0.0328627415     -87.1382928      0.0328627415     -87.1382928      0.998898686      1.8829606        
11.162           0.998914908      1.86371334       0.0325269525     -87.1566676      0.0325269525     -87.1566676      0.998914908      1.86371334       
11.254           0.998930715      1.84474923       0.0321961009     -87.1746353      0.0321961009     -87.1746353      0.998930715      1.84474923       
11.346           0.998946118      1.82606141       0.031870067      -87.1922028      0.031870067      -87.1922028      0.998946118      1.82606141       
11.438           0.99896113       1.80764323       0.0315487353     -87.2093764      0.0315487353     -87.2093764      0.99896113       1.80764323       
11.53            0.998975763      1.78948825       0.0312319935     -87.2261625      0.0312319935     -87.2261625      0.998975763      1.78948825       
11.622           0.998990027      1.77159025       0.0309197331     -87.242567       0.0309197331     -87.242567       0.998990027      1.77159025       
11.714           0.999003935      1.75394319       0.0306118489     -87.2585957      0.0306118489     -87.2585957      0.999003935      1.75394319       
