! Coilcraft 1812LS-683 Chip Inductor				
! 8 August 2002			
# MHZ S MA R 50
!Freq             MagS11           AngS11           MagS21           AngS21           MagS12           AngS12           MagS22           AngS22
0.03             0.13557393       51.101679        0.920931938      -6.57887434      0.920931938      -6.57887434      0.13557393       51.101679        
0.072            0.27591888       58.0725485       0.885604071      -15.3328947      0.885604071      -15.3328947      0.27591888       58.0725485       
0.114            0.404098879      55.142524        0.837484908      -23.324626       0.837484908      -23.324626       0.404098879      55.142524        
0.156            0.512396877      50.5812209       0.782191269      -30.4020772      0.782191269      -30.4020772      0.512396877      50.5812209       
0.198            0.600562144      45.9597783       0.725050007      -36.5431695      0.725050007      -36.5431695      0.600562144      45.9597783       
0.24             0.67096588       41.7156452       0.66970256       -41.8120683      0.66970256       -41.8120683      0.67096588       41.7156452       
0.282            0.726758205      37.9563638       0.618150246      -46.3132055      0.618150246      -46.3132055      0.726758205      37.9563638       
0.324            0.770969338      34.6737698       0.571223513      -50.1600933      0.571223513      -50.1600933      0.770969338      34.6737698       
0.366            0.806165722      31.8200683       0.529048326      -53.458968       0.529048326      -53.458968       0.806165722      31.8200683       
0.408            0.834390782      29.3379062       0.491381188      -56.3022937      0.491381188      -56.3022937      0.834390782      29.3379062       
0.45             0.857222324      27.1722045       0.457815438      -58.7675616      0.457815438      -58.7675616      0.857222324      27.1722045       
0.492            0.875861896      25.2742728       0.427896206      -60.9184664      0.427896206      -60.9184664      0.875861896      25.2742728       
0.534            0.891220714      23.6026581       0.401178983      -62.8069004      0.401178983      -62.8069004      0.891220714      23.6026581       
0.576            0.903990878      22.1226931       0.377256128      -64.4750284      0.377256128      -64.4750284      0.903990878      22.1226931       
0.618            0.914700621      20.8056091       0.355766184      -65.9571487      0.355766184      -65.9571487      0.914700621      20.8056091       
0.66             0.923755848      19.6275849       0.336394536      -67.2812549      0.336394536      -67.2812549      0.923755848      19.6275849       
0.702            0.931470902      18.5688762       0.318870087      -68.4703012      0.318870087      -68.4703012      0.931470902      18.5688762       
0.744            0.938091239      17.6130704       0.3029604        -69.5432124      0.3029604        -69.5432124      0.938091239      17.6130704       
0.786            0.943810137      16.7464702       0.288466549      -70.5156812      0.288466549      -70.5156812      0.943810137      16.7464702       
0.828            0.948781059      15.9575923       0.275218256      -71.4007972      0.275218256      -71.4007972      0.948781059      15.9575923       
0.87             0.953126842      15.236762        0.263069549      -72.2095433      0.263069549      -72.2095433      0.953126842      15.236762        
0.912            0.956946582      14.5757878       0.251895002      -72.9511878      0.251895002      -72.9511878      0.956946582      14.5757878       
0.954            0.960320818      13.9676997       0.24158654       -73.6335959      0.24158654       -73.6335959      0.960320818      13.9676997       
0.996            0.963315477      13.4065373       0.23205074       -74.263478       0.23205074       -74.263478       0.963315477      13.4065373       
1.038            0.965984891      12.8871797       0.223206577      -74.8465889      0.223206577      -74.8465889      0.965984891      12.8871797       
1.08             0.968374123      12.405207        0.214983542      -75.3878881      0.214983542      -75.3878881      0.968374123      12.405207        
1.122            0.970520779      11.956787        0.207320059      -75.8916698      0.207320059      -75.8916698      0.970520779      11.956787        
1.164            0.972456422      11.5385834       0.200162175      -76.3616686      0.200162175      -76.3616686      0.972456422      11.5385834       
1.206            0.974207688      11.1476796       0.193462459      -76.8011464      0.193462459      -76.8011464      0.974207688      11.1476796       
1.248            0.975797171      10.7815162       0.187179071      -77.2129635      0.187179071      -77.2129635      0.975797171      10.7815162       
1.29             0.977244132      10.4378386       0.181274994      -77.5996377      0.181274994      -77.5996377      0.977244132      10.4378386       
1.332            0.978565068      10.114654        0.17571737       -77.9633936      0.17571737       -77.9633936      0.978565068      10.114654        
1.374            0.979774167      9.81019501       0.170476951      -78.3062032      0.170476951      -78.3062032      0.979774167      9.81019501       
1.416            0.980883687      9.52288892       0.165527627      -78.6298206      0.165527627      -78.6298206      0.980883687      9.52288892       
1.458            0.981904258      9.25133225       0.160846021      -78.9358108      0.160846021      -78.9358108      0.981904258      9.25133225       
1.5              0.982845133      8.99426872       0.156411153      -79.2255742      0.156411153      -79.2255742      0.982845133      8.99426872       
1.542            0.983714398      8.75057069       0.152204144      -79.5003677      0.152204144      -79.5003677      0.983714398      8.75057069       
1.584            0.984519142      8.51922334       0.148207962      -79.7613222      0.148207962      -79.7613222      0.984519142      8.51922334       
1.626            0.985265598      8.29931098       0.144407207      -80.0094583      0.144407207      -80.0094583      0.985265598      8.29931098       
1.668            0.985959267      8.09000543       0.140787923      -80.2456985      0.140787923      -80.2456985      0.985959267      8.09000543       
1.71             0.986605017      7.89055585       0.137337435      -80.4708797      0.137337435      -80.4708797      0.986605017      7.89055585       
1.752            0.987207168      7.70028005       0.134044207      -80.6857618      0.134044207      -80.6857618      0.987207168      7.70028005       
1.794            0.987769566      7.51855683       0.130897717      -80.891037       0.130897717      -80.891037       0.987769566      7.51855683       
1.836            0.988295638      7.34481944       0.127888354      -81.0873367      0.127888354      -81.0873367      0.988295638      7.34481944       
1.878            0.988788455      7.17854971       0.125007316      -81.2752385      0.125007316      -81.2752385      0.988788455      7.17854971       
1.92             0.989250766      7.01927306       0.122246532      -81.455271       0.122246532      -81.455271       0.989250766      7.01927306       
1.962            0.989685044      6.866554         0.119598589      -81.6279196      0.119598589      -81.6279196      0.989685044      6.866554         
2.004            0.990093515      6.71999223       0.117056664      -81.7936305      0.117056664      -81.7936305      0.990093515      6.71999223       
2.046            0.990478189      6.57921918       0.114614469      -81.9528143      0.114614469      -81.9528143      0.990478189      6.57921918       
2.088            0.990840882      6.44389493       0.112266198      -82.10585        0.112266198      -82.10585        0.990840882      6.44389493       
2.13             0.991183243      6.31370553       0.110006484      -82.2530876      0.110006484      -82.2530876      0.991183243      6.31370553       
2.172            0.991506766      6.18836054       0.10783036       -82.3948507      0.10783036       -82.3948507      0.991506766      6.18836054       
2.214            0.991812811      6.06759092       0.105733218      -82.5314395      0.105733218      -82.5314395      0.991812811      6.06759092       
2.256            0.992102618      5.95114708       0.103710782      -82.663132       0.103710782      -82.663132       0.992102618      5.95114708       
2.298            0.992377317      5.83879717       0.101759077      -82.7901869      0.101759077      -82.7901869      0.992377317      5.83879717       
2.34             0.992637943      5.73032552       0.0998744023     -82.9128446      0.0998744023     -82.9128446      0.992637943      5.73032552       
2.382            0.992885442      5.62553131       0.0980533095     -83.0313292      0.0980533095     -83.0313292      0.992885442      5.62553131       
2.424            0.993120683      5.52422726       0.0962925816     -83.1458493      0.0962925816     -83.1458493      0.993120683      5.52422726       
2.466            0.993344462      5.42623856       0.0945892137     -83.2566001      0.0945892137     -83.2566001      0.993344462      5.42623856       
2.508            0.993557514      5.33140182       0.0929403957     -83.3637637      0.0929403957     -83.3637637      0.993557514      5.33140182       
2.55             0.993760513      5.23956417       0.0913434973     -83.4675106      0.0913434973     -83.4675106      0.993760513      5.23956417       
2.592            0.993954082      5.15058243       0.0897960537     -83.5680005      0.0897960537     -83.5680005      0.993954082      5.15058243       
2.634            0.994138797      5.06432238       0.0882957527     -83.6653832      0.0882957527     -83.6653832      0.994138797      5.06432238       
2.676            0.994315189      4.98065801       0.0868404233     -83.7597991      0.0868404233     -83.7597991      0.994315189      4.98065801       
2.718            0.994483751      4.89947097       0.0854280254     -83.8513802      0.0854280254     -83.8513802      0.994483751      4.89947097       
2.76             0.994644938      4.82064997       0.0840566397     -83.9402507      0.0840566397     -83.9402507      0.994644938      4.82064997       
2.802            0.994799175      4.74409025       0.0827244589     -84.0265273      0.0827244589     -84.0265273      0.994799175      4.74409025       
2.844            0.994946853      4.66969315       0.0814297803     -84.1103202      0.0814297803     -84.1103202      0.994946853      4.66969315       
2.886            0.99508834       4.59736563       0.0801709976     -84.1917329      0.0801709976     -84.1917329      0.99508834       4.59736563       
2.928            0.995223974      4.52701989       0.0789465947     -84.2708634      0.0789465947     -84.2708634      0.995223974      4.52701989       
2.97             0.995354073      4.45857303       0.0777551394     -84.347804       0.0777551394     -84.347804       0.995354073      4.45857303       
3.012            0.995478934      4.39194669       0.0765952776     -84.4226422      0.0765952776     -84.4226422      0.995478934      4.39194669       
3.054            0.995598832      4.32706675       0.075465728      -84.4954604      0.075465728      -84.4954604      0.995598832      4.32706675       
3.096            0.995714025      4.26386305       0.0743652775     -84.5663368      0.0743652775     -84.5663368      0.995714025      4.26386305       
3.138            0.995824754      4.20226912       0.0732927767     -84.6353455      0.0732927767     -84.6353455      0.995824754      4.20226912       
3.18             0.995931246      4.14222196       0.0722471357     -84.7025565      0.0722471357     -84.7025565      0.995931246      4.14222196       
3.222            0.996033713      4.0836618        0.0712273202     -84.7680364      0.0712273202     -84.7680364      0.996033713      4.0836618        
3.264            0.996132353      4.02653192       0.0702323484     -84.8318483      0.0702323484     -84.8318483      0.996132353      4.02653192       
3.306            0.996227352      3.97077841       0.0692612873     -84.8940522      0.0692612873     -84.8940522      0.996227352      3.97077841       
3.348            0.996318885      3.91635006       0.0683132499     -84.9547048      0.0683132499     -84.9547048      0.996318885      3.91635006       
3.39             0.996407118      3.86319814       0.0673873925     -85.0138605      0.0673873925     -85.0138605      0.996407118      3.86319814       
3.432            0.996492204      3.81127629       0.0664829119     -85.0715706      0.0664829119     -85.0715706      0.996492204      3.81127629       
3.474            0.99657429       3.76054037       0.0655990432     -85.1278842      0.0655990432     -85.1278842      0.99657429       3.76054037       
3.516            0.996653513      3.71094829       0.0647350573     -85.182848       0.0647350573     -85.182848       0.996653513      3.71094829       
3.558            0.996730003      3.66245996       0.0638902592     -85.2365062      0.0638902592     -85.2365062      0.996730003      3.66245996       
3.6              0.996803882      3.61503713       0.0630639857     -85.2889015      0.0630639857     -85.2889015      0.996803882      3.61503713       
3.642            0.996875265      3.56864327       0.0622556038     -85.3400741      0.0622556038     -85.3400741      0.996875265      3.56864327       
3.684            0.996944261      3.52324353       0.0614645087     -85.3900626      0.0614645087     -85.3900626      0.996944261      3.52324353       
3.726            0.997010973      3.47880459       0.060690123      -85.4389038      0.060690123      -85.4389038      0.997010973      3.47880459       
3.768            0.997075499      3.43529462       0.0599318941     -85.4866329      0.0599318941     -85.4866329      0.997075499      3.43529462       
3.81             0.99713793       3.39268315       0.0591892937     -85.5332834      0.0591892937     -85.5332834      0.99713793       3.39268315       
3.852            0.997198355      3.35094106       0.0584618164     -85.5788875      0.0584618164     -85.5788875      0.997198355      3.35094106       
3.894            0.997256857      3.31004044       0.057748978      -85.6234758      0.057748978      -85.6234758      0.997256857      3.31004044       
3.936            0.997313512      3.26995459       0.0570503149     -85.6670777      0.0570503149     -85.6670777      0.997313512      3.26995459       
3.978            0.997368398      3.2306579        0.0563653828     -85.7097213      0.0563653828     -85.7097213      0.997368398      3.2306579        
4.02             0.997421583      3.19212584       0.0556937556     -85.7514335      0.0556937556     -85.7514335      0.997421583      3.19212584       
4.062            0.997473135      3.15433487       0.0550350248     -85.79224        0.0550350248     -85.79224        0.997473135      3.15433487       
4.104            0.997523118      3.11726242       0.0543887983     -85.8321656      0.0543887983     -85.8321656      0.997523118      3.11726242       
4.146            0.997571593      3.08088681       0.0537546998     -85.8712338      0.0537546998     -85.8712338      0.997571593      3.08088681       
4.188            0.997618617      3.04518723       0.0531323678     -85.9094673      0.0531323678     -85.9094673      0.997618617      3.04518723       
4.23             0.997664246      3.01014369       0.0525214551     -85.9468878      0.0525214551     -85.9468878      0.997664246      3.01014369       
4.272            0.997708532      2.97573699       0.0519216279     -85.9835163      0.0519216279     -85.9835163      0.997708532      2.97573699       
4.314            0.997751524      2.94194864       0.0513325654     -86.0193726      0.0513325654     -86.0193726      0.997751524      2.94194864       
4.356            0.99779327       2.90876089       0.0507539589     -86.0544761      0.0507539589     -86.0544761      0.99779327       2.90876089       
4.398            0.997833816      2.87615665       0.0501855115     -86.088845       0.0501855115     -86.088845       0.997833816      2.87615665       
4.44             0.997873205      2.84411947       0.0496269374     -86.1224971      0.0496269374     -86.1224971      0.997873205      2.84411947       
4.482            0.997911478      2.8126335        0.0490779612     -86.1554494      0.0490779612     -86.1554494      0.997911478      2.8126335        
4.524            0.997948675      2.78168351       0.0485383178     -86.1877182      0.0485383178     -86.1877182      0.997948675      2.78168351       
4.566            0.997984833      2.75125479       0.0480077519     -86.2193192      0.0480077519     -86.2193192      0.997984833      2.75125479       
4.608            0.998019988      2.72133317       0.0474860172     -86.2502673      0.0474860172     -86.2502673      0.998019988      2.72133317       
4.65             0.998054174      2.69190501       0.0469728762     -86.2805772      0.0469728762     -86.2805772      0.998054174      2.69190501       
4.692            0.998087425      2.66295713       0.0464680999     -86.3102627      0.0464680999     -86.3102627      0.998087425      2.66295713       
4.734            0.998119773      2.63447681       0.0459714675     -86.3393372      0.0459714675     -86.3393372      0.998119773      2.63447681       
4.776            0.998151246      2.60645181       0.0454827657     -86.3678135      0.0454827657     -86.3678135      0.998151246      2.60645181       
4.818            0.998181874      2.57887028       0.0450017885     -86.395704       0.0450017885     -86.395704       0.998181874      2.57887028       
4.86             0.998211686      2.5517208        0.0445283373     -86.4230206      0.0445283373     -86.4230206      0.998211686      2.5517208        
4.902            0.998240706      2.5249923        0.0440622198     -86.4497748      0.0440622198     -86.4497748      0.998240706      2.5249923        
4.944            0.998268961      2.49867414       0.0436032507     -86.4759774      0.0436032507     -86.4759774      0.998268961      2.49867414       
4.986            0.998296476      2.47275599       0.0431512504     -86.5016392      0.0431512504     -86.5016392      0.998296476      2.47275599       
5.028            0.998323272      2.44722789       0.0427060455     -86.5267703      0.0427060455     -86.5267703      0.998323272      2.44722789       
5.07             0.998349374      2.42208019       0.0422674683     -86.5513805      0.0422674683     -86.5513805      0.998349374      2.42208019       
5.112            0.998374802      2.39730356       0.0418353565     -86.5754791      0.0418353565     -86.5754791      0.998374802      2.39730356       
5.154            0.998399577      2.37288899       0.0414095531     -86.5990753      0.0414095531     -86.5990753      0.998399577      2.37288899       
5.196            0.99842372       2.34882773       0.0409899062     -86.6221777      0.0409899062     -86.6221777      0.99842372       2.34882773       
5.238            0.998447248      2.32511134       0.0405762686     -86.6447948      0.0405762686     -86.6447948      0.998447248      2.32511134       
5.28             0.998470181      2.30173161       0.0401684978     -86.6669345      0.0401684978     -86.6669345      0.998470181      2.30173161       
5.322            0.998492536      2.27868063       0.0397664557     -86.6886046      0.0397664557     -86.6886046      0.998492536      2.27868063       
5.364            0.99851433       2.25595071       0.0393700087     -86.7098126      0.0393700087     -86.7098126      0.99851433       2.25595071       
