! Coilcraft 1812LS-274 Chip Inductor				
! 8 August 2002			
# MHZ S MA R 50
!Freq             MagS11           AngS11           MagS21           AngS21           MagS12           AngS12           MagS22           AngS22
0.03             0.417421156      43.2622099       0.752520717      -22.3432962      0.752520717      -22.3432962      0.417421156      43.2622099       
0.052            0.598369864      39.5098242       0.659350617      -35.2657673      0.659350617      -35.2657673      0.598369864      39.5098242       
0.074            0.720860848      33.8350105       0.567522971      -45.0111869      0.567522971      -45.0111869      0.720860848      33.8350105       
0.096            0.800189351      28.8933342       0.489017629      -52.2451723      0.489017629      -52.2451723      0.800189351      28.8933342       
0.118            0.852084529      24.9381467       0.425170266      -57.672873       0.425170266      -57.672873       0.852084529      24.9381467       
0.14             0.887008783      21.8091571       0.373817773      -61.8296139      0.373817773      -61.8296139      0.887008783      21.8091571       
0.162            0.911285857      19.3131655       0.332318308      -65.0850086      0.332318308      -65.0850086      0.911285857      19.3131655       
0.184            0.928695046      17.2940465       0.298418927      -67.689046       0.298418927      -67.689046       0.928695046      17.2940465       
0.206            0.94153518       15.6360635       0.27037883       -69.8120153      0.27037883       -69.8120153      0.94153518       15.6360635       
0.228            0.951243273      14.2550568       0.246893373      -71.5719623      0.246893373      -71.5719623      0.951243273      14.2550568       
0.25             0.95874445       13.0896528       0.226989777      -73.0524312      0.226989777      -73.0524312      0.95874445       13.0896528       
0.272            0.964651548      12.0945957       0.209938671      -74.3138         0.209938671      -74.3138         0.964651548      12.0945957       
0.294            0.96938146       11.2360451       0.195187641      -75.4005835      0.195187641      -75.4005835      0.96938146       11.2360451       
0.316            0.973224743      10.4883237       0.182313312      -76.3462119      0.182313312      -76.3462119      0.973224743      10.4883237       
0.338            0.976388396      9.83166733       0.170987209      -77.1762185      0.170987209      -77.1762185      0.976388396      9.83166733       
0.36             0.979022839      9.25065636       0.160951407      -77.9104066      0.160951407      -77.9104066      0.979022839      9.25065636       
0.382            0.981239352      8.73310779       0.152001044      -78.5643506      0.152001044      -78.5643506      0.981239352      8.73310779       
0.404            0.983121601      8.26928286       0.143971648      -79.1504551      0.143971648      -79.1504551      0.983121601      8.26928286       
0.426            0.984733417      7.85131243       0.136729832      -79.6787144      0.136729832      -79.6787144      0.984733417      7.85131243       
0.448            0.986124155      7.4727747        0.13016641       -80.1572655      0.13016641       -80.1572655      0.986124155      7.4727747        
0.47             0.987332443      7.12838092       0.124191219      -80.5927971      0.124191219      -80.5927971      0.987332443      7.12838092       
0.492            0.988388848      6.81373864       0.118729211      -80.990856       0.118729211      -80.990856       0.988388848      6.81373864       
0.514            0.98931781       6.52517132       0.113717444      -81.3560791      0.113717444      -81.3560791      0.98931781       6.52517132       
0.536            0.990139053      6.25957943       0.109102766      -81.6923718      0.109102766      -81.6923718      0.990139053      6.25957943       
0.558            0.990868633      6.01433239       0.104839998      -82.0030456      0.104839998      -82.0030456      0.990868633      6.01433239       
0.58             0.991519723      5.78718373       0.100890507      -82.2909268      0.100890507      -82.2909268      0.991519723      5.78718373       
0.602            0.992103216      5.57620393       0.097221073      -82.5584417      0.097221073      -82.5584417      0.992103216      5.57620393       
0.624            0.992628179      5.37972676       0.0938029787     -82.8076846      0.0938029787     -82.8076846      0.992628179      5.37972676       
0.646            0.993102207      5.19630609       0.0906112773     -83.0404725      0.0906112773     -83.0404725      0.993102207      5.19630609       
0.668            0.993531702      5.0246809        0.0876241973     -83.2583895      0.0876241973     -83.2583895      0.993531702      5.0246809        
0.69             0.993922091      4.86374675       0.0848226561     -83.4628226      0.0848226561     -83.4628226      0.993922091      4.86374675       
0.712            0.994277997      4.71253228       0.0821898593     -83.6549917      0.0821898593     -83.6549917      0.994277997      4.71253228       
0.734            0.994603381      4.57017987       0.0797109701     -83.8359738      0.0797109701     -83.8359738      0.994603381      4.57017987       
0.756            0.994901647      4.43592951       0.0773728328     -84.006723       0.0773728328     -84.006723       0.994901647      4.43592951       
0.778            0.995175739      4.30910536       0.0751637429     -84.168088       0.0751637429     -84.168088       0.995175739      4.30910536       
0.8              0.995428212      4.18910445       0.0730732532     -84.3208258      0.0730732532     -84.3208258      0.995428212      4.18910445       
0.822            0.99566129       4.07538716       0.0710920099     -84.4656142      0.0710920099     -84.4656142      0.99566129       4.07538716       
0.844            0.995876917      3.96746912       0.0692116139     -84.6030612      0.0692116139     -84.6030612      0.995876917      3.96746912       
0.866            0.996076801      3.86491435       0.0674245023     -84.7337145      0.0674245023     -84.7337145      0.996076801      3.86491435       
0.888            0.996262444      3.7673294        0.0657238476     -84.8580682      0.0657238476     -84.8580682      0.996262444      3.7673294        
0.91             0.996435174      3.67435824       0.0641034703     -84.9765696      0.0641034703     -84.9765696      0.996435174      3.67435824       
0.932            0.996596165      3.58567801       0.0625577643     -85.0896241      0.0625577643     -85.0896241      0.996596165      3.58567801       
0.954            0.996746462      3.50099518       0.0610816322     -85.1976006      0.0610816322     -85.1976006      0.996746462      3.50099518       
0.976            0.996886996      3.42004236       0.0596704287     -85.3008351      0.0596704287     -85.3008351      0.996886996      3.42004236       
0.998            0.997018597      3.34257541       0.0583199121     -85.3996344      0.0583199121     -85.3996344      0.997018597      3.34257541       
1.02             0.997142009      3.26837102       0.0570262011     -85.4942791      0.0570262011     -85.4942791      0.997142009      3.26837102       
1.042            0.997257901      3.19722449       0.0557857379     -85.5850266      0.0557857379     -85.5850266      0.997257901      3.19722449       
1.064            0.997366874      3.12894787       0.0545952549     -85.672113       0.0545952549     -85.672113       0.997366874      3.12894787       
1.086            0.997469469      3.06336829       0.0534517458     -85.7557558      0.0534517458     -85.7557558      0.997469469      3.06336829       
1.108            0.997566177      3.00032644       0.0523524402     -85.8361551      0.0523524402     -85.8361551      0.997566177      3.00032644       
1.13             0.997657439      2.93967531       0.0512947808     -85.913496       0.0512947808     -85.913496       0.997657439      2.93967531       
1.152            0.99774366       2.881279         0.0502764037     -85.9879492      0.0502764037     -85.9879492      0.99774366       2.881279         
1.174            0.997825203      2.82501171       0.0492951199     -86.059673       0.0492951199     -86.059673       0.997825203      2.82501171       
1.196            0.997902402      2.77075682       0.0483489        -86.1288141      0.0483489        -86.1288141      0.997902402      2.77075682       
1.218            0.997975561      2.71840603       0.0474358595     -86.1955086      0.0474358595     -86.1955086      0.997975561      2.71840603       
1.24             0.998044958      2.66785869       0.0465542466     -86.2598832      0.0465542466     -86.2598832      0.998044958      2.66785869       
1.262            0.998110845      2.61902112       0.0457024302     -86.3220556      0.0457024302     -86.3220556      0.998110845      2.61902112       
1.284            0.998173455      2.57180598       0.0448788901     -86.3821357      0.0448788901     -86.3821357      0.998173455      2.57180598       
1.306            0.998233003      2.52613178       0.0440822076     -86.440226       0.0440822076     -86.440226       0.998233003      2.52613178       
1.328            0.998289685      2.48192241       0.0433110573     -86.4964222      0.0433110573     -86.4964222      0.998289685      2.48192241       
1.35             0.998343681      2.43910666       0.0425641993     -86.5508139      0.0425641993     -86.5508139      0.998343681      2.43910666       
1.372            0.998395158      2.39761787       0.0418404726     -86.6034848      0.0418404726     -86.6034848      0.998395158      2.39761787       
1.394            0.998444271      2.35739356       0.0411387892     -86.6545135      0.0411387892     -86.6545135      0.998444271      2.35739356       
1.416            0.99849116       2.3183751        0.0404581277     -86.7039737      0.0404581277     -86.7039737      0.99849116       2.3183751        
1.438            0.998535959      2.28050743       0.0397975292     -86.7519346      0.0397975292     -86.7519346      0.998535959      2.28050743       
1.46             0.998578788      2.24373879       0.0391560919     -86.7984612      0.0391560919     -86.7984612      0.998578788      2.24373879       
1.482            0.998619761      2.20802047       0.0385329674     -86.8436147      0.0385329674     -86.8436147      0.998619761      2.20802047       
1.504            0.998658983      2.17330659       0.0379273564     -86.8874527      0.0379273564     -86.8874527      0.998658983      2.17330659       
1.526            0.998696552      2.13955393       0.0373385055     -86.9300295      0.0373385055     -86.9300295      0.998696552      2.13955393       
1.548            0.998732558      2.10672166       0.0367657038     -86.9713962      0.0367657038     -86.9713962      0.998732558      2.10672166       
1.57             0.998767086      2.07477129       0.03620828       -87.0116012      0.03620828       -87.0116012      0.998767086      2.07477129       
1.592            0.998800216      2.04366639       0.0356655998     -87.0506901      0.0356655998     -87.0506901      0.998800216      2.04366639       
1.614            0.99883202       2.01337254       0.0351370631     -87.0887061      0.0351370631     -87.0887061      0.99883202       2.01337254       
1.636            0.998862568      1.98385714       0.0346221021     -87.12569        0.0346221021     -87.12569        0.998862568      1.98385714       
1.658            0.998891924      1.95508935       0.0341201787     -87.1616803      0.0341201787     -87.1616803      0.998891924      1.95508935       
1.68             0.998920149      1.92703988       0.0336307831     -87.1967138      0.0336307831     -87.1967138      0.998920149      1.92703988       
1.702            0.998947299      1.89968101       0.0331534315     -87.230825       0.0331534315     -87.230825       0.998947299      1.89968101       
1.724            0.998973427      1.87298638       0.0326876649     -87.2640469      0.0326876649     -87.2640469      0.998973427      1.87298638       
1.746            0.998998582      1.84693097       0.032233047      -87.2964107      0.032233047      -87.2964107      0.998998582      1.84693097       
1.768            0.999022812      1.82149102       0.0317891635     -87.3279461      0.0317891635     -87.3279461      0.999022812      1.82149102       
1.79             0.999046159      1.79664389       0.0313556201     -87.3586811      0.0313556201     -87.3586811      0.999046159      1.79664389       
1.812            0.999068667      1.77236807       0.0309320415     -87.3886426      0.0309320415     -87.3886426      0.999068667      1.77236807       
1.834            0.999090373      1.74864308       0.0305180706     -87.417856       0.0305180706     -87.417856       0.999090373      1.74864308       
1.856            0.999111314      1.72544937       0.030113367      -87.4463457      0.030113367      -87.4463457      0.999111314      1.72544937       
1.878            0.999131524      1.70276835       0.029717606      -87.4741345      0.029717606      -87.4741345      0.999131524      1.70276835       
1.9              0.999151037      1.68058225       0.0293304783     -87.5012446      0.0293304783     -87.5012446      0.999151037      1.68058225       
1.922            0.999169883      1.65887414       0.0289516883     -87.5276969      0.0289516883     -87.5276969      0.999169883      1.65887414       
1.944            0.99918809       1.63762782       0.028580954      -87.5535113      0.028580954      -87.5535113      0.99918809       1.63762782       
1.966            0.999205687      1.61682785       0.0282180057     -87.5787068      0.0282180057     -87.5787068      0.999205687      1.61682785       
1.988            0.9992227        1.59645944       0.0278625859     -87.6033017      0.0278625859     -87.6033017      0.9992227        1.59645944       
2.01             0.999239152      1.57650847       0.0275144482     -87.6273133      0.0275144482     -87.6273133      0.999239152      1.57650847       
2.032            0.999255068      1.55696142       0.0271733567     -87.6507582      0.0271733567     -87.6507582      0.999255068      1.55696142       
2.054            0.999270469      1.53780533       0.0268390857     -87.6736522      0.0268390857     -87.6736522      0.999270469      1.53780533       
2.076            0.999285377      1.51902781       0.026511419      -87.6960103      0.026511419      -87.6960103      0.999285377      1.51902781       
2.098            0.999299811      1.50061699       0.0261901495     -87.7178471      0.0261901495     -87.7178471      0.999299811      1.50061699       
2.12             0.999313789      1.48256147       0.0258750787     -87.7391764      0.0258750787     -87.7391764      0.999313789      1.48256147       
2.142            0.999327331      1.46485034       0.025566016      -87.7600114      0.025566016      -87.7600114      0.999327331      1.46485034       
2.164            0.999340453      1.44747312       0.0252627787     -87.7803647      0.0252627787     -87.7803647      0.999340453      1.44747312       
2.186            0.99935317       1.43041975       0.0249651914     -87.8002484      0.0249651914     -87.8002484      0.99935317       1.43041975       
2.208            0.9993655        1.41368057       0.0246730858     -87.8196741      0.0246730858     -87.8196741      0.9993655        1.41368057       
2.23             0.999377455      1.3972463        0.0243862999     -87.838653       0.0243862999     -87.838653       0.999377455      1.3972463        
2.252            0.999389051      1.38110804       0.0241046783     -87.8571955      0.0241046783     -87.8571955      0.999389051      1.38110804       
2.274            0.9994003        1.3652572        0.0238280715     -87.8753119      0.0238280715     -87.8753119      0.9994003        1.3652572        
2.296            0.999411215      1.34968554       0.0235563356     -87.893012       0.0235563356     -87.893012       0.999411215      1.34968554       
2.318            0.999421808      1.33438514       0.0232893324     -87.9103049      0.0232893324     -87.9103049      0.999421808      1.33438514       
2.34             0.999432091      1.31934835       0.0230269287     -87.9271998      0.0230269287     -87.9271998      0.999432091      1.31934835       
2.362            0.999442074      1.30456783       0.0227689963     -87.9437051      0.0227689963     -87.9437051      0.999442074      1.30456783       
2.384            0.999451769      1.29003649       0.0225154117     -87.9598291      0.0225154117     -87.9598291      0.999451769      1.29003649       
2.406            0.999461185      1.27574752       0.0222660558     -87.9755796      0.0222660558     -87.9755796      0.999461185      1.27574752       
2.428            0.999470332      1.26169434       0.022020814      -87.9909642      0.022020814      -87.9909642      0.999470332      1.26169434       
2.45             0.999479219      1.24787061       0.0217795758     -88.00599        0.0217795758     -88.00599        0.999479219      1.24787061       
2.472            0.999487854      1.23427022       0.0215422345     -88.0206641      0.0215422345     -88.0206641      0.999487854      1.23427022       
2.494            0.999496247      1.22088726       0.0213086871     -88.034993       0.0213086871     -88.034993       0.999496247      1.22088726       
2.516            0.999504405      1.20771605       0.0210788344     -88.0489831      0.0210788344     -88.0489831      0.999504405      1.20771605       
2.538            0.999512336      1.19475109       0.0208525806     -88.0626405      0.0208525806     -88.0626405      0.999512336      1.19475109       
2.56             0.999520047      1.18198707       0.0206298329     -88.0759711      0.0206298329     -88.0759711      0.999520047      1.18198707       
2.582            0.999527546      1.16941886       0.020410502      -88.0889804      0.020410502      -88.0889804      0.999527546      1.16941886       
2.604            0.999534838      1.15704151       0.0201945015     -88.1016738      0.0201945015     -88.1016738      0.999534838      1.15704151       
2.626            0.999541931      1.14485023       0.0199817478     -88.1140564      0.0199817478     -88.1140564      0.999541931      1.14485023       
2.648            0.999548831      1.13284039       0.0197721602     -88.1261331      0.0197721602     -88.1261331      0.999548831      1.13284039       
2.67             0.999555544      1.12100752       0.0195656606     -88.1379087      0.0195656606     -88.1379087      0.999555544      1.12100752       
2.692            0.999562075      1.10934728       0.0193621733     -88.1493875      0.0193621733     -88.1493875      0.999562075      1.10934728       
2.714            0.999568431      1.09785549       0.0191616254     -88.160574       0.0191616254     -88.160574       0.999568431      1.09785549       
2.736            0.999574616      1.08652807       0.018963946      -88.1714722      0.018963946      -88.1714722      0.999574616      1.08652807       
2.758            0.999580635      1.07536112       0.0187690666     -88.182086       0.0187690666     -88.182086       0.999580635      1.07536112       
2.78             0.999586494      1.06435083       0.0185769208     -88.1924193      0.0185769208     -88.1924193      0.999586494      1.06435083       
2.802            0.999592196      1.0534935        0.0183874445     -88.2024755      0.0183874445     -88.2024755      0.999592196      1.0534935        
2.824            0.999597748      1.04278558       0.0182005753     -88.212258       0.0182005753     -88.212258       0.999597748      1.04278558       
