! Coilcraft 1812LS-474 Chip Inductor				
! 8 August 2002			
# MHZ S MA R 50
!Freq             MagS11           AngS11           MagS21           AngS21           MagS12           AngS12           MagS22           AngS22
0.03             0.580049674      35.825962        0.629166596      -32.6585066      0.629166596      -32.6585066      0.580049674      35.825962        
0.042            0.691952132      32.0414224       0.552911267      -41.6014721      0.552911267      -41.6014721      0.691952132      32.0414224       
0.054            0.769871429      28.1808363       0.48526079       -48.5245129      0.48526079       -48.5245129      0.769871429      28.1808363       
0.066            0.82392103       24.8292894       0.428165253      -53.905564       0.428165253      -53.905564       0.82392103       24.8292894       
0.078            0.862001424      22.0375602       0.380792018      -58.1437742      0.380792018      -58.1437742      0.862001424      22.0375602       
0.09             0.889435836      19.7298298       0.341545378      -61.5367965      0.341545378      -61.5367965      0.889435836      19.7298298       
0.102            0.909671214      17.8140878       0.308851288      -64.2984491      0.308851288      -64.2984491      0.909671214      17.8140878       
0.114            0.924936157      16.2101064       0.28138453       -66.5813823      0.28138453       -66.5813823      0.924936157      16.2101064       
0.126            0.936691473      14.8538627       0.258091344      -68.4953905      0.258091344      -68.4953905      0.936691473      14.8538627       
0.138            0.945913666      13.6956972       0.238150878      -70.1204934      0.238150878      -70.1204934      0.945913666      13.6956972       
0.15             0.953269553      12.6973329       0.220926627      -71.5159101      0.220926627      -71.5159101      0.953269553      12.6973329       
0.162            0.959224197      11.8291746       0.205923524      -72.7261572      0.205923524      -72.7261572      0.959224197      11.8291746       
0.174            0.96410853       11.0681715       0.192753923      -73.7852102      0.192753923      -73.7852102      0.96410853       11.0681715       
0.186            0.968162482      10.3962059       0.181111723      -74.7193731      0.181111723      -74.7193731      0.968162482      10.3962059       
0.198            0.971563037      9.79889833       0.170753023      -75.5492836      0.170753023      -75.5492836      0.971563037      9.79889833       
0.21             0.97444283       9.26472484       0.16148169       -76.2913338      0.16148169       -76.2913338      0.97444283       9.26472484       
0.222            0.976902718      8.78436231       0.153138594      -76.9586927      0.153138594      -76.9586927      0.976902718      8.78436231       
0.234            0.979020416      8.35019999       0.145593507      -77.56205        0.145593507      -77.56205        0.979020416      8.35019999       
0.246            0.980856548      7.95597197       0.138738986      -78.1101671      0.138738986      -78.1101671      0.980856548      7.95597197       
0.258            0.982458936      7.5964783        0.132485703      -78.6102885      0.132485703      -78.6102885      0.982458936      7.5964783        
0.27             0.983865695      7.26737121       0.126758848      -79.0684536      0.126758848      -79.0684536      0.983865695      7.26737121       
0.282            0.985107496      6.96499002       0.121495348      -79.4897349      0.121495348      -79.4897349      0.985107496      6.96499002       
0.294            0.986209235      6.68623235       0.116641683      -79.8784232      0.116641683      -79.8784232      0.986209235      6.68623235       
0.306            0.987191289      6.42845284       0.112152168      -80.238171       0.112152168      -80.238171       0.987191289      6.42845284       
0.318            0.988070462      6.18938294       0.107987589      -80.5721066      0.107987589      -80.5721066      0.988070462      6.18938294       
0.33             0.988860709      5.96706679       0.104114109      -80.8829246      0.104114109      -80.8829246      0.988860709      5.96706679       
0.342            0.989573694      5.75980959       0.100502385      -81.1729575      0.100502385      -81.1729575      0.989573694      5.75980959       
0.354            0.990219231      5.56613587       0.0971268534     -81.444235       0.0971268534     -81.444235       0.990219231      5.56613587       
0.366            0.99080562       5.38475538       0.0939651485     -81.698531       0.0939651485     -81.698531       0.99080562       5.38475538       
0.378            0.991339922      5.21453511       0.0909976183     -81.9374027      0.0909976183     -81.9374027      0.991339922      5.21453511       
0.39             0.99182817       5.05447625       0.08820693       -82.1622223      0.08820693       -82.1622223      0.99182817       5.05447625       
0.402            0.992275549      4.90369497       0.08557774       -82.3742042      0.08557774       -82.3742042      0.992275549      4.90369497       
0.414            0.992686532      4.76140646       0.083096418      -82.5744264      0.083096418      -82.5744264      0.992686532      4.76140646       
0.426            0.993064993      4.62691153       0.0807508163     -82.7638494      0.0807508163     -82.7638494      0.993064993      4.62691153       
0.438            0.993414305      4.49958528       0.0785300746     -82.9433316      0.0785300746     -82.9433316      0.993414305      4.49958528       
0.45             0.993737412      4.37886756       0.0764244548     -83.1136426      0.0764244548     -83.1136426      0.993737412      4.37886756       
0.462            0.994036893      4.26425482       0.0744252004     -83.2754743      0.0744252004     -83.2754743      0.994036893      4.26425482       
0.474            0.994315019      4.15529319       0.0725244169     -83.4294507      0.0725244169     -83.4294507      0.994315019      4.15529319       
0.486            0.99457379       4.0515725        0.070714968      -83.5761354      0.070714968      -83.5761354      0.99457379       4.0515725        
0.498            0.994814979      3.95272119       0.0689903881     -83.7160395      0.0689903881     -83.7160395      0.994814979      3.95272119       
0.51             0.995040158      3.85840187       0.0673448049     -83.849627       0.0673448049     -83.849627       0.995040158      3.85840187       
0.522            0.995250728      3.76830749       0.0657728735     -83.9773204      0.0657728735     -83.9773204      0.995250728      3.76830749       
0.534            0.995447938      3.68215806       0.0642697187     -84.0995051      0.0642697187     -84.0995051      0.995447938      3.68215806       
0.546            0.995632906      3.59969769       0.0628308846     -84.2165333      0.0628308846     -84.2165333      0.995632906      3.59969769       
0.558            0.995806634      3.52069209       0.0614522907     -84.3287278      0.0614522907     -84.3287278      0.995806634      3.52069209       
0.57             0.995970025      3.44492634       0.0601301933     -84.4363847      0.0601301933     -84.4363847      0.995970025      3.44492634       
0.582            0.99612389       3.37220291       0.0588611517     -84.5397762      0.0588611517     -84.5397762      0.99612389       3.37220291       
0.594            0.996268965      3.30234          0.0576419981     -84.639153       0.0576419981     -84.639153       0.996268965      3.30234          
0.606            0.996405912      3.23516995       0.0564698111     -84.7347465      0.0564698111     -84.7347465      0.996405912      3.23516995       
0.618            0.996535333      3.17053791       0.0553418925     -84.8267702      0.0553418925     -84.8267702      0.996535333      3.17053791       
0.63             0.996657777      3.10830067       0.0542557462     -84.9154219      0.0542557462     -84.9154219      0.996657777      3.10830067       
0.642            0.996773741      3.04832556       0.0532090599     -85.0008848      0.0532090599     -85.0008848      0.996773741      3.04832556       
0.654            0.996883679      2.9904895        0.0521996883     -85.0833289      0.0521996883     -85.0833289      0.996883679      2.9904895        
0.666            0.996988005      2.93467818       0.0512256385     -85.1629123      0.0512256385     -85.1629123      0.996988005      2.93467818       
0.678            0.997087099      2.88078525       0.0502850568     -85.239782       0.0502850568     -85.239782       0.997087099      2.88078525       
0.69             0.997181308      2.82871169       0.0493762164     -85.3140749      0.0493762164     -85.3140749      0.997181308      2.82871169       
0.702            0.997270952      2.77836515       0.0484975073     -85.3859188      0.0484975073     -85.3859188      0.997270952      2.77836515       
0.714            0.997356323      2.72965941       0.0476474262     -85.4554331      0.0476474262     -85.4554331      0.997356323      2.72965941       
0.726            0.997437693      2.68251389       0.0468245679     -85.5227294      0.0468245679     -85.5227294      0.997437693      2.68251389       
0.738            0.997515308      2.63685321       0.0460276176     -85.587912       0.0460276176     -85.587912       0.997515308      2.63685321       
0.75             0.997589399      2.59260672       0.0452553437     -85.6510789      0.0452553437     -85.6510789      0.997589399      2.59260672       
0.762            0.997660178      2.54970822       0.0445065911     -85.7123218      0.0445065911     -85.7123218      0.997660178      2.54970822       
0.774            0.997727841      2.50809553       0.0437802756     -85.771727       0.0437802756     -85.771727       0.997727841      2.50809553       
0.786            0.99779257       2.46771026       0.0430753788     -85.8293754      0.0430753788     -85.8293754      0.99779257       2.46771026       
0.798            0.997854534      2.42849748       0.0423909425     -85.8853432      0.0423909425     -85.8853432      0.997854534      2.42849748       
0.81             0.997913889      2.39040549       0.0417260649     -85.9397022      0.0417260649     -85.9397022      0.997913889      2.39040549       
0.822            0.997970781      2.35338559       0.0410798963     -85.99252        0.0410798963     -85.99252        0.997970781      2.35338559       
0.834            0.998025346      2.31739184       0.0404516355     -86.0438603      0.0404516355     -86.0438603      0.998025346      2.31739184       
0.846            0.998077709      2.28238089       0.0398405264     -86.0937834      0.0398405264     -86.0937834      0.998077709      2.28238089       
0.858            0.998127988      2.24831181       0.0392458545     -86.1423462      0.0392458545     -86.1423462      0.998127988      2.24831181       
0.87             0.998176293      2.21514589       0.0386669448     -86.1896023      0.0386669448     -86.1896023      0.998176293      2.21514589       
0.882            0.998222726      2.1828465        0.0381031583     -86.2356027      0.0381031583     -86.2356027      0.998222726      2.1828465        
0.894            0.998267385      2.151379         0.0375538903     -86.2803956      0.0375538903     -86.2803956      0.998267385      2.151379         
0.906            0.998310357      2.12071054       0.0370185679     -86.3240266      0.0370185679     -86.3240266      0.998310357      2.12071054       
0.918            0.998351729      2.09080998       0.0364966476     -86.3665389      0.0364966476     -86.3665389      0.998351729      2.09080998       
0.93             0.998391578      2.06164777       0.0359876141     -86.4079737      0.0359876141     -86.4079737      0.998391578      2.06164777       
0.942            0.998429979      2.03319588       0.0354909779     -86.4483699      0.0354909779     -86.4483699      0.998429979      2.03319588       
0.954            0.998467001      2.00542765       0.0350062741     -86.4877645      0.0350062741     -86.4877645      0.998467001      2.00542765       
0.966            0.99850271       1.97831775       0.0345330606     -86.5261929      0.0345330606     -86.5261929      0.99850271       1.97831775       
0.978            0.998537167      1.95184208       0.034070917      -86.5636884      0.034070917      -86.5636884      0.998537167      1.95184208       
0.99             0.99857043       1.92597772       0.0336194431     -86.600283       0.0336194431     -86.600283       0.99857043       1.92597772       
1.002            0.998602554      1.9007028        0.0331782576     -86.636007       0.0331782576     -86.636007       0.998602554      1.9007028        
1.014            0.99863359       1.87599653       0.0327469973     -86.6708893      0.0327469973     -86.6708893      0.99863359       1.87599653       
1.026            0.998663587      1.85183904       0.0323253157     -86.7049576      0.0323253157     -86.7049576      0.998663587      1.85183904       
1.038            0.99869259       1.8282114        0.0319128825     -86.738238       0.0319128825     -86.738238       0.99869259       1.8282114        
1.05             0.998720644      1.80509554       0.0315093821     -86.7707557      0.0315093821     -86.7707557      0.998720644      1.80509554       
1.062            0.998747788      1.78247418       0.0311145133     -86.8025347      0.0311145133     -86.8025347      0.998747788      1.78247418       
1.074            0.998774062      1.76033084       0.0307279882     -86.8335979      0.0307279882     -86.8335979      0.998774062      1.76033084       
1.086            0.998799501      1.73864975       0.0303495315     -86.8639671      0.0303495315     -86.8639671      0.998799501      1.73864975       
1.098            0.998824142      1.7174158        0.02997888       -86.8936632      0.02997888       -86.8936632      0.998824142      1.7174158        
1.11             0.998848017      1.69661458       0.0296157816     -86.9227062      0.0296157816     -86.9227062      0.998848017      1.69661458       
1.122            0.998871157      1.67623225       0.0292599952     -86.9511154      0.0292599952     -86.9511154      0.998871157      1.67623225       
1.134            0.998893591      1.65625558       0.0289112896     -86.9789089      0.0289112896     -86.9789089      0.998893591      1.65625558       
1.146            0.998915349      1.63667187       0.0285694433     -87.0061044      0.0285694433     -87.0061044      0.998915349      1.63667187       
1.158            0.998936456      1.61746896       0.0282342442     -87.0327186      0.0282342442     -87.0327186      0.998936456      1.61746896       
1.17             0.998956938      1.59863518       0.0279054884     -87.0587677      0.0279054884     -87.0587677      0.998956938      1.59863518       
1.182            0.998976819      1.58015934       0.0275829806     -87.0842671      0.0275829806     -87.0842671      0.998976819      1.58015934       
1.194            0.998996122      1.56203068       0.0272665332     -87.1092316      0.0272665332     -87.1092316      0.998996122      1.56203068       
1.206            0.999014868      1.54423888       0.0269559659     -87.1336755      0.0269559659     -87.1336755      0.999014868      1.54423888       
1.218            0.99903308       1.52677402       0.0266511057     -87.1576123      0.0266511057     -87.1576123      0.99903308       1.52677402       
1.23             0.999050776      1.50962658       0.0263517861     -87.1810551      0.0263517861     -87.1810551      0.999050776      1.50962658       
1.242            0.999067976      1.49278737       0.0260578472     -87.2040166      0.0260578472     -87.2040166      0.999067976      1.49278737       
1.254            0.999084697      1.4762476        0.0257691351     -87.2265089      0.0257691351     -87.2265089      0.999084697      1.4762476        
1.266            0.999100957      1.45999876       0.0254855017     -87.2485434      0.0254855017     -87.2485434      0.999100957      1.45999876       
1.278            0.999116773      1.4440327        0.0252068044     -87.2701314      0.0252068044     -87.2701314      0.999116773      1.4440327        
1.29             0.999132159      1.42834155       0.0249329061     -87.2912835      0.0249329061     -87.2912835      0.999132159      1.42834155       
1.302            0.999147131      1.41291774       0.0246636744     -87.3120102      0.0246636744     -87.3120102      0.999147131      1.41291774       
1.314            0.999161703      1.39775396       0.0243989819     -87.3323213      0.0243989819     -87.3323213      0.999161703      1.39775396       
1.326            0.999175889      1.38284318       0.0241387059     -87.3522263      0.0241387059     -87.3522263      0.999175889      1.38284318       
1.338            0.999189702      1.36817862       0.0238827279     -87.3717344      0.0238827279     -87.3717344      0.999189702      1.36817862       
1.35             0.999203155      1.35375373       0.0236309337     -87.3908545      0.0236309337     -87.3908545      0.999203155      1.35375373       
1.362            0.99921626       1.33956219       0.0233832129     -87.409595       0.0233832129     -87.409595       0.99921626       1.33956219       
1.374            0.999229027      1.32559791       0.0231394594     -87.4279642      0.0231394594     -87.4279642      0.999229027      1.32559791       
1.386            0.999241469      1.31185501       0.0228995702     -87.4459699      0.0228995702     -87.4459699      0.999241469      1.31185501       
1.398            0.999253595      1.2983278        0.0226634463     -87.4636198      0.0226634463     -87.4636198      0.999253595      1.2983278        
1.41             0.999265417      1.28501079       0.0224309918     -87.480921       0.0224309918     -87.480921       0.999265417      1.28501079       
1.422            0.999276942      1.27189867       0.022202114      -87.4978807      0.022202114      -87.4978807      0.999276942      1.27189867       
1.434            0.999288182      1.25898632       0.0219767235     -87.5145057      0.0219767235     -87.5145057      0.999288182      1.25898632       
1.446            0.999299145      1.24626878       0.0217547337     -87.5308025      0.0217547337     -87.5308025      0.999299145      1.24626878       
1.458            0.999309839      1.23374125       0.0215360608     -87.5467773      0.0215360608     -87.5467773      0.999309839      1.23374125       
1.47             0.999320273      1.22139909       0.0213206238     -87.5624364      0.0213206238     -87.5624364      0.999320273      1.22139909       
1.482            0.999330454      1.2092378        0.0211083444     -87.5777854      0.0211083444     -87.5777854      0.999330454      1.2092378        
1.494            0.999340391      1.19725305       0.0208991467     -87.5928301      0.0208991467     -87.5928301      0.999340391      1.19725305       
1.506            0.999350091      1.18544063       0.0206929573     -87.6075759      0.0206929573     -87.6075759      0.999350091      1.18544063       
1.518            0.99935956       1.17379645       0.0204897049     -87.622028       0.0204897049     -87.622028       0.99935956       1.17379645       
1.53             0.999368805      1.16231657       0.0202893206     -87.6361915      0.0202893206     -87.6361915      0.999368805      1.16231657       
1.542            0.999377834      1.15099717       0.0200917378     -87.6500712      0.0200917378     -87.6500712      0.999377834      1.15099717       
1.554            0.999386652      1.13983453       0.0198968916     -87.6636719      0.0198968916     -87.6636719      0.999386652      1.13983453       
