! Coilcraft 1812LS-184 Chip Inductor				
! 8 August 2002			
# MHZ S MA R 50
!Freq             MagS11           AngS11           MagS21           AngS21           MagS12           AngS12           MagS22           AngS22
0.03             0.309750708      46.456337        0.818026003      -15.9303649      0.818026003      -15.9303649      0.309750708      46.456337        
0.055            0.480801142      45.6254918       0.747447398      -27.373564       0.747447398      -27.373564       0.480801142      45.6254918       
0.08             0.612890907      40.7665985       0.668773296      -36.7565753      0.668773296      -36.7565753      0.612890907      40.7665985       
0.105            0.708247454      35.7996324       0.59392034       -44.2310338      0.59392034       -44.2310338      0.708247454      35.7996324       
0.13             0.775944076      31.4846814       0.527892315      -50.1460762      0.527892315      -50.1460762      0.775944076      31.4846814       
0.155            0.82429555       27.8900443       0.471551673      -54.8548065      0.471551673      -54.8548065      0.82429555       27.8900443       
0.18             0.859389296      24.9206441       0.424031805      -58.6471868      0.424031805      -58.6471868      0.859389296      24.9206441       
0.205            0.885365738      22.458819        0.383983466      -61.7434818      0.383983466      -61.7434818      0.885365738      22.458819        
0.23             0.904984011      20.4010351       0.350081461      -64.3064516      0.350081461      -64.3064516      0.904984011      20.4010351       
0.255            0.920087164      18.6642524       0.321186229      -66.4557598      0.321186229      -66.4557598      0.920087164      18.6642524       
0.28             0.931921863      17.1838935       0.296367865      -68.2798741      0.296367865      -68.2798741      0.931921863      17.1838935       
0.305            0.941345656      15.9101329       0.274883397      -69.8448846      0.274883397      -69.8448846      0.941345656      15.9101329       
0.33             0.94895924       14.8044466       0.256143112      -71.2007824      0.256143112      -71.2007824      0.94895924       14.8044466       
0.355            0.955191089      13.836849        0.239678639      -72.3858766      0.239678639      -72.3858766      0.955191089      13.836849        
0.38             0.960352192      12.9837969       0.225116339      -73.4299032      0.225116339      -73.4299032      0.960352192      12.9837969       
0.405            0.964671993      12.2266295       0.212156254      -74.356229       0.212156254      -74.356229       0.964671993      12.2266295       
0.43             0.968322373      11.5504128       0.200555837      -75.1834297      0.200555837      -75.1834297      0.968322373      11.5504128       
0.455            0.971433918      10.9430835       0.190117473      -75.9264332      0.190117473      -75.9264332      0.971433918      10.9430835       
0.48             0.974107146      10.3948089       0.18067894       -76.5973569      0.18067894       -76.5973569      0.974107146      10.3948089       
0.505            0.976420362      9.89750613       0.172106076      -77.2061293      0.172106076      -77.2061293      0.976420362      9.89750613       
0.53             0.97843525       9.4444774        0.164287142      -77.760956       0.164287142      -77.760956       0.97843525       9.4444774        
0.555            0.980200899      9.03013069       0.157128435      -78.2686733      0.157128435      -78.2686733      0.980200899      9.03013069       
0.58             0.98175675       8.64976427       0.150550872      -78.7350191      0.150550872      -78.7350191      0.98175675       8.64976427       
0.605            0.983134769      8.29939886       0.1444873        -79.164843       0.1444873        -79.164843       0.983134769      8.29939886       
0.63             0.984361079      7.9756458        0.138880369      -79.5622703      0.138880369      -79.5622703      0.984361079      7.9756458        
0.655            0.985457188      7.67560267       0.133680832      -79.9308309      0.133680832      -79.9308309      0.985457188      7.67560267       
0.68             0.986440932      7.39677006       0.128846187      -80.2735626      0.128846187      -80.2735626      0.986440932      7.39677006       
0.705            0.987327197      7.13698466       0.124339571      -80.593093       0.124339571      -80.593093       0.987327197      7.13698466       
0.73             0.988128486      6.89436511       0.120128873      -80.8917063      0.120128873      -80.8917063      0.988128486      6.89436511       
0.755            0.988855363      6.66726792       0.116185992      -81.1713973      0.116185992      -81.1713973      0.988855363      6.66726792       
0.78             0.989516799      6.45425135       0.112486246      -81.4339155      0.112486246      -81.4339155      0.989516799      6.45425135       
0.805            0.990120451      6.25404555       0.109007864      -81.6808015      0.109007864      -81.6808015      0.990120451      6.25404555       
0.83             0.990672889      6.06552789       0.105731579      -81.9134172      0.105731579      -81.9134172      0.990672889      6.06552789       
0.855            0.991179775      5.8877024        0.102640278      -82.1329707      0.102640278      -82.1329707      0.991179775      5.8877024        
0.88             0.991646006      5.71968243       0.0997187117     -82.3405377      0.0997187117     -82.3405377      0.991646006      5.71968243       
0.905            0.99207584       5.5606762        0.096953252      -82.5370786      0.096953252      -82.5370786      0.99207584       5.5606762        
0.93             0.992472989      5.4099745        0.0943316805     -82.7234539      0.0943316805     -82.7234539      0.992472989      5.4099745        
0.955            0.992840704      5.26694023       0.0918430136     -82.9004366      0.0918430136     -82.9004366      0.992840704      5.26694023       
0.98             0.993181839      5.13099953       0.0894773511     -83.0687231      0.0894773511     -83.0687231      0.993181839      5.13099953       
1.005            0.993498911      5.00163416       0.0872257466     -83.2289424      0.0872257466     -83.2289424      0.993498911      5.00163416       
1.03             0.993794145      4.87837494       0.0850800961     -83.3816641      0.0850800961     -83.3816641      0.993794145      4.87837494       
1.055            0.994069512      4.76079609       0.0830330413     -83.5274051      0.0830330413     -83.5274051      0.994069512      4.76079609       
1.08             0.994326767      4.64851039       0.0810778868     -83.6666357      0.0810778868     -83.6666357      0.994326767      4.64851039       
1.105            0.994567473      4.54116488       0.0792085269     -83.7997846      0.0792085269     -83.7997846      0.994567473      4.54116488       
1.13             0.99479303       4.43843719       0.0774193826     -83.9272434      0.0774193826     -83.9272434      0.99479303       4.43843719       
1.155            0.995004689      4.34003233       0.0757053463     -84.0493705      0.0757053463     -84.0493705      0.995004689      4.34003233       
1.18             0.995203576      4.24567978       0.0740617331     -84.1664949      0.0740617331     -84.1664949      0.995203576      4.24567978       
1.205            0.995390705      4.15513111       0.0724842384     -84.2789184      0.0724842384     -84.2789184      0.995390705      4.15513111       
1.23             0.995566991      4.06815769       0.0709689001     -84.3869191      0.0709689001     -84.3869191      0.995566991      4.06815769       
1.255            0.995733258      3.98454882       0.069512065      -84.4907533      0.069512065      -84.4907533      0.995733258      3.98454882       
1.28             0.995890258      3.90410999       0.06811036       -84.5906575      0.06811036       -84.5906575      0.995890258      3.90410999       
1.305            0.996038669      3.82666134       0.0667606653     -84.6868505      0.0667606653     -84.6868505      0.996038669      3.82666134       
1.33             0.996179111      3.75203637       0.0654600916     -84.7795351      0.0654600916     -84.7795351      0.996179111      3.75203637       
1.355            0.996312146      3.68008063       0.0642059589     -84.8688991      0.0642059589     -84.8688991      0.996312146      3.68008063       
1.38             0.996438289      3.61065075       0.062995778      -84.9551172      0.062995778      -84.9551172      0.996438289      3.61065075       
1.405            0.99655801       3.54361341       0.0618272341     -85.0383516      0.0618272341     -85.0383516      0.99655801       3.54361341       
1.43             0.996671739      3.47884447       0.0606981717     -85.1187534      0.0606981717     -85.1187534      0.996671739      3.47884447       
1.455            0.996779871      3.41622824       0.059606581      -85.1964636      0.059606581      -85.1964636      0.996779871      3.41622824       
1.48             0.996882769      3.35565674       0.058550586      -85.2716137      0.058550586      -85.2716137      0.996882769      3.35565674       
1.505            0.996980767      3.29702908       0.0575284337     -85.3443266      0.0575284337     -85.3443266      0.996980767      3.29702908       
1.53             0.99707417       3.24025087       0.056538484      -85.4147173      0.056538484      -85.4147173      0.99707417       3.24025087       
1.555            0.997163264      3.18523374       0.0555792008     -85.4828933      0.0555792008     -85.4828933      0.997163264      3.18523374       
1.58             0.997248308      3.13189486       0.0546491439     -85.5489557      0.0546491439     -85.5489557      0.997248308      3.13189486       
1.605            0.997329546      3.08015648       0.0537469617     -85.6129991      0.0537469617     -85.6129991      0.997329546      3.08015648       
1.63             0.997407201      3.02994558       0.0528713847     -85.6751124      0.0528713847     -85.6751124      0.997407201      3.02994558       
1.655            0.99748148       2.98119352       0.0520212189     -85.7353794      0.0520212189     -85.7353794      0.99748148       2.98119352       
1.68             0.997552577      2.9338357        0.0511953406     -85.7938786      0.0511953406     -85.7938786      0.997552577      2.9338357        
1.705            0.997620671      2.88781125       0.0503926914     -85.8506843      0.0503926914     -85.8506843      0.997620671      2.88781125       
1.73             0.997685927      2.84306283       0.0496122734     -85.9058662      0.0496122734     -85.9058662      0.997685927      2.84306283       
1.755            0.997748502      2.79953629       0.0488531447     -85.9594902      0.0488531447     -85.9594902      0.997748502      2.79953629       
1.78             0.997808538      2.75718054       0.048114416      -86.0116185      0.048114416      -86.0116185      0.997808538      2.75718054       
1.805            0.997866172      2.71594726       0.0473952467     -86.06231        0.0473952467     -86.06231        0.997866172      2.71594726       
1.83             0.997921529      2.67579077       0.0466948417     -86.1116203      0.0466948417     -86.1116203      0.997921529      2.67579077       
1.855            0.997974727      2.63666782       0.0460124482     -86.1596018      0.0460124482     -86.1596018      0.997974727      2.63666782       
1.88             0.998025875      2.59853745       0.0453473534     -86.2063044      0.0453473534     -86.2063044      0.998025875      2.59853745       
1.905            0.998075078      2.56136083       0.0446988811     -86.2517753      0.0446988811     -86.2517753      0.998075078      2.56136083       
1.93             0.99812243       2.52510113       0.0440663903     -86.2960592      0.0440663903     -86.2960592      0.99812243       2.52510113       
1.955            0.998168024      2.4897234        0.0434492722     -86.3391986      0.0434492722     -86.3391986      0.998168024      2.4897234        
1.98             0.998211944      2.45519441       0.0428469485     -86.3812337      0.0428469485     -86.3812337      0.998211944      2.45519441       
2.005            0.99825427       2.42148261       0.0422588697     -86.4222028      0.0422588697     -86.4222028      0.99825427       2.42148261       
2.03             0.998295077      2.38855797       0.0416845129     -86.4621423      0.0416845129     -86.4621423      0.998295077      2.38855797       
2.055            0.998334435      2.35639193       0.0411233806     -86.5010868      0.0411233806     -86.5010868      0.998334435      2.35639193       
2.08             0.998372413      2.32495728       0.0405749991     -86.5390691      0.0405749991     -86.5390691      0.998372413      2.32495728       
2.105            0.998409071      2.29422811       0.0400389168     -86.5761206      0.0400389168     -86.5761206      0.998409071      2.29422811       
2.13             0.99844447       2.2641797        0.0395147033     -86.6122712      0.0395147033     -86.6122712      0.99844447       2.2641797        
2.155            0.998478666      2.23478847       0.0390019481     -86.6475492      0.0390019481     -86.6475492      0.998478666      2.23478847       
2.18             0.99851171       2.20603194       0.0385002591     -86.6819818      0.0385002591     -86.6819818      0.99851171       2.20603194       
2.205            0.998543654      2.17788863       0.0380092623     -86.7155947      0.0380092623     -86.7155947      0.998543654      2.17788863       
2.23             0.998574543      2.15033799       0.0375285999     -86.7484128      0.0375285999     -86.7484128      0.998574543      2.15033799       
2.255            0.998604423      2.12336043       0.0370579302     -86.7804594      0.0370579302     -86.7804594      0.998604423      2.12336043       
2.28             0.998633336      2.09693717       0.0365969262     -86.8117572      0.0365969262     -86.8117572      0.998633336      2.09693717       
2.305            0.998661322      2.07105026       0.0361452752     -86.8423275      0.0361452752     -86.8423275      0.998661322      2.07105026       
2.33             0.998688419      2.04568251       0.0357026775     -86.8721909      0.0357026775     -86.8721909      0.998688419      2.04568251       
2.355            0.998714663      2.02081746       0.0352688463     -86.901367       0.0352688463     -86.901367       0.998714663      2.02081746       
2.38             0.998740087      1.99643933       0.0348435069     -86.9298746      0.0348435069     -86.9298746      0.998740087      1.99643933       
2.405            0.998764725      1.97253302       0.0344263955     -86.9577317      0.0344263955     -86.9577317      0.998764725      1.97253302       
2.43             0.998788608      1.949084         0.0340172596     -86.9849554      0.0340172596     -86.9849554      0.998788608      1.949084         
2.455            0.998811763      1.92607838       0.0336158566     -87.0115621      0.0336158566     -87.0115621      0.998811763      1.92607838       
2.48             0.99883422       1.90350279       0.0332219537     -87.0375677      0.0332219537     -87.0375677      0.99883422       1.90350279       
2.505            0.998856005      1.88134441       0.0328353275     -87.0629871      0.0328353275     -87.0629871      0.998856005      1.88134441       
2.53             0.998877143      1.85959093       0.0324557631     -87.0878349      0.0324557631     -87.0878349      0.998877143      1.85959093       
2.555            0.998897658      1.83823049       0.0320830543     -87.1121248      0.0320830543     -87.1121248      0.998897658      1.83823049       
2.58             0.998917573      1.81725172       0.0317170025     -87.1358703      0.0317170025     -87.1358703      0.998917573      1.81725172       
2.605            0.99893691       1.79664366       0.0313574169     -87.1590838      0.0313574169     -87.1590838      0.99893691       1.79664366       
2.63             0.99895569       1.77639579       0.0310041139     -87.1817778      0.0310041139     -87.1817778      0.99895569       1.77639579       
2.655            0.998973932      1.75649797       0.0306569168     -87.2039638      0.0306569168     -87.2039638      0.998973932      1.75649797       
2.68             0.998991655      1.73694044       0.0303156554     -87.2256531      0.0303156554     -87.2256531      0.998991655      1.73694044       
2.705            0.999008879      1.71771378       0.0299801658     -87.2468564      0.0299801658     -87.2468564      0.999008879      1.71771378       
2.73             0.999025619      1.69880895       0.02965029       -87.267584       0.02965029       -87.267584       0.999025619      1.69880895       
2.755            0.999041893      1.68021721       0.0293258758     -87.2878459      0.0293258758     -87.2878459      0.999041893      1.68021721       
2.78             0.999057716      1.66193015       0.0290067765     -87.3076516      0.0290067765     -87.3076516      0.999057716      1.66193015       
2.805            0.999073103      1.64393963       0.0286928503     -87.3270101      0.0286928503     -87.3270101      0.999073103      1.64393963       
2.83             0.99908807       1.62623784       0.0283839609     -87.3459302      0.0283839609     -87.3459302      0.99908807       1.62623784       
2.855            0.999102629      1.6088172        0.0280799763     -87.3644203      0.0280799763     -87.3644203      0.999102629      1.6088172        
2.88             0.999116795      1.59167043       0.0277807693     -87.3824885      0.0277807693     -87.3824885      0.999116795      1.59167043       
2.905            0.999130579      1.57479046       0.0274862169     -87.4001424      0.0274862169     -87.4001424      0.999130579      1.57479046       
2.93             0.999143995      1.5581705        0.0271962005     -87.4173895      0.0271962005     -87.4173895      0.999143995      1.5581705        
2.955            0.999157054      1.54180396       0.0269106053     -87.4342369      0.0269106053     -87.4342369      0.999157054      1.54180396       
2.98             0.999169766      1.52568448       0.0266293205     -87.4506915      0.0266293205     -87.4506915      0.999169766      1.52568448       
3.005            0.999182144      1.50980592       0.0263522388     -87.4667596      0.0263522388     -87.4667596      0.999182144      1.50980592       
3.03             0.999194196      1.49416233       0.0260792565     -87.4824478      0.0260792565     -87.4824478      0.999194196      1.49416233       
3.055            0.999205934      1.47874796       0.0258102734     -87.4977618      0.0258102734     -87.4977618      0.999205934      1.47874796       
3.08             0.999217367      1.46355724       0.0255451924     -87.5127075      0.0255451924     -87.5127075      0.999217367      1.46355724       
3.105            0.999228503      1.44858478       0.0252839194     -87.5272905      0.0252839194     -87.5272905      0.999228503      1.44858478       
3.13             0.999239352      1.43382537       0.0250263637     -87.541516       0.0250263637     -87.541516       0.999239352      1.43382537       
3.155            0.999249923      1.41927396       0.0247724371     -87.555389       0.0247724371     -87.555389       0.999249923      1.41927396       
3.18             0.999260222      1.40492566       0.0245220542     -87.5689145      0.0245220542     -87.5689145      0.999260222      1.40492566       
3.205            0.999270259      1.39077573       0.0242751325     -87.582097       0.0242751325     -87.582097       0.999270259      1.39077573       
