! Coilcraft 1812LS-105 Chip Inductor				
! 8 August 2002			
# MHZ S MA R 50
!Freq             MagS11           AngS11           MagS21           AngS21           MagS12           AngS12           MagS22           AngS22
0.03             0.748572647      25.3270721       0.455104972      -44.7194361      0.455104972      -44.7194361      0.748572647      25.3270721       
0.035            0.790991516      23.4867993       0.418029667      -48.9475898      0.418029667      -48.9475898      0.790991516      23.4867993       
0.04             0.824547535      21.7501556       0.384948103      -52.5353288      0.384948103      -52.5353288      0.824547535      21.7501556       
0.045            0.851232873      20.1648152       0.35564657       -55.5970786      0.35564657       -55.5970786      0.851232873      20.1648152       
0.05             0.872626268      18.7392264       0.329755875      -58.2277184      0.329755875      -58.2277184      0.872626268      18.7392264       
0.055            0.889937975      17.4651929       0.306866264      -60.5041887      0.306866264      -60.5041887      0.889937975      17.4651929       
0.06             0.904083647      16.3283334       0.286583104      -62.4882864      0.286583104      -62.4882864      0.904083647      16.3283334       
0.065            0.915754147      15.3128527       0.268550184      -64.2295281      0.268550184      -64.2295281      0.915754147      15.3128527       
0.07             0.925472276      14.403619        0.252456505      -65.7676643      0.252456505      -65.7676643      0.925472276      14.403619        
0.075            0.933636061      13.5869691       0.238035295      -67.1347429      0.238035295      -67.1347429      0.933636061      13.5869691       
0.08             0.940550889      12.8509201       0.225059759      -68.3567492      0.225059759      -68.3567492      0.940550889      12.8509201       
0.085            0.946453079      12.1851189       0.213337839      -69.4548869      0.213337839      -69.4548869      0.946453079      12.1851189       
0.09             0.951527122      11.5806847       0.202707011      -70.4465745      0.202707011      -70.4465745      0.951527122      11.5806847       
0.095            0.955918329      11.0300217       0.193029584      -71.3462177      0.193029584      -71.3462177      0.955918329      11.0300217       
0.1              0.959742139      10.5266349       0.184188627      -72.1658096      0.184188627      -72.1658096      0.959742139      10.5266349       
0.105            0.963091028      10.0649629       0.176084531      -72.9153994      0.176084531      -72.9153994      0.963091028      10.0649629       
0.11             0.966039672      9.64023304       0.168632135      -73.6034597      0.168632135      -73.6034597      0.966039672      9.64023304       
0.115            0.968648831      9.24833685       0.161758357      -74.2371766      0.161758357      -74.2371766      0.968648831      9.24833685       
0.12             0.970968299      8.88572658       0.155400232      -74.822679       0.155400232      -74.822679       0.970968299      8.88572658       
0.125            0.973039166      8.54932776       0.149503298      -75.3652225      0.149503298      -75.3652225      0.973039166      8.54932776       
0.13             0.974895554      8.2364667        0.144020265      -75.8693367      0.144020265      -75.8693367      0.974895554      8.2364667        
0.135            0.976565979      7.94480992       0.13890991       -76.3389445      0.13890991       -76.3389445      0.976565979      7.94480992       
0.14             0.978074403      7.67231373       0.134136168      -76.7774584      0.134136168      -76.7774584      0.978074403      7.67231373       
0.145            0.979441077      7.41718206       0.129667372      -77.1878602      0.129667372      -77.1878602      0.979441077      7.41718206       
0.15             0.980683201      7.17783118       0.125475616      -77.5727657      0.125475616      -77.5727657      0.980683201      7.17783118       
0.155            0.981815455      6.95286002       0.121536231      -77.9344789      0.121536231      -77.9344789      0.981815455      6.95286002       
0.16             0.982850431      6.74102525       0.117827337      -78.2750361      0.117827337      -78.2750361      0.982850431      6.74102525       
0.165            0.983798971      6.54122014       0.114329466      -78.5962438      0.114329466      -78.5962438      0.983798971      6.54122014       
0.17             0.984670454      6.35245674       0.111025247      -78.8997095      0.111025247      -78.8997095      0.984670454      6.35245674       
0.175            0.985473023      6.17385059       0.107899135      -79.1868686      0.107899135      -79.1868686      0.985473023      6.17385059       
0.18             0.986213776      6.00460782       0.10493718       -79.4590063      0.10493718       -79.4590063      0.986213776      6.00460782       
0.185            0.986898921      5.84401398       0.102126833      -79.7172765      0.102126833      -79.7172765      0.986898921      5.84401398       
0.19             0.987533907      5.69142452       0.099456776      -79.9627184      0.099456776      -79.9627184      0.987533907      5.69142452       
0.195            0.988123533      5.54625656       0.0969167746     -80.1962703      0.0969167746     -80.1962703      0.988123533      5.54625656       
0.2              0.988672036      5.40798181       0.094497556      -80.418781       0.094497556      -80.418781       0.988672036      5.40798181       
0.205            0.989183171      5.27612037       0.0921906983     -80.6310207      0.0921906983     -80.6310207      0.989183171      5.27612037       
0.21             0.989660274      5.15023539       0.0899885367     -80.8336896      0.0899885367     -80.8336896      0.989660274      5.15023539       
0.215            0.990106315      5.02992842       0.0878840809     -81.0274256      0.0878840809     -81.0274256      0.990106315      5.02992842       
0.22             0.990523949      4.91483529       0.0858709436     -81.2128113      0.0858709436     -81.2128113      0.990523949      4.91483529       
0.225            0.99091555       4.80462259       0.0839432771     -81.3903794      0.0839432771     -81.3903794      0.99091555       4.80462259       
0.23             0.991283252      4.69898447       0.0820957184     -81.5606183      0.0820957184     -81.5606183      0.991283252      4.69898447       
0.235            0.991628972      4.5976399        0.0803233401     -81.7239766      0.0803233401     -81.7239766      0.991628972      4.5976399        
0.24             0.991954439      4.50033023       0.0786216077     -81.8808666      0.0786216077     -81.8808666      0.991954439      4.50033023       
0.245            0.992261215      4.406817         0.0769863413     -82.0316685      0.0769863413     -82.0316685      0.992261215      4.406817         
0.25             0.992550714      4.31688004       0.075413682      -82.1767329      0.075413682      -82.1767329      0.992550714      4.31688004       
0.255            0.992824218      4.23031578       0.0739000619     -82.3163842      0.0739000619     -82.3163842      0.992824218      4.23031578       
0.26             0.993082892      4.14693567       0.0724421772     -82.4509223      0.0724421772     -82.4509223      0.993082892      4.14693567       
0.265            0.993327797      4.0665649        0.0710369645     -82.5806254      0.0710369645     -82.5806254      0.993327797      4.0665649        
0.27             0.9935599        3.98904113       0.0696815796     -82.7057518      0.0696815796     -82.7057518      0.9935599        3.98904113       
0.275            0.993780083      3.91421341       0.0683733781     -82.8265416      0.0683733781     -82.8265416      0.993780083      3.91421341       
0.28             0.993989157      3.84194122       0.0671098984     -82.943218       0.0671098984     -82.943218       0.993989157      3.84194122       
0.285            0.99418786       3.7720936        0.0658888462     -83.0559895      0.0658888462     -83.0559895      0.99418786       3.7720936        
0.29             0.994376872      3.70454831       0.0647080808     -83.1650501      0.0647080808     -83.1650501      0.994376872      3.70454831       
0.295            0.994556819      3.63919117       0.0635656021     -83.2705814      0.0635656021     -83.2705814      0.994556819      3.63919117       
0.3              0.994728275      3.57591538       0.0624595399     -83.3727531      0.0624595399     -83.3727531      0.994728275      3.57591538       
0.305            0.99489177       3.51462094       0.0613881429     -83.471724       0.0613881429     -83.471724       0.99489177       3.51462094       
0.31             0.995047792      3.45521414       0.0603497702     -83.5676429      0.0603497702     -83.5676429      0.995047792      3.45521414       
0.315            0.995196795      3.39760704       0.0593428821     -83.6606497      0.0593428821     -83.6606497      0.995196795      3.39760704       
0.32             0.995339194      3.34171706       0.0583660328     -83.7508753      0.0583660328     -83.7508753      0.995339194      3.34171706       
0.325            0.995475378      3.2874666        0.0574178632     -83.8384432      0.0574178632     -83.8384432      0.995475378      3.2874666        
0.33             0.995605706      3.2347826        0.0564970948     -83.9234692      0.0564970948     -83.9234692      0.995605706      3.2347826        
0.335            0.995730511      3.18359631       0.0556025236     -84.0060627      0.0556025236     -84.0060627      0.995730511      3.18359631       
0.34             0.995850103      3.13384288       0.0547330148     -84.0863264      0.0547330148     -84.0863264      0.995850103      3.13384288       
0.345            0.995964769      3.08546118       0.053887498      -84.1643576      0.053887498      -84.1643576      0.995964769      3.08546118       
0.35             0.996074779      3.03839347       0.0530649628     -84.2402479      0.0530649628     -84.2402479      0.996074779      3.03839347       
0.355            0.996180383      2.99258519       0.0522644542     -84.3140839      0.0522644542     -84.3140839      0.996180383      2.99258519       
0.36             0.996281814      2.94798477       0.0514850696     -84.3859476      0.0514850696     -84.3859476      0.996281814      2.94798477       
0.365            0.996379291      2.9045434        0.0507259545     -84.4559162      0.0507259545     -84.4559162      0.996379291      2.9045434        
0.37             0.996473018      2.86221484       0.0499863002     -84.5240634      0.0499863002     -84.5240634      0.996473018      2.86221484       
0.375            0.996563185      2.82095529       0.0492653398     -84.5904586      0.0492653398     -84.5904586      0.996563185      2.82095529       
0.38             0.996649972      2.78072321       0.0485623463     -84.6551677      0.0485623463     -84.6551677      0.996649972      2.78072321       
0.385            0.996733546      2.74147916       0.0478766299     -84.7182534      0.0478766299     -84.7182534      0.996733546      2.74147916       
0.39             0.996814065      2.7031857        0.0472075354     -84.7797749      0.0472075354     -84.7797749      0.996814065      2.7031857        
0.395            0.996891676      2.66580725       0.0465544402     -84.8397889      0.0465544402     -84.8397889      0.996891676      2.66580725       
0.4              0.996966518      2.62930999       0.0459167525     -84.8983489      0.0459167525     -84.8983489      0.996966518      2.62930999       
0.405            0.997038722      2.59366172       0.045293909      -84.955506       0.045293909      -84.955506       0.997038722      2.59366172       
0.41             0.99710841       2.55883181       0.0446853736     -85.0113088      0.0446853736     -85.0113088      0.99710841       2.55883181       
0.415            0.997175699      2.52479106       0.0440906357     -85.0658036      0.0440906357     -85.0658036      0.997175699      2.52479106       
0.42             0.997240698      2.49151165       0.0435092086     -85.1190345      0.0435092086     -85.1190345      0.997240698      2.49151165       
0.425            0.997303509      2.45896705       0.042940628      -85.1710435      0.042940628      -85.1710435      0.997303509      2.45896705       
0.43             0.99736423       2.42713193       0.0423844511     -85.2218708      0.0423844511     -85.2218708      0.99736423       2.42713193       
0.435            0.997422953      2.39598214       0.0418402551     -85.2715546      0.0418402551     -85.2715546      0.997422953      2.39598214       
0.44             0.997479764      2.36549459       0.0413076362     -85.3201315      0.0413076362     -85.3201315      0.997479764      2.36549459       
0.445            0.997534745      2.3356472        0.0407862084     -85.3676364      0.0407862084     -85.3676364      0.997534745      2.3356472        
0.45             0.997587975      2.30641889       0.0402756027     -85.4141028      0.0402756027     -85.4141028      0.997587975      2.30641889       
0.455            0.997639526      2.27778948       0.0397754662     -85.4595624      0.0397754662     -85.4595624      0.997639526      2.27778948       
0.46             0.997689468      2.24973963       0.0392854609     -85.504046       0.0392854609     -85.504046       0.997689468      2.24973963       
0.465            0.997737868      2.22225087       0.0388052633     -85.5475826      0.0388052633     -85.5475826      0.997737868      2.22225087       
0.47             0.997784788      2.19530547       0.0383345637     -85.5902003      0.0383345637     -85.5902003      0.997784788      2.19530547       
0.475            0.997830287      2.16888645       0.0378730649     -85.6319258      0.0378730649     -85.6319258      0.997830287      2.16888645       
0.48             0.997874423      2.14297753       0.0374204822     -85.672785       0.0374204822     -85.672785       0.997874423      2.14297753       
0.485            0.997917248      2.11756309       0.0369765425     -85.7128023      0.0369765425     -85.7128023      0.997917248      2.11756309       
0.49             0.997958814      2.09262813       0.0365409836     -85.7520014      0.0365409836     -85.7520014      0.997958814      2.09262813       
0.495            0.99799917       2.06815827       0.0361135538     -85.7904049      0.0361135538     -85.7904049      0.99799917       2.06815827       
0.5              0.998038361      2.04413968       0.0356940115     -85.8280347      0.0356940115     -85.8280347      0.998038361      2.04413968       
0.505            0.998076431      2.02055909       0.0352821243     -85.8649115      0.0352821243     -85.8649115      0.998076431      2.02055909       
0.51             0.998113423      1.99740373       0.0348776692     -85.9010554      0.0348776692     -85.9010554      0.998113423      1.99740373       
0.515            0.998149376      1.97466132       0.0344804314     -85.9364856      0.0344804314     -85.9364856      0.998149376      1.97466132       
0.52             0.998184329      1.95232006       0.0340902045     -85.9712207      0.0340902045     -85.9712207      0.998184329      1.95232006       
0.525            0.998218318      1.93036858       0.0337067898     -86.0052784      0.0337067898     -86.0052784      0.998218318      1.93036858       
0.53             0.998251377      1.90879595       0.033329996      -86.0386758      0.033329996      -86.0386758      0.998251377      1.90879595       
0.535            0.998283539      1.88759163       0.032959639      -86.0714294      0.032959639      -86.0714294      0.998283539      1.88759163       
0.54             0.998314837      1.86674548       0.0325955414     -86.103555       0.0325955414     -86.103555       0.998314837      1.86674548       
0.545            0.998345301      1.84624771       0.0322375321     -86.1350678      0.0322375321     -86.1350678      0.998345301      1.84624771       
0.55             0.998374959      1.82608891       0.0318854465     -86.1659824      0.0318854465     -86.1659824      0.998374959      1.82608891       
0.555            0.998403838      1.80625997       0.0315391255     -86.1963129      0.0315391255     -86.1963129      0.998403838      1.80625997       
0.56             0.998431967      1.78675214       0.0311984159     -86.226073       0.0311984159     -86.226073       0.998431967      1.78675214       
0.565            0.998459369      1.76755695       0.0308631697     -86.2552757      0.0308631697     -86.2552757      0.998459369      1.76755695       
0.57             0.998486069      1.74866625       0.0305332443     -86.2839336      0.0305332443     -86.2839336      0.998486069      1.74866625       
0.575            0.99851209       1.73007213       0.0302085018     -86.3120588      0.0302085018     -86.3120588      0.99851209       1.73007213       
0.58             0.998537455      1.71176699       0.0298888089     -86.339663       0.0298888089     -86.339663       0.998537455      1.71176699       
0.585            0.998562185      1.69374347       0.0295740372     -86.3667576      0.0295740372     -86.3667576      0.998562185      1.69374347       
0.59             0.9985863        1.67599446       0.0292640624     -86.3933533      0.0292640624     -86.3933533      0.9985863        1.67599446       
0.595            0.99860982       1.65851309       0.0289587642     -86.4194608      0.0289587642     -86.4194608      0.99860982       1.65851309       
0.6              0.998632763      1.64129271       0.0286580266     -86.4450899      0.0286580266     -86.4450899      0.998632763      1.64129271       
0.605            0.998655149      1.6243269        0.0283617372     -86.4702506      0.0283617372     -86.4702506      0.998655149      1.6243269        
0.61             0.998676993      1.60760944       0.0280697872     -86.4949522      0.0280697872     -86.4949522      0.998676993      1.60760944       
0.615            0.998698314      1.5911343        0.0277820715     -86.5192038      0.0277820715     -86.5192038      0.998698314      1.5911343        
0.62             0.998719127      1.57489567       0.0274984883     -86.5430141      0.0274984883     -86.5430141      0.998719127      1.57489567       
0.625            0.998739447      1.55888791       0.027218939      -86.5663916      0.027218939      -86.5663916      0.998739447      1.55888791       
0.63             0.998759289      1.54310554       0.026943328      -86.5893444      0.026943328      -86.5893444      0.998759289      1.54310554       
0.635            0.998778667      1.52754329       0.026671563      -86.6118803      0.026671563      -86.6118803      0.998778667      1.52754329       
0.64             0.998797596      1.51219602       0.0264035543     -86.634007       0.0264035543     -86.634007       0.998797596      1.51219602       
0.645            0.998816088      1.49705876       0.026139215      -86.6557317      0.026139215      -86.6557317      0.998816088      1.49705876       
0.65             0.998834156      1.4821267        0.0258784609     -86.6770616      0.0258784609     -86.6770616      0.998834156      1.4821267        
0.655            0.998851813      1.46739516       0.0256212105     -86.6980033      0.0256212105     -86.6980033      0.998851813      1.46739516       
0.66             0.998869069      1.45285961       0.0253673843     -86.7185636      0.0253673843     -86.7185636      0.998869069      1.45285961       
0.665            0.998885937      1.43851566       0.0251169058     -86.7387487      0.0251169058     -86.7387487      0.998885937      1.43851566       
