! Coilcraft 1812LS-394 Chip Inductor				
! 8 August 2002			
# MHZ S MA R 50
!Freq             MagS11           AngS11           MagS21           AngS21           MagS12           AngS12           MagS22           AngS22
0.03             0.524286026      37.7269659       0.667474971      -28.7267313      0.667474971      -28.7267313      0.524286026      37.7269659       
0.045            0.659144229      33.9193278       0.583543994      -39.073679       0.583543994      -39.073679       0.659144229      33.9193278       
0.06             0.751634725      29.5802482       0.507556596      -46.9727196      0.507556596      -46.9727196      0.751634725      29.5802482       
0.075            0.814170683      25.7925759       0.443571624      -53.0011523      0.443571624      -53.0011523      0.814170683      25.7925759       
0.09             0.857086606      22.6736894       0.391029113      -57.6643119      0.391029113      -57.6643119      0.857086606      22.6736894       
0.105            0.887276915      20.1321557       0.348036696      -61.3376782      0.348036696      -61.3376782      0.887276915      20.1321557       
0.12             0.909090527      18.0508989       0.312653882      -64.2861218      0.312653882      -64.2861218      0.909090527      18.0508989       
0.135            0.925259438      16.3293255       0.283254801      -66.6947219      0.283254801      -66.6947219      0.925259438      16.3293255       
0.15             0.937526452      14.8888942       0.25856557       -68.6938419      0.25856557       -68.6938419      0.937526452      14.8888942       
0.165            0.947028555      13.6699659       0.237610339      -70.376697       0.237610339      -70.376697       0.947028555      13.6699659       
0.18             0.954525705      12.6274448       0.219644584      -71.8111103      0.219644584      -71.8111103      0.954525705      12.6274448       
0.195            0.960538095      11.7270469       0.204097807      -73.0473099      0.204097807      -73.0473099      0.960538095      11.7270469       
0.21             0.96542988       10.9424624       0.190529265      -74.1231293      0.190529265      -74.1231293      0.96542988       10.9424624       
0.225            0.96946132       10.2532783       0.178595095      -75.0675227      0.178595095      -75.0675227      0.96946132       10.2532783       
0.24             0.972821988      9.64347774       0.168024231      -75.9029757      0.168024231      -75.9029757      0.972821988      9.64347774       
0.255            0.975652379      9.10035316       0.158600781      -76.6471877      0.158600781      -76.6471877      0.975652379      9.10035316       
0.27             0.978058272      8.61371565       0.150151076      -77.3142625      0.150151076      -77.3142625      0.978058272      8.61371565       
0.285            0.980120462      8.17531396       0.142534087      -77.9155672      0.142534087      -77.9155672      0.980120462      8.17531396       
0.3              0.981901472      7.77840337       0.135634264      -78.4603576      0.135634264      -78.4603576      0.981901472      7.77840337       
0.315            0.983450275      7.41742256       0.129356141      -78.9562424      0.129356141      -78.9562424      0.983450275      7.41742256       
0.33             0.984805652      7.08774874       0.123620224      -79.4095308      0.123620224      -79.4095308      0.984805652      7.08774874       
0.345            0.985998626      6.78551024       0.118359837      -79.8254969      0.118359837      -79.8254969      0.985998626      6.78551024       
0.36             0.987054247      6.50744169       0.113518672      -80.2085817      0.113518672      -80.2085817      0.987054247      6.50744169       
0.375            0.987992917      6.2507711        0.109048874      -80.562551       0.109048874      -80.562551       0.987992917      6.2507711        
0.39             0.988831385      6.0131309        0.104909529      -80.8906179      0.104909529      -80.8906179      0.988831385      6.0131309        
0.405            0.989583504      5.79248751       0.101065464      -81.1955402      0.101065464      -81.1955402      0.989583504      5.79248751       
0.42             0.99026081       5.58708489       0.0974862826     -81.4796984      0.0974862826     -81.4796984      0.99026081       5.58708489       
0.435            0.990872972      5.39539909       0.0941455873     -81.7451573      0.0941455873     -81.7451573      0.990872972      5.39539909       
0.45             0.991428145      5.21610147       0.0910203489     -81.9937166      0.0910203489     -81.9937166      0.991428145      5.21610147       
0.465            0.991933241      5.04802852       0.0880903897     -82.2269523      0.0880903897     -82.2269523      0.991933241      5.04802852       
0.48             0.992394153      4.89015715       0.0853379582     -82.4462499      0.0853379582     -82.4462499      0.992394153      4.89015715       
0.495            0.992815932      4.74158428       0.0827473779     -82.6528328      0.0827473779     -82.6528328      0.992815932      4.74158428       
0.51             0.993202922      4.60150981       0.0803047542     -82.8477847      0.0803047542     -82.8477847      0.993202922      4.60150981       
0.525            0.993558879      4.46922241       0.0779977299     -83.0320692      0.0779977299     -83.0320692      0.993558879      4.46922241       
0.54             0.993887066      4.34408762       0.0758152792     -83.2065462      0.0758152792     -83.2065462      0.993887066      4.34408762       
0.555            0.994190323      4.2255378        0.0737475343     -83.371985       0.0737475343     -83.371985       0.994190323      4.2255378        
0.57             0.994471136      4.11306356       0.0717856379     -83.5290764      0.0717856379     -83.5290764      0.994471136      4.11306356       
0.585            0.994731689      4.00620653       0.0699216174     -83.6784419      0.0699216174     -83.6784419      0.994731689      4.00620653       
0.6              0.994973903      3.90455314       0.0681482781     -83.8206428      0.0681482781     -83.8206428      0.994973903      3.90455314       
0.615            0.995199475      3.8077293        0.0664591107     -83.9561866      0.0664591107     -83.9561866      0.995199475      3.8077293        
0.63             0.995409913      3.71539582       0.0648482117     -84.0855341      0.0648482117     -84.0855341      0.995409913      3.71539582       
0.645            0.995606553      3.62724445       0.0633102152     -84.2091038      0.0633102152     -84.2091038      0.995606553      3.62724445       
0.66             0.995790587      3.54299442       0.0618402332     -84.3272774      0.0618402332     -84.3272774      0.995790587      3.54299442       
0.675            0.995963082      3.46238949       0.0604338033     -84.4404031      0.0604338033     -84.4404031      0.995963082      3.46238949       
0.69             0.996124992      3.38519529       0.0590868443     -84.5487997      0.0590868443     -84.5487997      0.996124992      3.38519529       
0.705            0.996277175      3.31119709       0.0577956156     -84.6527595      0.0577956156     -84.6527595      0.996277175      3.31119709       
0.72             0.996420402      3.24019774       0.0565566833     -84.7525506      0.0565566833     -84.7525506      0.996420402      3.24019774       
0.735            0.996555369      3.17201598       0.0553668889     -84.8484201      0.0553668889     -84.8484201      0.996555369      3.17201598       
0.75             0.996682706      3.10648478       0.0542233225     -84.9405954      0.0542233225     -84.9405954      0.996682706      3.10648478       
0.765            0.996802982      3.04345007       0.0531232991     -85.0292865      0.0531232991     -85.0292865      0.996802982      3.04345007       
0.78             0.996916717      2.98276945       0.052064337      -85.1146875      0.052064337      -85.1146875      0.996916717      2.98276945       
0.795            0.997024379      2.92431112       0.0510441392     -85.1969784      0.0510441392     -85.1969784      0.997024379      2.92431112       
0.81             0.997126398      2.86795293       0.0500605764     -85.2763257      0.0500605764     -85.2763257      0.997126398      2.86795293       
0.825            0.997223165      2.8135815        0.0491116722     -85.3528842      0.0491116722     -85.3528842      0.997223165      2.8135815        
0.84             0.997315038      2.76109143       0.0481955894     -85.4267978      0.0481955894     -85.4267978      0.997315038      2.76109143       
0.855            0.997402344      2.71038467       0.0473106183     -85.4982006      0.0473106183     -85.4982006      0.997402344      2.71038467       
0.87             0.997485383      2.66136983       0.0464551654     -85.5672173      0.0464551654     -85.5672173      0.997485383      2.66136983       
0.885            0.997564432      2.61396165       0.0456277443     -85.6339646      0.0456277443     -85.6339646      0.997564432      2.61396165       
0.9              0.997639744      2.5680805        0.0448269664     -85.6985513      0.0448269664     -85.6985513      0.997639744      2.5680805        
0.915            0.997711553      2.52365191       0.0440515331     -85.7610793      0.0440515331     -85.7610793      0.997711553      2.52365191       
0.93             0.997780073      2.48060618       0.0433002288     -85.8216439      0.0433002288     -85.8216439      0.997780073      2.48060618       
0.945            0.997845506      2.43887799       0.0425719142     -85.8803346      0.0425719142     -85.8803346      0.997845506      2.43887799       
0.96             0.997908033      2.39840605       0.0418655206     -85.9372352      0.0418655206     -85.9372352      0.997908033      2.39840605       
0.975            0.997967827      2.35913282       0.0411800443     -85.9924244      0.0411800443     -85.9924244      0.997967827      2.35913282       
0.99             0.998025044      2.32100422       0.0405145419     -86.0459764      0.0405145419     -86.0459764      0.998025044      2.32100422       
1.005            0.998079832      2.28396935       0.0398681258     -86.0979609      0.0398681258     -86.0979609      0.998079832      2.28396935       
1.02             0.998132327      2.24798031       0.0392399602     -86.1484434      0.0392399602     -86.1484434      0.998132327      2.24798031       
1.035            0.998182656      2.21299192       0.0386292572     -86.1974859      0.0386292572     -86.1974859      0.998182656      2.21299192       
1.05             0.998230935      2.1789616        0.0380352737     -86.2451466      0.0380352737     -86.2451466      0.998230935      2.1789616        
1.065            0.998277277      2.14584911       0.037457308      -86.2914806      0.037457308      -86.2914806      0.998277277      2.14584911       
1.08             0.998321782      2.11361646       0.0368946971     -86.3365401      0.0368946971     -86.3365401      0.998321782      2.11361646       
1.095            0.998364547      2.08222771       0.0363468141     -86.3803742      0.0363468141     -86.3803742      0.998364547      2.08222771       
1.11             0.998405662      2.05164885       0.0358130657     -86.4230295      0.0358130657     -86.4230295      0.998405662      2.05164885       
1.125            0.998445211      2.02184767       0.03529289       -86.4645501      0.03529289       -86.4645501      0.998445211      2.02184767       
1.14             0.998483271      1.99279366       0.0347857543     -86.5049777      0.0347857543     -86.5049777      0.998483271      1.99279366       
1.155            0.998519917      1.96445786       0.0342911537     -86.544352       0.0342911537     -86.544352       0.998519917      1.96445786       
1.17             0.998555217      1.93681281       0.0338086087     -86.5827106      0.0338086087     -86.5827106      0.998555217      1.93681281       
1.185            0.998589237      1.90983241       0.0333376642     -86.6200891      0.0333376642     -86.6200891      0.998589237      1.90983241       
1.2              0.998622038      1.88349186       0.0328778874     -86.6565215      0.0328778874     -86.6565215      0.998622038      1.88349186       
1.215            0.998653675      1.85776759       0.032428867      -86.6920399      0.032428867      -86.6920399      0.998653675      1.85776759       
1.23             0.998684205      1.83263717       0.0319902115     -86.7266749      0.0319902115     -86.7266749      0.998684205      1.83263717       
1.245            0.998713677      1.80807924       0.0315615482     -86.7604558      0.0315615482     -86.7604558      0.998713677      1.80807924       
1.26             0.998742139      1.78407345       0.031142522      -86.7934103      0.031142522      -86.7934103      0.998742139      1.78407345       
1.275            0.998769636      1.76060039       0.0307327944     -86.8255648      0.0307327944     -86.8255648      0.998769636      1.76060039       
1.29             0.998796211      1.73764158       0.0303320426     -86.8569444      0.0303320426     -86.8569444      0.998796211      1.73764158       
1.305            0.998821905      1.71517937       0.0299399586     -86.8875733      0.0299399586     -86.8875733      0.998821905      1.71517937       
1.32             0.998846755      1.69319688       0.0295562482     -86.9174742      0.0295562482     -86.9174742      0.998846755      1.69319688       
1.335            0.998870797      1.67167804       0.0291806305     -86.9466691      0.0291806305     -86.9466691      0.998870797      1.67167804       
1.35             0.998894066      1.65060744       0.0288128368     -86.9751789      0.0288128368     -86.9751789      0.998894066      1.65060744       
1.365            0.998916593      1.62997037       0.0284526104     -87.0030233      0.0284526104     -87.0030233      0.998916593      1.62997037       
1.38             0.99893841       1.60975276       0.0280997056     -87.0302216      0.0280997056     -87.0302216      0.99893841       1.60975276       
1.395            0.998959544      1.58994112       0.0277538871     -87.0567919      0.0277538871     -87.0567919      0.998959544      1.58994112       
1.41             0.998980025      1.57052255       0.0274149298     -87.0827515      0.0274149298     -87.0827515      0.998980025      1.57052255       
1.425            0.998999877      1.55148469       0.0270826178     -87.1081171      0.0270826178     -87.1081171      0.998999877      1.55148469       
1.44             0.999019125      1.53281568       0.0267567443     -87.1329047      0.0267567443     -87.1329047      0.999019125      1.53281568       
1.455            0.999037794      1.51450416       0.0264371109     -87.1571294      0.0264371109     -87.1571294      0.999037794      1.51450416       
1.47             0.999055905      1.49653922       0.0261235273     -87.1808059      0.0261235273     -87.1808059      0.999055905      1.49653922       
1.485            0.999073479      1.47891041       0.025815811      -87.2039482      0.025815811      -87.2039482      0.999073479      1.47891041       
1.5              0.999090538      1.46160767       0.0255137865     -87.2265695      0.0255137865     -87.2265695      0.999090538      1.46160767       
1.515            0.9991071        1.44462135       0.0252172853     -87.2486828      0.0252172853     -87.2486828      0.9991071        1.44462135       
1.53             0.999123184      1.42794217       0.0249261457     -87.2703002      0.0249261457     -87.2703002      0.999123184      1.42794217       
1.545            0.999138806      1.41156123       0.0246402119     -87.2914336      0.0246402119     -87.2914336      0.999138806      1.41156123       
1.56             0.999153985      1.39546994       0.0243593344     -87.3120943      0.0243593344     -87.3120943      0.999153985      1.39546994       
1.575            0.999168736      1.37966006       0.0240833691     -87.3322931      0.0240833691     -87.3322931      0.999168736      1.37966006       
1.59             0.999183074      1.36412366       0.0238121776     -87.3520404      0.0238121776     -87.3520404      0.999183074      1.36412366       
1.605            0.999197013      1.34885307       0.0235456263     -87.3713461      0.0235456263     -87.3713461      0.999197013      1.34885307       
1.62             0.999210568      1.33384096       0.0232835869     -87.3902198      0.0232835869     -87.3902198      0.999210568      1.33384096       
1.635            0.999223751      1.31908021       0.0230259355     -87.4086706      0.0230259355     -87.4086706      0.999223751      1.31908021       
1.65             0.999236576      1.30456401       0.0227725528     -87.4267074      0.0227725528     -87.4267074      0.999236576      1.30456401       
1.665            0.999249055      1.29028575       0.0225233239     -87.4443386      0.0225233239     -87.4443386      0.999249055      1.29028575       
1.68             0.999261199      1.27623909       0.0222781378     -87.4615722      0.0222781378     -87.4615722      0.999261199      1.27623909       
1.695            0.999273019      1.2624179        0.0220368875     -87.4784161      0.0220368875     -87.4784161      0.999273019      1.2624179        
1.71             0.999284526      1.24881625       0.0217994697     -87.4948777      0.0217994697     -87.4948777      0.999284526      1.24881625       
1.725            0.99929573       1.23542843       0.0215657848     -87.5109642      0.0215657848     -87.5109642      0.99929573       1.23542843       
1.74             0.999306641      1.22224894       0.0213357365     -87.5266824      0.0213357365     -87.5266824      0.999306641      1.22224894       
1.755            0.999317269      1.20927245       0.0211092318     -87.542039       0.0211092318     -87.542039       0.999317269      1.20927245       
1.77             0.999327621      1.1964938        0.0208861808     -87.5570402      0.0208861808     -87.5570402      0.999327621      1.1964938        
1.785            0.999337708      1.18390803       0.0206664968     -87.5716921      0.0206664968     -87.5716921      0.999337708      1.18390803       
1.8              0.999347537      1.17151032       0.0204500958     -87.5860005      0.0204500958     -87.5860005      0.999347537      1.17151032       
1.815            0.999357116      1.15929602       0.0202368967     -87.5999711      0.0202368967     -87.5999711      0.999357116      1.15929602       
1.83             0.999366453      1.14726064       0.0200268209     -87.6136091      0.0200268209     -87.6136091      0.999366453      1.14726064       
1.845            0.999375554      1.13539982       0.0198197924     -87.6269197      0.0198197924     -87.6269197      0.999375554      1.13539982       
1.86             0.999384428      1.12370936       0.0196157377     -87.6399079      0.0196157377     -87.6399079      0.999384428      1.12370936       
1.875            0.999393081      1.11218516       0.0194145857     -87.6525782      0.0194145857     -87.6525782      0.999393081      1.11218516       
1.89             0.99940152       1.10082329       0.0192162673     -87.6649353      0.0192162673     -87.6649353      0.99940152       1.10082329       
1.905            0.99940975       1.08961992       0.0190207159     -87.6769835      0.0190207159     -87.6769835      0.99940975       1.08961992       
1.92             0.999417777      1.07857134       0.0188278667     -87.6887268      0.0188278667     -87.6887268      0.999417777      1.07857134       
1.935            0.999425609      1.06767396       0.018637657      -87.7001692      0.018637657      -87.7001692      0.999425609      1.06767396       
