! Coilcraft 1812SMS-33N Midi Spring Air Core Inductor				
! 10 June 2003
# MHZ S MA R 50
!Freq             MagS11           AngS11           MagS21           AngS21           MagS12           AngS12           MagS22           AngS22
1                0.0030260758     40.360428        0.997696334      -0.122376899     0.997696334      -0.122376899     0.00302658634    40.3717496       
6                0.0120093755     78.2172008       0.997628916      -0.734233895     0.997628916      -0.734233895     0.0120140055     78.2215123       
11               0.0217279715     82.5746373       0.99746524       -1.34597307      0.99746524       -1.34597307      0.0217365702     82.5770513       
16               0.0315030168     83.8546505       0.997205435      -1.95749639      0.997205435      -1.95749639      0.0315155581     83.8563199       
21               0.0412876104     84.238174        0.996849708      -2.56870603      0.996849708      -2.56870603      0.0413040837     84.2394487       
26               0.0510687163     84.2405182       0.996398342      -3.17950452      0.996398342      -3.17950452      0.0510891141     84.2415488       
31               0.0608399979     84.0459285       0.995851694      -3.78979483      0.995851694      -3.78979483      0.0608643131     84.0467934       
36               0.0705971928     83.7366162       0.995210195      -4.39948047      0.995210195      -4.39948047      0.0706254178     83.7373611       
41               0.0803368648     83.3548118       0.994474353      -5.00846562      0.994474353      -5.00846562      0.0803689915     83.355466        
46               0.0900559714     82.9244521       0.993644744      -5.61665517      0.993644744      -5.61665517      0.0900919906     82.9250352       
51               0.0997516862     82.4601339       0.992722016      -6.22395489      0.992722016      -6.22395489      0.0997915879     82.4606598       
56               0.109421319      81.9712781       0.99170689       -6.83027149      0.99170689       -6.83027149      0.109465092      81.9717571       
61               0.119062274      81.4642487       0.99060015       -7.43551271      0.99060015       -7.43551271      0.119109907      81.4646884       
66               0.128672035      80.9435092       0.989402651      -8.0395874       0.989402651      -8.0395874       0.128723515      80.9439156       
71               0.138248148      80.412291        0.988115309      -8.64240565      0.988115309      -8.64240565      0.138303461      80.4126686       
76               0.14778822       79.8729975       0.986739105      -9.24387884      0.986739105      -9.24387884      0.147847352      79.8733503       
81               0.157289917      79.3274597       0.98527508       -9.84391973      0.98527508       -9.84391973      0.157352852      79.3277906       
86               0.16675096       78.7771016       0.983724332      -10.4424425      0.983724332      -10.4424425      0.166817681      78.7774133       
91               0.176169127      78.2230517       0.982088018      -11.039363       0.982088018      -11.039363       0.176239618      78.2233462       
96               0.185542254      77.6662193       0.980367345      -11.6345985      0.980367345      -11.6345985      0.185616496      77.6664984       
101              0.194868237      77.1073485       0.978563575      -12.228068       0.978563575      -12.228068       0.194946211      77.1076137       
106              0.204145028      76.5470563       0.976678018      -12.8196924      0.976678018      -12.8196924      0.204226715      76.547309        
111              0.213370644      75.9858613       0.974712028      -13.4093941      0.974712028      -13.4093941      0.213456022      75.9861025       
116              0.222543161      75.424204        0.972667006      -13.9970976      0.972667006      -13.9970976      0.222632209      75.4244348       
121              0.23166072       74.8624628       0.970544393      -14.5827291      0.970544393      -14.5827291      0.231753416      74.862684        
126              0.240721525      74.3009658       0.968345667      -15.166217       0.968345667      -15.166217       0.240817846      74.3011781       
131              0.249723846      73.7399997       0.966072343      -15.7474913      0.966072343      -15.7474913      0.249823769      73.7402039       
136              0.258666018      73.1798177       0.963725971      -16.3264844      0.963725971      -16.3264844      0.258769518      73.1800143       
141              0.267546445      72.6206443       0.961308127      -16.9031306      0.961308127      -16.9031306      0.267653497      72.6208339       
146              0.276363595      72.0626803       0.958820418      -17.4773663      0.958820418      -17.4773663      0.276474174      72.0628633       
151              0.285116007      71.5061061       0.956264476      -18.0491299      0.956264476      -18.0491299      0.285230087      71.506283        
156              0.293802285      70.9510848       0.953641952      -18.6183621      0.953641952      -18.6183621      0.293919839      70.9512559       
161              0.302421104      70.3977645       0.950954521      -19.1850057      0.950954521      -19.1850057      0.302542105      70.3979302       
166              0.310971205      69.8462799       0.948203871      -19.7490056      0.948203871      -19.7490056      0.311095626      69.8464407       
171              0.3194514        69.2967547       0.945391707      -20.310309       0.945391707      -20.310309       0.319579212      69.2969106       
176              0.327860566      68.7493018       0.942519745      -20.8688651      0.942519745      -20.8688651      0.327991741      68.7494533       
181              0.336197649      68.2040255       0.939589709      -21.4246255      0.939589709      -21.4246255      0.336332157      68.2041727       
186              0.344461662      67.6610217       0.936603333      -21.9775438      0.936603333      -21.9775438      0.344599475      67.6611648       
191              0.352651686      67.1203788       0.933562353      -22.5275758      0.933562353      -22.5275758      0.352792773      67.1205182       
196              0.360766866      66.5821788       0.930468508      -23.0746795      0.930468508      -23.0746795      0.360911197      66.5823146       
201              0.368806413      66.0464974       0.927323538      -23.6188151      0.927323538      -23.6188151      0.368953957      66.0466297       
206              0.376769602      65.5134047       0.924129177      -24.1599448      0.924129177      -24.1599448      0.37692033       65.5135338       
211              0.384655773      64.9829656       0.920887161      -24.698033       0.920887161      -24.698033       0.384809652      64.9830915       
216              0.392464326      64.4552401       0.917599214      -25.2330463      0.917599214      -25.2330463      0.392621326      64.4553631       
221              0.400194725      63.930284        0.914267055      -25.7649532      0.914267055      -25.7649532      0.400354814      63.9304041       
226              0.407846491      63.4081484       0.910892392      -26.2937244      0.910892392      -26.2937244      0.408009637      63.4082658       
231              0.415419206      62.888881        0.907476922      -26.8193326      0.907476922      -26.8193326      0.415585378      62.8889958       
236              0.422912509      62.3725254       0.904022327      -27.3417523      0.904022327      -27.3417523      0.423081675      62.3726376       
241              0.430326094      61.8591218       0.900530275      -27.8609601      0.900530275      -27.8609601      0.430498222      61.8592317       
246              0.437659712      61.3487073       0.897002419      -28.3769347      0.897002419      -28.3769347      0.43783477       61.3488149       
251              0.444913166      60.8413156       0.893440391      -28.8896565      0.893440391      -28.8896565      0.44509112       60.841421        
256              0.45208631       60.3369776       0.889845806      -29.3991077      0.889845806      -29.3991077      0.452267129      60.3370809       
261              0.45917905       59.8357212       0.886220258      -29.9052725      0.886220258      -29.9052725      0.459362701      59.8358224       
266              0.466191338      59.3375717       0.882565318      -30.4081368      0.882565318      -30.4081368      0.466377789      59.337671        
271              0.473123176      58.8425519       0.878882538      -30.9076881      0.878882538      -30.9076881      0.473312394      58.8426493       
276              0.47997461       58.3506821       0.875173442      -31.4039159      0.875173442      -31.4039159      0.480166563      58.3507776       
281              0.48674573       57.8619801       0.871439532      -31.8968111      0.871439532      -31.8968111      0.486940386      57.8620739       
286              0.493436669      57.3764617       0.867682285      -32.3863662      0.867682285      -32.3863662      0.493633996      57.3765538       
291              0.500047601      56.8941403       0.86390315       -32.8725756      0.86390315       -32.8725756      0.500247566      56.8942308       
296              0.506578737      56.4150275       0.860103551      -33.3554347      0.860103551      -33.3554347      0.506781307      56.4151164       
301              0.513030327      55.9391328       0.856284883      -33.8349409      0.856284883      -33.8349409      0.513235472      55.9392202       
306              0.519402658      55.4664639       0.852448515      -34.3110927      0.852448515      -34.3110927      0.519610344      55.4665497       
311              0.525696049      54.9970266       0.848595786      -34.7838902      0.848595786      -34.7838902      0.525906245      54.997111        
316              0.531910853      54.5308249       0.844728009      -35.2533346      0.844728009      -35.2533346      0.532123528      54.5309079       
321              0.538047455      54.0678615       0.840846464      -35.7194285      0.840846464      -35.7194285      0.538262577      54.0679431       
326              0.544106268      53.6081371       0.836952405      -36.182176       0.836952405      -36.182176       0.544323805      53.6082174       
331              0.550087733      53.1516512       0.833047055      -36.641582       0.833047055      -36.641582       0.550307655      53.1517303       
336              0.555992321      52.6984018       0.829131608      -37.097653       0.829131608      -37.097653       0.556214596      52.6984796       
341              0.561820524      52.2483854       0.825207228      -37.5503962      0.825207228      -37.5503962      0.562045122      52.248462        
346              0.567572861      51.8015972       0.821275051      -37.9998201      0.821275051      -37.9998201      0.56779975       51.8016727       
351              0.573249871      51.3580313       0.81733618       -38.4459343      0.81733618       -38.4459343      0.573479022      51.3581056       
356              0.578852115      50.9176805       0.81339169       -38.8887492      0.81339169       -38.8887492      0.579083497      50.9177537       
361              0.584380175      50.4805364       0.809442629      -39.3282764      0.809442629      -39.3282764      0.584613759      50.4806086       
366              0.589834649      50.0465897       0.805490011      -39.7645282      0.805490011      -39.7645282      0.590070405      50.0466608       
371              0.595216155      49.6158298       0.801534823      -40.1975178      0.801534823      -40.1975178      0.595454053      49.6158999       
376              0.600525324      49.1882454       0.797578025      -40.6272593      0.797578025      -40.6272593      0.600765335      49.1883145       
381              0.605762805      48.763824        0.793620544      -41.0537676      0.793620544      -41.0537676      0.6060049        48.7638921       
386              0.610929256      48.3425523       0.789663283      -41.4770583      0.789663283      -41.4770583      0.611173407      48.3426195       
391              0.616025352      47.9244164       0.785707113      -41.8971477      0.785707113      -41.8971477      0.61627153       47.9244827       
396              0.621051778      47.5094012       0.781752879      -42.3140528      0.781752879      -42.3140528      0.621299955      47.5094666       
401              0.626009228      47.0974911       0.777801398      -42.7277914      0.777801398      -42.7277914      0.626259376      47.0975556       
406              0.630898406      46.6886697       0.773853462      -43.1383816      0.773853462      -43.1383816      0.631150498      46.6887334       
411              0.635720026      46.2829201       0.769909832      -43.5458423      0.769909832      -43.5458423      0.635974033      46.2829829       
416              0.640474806      45.8802244       0.765971247      -43.9501928      0.765971247      -43.9501928      0.640730703      45.8802864       
421              0.645163475      45.4805645       0.762038417      -44.3514531      0.762038417      -44.3514531      0.645421234      45.4806257       
426              0.649786764      45.0839215       0.758112028      -44.7496436      0.758112028      -44.7496436      0.650046359      45.083982        
431              0.65434541       44.6902761       0.754192742      -45.1447849      0.754192742      -45.1447849      0.654606815      44.6903358       
436              0.658840154      44.2996085       0.750281194      -45.5368985      0.750281194      -45.5368985      0.659103344      44.2996674       
441              0.663271742      43.9118982       0.746377997      -45.9260058      0.746377997      -45.9260058      0.66353669       43.9119564       
446              0.66764092       43.5271247       0.742483739      -46.3121288      0.742483739      -46.3121288      0.667907602      43.5271822       
451              0.671948436      43.1452668       0.738598986      -46.6952899      0.738598986      -46.6952899      0.672216827      43.1453236       
456              0.676195042      42.766303        0.734724282      -47.0755117      0.734724282      -47.0755117      0.676465117      42.7663591       
461              0.680381488      42.3902115       0.730860147      -47.4528171      0.730860147      -47.4528171      0.680653222      42.3902669       
466              0.684508525      42.0169702       0.72700708       -47.8272292      0.72700708       -47.8272292      0.684781895      42.017025        
471              0.688576903      41.6465566       0.72316556       -48.1987714      0.72316556       -48.1987714      0.688851885      41.6466108       
476              0.692587371      41.2789482       0.719336044      -48.5674673      0.719336044      -48.5674673      0.692863941      41.2790017       
481              0.696540677      40.9141219       0.715518972      -48.9333408      0.715518972      -48.9333408      0.696818812      40.9141748       
486              0.700437566      40.5520548       0.711714759      -49.2964157      0.711714759      -49.2964157      0.700717244      40.5521071       
491              0.704278781      40.1927234       0.707923806      -49.6567162      0.707923806      -49.6567162      0.704559979      40.1927751       
496              0.708065062      39.8361043       0.704146494      -50.0142666      0.704146494      -50.0142666      0.708347757      39.8361555       
501              0.711797146      39.482174        0.700383184      -50.3690911      0.700383184      -50.3690911      0.712081317      39.4822246       
506              0.715475764      39.1309086       0.696634221      -50.7212143      0.696634221      -50.7212143      0.71576139       39.1309586       
511              0.719101647      38.7822843       0.692899934      -51.0706606      0.692899934      -51.0706606      0.719388705      38.7823338       
516              0.722675518      38.4362772       0.689180633      -51.4174546      0.689180633      -51.4174546      0.722963988      38.4363262       
521              0.726198097      38.0928633       0.685476613      -51.761621       0.685476613      -51.761621       0.726487958      38.0929118       
526              0.729670098      37.7520185       0.681788154      -52.1031843      0.681788154      -52.1031843      0.729961329      37.7520664       
531              0.733092231      37.4137186       0.678115521      -52.4421694      0.678115521      -52.4421694      0.733384812      37.413766        
536              0.736465198      37.0779396       0.674458961      -52.7786008      0.674458961      -52.7786008      0.73675911       37.0779865       
541              0.739789698      36.7446572       0.670818711      -53.1125032      0.670818711      -53.1125032      0.740084921      36.7447037       
546              0.743066423      36.4138474       0.667194992      -53.4439012      0.667194992      -53.4439012      0.743362937      36.4138934       
551              0.746296058      36.085486        0.663588012      -53.7728194      0.663588012      -53.7728194      0.746593844      36.0855315       
556              0.749479283      35.7595489       0.659997964      -54.0992824      0.659997964      -54.0992824      0.749778322      35.759594        
561              0.752616769      35.436012        0.656425033      -54.4233147      0.656425033      -54.4233147      0.752917043      35.4360566       
566              0.755709184      35.1148513       0.652869387      -54.7449407      0.652869387      -54.7449407      0.756010675      35.1148955       
571              0.758757186      34.7960429       0.649331186      -55.0641847      0.649331186      -55.0641847      0.759059875      34.7960866       
576              0.761761427      34.4795627       0.645810576      -55.381071       0.645810576      -55.381071       0.762065297      34.479606        
581              0.764722553      34.1653871       0.642307692      -55.6956238      0.642307692      -55.6956238      0.765027586      34.16543         
586              0.767641202      33.8534923       0.638822661      -56.007867       0.638822661      -56.007867       0.767947381      33.8535347       
591              0.770518004      33.5438546       0.635355598      -56.3178248      0.635355598      -56.3178248      0.770825312      33.5438966       
596              0.773353582      33.2364505       0.631906608      -56.6255208      0.631906608      -56.6255208      0.773662002      33.2364921       
601              0.776148554      32.9312567       0.628475786      -56.9309788      0.628475786      -56.9309788      0.77645807       32.9312979       
606              0.778903527      32.6282497       0.62506322       -57.2342224      0.62506322       -57.2342224      0.779214122      32.6282905       
611              0.781619102      32.3274065       0.621668986      -57.535275       0.621668986      -57.535275       0.781930761      32.3274469       
616              0.784295874      32.0287039       0.618293154      -57.8341599      0.618293154      -57.8341599      0.78460858       32.0287439       
621              0.786934427      31.7321191       0.614935785      -58.1309003      0.614935785      -58.1309003      0.787248166      31.7321587       
626              0.789535342      31.4376292       0.611596933      -58.425519       0.611596933      -58.425519       0.789850098      31.4376685       
631              0.792099189      31.1452117       0.608276641      -58.7180391      0.608276641      -58.7180391      0.792414946      31.1452507       
636              0.794626531      30.8548442       0.604974949      -59.008483       0.604974949      -59.008483       0.794943275      30.8548827       
