! Coilcraft 1812SMS-22N Midi Spring Air Core Inductor				
! 10 June 2003
# MHZ S MA R 50
!Freq             MagS11           AngS11           MagS21           AngS21           MagS12           AngS12           MagS22           AngS22
1                0.00198015585    40.6846403       0.998499367      -0.0831089669    0.998499367      -0.0831089669    0.00198046371    40.6949695       
6                0.00790159649    78.5607313       0.998470138      -0.49864652      0.998470138      -0.49864652      0.00790437355    78.5646225       
11               0.0143008938     83.0668729       0.998399162      -0.914152871     0.998399162      -0.914152871     0.0143060503     83.0690504       
16               0.0207388052     84.5243181       0.998286462      -1.32960203      0.998286462      -1.32960203      0.0207463268     84.5258238       
21               0.0271860467     85.0938028       0.998132075      -1.74496804      0.998132075      -1.74496804      0.0271959282     85.0949525       
26               0.033635188      85.2855764       0.99793605       -2.16022497      0.99793605       -2.16022497      0.0336474264     85.2865059       
31               0.0400831135     85.2820035       0.997698452      -2.57534695      0.997698452      -2.57534695      0.0400977067     85.2827835       
36               0.0465280362     85.1644125       0.997419357      -2.99030817      0.997419357      -2.99030817      0.0465449819     85.1650844       
41               0.0529686905     84.9745458       0.997098856      -3.40508287      0.997098856      -3.40508287      0.0529879864     84.9751359       
46               0.059404051      84.7360335       0.996737051      -3.8196454       0.996737051      -3.8196454       0.0594256947     84.7365595       
51               0.0658332169     84.4632593       0.996334061      -4.23397019      0.996334061      -4.23397019      0.0658572058     84.4637337       
56               0.072255358      84.1654833       0.995890013      -4.64803179      0.995890013      -4.64803179      0.0722816893     84.1659154       
61               0.078669688      83.8489401       0.995405052      -5.06180484      0.995405052      -5.06180484      0.0786983585     83.8493367       
66               0.0850754493     83.5179836       0.994879332      -5.47526413      0.994879332      -5.47526413      0.0851064558     83.5183502       
71               0.0914719055     83.1757491       0.994313021      -5.88838458      0.994313021      -5.88838458      0.0915052444     83.1760899       
76               0.0978583356     82.8245533       0.993706301      -6.30114126      0.993706301      -6.30114126      0.0978940032     82.8248717       
81               0.104234032      82.4661474       0.993059363      -6.71350941      0.993059363      -6.71350941      0.104272024      82.466446        
86               0.110598298      82.1018808       0.992372413      -7.12546442      0.992372413      -7.12546442      0.11063861       82.102162        
91               0.116950446      81.7328118       0.991645669      -7.53698187      0.991645669      -7.53698187      0.116993075      81.7330776       
96               0.1232898        81.3597832       0.990879358      -7.94803753      0.990879358      -7.94803753      0.123334739      81.3600351       
101              0.129615691      80.9834754       0.990073721      -8.35860737      0.990073721      -8.35860737      0.129662936      80.9837148       
106              0.13592746       80.604445        0.989229011      -8.76866757      0.989229011      -8.76866757      0.135977006      80.604673        
111              0.142224455      80.2231521       0.98834549       -9.17819452      0.98834549       -9.17819452      0.142276296      80.2233698       
116              0.148506035      79.8399816       0.987423431      -9.58716484      0.987423431      -9.58716484      0.148560166      79.8401899       
121              0.154771567      79.4552582       0.986463121      -9.99555541      0.986463121      -9.99555541      0.154827982      79.4554579       
126              0.161020427      79.0692587       0.985464853      -10.4033433      0.985464853      -10.4033433      0.161079119      79.0694504       
131              0.167251999      78.6822207       0.984428933      -10.8105059      0.984428933      -10.8105059      0.167312963      78.6824051       
136              0.173465679      78.29435         0.983355676      -11.2170208      0.983355676      -11.2170208      0.173528907      78.2945276       
141              0.17966087       77.9058263       0.982245408      -11.6228659      0.982245408      -11.6228659      0.179726356      77.9059975       
146              0.185836986      77.516807        0.981098462      -12.0280194      0.981098462      -12.0280194      0.185904722      77.5169723       
151              0.19199345       77.1274317       0.979915182      -12.4324597      0.979915182      -12.4324597      0.192063429      77.1275915       
156              0.198129696      76.7378244       0.97869592       -12.8361656      0.97869592       -12.8361656      0.198201911      76.7379791       
161              0.204245168      76.3480959       0.977441038      -13.239116       0.977441038      -13.239116       0.204319611      76.3482458       
166              0.21033932       75.9583462       0.976150904      -13.6412904      0.976150904      -13.6412904      0.210415983      75.9584915       
171              0.216411616      75.5686653       0.974825896      -14.0426683      0.974825896      -14.0426683      0.216490492      75.5688063       
176              0.222461533      75.1791354       0.973466398      -14.4432298      0.973466398      -14.4432298      0.222542613      75.1792723       
181              0.228488557      74.7898311       0.972072804      -14.8429551      0.972072804      -14.8429551      0.228571832      74.7899643       
186              0.234492185      74.4008211       0.970645512      -15.2418249      0.970645512      -15.2418249      0.234577647      74.4009507       
191              0.240471925      74.0121685       0.969184928      -15.6398201      0.969184928      -15.6398201      0.240559566      74.0122946       
196              0.246427299      73.6239313       0.967691466      -16.0369219      0.967691466      -16.0369219      0.246517108      73.6240542       
201              0.252357836      73.2361638       0.966165544      -16.433112       0.966165544      -16.433112       0.252449805      73.2362835       
206              0.25826308       72.8489159       0.964607588      -16.8283724      0.964607588      -16.8283724      0.2583572        72.8490327       
211              0.264142585      72.4622344       0.963018026      -17.2226853      0.963018026      -17.2226853      0.264238846      72.4623484       
216              0.269995917      72.0761632       0.961397296      -17.6160335      0.961397296      -17.6160335      0.27009431       72.0762745       
221              0.275822655      71.6907432       0.959745838      -18.0084         0.959745838      -18.0084         0.275923168      71.6908519       
226              0.281622386      71.3060128       0.958064096      -18.3997681      0.958064096      -18.3997681      0.281725011      71.3061191       
231              0.287394713      70.9220083       0.956352521      -18.7901216      0.956352521      -18.7901216      0.28749944       70.9221123       
236              0.293139249      70.5387639       0.954611567      -19.1794446      0.954611567      -19.1794446      0.293246067      70.5388656       
241              0.29885562       70.1563118       0.95284169       -19.5677215      0.95284169       -19.5677215      0.298964518      70.1564115       
246              0.304543461      69.7746828       0.951043351      -19.9549373      0.951043351      -19.9549373      0.30465443       69.7747803       
251              0.310202423      69.3939056       0.949217016      -20.341077       0.949217016      -20.341077       0.310315451      69.3940012       
256              0.315832165      69.0140079       0.947363149      -20.7261263      0.947363149      -20.7261263      0.315947243      69.0141016       
261              0.321432362      68.6350157       0.945482221      -21.1100712      0.945482221      -21.1100712      0.321549477      68.6351075       
266              0.327002698      68.2569539       0.943574704      -21.4928978      0.943574704      -21.4928978      0.32712184       68.257044        
271              0.332542869      67.8798461       0.941641071      -21.874593       0.941641071      -21.874593       0.332664026      67.8799345       
276              0.338052583      67.5037148       0.939681797      -22.2551438      0.939681797      -22.2551438      0.338175746      67.5038016       
281              0.343531562      67.1285816       0.93769736       -22.6345376      0.93769736       -22.6345376      0.343656718      67.1286667       
286              0.348979538      66.7544668       0.935688236      -23.0127621      0.935688236      -23.0127621      0.349106674      66.7545504       
291              0.354396253      66.38139         0.933654906      -23.3898057      0.933654906      -23.3898057      0.354525359      66.3814722       
296              0.359781463      66.0093699       0.931597849      -23.7656568      0.931597849      -23.7656568      0.359912528      66.0094507       
301              0.365134935      65.6384243       0.929517543      -24.1403042      0.929517543      -24.1403042      0.365267947      65.6385037       
306              0.370456447      65.2685701       0.92741447       -24.5137374      0.92741447       -24.5137374      0.370591394      65.2686481       
311              0.375745789      64.8998236       0.925289109      -24.885946       0.925289109      -24.885946       0.375882659      64.8999003       
316              0.381002761      64.5322002       0.92314194       -25.2569198      0.92314194       -25.2569198      0.381141542      64.5322757       
321              0.386227176      64.1657148       0.920973441      -25.6266494      0.920973441      -25.6266494      0.386367856      64.165789        
326              0.391418857      63.8003813       0.91878409       -25.9951254      0.91878409       -25.9951254      0.391561424      63.8004544       
331              0.396577637      63.4362134       0.916574364      -26.362339       0.916574364      -26.362339       0.396722079      63.4362854       
336              0.401703362      63.0732238       0.91434474       -26.7282815      0.91434474       -26.7282815      0.401849666      63.0732946       
341              0.406795886      62.7114247       0.91209569       -27.0929447      0.91209569       -27.0929447      0.40694404       62.7114944       
346              0.411855075      62.3508277       0.909827687      -27.4563209      0.909827687      -27.4563209      0.412005067      62.3508964       
351              0.416880806      61.991444        0.907541203      -27.8184024      0.907541203      -27.8184024      0.417032624      61.9915117       
356              0.421872965      61.6332841       0.905236704      -28.1791822      0.905236704      -28.1791822      0.422026596      61.6333508       
361              0.426831449      61.2763579       0.902914658      -28.5386534      0.902914658      -28.5386534      0.42698688       61.2764237       
366              0.431756164      60.920675        0.900575527      -28.8968095      0.900575527      -28.8968095      0.431913384      60.9207398       
371              0.436647027      60.5662443       0.898219773      -29.2536443      0.898219773      -29.2536443      0.436806022      60.5663083       
376              0.441503963      60.2130745       0.895847854      -29.609152       0.895847854      -29.609152       0.441664722      60.2131375       
381              0.446326909      59.8611734       0.893460226      -29.9633272      0.893460226      -29.9633272      0.446489418      59.8612356       
386              0.451115808      59.5105487       0.891057339      -30.3161646      0.891057339      -30.3161646      0.451280055      59.5106101       
391              0.455870614      59.1612076       0.888639643      -30.6676594      0.888639643      -30.6676594      0.456036587      59.1612681       
396              0.460591291      58.8131568       0.886207583      -31.017807       0.886207583      -31.017807       0.460758976      58.8132165       
401              0.46527781       58.4664025       0.883761601      -31.3666033      0.883761601      -31.3666033      0.465447195      58.4664614       
406              0.46993015       58.1209507       0.881302134      -31.7140442      0.881302134      -31.7140442      0.470101223      58.1210088       
411              0.474548301      57.7768068       0.878829618      -32.0601261      0.878829618      -32.0601261      0.474721049      57.7768642       
416              0.47913226       57.433976        0.876344481      -32.4048458      0.876344481      -32.4048458      0.47930667       57.4340327       
421              0.483682032      57.0924629       0.873847151      -32.7482001      0.873847151      -32.7482001      0.483858091      57.0925189       
426              0.488197628      56.752272        0.871338049      -33.0901863      0.871338049      -33.0901863      0.488375324      56.7523274       
431              0.492679071      56.4134073       0.868817593      -33.430802       0.868817593      -33.430802       0.492858391      56.4134619       
436              0.497126388      56.0758724       0.866286196      -33.7700449      0.866286196      -33.7700449      0.49730732       56.0759263       
441              0.501539615      55.7396705       0.863744268      -34.1079132      0.863744268      -34.1079132      0.501722145      55.7397239       
446              0.505918794      55.4048048       0.861192211      -34.4444051      0.861192211      -34.4444051      0.506102911      55.4048575       
451              0.510263975      55.0712778       0.858630427      -34.7795193      0.858630427      -34.7795193      0.510449666      55.0713299       
456              0.514575215      54.7390919       0.856059311      -35.1132547      0.856059311      -35.1132547      0.514762466      54.7391434       
461              0.518852576      54.4082492       0.853479251      -35.4456104      0.853479251      -35.4456104      0.519041376      54.4083          
466              0.523096129      54.0787513       0.850890635      -35.7765858      0.850890635      -35.7765858      0.523286465      54.0788016       
471              0.527305949      53.7505997       0.848293842      -36.1061804      0.848293842      -36.1061804      0.527497809      53.7506494       
476              0.531482118      53.4237955       0.845689248      -36.4343942      0.845689248      -36.4343942      0.531675489      53.4238447       
481              0.535624725      53.0983397       0.843077224      -36.7612272      0.843077224      -36.7612272      0.535819595      53.0983883       
486              0.539733862      52.7742328       0.840458135      -37.0866798      0.840458135      -37.0866798      0.539930218      52.7742809       
491              0.54380963       52.4514753       0.837832342      -37.4107525      0.837832342      -37.4107525      0.54400746       52.4515228       
496              0.547852132      52.1300671       0.835200201      -37.7334461      0.835200201      -37.7334461      0.548051424      52.1301141       
501              0.551861479      51.8100081       0.832562061      -38.0547616      0.832562061      -38.0547616      0.55206222       51.8100546       
506              0.555837786      51.4912979       0.829918268      -38.3747001      0.829918268      -38.3747001      0.556039964      51.4913439       
511              0.559781172      51.1739359       0.827269162      -38.6932631      0.827269162      -38.6932631      0.559984775      51.1739814       
516              0.563691762      50.8579212       0.824615077      -39.0104521      0.824615077      -39.0104521      0.563896778      50.8579663       
521              0.567569686      50.5432526       0.821956344      -39.326269       0.821956344      -39.326269       0.567776102      50.5432973       
526              0.571415076      50.229929        0.819293287      -39.6407158      0.819293287      -39.6407158      0.571622881      50.2299732       
531              0.575228071      49.9179487       0.816626224      -39.9537945      0.816626224      -39.9537945      0.575437252      49.9179924       
536              0.579008812      49.6073101       0.813955471      -40.2655076      0.813955471      -40.2655076      0.579219358      49.6073533       
541              0.582757445      49.2980111       0.811281335      -40.5758577      0.811281335      -40.5758577      0.582969344      49.2980539       
546              0.58647412       48.9900497       0.808604121      -40.8848473      0.808604121      -40.8848473      0.58668736       48.9900921       
551              0.59015899       48.6834235       0.805924127      -41.1924794      0.805924127      -41.1924794      0.590373559      48.6834655       
556              0.593812212      48.3781301       0.803241645      -41.4987569      0.803241645      -41.4987569      0.594028097      48.3781716       
561              0.597433944      48.0741667       0.800556964      -41.8036832      0.800556964      -41.8036832      0.597651136      48.0742079       
566              0.601024352      47.7715305       0.797870367      -42.1072615      0.797870367      -42.1072615      0.601242837      47.7715713       
571              0.6045836        47.4702186       0.795182131      -42.4094953      0.795182131      -42.4094953      0.604803368      47.4702589       
576              0.608111859      47.1702276       0.792492529      -42.7103883      0.792492529      -42.7103883      0.608332897      47.1702676       
581              0.611609298      46.8715543       0.789801829      -43.0099442      0.789801829      -43.0099442      0.611831596      46.871594        
586              0.615076095      46.5741952       0.787110293      -43.308167       0.787110293      -43.308167       0.615299641      46.5742345       
591              0.618512424      46.2781467       0.784418178      -43.6050606      0.784418178      -43.6050606      0.618737207      46.2781856       
596              0.621918466      45.9834049       0.781725737      -43.9006294      0.781725737      -43.9006294      0.622144474      45.9834435       
601              0.625294401      45.689966        0.779033217      -44.1948775      0.779033217      -44.1948775      0.625521624      45.6900042       
606              0.628640415      45.3978259       0.776340861      -44.4878094      0.776340861      -44.4878094      0.62886884       45.3978637       
611              0.631956692      45.1069804       0.773648907      -44.7794297      0.773648907      -44.7794297      0.632186309      45.1070179       
616              0.635243419      44.8174253       0.770957586      -45.0697429      0.770957586      -45.0697429      0.635474218      44.8174624       
621              0.638500787      44.529156        0.768267128      -45.3587539      0.768267128      -45.3587539      0.638732757      44.5291928       
626              0.641728987      44.2421681       0.765577755      -45.6464674      0.765577755      -45.6464674      0.641962115      44.2422046       
631              0.64492821       43.9564569       0.762889685      -45.9328885      0.762889685      -45.9328885      0.645162487      43.9564931       
636              0.648098651      43.6720177       0.760203133      -46.2180221      0.760203133      -46.2180221      0.648334066      43.6720536       
