! Coilcraft 1812SMS-R10 Midi Spring Air Core Inductor				
! 10 June 2003
# MHZ S MA R 50
!Freq             MagS11           AngS11           MagS21           AngS21           MagS12           AngS12           MagS22           AngS22
1                0.00934145271    38.6793665       0.992725806      -0.348770914     0.992725806      -0.348770914     0.0093433108     38.693421        
3                0.0190782966     66.6003064       0.992588295      -1.04622586      0.992588295      -1.04622586      0.0190864816     66.6104099       
5                0.0302816825     74.3966097       0.992313435      -1.74342029      0.992313435      -1.74342029      0.030295999      74.4032898       
7                0.0417777968     77.5646624       0.991901546      -2.440181        0.991901546      -2.440181        0.0417981195     77.5695717       
9                0.0533655794     79.0583781       0.991353109      -3.13633545      0.991353109      -3.13633545      0.0533918516     79.0622423       
11               0.0649826603     79.7689961       0.990668761      -3.83171207      0.990668761      -3.83171207      0.0650148478     79.772177        
13               0.0766016305     80.0525904       0.989849295      -4.5261405       0.989849295      -4.5261405       0.0766397074     80.0552913       
15               0.0882071735     80.0785342       0.988895659      -5.21945188      0.988895659      -5.21945188      0.0882511167     80.0808801       
17               0.0997890755     79.9375298       0.987808948      -5.91147907      0.987808948      -5.91147907      0.0998388627     79.9396027       
19               0.111339603      79.6825084       0.986590404      -6.60205694      0.986590404      -6.60205694      0.111395211      79.6843649       
21               0.12285237       79.346444        0.985241413      -7.29102257      0.985241413      -7.29102257      0.122913775      79.3481249       
23               0.134321794      78.9509632       0.983763498      -7.97821552      0.983763498      -7.97821552      0.13438897       78.9524987       
25               0.145742817      78.5108544       0.982158316      -8.66347804      0.982158316      -8.66347804      0.145815736      78.5122676       
27               0.157110749      78.0365863       0.980427651      -9.34665526      0.980427651      -9.34665526      0.157189383      78.0378951       
29               0.168421186      77.535789        0.978573411      -10.0275954      0.978573411      -10.0275954      0.168505504      77.5370078       
31               0.179669952      77.0141656       0.97659762       -10.7061501      0.97659762       -10.7061501      0.179759922      77.0153059       
33               0.190853071      76.4760725       0.974502414      -11.3821743      0.974502414      -11.3821743      0.190948658      76.4771438       
35               0.201966746      75.9249023       0.972290034      -12.0555267      0.972290034      -12.0555267      0.202067915      75.9259124       
37               0.213007351      75.3633423       0.969962819      -12.7260698      0.969962819      -12.7260698      0.213114064      75.3642978       
39               0.223971417      74.7935536       0.967523199      -13.3936699      0.967523199      -13.3936699      0.224083635      74.7944601       
41               0.234855634      74.2172984       0.964973691      -14.0581977      0.964973691      -14.0581977      0.234973316      74.2181607       
43               0.245656846      73.6360315       0.962316889      -14.7195276      0.962316889      -14.7195276      0.24577995       73.6368536       
45               0.256372048      73.0509671       0.959555459      -15.3775388      0.959555459      -15.3775388      0.25650053       73.0517526       
47               0.266998388      72.4631295       0.956692131      -16.0321147      0.956692131      -16.0321147      0.267132203      72.4638815       
49               0.277533162      71.8733904       0.953729694      -16.6831429      0.953729694      -16.6831429      0.277672265      71.8741116       
51               0.28797382       71.2824978       0.950670987      -17.3305158      0.950670987      -17.3305158      0.288118162      71.2831907       
53               0.298317959      70.6910987       0.947518893      -17.9741305      0.947518893      -17.9741305      0.298467492      70.6917654       
55               0.308563326      70.0997566       0.944276331      -18.6138884      0.944276331      -18.6138884      0.308718         70.1003989       
57               0.318707814      69.5089647       0.940946254      -19.2496957      0.940946254      -19.2496957      0.318867578      69.5095844       
59               0.328749466      68.9191579       0.937531637      -19.8814632      0.937531637      -19.8814632      0.328914268      68.9197565       
61               0.338686468      68.3307209       0.934035474      -20.5091065      0.934035474      -20.5091065      0.338856255      68.3312997       
63               0.34851715       67.7439956       0.930460769      -21.1325457      0.930460769      -21.1325457      0.348691869      67.7445559       
65               0.358239985      67.1592871       0.926810534      -21.7517056      0.926810534      -21.7517056      0.358419581      67.1598301       
67               0.367853584      66.5768685       0.923087781      -22.3665156      0.923087781      -22.3665156      0.368038002      66.5773952       
69               0.377356697      65.9969849       0.919295516      -22.9769096      0.919295516      -22.9769096      0.377545882      65.9974962       
71               0.386748207      65.4198566       0.915436735      -23.5828261      0.915436735      -23.5828261      0.386942103      65.4203534       
73               0.396027129      64.845682        0.911514418      -24.1842081      0.911514418      -24.1842081      0.39622568       64.8461651       
75               0.405192608      64.2746402       0.907531526      -24.7810029      0.907531526      -24.7810029      0.405395756      64.2751103       
77               0.414243913      63.7068927       0.903490994      -25.3731622      0.903490994      -25.3731622      0.4144516        63.7073505       
79               0.423180434      63.1425854       0.899395728      -25.960642       0.899395728      -25.960642       0.423392603      63.1430315       
81               0.43200168       62.5818499       0.895248602      -26.5434023      0.895248602      -26.5434023      0.432218273      62.5822849       
83               0.440707275      62.0248049       0.891052453      -27.1214073      0.891052453      -27.1214073      0.440928233      62.0252292       
85               0.449296953      61.4715571       0.886810078      -27.6946252      0.886810078      -27.6946252      0.449522218      61.4719714       
87               0.457770554      60.9222029       0.882524232      -28.2630281      0.882524232      -28.2630281      0.458000068      60.9226075       
89               0.466128021      60.3768284       0.878197621      -28.8265919      0.878197621      -28.8265919      0.466361727      60.3772238       
91               0.474369398      59.8355105       0.873832906      -29.385296       0.873832906      -29.385296       0.474607235      59.8358972       
93               0.482494819      59.298318        0.869432695      -29.9391236      0.869432695      -29.9391236      0.48273673       59.2986962       
95               0.490504511      58.7653117       0.864999543      -30.4880612      0.864999543      -30.4880612      0.490750439      58.7656818       
97               0.498398788      58.236545        0.860535949      -31.0320989      0.860535949      -31.0320989      0.498648673      58.2369074       
99               0.506178043      57.7120648       0.856044359      -31.5712296      0.856044359      -31.5712296      0.506431828      57.7124197       
101              0.51384275       57.1919115       0.851527156      -32.1054499      0.851527156      -32.1054499      0.514100377      57.1922593       
103              0.521393455      56.6761198       0.846986668      -32.6347588      0.846986668      -32.6347588      0.521654867      56.6764607       
105              0.528830774      56.1647189       0.84242516       -33.1591587      0.84242516       -33.1591587      0.529095915      56.1650532       
107              0.53615539       55.6577327       0.837844837      -33.6786544      0.837844837      -33.6786544      0.536424202      55.6580607       
109              0.543368046      55.1551807       0.833247842      -34.1932536      0.833247842      -34.1932536      0.543640473      55.1555025       
111              0.550469545      54.6570774       0.828636256      -34.7029665      0.828636256      -34.7029665      0.550745531      54.6573933       
113              0.557460743      54.1634336       0.824012098      -35.2078056      0.824012098      -35.2078056      0.557740233      54.1637437       
115              0.564342547      53.6742558       0.819377323      -35.7077858      0.819377323      -35.7077858      0.564625486      53.6745605       
117              0.571115911      53.189547        0.814733827      -36.2029242      0.814733827      -36.2029242      0.571402244      53.1898464       
119              0.577781834      52.7093068       0.810083439      -36.6932401      0.810083439      -36.6932401      0.578071507      52.709601        
121              0.584341353      52.2335315       0.805427929      -37.1787546      0.805427929      -37.1787546      0.584634313      52.2338207       
123              0.590795543      51.7622143       0.800769006      -37.6594907      0.800769006      -37.6594907      0.591091737      51.7624987       
125              0.597145513      51.2953457       0.796108315      -38.1354735      0.796108315      -38.1354735      0.597444888      51.2956254       
127              0.603392402      50.8329134       0.791447444      -38.6067293      0.791447444      -38.6067293      0.603694907      50.8331887       
129              0.609537378      50.3749029       0.786787918      -39.0732863      0.786787918      -39.0732863      0.609842961      50.3751738       
131              0.615581634      49.9212972       0.782131207      -39.5351742      0.782131207      -39.5351742      0.615890245      49.9215637       
133              0.621526383      49.472077        0.77747872       -39.9924238      0.77747872       -39.9924238      0.621837972      49.4723395       
135              0.627372861      49.0272214       0.77283181       -40.4450674      0.77283181       -40.4450674      0.627687378      49.0274799       
137              0.633122319      48.5867073       0.768191774      -40.8931387      0.768191774      -40.8931387      0.633439716      48.5869619       
139              0.638776023      48.1505101       0.763559854      -41.3366721      0.763559854      -41.3366721      0.639096252      48.1507608       
141              0.644335254      47.7186032       0.758937239      -41.7757033      0.758937239      -41.7757033      0.644658266      47.7188503       
143              0.6498013        47.2909591       0.754325064      -42.2102691      0.754325064      -42.2102691      0.650127049      47.2912026       
145              0.65517546       46.8675484       0.749724412      -42.6404068      0.749724412      -42.6404068      0.6555039        46.8677884       
147              0.660459039      46.4483407       0.745136319      -43.0661549      0.745136319      -43.0661549      0.660790124      46.4485774       
149              0.665653346      46.0333044       0.740561769      -43.4875524      0.740561769      -43.4875524      0.665987032      46.0335378       
151              0.670759693      45.6224068       0.736001699      -43.904639       0.736001699      -43.904639       0.671095935      45.622637        
153              0.675779395      45.2156142       0.731456999      -44.3174552      0.731456999      -44.3174552      0.67611815       45.2158413       
155              0.680713765      44.8128921       0.726928516      -44.7260418      0.726928516      -44.7260418      0.68105499       44.8131161       
157              0.685564116      44.414205        0.72241705       -45.1304402      0.72241705       -45.1304402      0.685907768      44.4144261       
159              0.690331756      44.019517        0.717923361      -45.5306922      0.717923361      -45.5306922      0.690677794      44.0197351       
161              0.695017991      43.6287911       0.713448165      -45.9268401      0.713448165      -45.9268401      0.695366374      43.6290064       
163              0.699624121      43.24199         0.708992141      -46.3189263      0.708992141      -46.3189263      0.699974808      43.2422026       
165              0.704151438      42.859076        0.704555926      -46.7069936      0.704555926      -46.7069936      0.704504391      42.8592858       
167              0.708601229      42.4800106       0.700140122      -47.0910851      0.700140122      -47.0910851      0.708956408      42.4802178       
169              0.712974772      42.1047551       0.695745294      -47.4712439      0.695745294      -47.4712439      0.713332138      42.1049598       
171              0.717273333      41.7332705       0.69137197       -47.8475132      0.69137197       -47.8475132      0.71763285       41.7334726       
173              0.721498172      41.3655173       0.687020646      -48.2199367      0.687020646      -48.2199367      0.721859802      41.365717        
175              0.725650537      41.001456        0.682691786      -48.5885576      0.682691786      -48.5885576      0.726014242      41.0016533       
177              0.729731661      40.6410467       0.678385821      -48.9534195      0.678385821      -48.9534195      0.730097408      40.6412417       
179              0.733742771      40.2842496       0.674103152      -49.3145659      0.674103152      -49.3145659      0.734110523      40.2844422       
181              0.737685076      39.9310245       0.66984415       -49.6720402      0.66984415       -49.6720402      0.738054799      39.9312149       
183              0.741559775      39.5813313       0.665609159      -50.0258857      0.665609159      -50.0258857      0.741931434      39.5815195       
185              0.745368053      39.2351298       0.661398497      -50.3761456      0.661398497      -50.3761456      0.745741615      39.2353159       
187              0.749111078      38.89238         0.657212453      -50.7228632      0.657212453      -50.7228632      0.749486511      38.8925639       
189              0.752790009      38.5530416       0.653051294      -51.0660812      0.653051294      -51.0660812      0.75316728       38.5532235       
191              0.756405985      38.2170746       0.64891526       -51.4058425      0.64891526       -51.4058425      0.756785063      38.2172545       
193              0.759960134      37.8844391       0.644804571      -51.7421896      0.644804571      -51.7421896      0.760340987      37.8846169       
195              0.763453566      37.5550951       0.640719423      -52.0751648      0.640719423      -52.0751648      0.763836165      37.555271        
197              0.766887378      37.2290031       0.636659993      -52.4048103      0.636659993      -52.4048103      0.767271691      37.2291771       
199              0.770262648      36.9061234       0.632626434      -52.7311678      0.632626434      -52.7311678      0.770648647      36.9062955       
201              0.773580443      36.5864167       0.628618885      -53.0542788      0.628618885      -53.0542788      0.773968098      36.586587        
203              0.77684181       36.2698439       0.624637461      -53.3741847      0.624637461      -53.3741847      0.777231093      36.2700124       
205              0.780047781      35.9563661       0.620682263      -53.6909262      0.620682263      -53.6909262      0.780438664      35.9565329       
207              0.783199374      35.6459446       0.616753375      -54.0045441      0.616753375      -54.0045441      0.78359183       35.6461096       
209              0.78629759       35.338541        0.612850863      -54.3150785      0.612850863      -54.3150785      0.786691592      35.3387044       
211              0.789343412      35.0341172       0.608974779      -54.6225695      0.608974779      -54.6225695      0.789738934      35.0342789       
213              0.79233781       34.7326354       0.605125159      -54.9270564      0.605125159      -54.9270564      0.792734826      34.7327955       
215              0.795281737      34.4340581       0.601302029      -55.2285786      0.601302029      -55.2285786      0.79568022       34.4342165       
217              0.798176128      34.1383479       0.597505396      -55.5271749      0.597505396      -55.5271749      0.798576055      34.1385047       
219              0.801021905      33.845468        0.593735258      -55.8228837      0.593735258      -55.8228837      0.801423251      33.8456233       
221              0.803819974      33.555382        0.589991602      -56.115743       0.589991602      -56.115743       0.804222714      33.5555357       
223              0.806571223      33.2680534       0.5862744        -56.4057904      0.5862744        -56.4057904      0.806975334      33.2682057       
225              0.809276526      32.9834465       0.582583617      -56.6930633      0.582583617      -56.6930633      0.809681986      32.9835973       
227              0.811936742      32.7015257       0.578919204      -56.9775985      0.578919204      -56.9775985      0.812343527      32.7016751       
229              0.814552713      32.4222559       0.575281106      -57.2594324      0.575281106      -57.2594324      0.814960802      32.4224039       
231              0.817125269      32.1456023       0.571669257      -57.5386011      0.571669257      -57.5386011      0.817534638      32.1457489       
233              0.819655221      31.8715305       0.568083581      -57.81514        0.568083581      -57.81514        0.82006585       31.8716757       
235              0.822143368      31.6000064       0.564523997      -58.0890846      0.564523997      -58.0890846      0.822555236      31.6001502       
237              0.824590493      31.3309964       0.560990414      -58.3604694      0.560990414      -58.3604694      0.825003578      31.3311388       
239              0.826997364      31.0644671       0.557482735      -58.629329       0.557482735      -58.629329       0.827411647      31.0646083       
241              0.829364736      30.8003857       0.554000854      -58.8956971      0.554000854      -58.8956971      0.829780198      30.8005256       
243              0.83169335       30.5387196       0.550544661      -59.1596074      0.550544661      -59.1596074      0.83210997       30.5388582       
245              0.833983931      30.2794368       0.547114039      -59.421093       0.547114039      -59.421093       0.83440169       30.2795742       
247              0.836237193      30.0225055       0.543708864      -59.6801864      0.543708864      -59.6801864      0.836656071      30.0226416       
249              0.838453833      29.7678942       0.54032901       -59.93692        0.54032901       -59.93692        0.838873813      29.7680291       
251              0.840634537      29.5155722       0.536974343      -60.1913256      0.536974343      -60.1913256      0.841055601      29.5157059       
253              0.842779977      29.2655087       0.533644724      -60.4434347      0.533644724      -60.4434347      0.843202107      29.2656412       
255              0.844890813      29.0176736       0.530340013      -60.6932782      0.530340013      -60.6932782      0.845313992      29.0178049       
