! Coilcraft 1812SMS-68N Midi Spring Air Core Inductor				
! 10 June 2003
# MHZ S MA R 50
!Freq             MagS11           AngS11           MagS21           AngS21           MagS12           AngS12           MagS22           AngS22
1                0.00641097064    38.9860454       0.995025552      -0.242520858     0.995025552      -0.242520858     0.00641208519    38.9982425       
3                0.0131371295     67.0626782       0.994960081      -0.727534349     0.994960081      -0.727534349     0.0131420235     67.0713895       
5                0.0208675084     75.0225552       0.994829176      -1.21246319      0.994829176      -1.21246319      0.0208760645     75.0283078       
7                0.0288012134     78.3774393       0.994632908      -1.697251        0.994632908      -1.697251        0.0288133592     78.3816653       
9                0.0368029932     80.0678989       0.994371386      -2.18184154      0.994371386      -2.18184154      0.0368186978     80.0712248       
11               0.0448320411     80.9798792       0.994044754      -2.66617869      0.994044754      -2.66617869      0.0448512875     80.9826168       
13               0.0528713133     81.4670866       0.993653191      -3.15020653      0.993653191      -3.15020653      0.0528940902     81.469411        
15               0.0609119626     81.6976664       0.993196913      -3.63386935      0.993196913      -3.63386935      0.0609382609     81.6996853       
17               0.0689485805     81.7615996       0.992676168      -4.11711175      0.992676168      -4.11711175      0.0689783923     81.7633835       
19               0.0769774099     81.7113467       0.992091242      -4.59987861      0.992091242      -4.59987861      0.0770107274     81.7129445       
21               0.0849955703     81.5795476       0.991442453      -5.08211517      0.991442453      -5.08211517      0.0850323858     81.5809942       
23               0.0930006852     81.3875738       0.990730153      -5.56376706      0.990730153      -5.56376706      0.0930409908     81.3888952       
25               0.100990688      81.150008        0.989954728      -6.04478034      0.989954728      -6.04478034      0.101034476      81.1512242       
27               0.108963714      80.8771453       0.989116596      -6.52510154      0.989116596      -6.52510154      0.109010975      80.8782717       
29               0.116918039      80.5764647       0.988216206      -7.0046777       0.988216206      -7.0046777       0.116968763      80.5775137       
31               0.124852037      80.2535341       0.987254039      -7.48345637      0.987254039      -7.48345637      0.124906216      80.2545156       
33               0.132764162      79.9125875       0.986230608      -7.9613857       0.986230608      -7.9613857       0.132821784      79.9135096       
35               0.140652927      79.5569041       0.985146453      -8.43841445      0.985146453      -8.43841445      0.140713983      79.5577736       
37               0.148516899      79.1890665       0.984002145      -8.914492        0.984002145      -8.914492        0.148581376      79.189889        
39               0.156354688      78.8111377       0.982798283      -9.38956842      0.982798283      -9.38956842      0.156422575      78.8119181       
41               0.164164945      78.4247883       0.981535493      -9.86359449      0.981535493      -9.86359449      0.164236229      78.4255307       
43               0.171946357      78.0313867       0.980214427      -10.3365217      0.980214427      -10.3365217      0.172021026      78.0320945       
45               0.179697648      77.6320663       0.978835762      -10.8083023      0.978835762      -10.8083023      0.179775688      77.6327426       
47               0.187417574      77.227775        0.977400203      -11.2788894      0.977400203      -11.2788894      0.187498973      77.2284226       
49               0.195104927      76.8193133       0.975908473      -11.7482367      0.975908473      -11.7482367      0.195189668      76.8199343       
51               0.202758528      76.4073622       0.974361323      -12.2162991      0.974361323      -12.2162991      0.202846598      76.4079589       
53               0.210377232      75.9925064       0.972759523      -12.6830321      0.972759523      -12.6830321      0.210468615      75.9930805       
55               0.217959926      75.5752509       0.971103863      -13.1483921      0.971103863      -13.1483921      0.218054605      75.5758041       
57               0.225505529      75.1560352       0.969395155      -13.6123365      0.969395155      -13.6123365      0.225603489      75.156569        
59               0.233012991      74.7352443       0.967634227      -14.0748235      0.967634227      -14.0748235      0.233114215      74.7357599       
61               0.240481295      74.3132168       0.965821925      -14.5358123      0.965821925      -14.5358123      0.240585766      74.3137155       
63               0.247909458      73.8902531       0.963959113      -14.9952632      0.963959113      -14.9952632      0.248017158      73.8907359       
65               0.255296527      73.4666201       0.962046669      -15.4531372      0.962046669      -15.4531372      0.255407438      73.467088        
67               0.262641581      73.0425569       0.960085485      -15.9093964      0.960085485      -15.9093964      0.262755686      73.0430108       
69               0.269943735      72.6182781       0.958076468      -16.3640039      0.958076468      -16.3640039      0.270061014      72.6187187       
71               0.277202134      72.1939772       0.956020535      -16.816924       0.956020535      -16.816924       0.277322568      72.1944054       
73               0.284415956      71.7698296       0.953918615      -17.2681216      0.953918615      -17.2681216      0.284539525      71.770246        
75               0.291584412      71.3459946       0.951771647      -17.7175629      0.951771647      -17.7175629      0.291711097      71.3463999       
77               0.298706747      70.9226175       0.94958058       -18.1652151      0.94958058       -18.1652151      0.298836528      70.9230122       
79               0.305782236      70.4998311       0.947346369      -18.6110465      0.947346369      -18.6110465      0.305915093      70.5002157       
81               0.31281019       70.0777572       0.945069977      -19.0550262      0.945069977      -19.0550262      0.312946101      70.0781323       
83               0.319789951      69.6565079       0.942752374      -19.4971245      0.942752374      -19.4971245      0.319928895      69.6568739       
85               0.326720892      69.2361864       0.940394534      -19.9373128      0.940394534      -19.9373128      0.326862848      69.2365437       
87               0.33360242       68.8168881       0.937997433      -20.3755634      0.937997433      -20.3755634      0.333747367      68.8172371       
89               0.340433973      68.3987011       0.935562055      -20.8118498      0.935562055      -20.8118498      0.340581889      68.3990422       
91               0.347215023      67.9817072       0.933089381      -21.2461463      0.933089381      -21.2461463      0.347365885      67.9820407       
93               0.35394507       67.5659823       0.930580396      -21.6784285      0.930580396      -21.6784285      0.354098857      67.5663086       
95               0.360623648      67.1515969       0.928036084      -22.1086729      0.928036084      -22.1086729      0.360780337      67.1519163       
97               0.36725032       66.7386168       0.925457431      -22.5368569      0.925457431      -22.5368569      0.367409889      66.7389295       
99               0.373824681      66.3271029       0.922845419      -22.9629592      0.922845419      -22.9629592      0.373987107      66.3274093       
101              0.380346355      65.9171123       0.920201028      -23.3869593      0.920201028      -23.3869593      0.380511615      65.9174125       
103              0.386814997      65.5086981       0.917525237      -23.8088378      0.917525237      -23.8088378      0.386983066      65.5089925       
105              0.393230288      65.1019099       0.914819019      -24.2285762      0.914819019      -24.2285762      0.393401145      65.1021986       
107              0.399591942      64.6967939       0.912083344      -24.6461571      0.912083344      -24.6461571      0.399765563      64.6970771       
109              0.405899698      64.2933933       0.909319177      -25.061564       0.909319177      -25.061564       0.40607606       64.2936713       
111              0.412153325      63.8917484       0.906527476      -25.4747814      0.906527476      -25.4747814      0.412332403      63.8920213       
113              0.418352617      63.4918967       0.903709194      -25.8857947      0.903709194      -25.8857947      0.418534389      63.4921647       
115              0.424497397      63.0938734       0.900865275      -26.2945904      0.900865275      -26.2945904      0.424681838      63.0941367       
117              0.430587512      62.6977109       0.897996657      -26.7011556      0.897996657      -26.7011556      0.430774599      62.6979697       
119              0.436622837      62.3034399       0.895104269      -27.1054787      0.895104269      -27.1054787      0.436812545      62.3036942       
121              0.442603269      61.9110884       0.892189032      -27.5075486      0.892189032      -27.5075486      0.442795575      61.9113385       
123              0.448528731      61.5206828       0.889251857      -27.9073555      0.889251857      -27.9073555      0.448723611      61.5209288       
125              0.45439917       61.1322475       0.886293645      -28.3048901      0.886293645      -28.3048901      0.454596599      61.1324894       
127              0.460214555      60.7458049       0.883315288      -28.7001442      0.883315288      -28.7001442      0.460414511      60.746043        
129              0.46597488       60.3613758       0.880317666      -29.0931103      0.880317666      -29.0931103      0.466177337      60.3616102       
131              0.471680157      59.9789796       0.877301649      -29.4837818      0.877301649      -29.4837818      0.471885093      59.9792103       
133              0.477330423      59.5986337       0.874268095      -29.8721528      0.874268095      -29.8721528      0.477537812      59.5988609       
135              0.482925733      59.2203544       0.871217851      -30.2582183      0.871217851      -30.2582183      0.483135553      59.2205782       
137              0.488466164      58.8441564       0.868151751      -30.6419741      0.868151751      -30.6419741      0.488678389      58.8443768       
139              0.493951811      58.470053        0.865070617      -31.0234164      0.865070617      -31.0234164      0.494166418      58.4702702       
141              0.499382787      58.0980564       0.86197526       -31.4025427      0.86197526       -31.4025427      0.499599753      58.0982704       
143              0.504759226      57.7281773       0.858866476      -31.7793507      0.858866476      -31.7793507      0.504978526      57.7283883       
145              0.510081276      57.3604255       0.855745049      -32.1538392      0.855745049      -32.1538392      0.510302887      57.3606335       
147              0.515349104      56.9948095       0.852611749      -32.5260073      0.852611749      -32.5260073      0.515573003      56.9950146       
149              0.520562894      56.6313367       0.849467334      -32.8958551      0.849467334      -32.8958551      0.520789056      56.631539        
151              0.525722842      56.2700135       0.846312547      -33.2633832      0.846312547      -33.2633832      0.525951245      56.2702131       
153              0.530829163      55.9108455       0.843148118      -33.6285928      0.843148118      -33.6285928      0.531059783      55.9110424       
155              0.535882084      55.553837        0.839974764      -33.9914857      0.839974764      -33.9914857      0.536114897      55.5540313       
157              0.540881847      55.1989915       0.836793187      -34.3520643      0.836793187      -34.3520643      0.54111683       55.1991833       
159              0.545828705      54.8463119       0.833604075      -34.7103317      0.833604075      -34.7103317      0.546065836      54.8465012       
161              0.550722927      54.4957999       0.830408102      -35.0662915      0.830408102      -35.0662915      0.550962182      54.4959867       
163              0.555564791      54.1474565       0.82720593       -35.4199477      0.82720593       -35.4199477      0.555806148      54.147641        
165              0.560354589      53.801282        0.823998204      -35.7713049      0.823998204      -35.7713049      0.560598024      53.8014643       
167              0.565092621      53.457276        0.820785557      -36.1203683      0.820785557      -36.1203683      0.565338113      53.457456        
169              0.569779199      53.1154373       0.817568607      -36.4671434      0.817568607      -36.4671434      0.570026725      53.1156151       
171              0.574414646      52.775764        0.814347958      -36.8116365      0.814347958      -36.8116365      0.574664184      52.7759396       
173              0.578999293      52.4382536       0.811124201      -37.1538539      0.811124201      -37.1538539      0.57925082       52.4384271       
175              0.583533478      52.102903        0.807897913      -37.4938027      0.807897913      -37.4938027      0.583786973      52.1030745       
177              0.588017552      51.7697084       0.804669655      -37.8314902      0.804669655      -37.8314902      0.588272992      51.7698779       
179              0.592451868      51.4386656       0.801439978      -38.1669243      0.801439978      -38.1669243      0.592709232      51.4388331       
181              0.596836792      51.1097697       0.798209415      -38.5001132      0.798209415      -38.5001132      0.597096058      51.1099353       
183              0.601172692      50.7830154       0.794978489      -38.8310654      0.794978489      -38.8310654      0.601433839      50.7831791       
185              0.605459946      50.4583967       0.791747709      -39.1597899      0.791747709      -39.1597899      0.605722953      50.4585587       
187              0.609698935      50.1359075       0.788517568      -39.4862958      0.788517568      -39.4862958      0.609963782      50.1360676       
189              0.613890049      49.8155408       0.785288549      -39.8105928      0.785288549      -39.8105928      0.614156713      49.8156992       
191              0.61803368       49.4972895       0.782061121      -40.1326909      0.782061121      -40.1326909      0.618302142      49.4974462       
193              0.622130227      49.181146        0.778835738      -40.4526002      0.778835738      -40.4526002      0.622400465      49.181301        
195              0.62618009       48.8671021       0.775612845      -40.7703312      0.775612845      -40.7703312      0.626452085      48.8672555       
197              0.630183678      48.5551496       0.772392871      -41.0858947      0.772392871      -41.0858947      0.630457409      48.5553013       
199              0.634141399      48.2452796       0.769176235      -41.3993018      0.769176235      -41.3993018      0.634416846      48.2454297       
201              0.638053666      47.9374831       0.765963342      -41.7105637      0.765963342      -41.7105637      0.63833081       47.9376316       
203              0.641920896      47.6317506       0.762754585      -42.0196919      0.762754585      -42.0196919      0.642199716      47.6318976       
205              0.645743506      47.3280724       0.759550346      -42.3266981      0.759550346      -42.3266981      0.646023984      47.328218        
207              0.649521918      47.0264386       0.756350995      -42.6315944      0.756350995      -42.6315944      0.649804034      47.0265826       
209              0.653256554      46.7268387       0.753156891      -42.9343929      0.753156891      -42.9343929      0.653540288      46.7269814       
211              0.656947838      46.4292624       0.749968379      -43.2351059      0.749968379      -43.2351059      0.657233172      46.4294036       
213              0.660596195      46.1336988       0.746785797      -43.5337458      0.746785797      -43.5337458      0.66088311       46.1338386       
215              0.664202052      45.8401368       0.743609467      -43.8303255      0.743609467      -43.8303255      0.664490531      45.8402753       
217              0.667765837      45.5485653       0.740439706      -44.1248577      0.740439706      -44.1248577      0.66805586       45.5487025       
219              0.671287976      45.2589729       0.737276814      -44.4173554      0.737276814      -44.4173554      0.671579526      45.2591087       
221              0.674768899      44.9713478       0.734121087      -44.7078317      0.734121087      -44.7078317      0.675061957      44.9714823       
223              0.678209034      44.6856783       0.730972805      -44.9962999      0.730972805      -44.9962999      0.678503582      44.6858116       
225              0.681608807      44.4019525       0.727832242      -45.2827733      0.727832242      -45.2827733      0.681904828      44.4020845       
227              0.684968648      44.1201581       0.72469966       -45.5672653      0.72469966       -45.5672653      0.685266124      44.1202889       
229              0.688288982      43.840283        0.721575313      -45.8497896      0.721575313      -45.8497896      0.688587897      43.8404126       
231              0.691570236      43.5623147       0.718459445      -46.1303597      0.718459445      -46.1303597      0.691870572      43.5624431       
233              0.694812836      43.2862407       0.715352289      -46.4089894      0.715352289      -46.4089894      0.695114576      43.2863679       
235              0.698017204      43.0120483       0.712254071      -46.6856925      0.712254071      -46.6856925      0.698320332      43.0121744       
237              0.701183764      42.7397249       0.709165009      -46.9604828      0.709165009      -46.9604828      0.701488263      42.7398499       
239              0.704312937      42.4692575       0.706085309      -47.2333743      0.706085309      -47.2333743      0.70461879       42.4693814       
241              0.707405141      42.2006333       0.703015171      -47.5043809      0.703015171      -47.5043809      0.707712334      42.2007561       
243              0.710460796      41.9338392       0.699954787      -47.7735167      0.699954787      -47.7735167      0.710769311      41.9339609       
245              0.713480317      41.6688622       0.69690434       -48.0407957      0.69690434       -48.0407957      0.713790139      41.6689828       
247              0.716464116      41.4056891       0.693864005      -48.306232       0.693864005      -48.306232       0.71677523       41.4058087       
249              0.719412606      41.1443067       0.690833949      -48.5698397      0.690833949      -48.5698397      0.719724996      41.1444253       
251              0.722326196      40.8847018       0.687814333      -48.8316329      0.687814333      -48.8316329      0.722639846      40.8848194       
253              0.725205292      40.6268612       0.68480531       -49.0916258      0.68480531       -49.0916258      0.725520188      40.6269778       
255              0.728050298      40.3707715       0.681807025      -49.3498324      0.681807025      -49.3498324      0.728366425      40.3708871       
