! Coilcraft 1812SMS-27N Midi Spring Air Core Inductor				
! 10 June 2003
# MHZ S MA R 50
!Freq             MagS11           AngS11           MagS21           AngS21           MagS12           AngS12           MagS22           AngS22
1                0.00244964882    41.2626576       0.998160028      -0.100104887     0.998160028      -0.100104887     0.00244995999    41.2709221       
6                0.00988479625    78.680446        0.998114233      -0.60061477      0.998114233      -0.60061477      0.00988757195    78.6834907       
11               0.017898777      83.0039358       0.998003038      -1.10106229      0.998003038      -1.10106229      0.0179039282     83.0056378       
16               0.025957916      84.3382195       0.997826502      -1.60139551      0.997826502      -1.60139551      0.0259654284     84.3393962       
21               0.0340264521     84.8026161       0.997584715      -2.1015626       0.997584715      -2.1015626       0.0340363203     84.8035145       
26               0.0420948997     84.8971488       0.997277801      -2.60151182      0.997277801      -2.60151182      0.0421071203     84.8978751       
31               0.0501589599     84.8004926       0.996905918      -3.1011916       0.996905918      -3.1011916       0.0501735298     84.8011021       
36               0.058215933      84.592334        0.996469257      -3.60055056      0.996469257      -3.60055056      0.058232849      84.592859        
41               0.0662637503     84.3135822       0.995968039      -4.09953754      0.995968039      -4.09953754      0.0662830091     84.3140433       
46               0.0743006374     83.987406        0.995402523      -4.59810164      0.995402523      -4.59810164      0.0743222354     83.987817        
51               0.0823249753     83.6279174       0.994772994      -5.09619227      0.994772994      -5.09619227      0.0823489084     83.6282881       
56               0.0903352371     83.2442105       0.994079773      -5.59375915      0.994079773      -5.59375915      0.090361501      83.2445481       
61               0.0983299559     82.8424159       0.993323211      -6.09075238      0.993323211      -6.09075238      0.098358546      82.8427259       
66               0.106307708      82.4268224       0.992503688      -6.58712245      0.992503688      -6.58712245      0.106338619      82.4271089       
71               0.114267104      82.0005246       0.991621616      -7.08282028      0.991621616      -7.08282028      0.114300331      82.0007909       
76               0.122206783      81.5658156       0.990677436      -7.57779725      0.990677436      -7.57779725      0.122242319      81.5660643       
81               0.13012541       81.124434        0.989671618      -8.07200525      0.989671618      -8.07200525      0.130163249      81.1246674       
86               0.138021673      80.6777249       0.98860466       -8.56539668      0.98860466       -8.56539668      0.138061809      80.6779447       
91               0.145894285      80.2267477       0.987477089      -9.05792448      0.987477089      -9.05792448      0.145936711      80.2269554       
96               0.153741981      79.7723504       0.986289456      -9.54954219      0.986289456      -9.54954219      0.15378669       79.7725473       
101              0.161563522      79.3152217       0.985042342      -10.0402039      0.985042342      -10.0402039      0.161610505      79.3154088       
106              0.169357688      78.8559284       0.98373635       -10.5298645      0.98373635       -10.5298645      0.169406938      78.8561066       
111              0.177123286      78.3949426       0.982372109      -11.0184794      0.982372109      -11.0184794      0.177174795      78.3951127       
116              0.184859147      77.9326621       0.980950272      -11.5060046      0.980950272      -11.5060046      0.184912905      77.9328248       
121              0.192564125      77.4694254       0.979471513      -11.9923971      0.979471513      -11.9923971      0.192620125      77.4695814       
126              0.200237103      77.0055235       0.977936532      -12.4776143      0.977936532      -12.4776143      0.200295334      77.0056733       
131              0.207876986      76.5412086       0.976346045      -12.9616147      0.976346045      -12.9616147      0.207937438      76.5413527       
136              0.215482708      76.0767013       0.974700792      -13.4443572      0.974700792      -13.4443572      0.215545371      76.0768401       
141              0.223053227      75.6121958       0.97300153       -13.9258017      0.97300153       -13.9258017      0.223118092      75.6123296       
146              0.230587532      75.1478644       0.971249037      -14.405909       0.971249037      -14.405909       0.230654587      75.1479936       
151              0.238084637      74.6838611       0.969444106      -14.8846405      0.969444106      -14.8846405      0.238153872      74.683986        
156              0.245543584      74.2203239       0.967587546      -15.3619585      0.967587546      -15.3619585      0.245614988      74.2204448       
161              0.252963445      73.7573779       0.965680184      -15.8378264      0.965680184      -15.8378264      0.253037006      73.757495        
166              0.26034332       73.2951364       0.96372286       -16.312208       0.96372286       -16.312208       0.260419026      73.29525         
171              0.267682338      72.833703        0.961716427      -16.7850685      0.961716427      -16.7850685      0.267760177      72.8338131       
176              0.274979656      72.3731723       0.959661752      -17.2563735      0.959661752      -17.2563735      0.275059616      72.3732793       
181              0.282234462      71.9136316       0.957559712      -17.7260898      0.957559712      -17.7260898      0.282316531      71.9137357       
186              0.289445974      71.4551614       0.955411197      -18.1941851      0.955411197      -18.1941851      0.289530139      71.4552626       
191              0.296613438      70.9978363       0.953217105      -18.660628       0.953217105      -18.660628       0.296699686      70.9979348       
196              0.30373613       70.5417253       0.950978342      -19.1253878      0.950978342      -19.1253878      0.303824448      70.5418213       
201              0.310813356      70.086893        0.948695825      -19.5884349      0.948695825      -19.5884349      0.310903731      70.0869866       
206              0.317844453      69.6333995       0.946370474      -20.0497407      0.946370474      -20.0497407      0.317936871      69.6334908       
211              0.324828787      69.181301        0.944003218      -20.5092775      0.944003218      -20.5092775      0.324923234      69.1813901       
216              0.331765752      68.7306502       0.94159499       -20.9670184      0.94159499       -20.9670184      0.331862215      68.7307372       
221              0.338654773      68.2814963       0.939146727      -21.4229375      0.939146727      -21.4229375      0.338753238      68.2815813       
226              0.345495305      67.8338858       0.93665937       -21.8770098      0.93665937       -21.8770098      0.345595757      67.8339689       
231              0.352286831      67.3878622       0.934133862      -22.3292114      0.934133862      -22.3292114      0.352389256      67.3879435       
236              0.359028864      66.9434665       0.931571148      -22.7795192      0.931571148      -22.7795192      0.359133247      66.943546        
241              0.365720944      66.5007373       0.928972173      -23.2279109      0.928972173      -23.2279109      0.365827271      66.5008151       
246              0.372362642      66.0597108       0.926337884      -23.6743653      0.926337884      -23.6743653      0.372470898      66.059787        
251              0.378953554      65.6204213       0.923669226      -24.1188622      0.923669226      -24.1188622      0.379063725      65.6204959       
256              0.385493307      65.1829009       0.920967142      -24.561382       0.920967142      -24.561382       0.385605377      65.1829741       
261              0.391981554      64.7471799       0.918232575      -25.0019062      0.918232575      -25.0019062      0.392095508      64.7472517       
266              0.398417975      64.3132869       0.915466462      -25.4404173      0.915466462      -25.4404173      0.398533797      64.3133573       
271              0.404802276      63.8812488       0.91266974       -25.8768985      0.91266974       -25.8768985      0.404919952      63.8813178       
276              0.411134192      63.4510906       0.909843338      -26.3113339      0.909843338      -26.3113339      0.411253706      63.4511584       
281              0.41741348       63.022836        0.906988184      -26.7437086      0.906988184      -26.7437086      0.417534818      63.0229026       
286              0.423639927      62.5965074       0.904105198      -27.1740084      0.904105198      -27.1740084      0.423763072      62.5965728       
291              0.429813341      62.1721254       0.901195294      -27.60222        0.901195294      -27.60222        0.429938278      62.1721896       
296              0.435933556      61.7497095       0.898259382      -28.0283311      0.898259382      -28.0283311      0.436060269      61.7497726       
301              0.44200043       61.3292778       0.895298361      -28.45233        0.895298361      -28.45233        0.442128903      61.3293399       
306              0.448013844      60.9108473       0.892313126      -28.8742059      0.892313126      -28.8742059      0.448144063      60.9109083       
311              0.453973703      60.4944336       0.889304562      -29.2939489      0.889304562      -29.2939489      0.454105651      60.4944936       
316              0.459879933      60.0800514       0.886273546      -29.7115496      0.886273546      -29.7115496      0.460013595      60.0801104       
321              0.465732484      59.6677139       0.883220945      -30.1269998      0.883220945      -30.1269998      0.465867843      59.667772        
326              0.471531324      59.2574337       0.880147619      -30.5402918      0.880147619      -30.5402918      0.471668365      59.2574908       
331              0.477276444      58.8492219       0.877054415      -30.9514186      0.877054415      -30.9514186      0.477415152      58.8492782       
336              0.482967855      58.443089        0.873942173      -31.360374       0.873942173      -31.360374       0.483108213      58.4431444       
341              0.488605588      58.0390443       0.87081172       -31.7671526      0.87081172       -31.7671526      0.488747581      58.0390988       
346              0.494189691      57.6370962       0.867663874      -32.1717497      0.867663874      -32.1717497      0.494333304      57.63715         
351              0.499720234      57.2372523       0.864499442      -32.5741612      0.864499442      -32.5741612      0.49986545       57.2373052       
356              0.505197302      56.8395192       0.861319218      -32.9743837      0.861319218      -32.9743837      0.505344105      56.8395713       
361              0.510620998      56.4439026       0.858123985      -33.3724144      0.858123985      -33.3724144      0.510769373      56.4439541       
366              0.515991442      56.0504077       0.854914516      -33.7682514      0.854914516      -33.7682514      0.516141374      56.0504584       
371              0.52130877       55.6590386       0.851691569      -34.1618931      0.851691569      -34.1618931      0.521460243      55.6590886       
376              0.526573136      55.2697987       0.848455893      -34.5533387      0.848455893      -34.5533387      0.526726134      55.269848        
381              0.531784705      54.8826908       0.845208223      -34.9425879      0.845208223      -34.9425879      0.531939213      54.8827394       
386              0.536943659      54.4977168       0.841949281      -35.3296412      0.841949281      -35.3296412      0.537099662      54.4977647       
391              0.542050195      54.114878        0.838679776      -35.7144994      0.838679776      -35.7144994      0.542207677      54.1149253       
396              0.547104521      53.7341751       0.835400408      -36.0971639      0.835400408      -36.0971639      0.547263466      53.7342218       
401              0.552106859      53.355608        0.832111859      -36.4776369      0.832111859      -36.4776369      0.552267253      53.3556541       
406              0.557057444      52.9791762       0.828814801      -36.8559207      0.828814801      -36.8559207      0.557219272      52.9792217       
411              0.561956522      52.6048784       0.825509894      -37.2320185      0.825509894      -37.2320185      0.562119768      52.6049233       
416              0.566804351      52.2327127       0.822197783      -37.6059337      0.822197783      -37.6059337      0.566969         52.232757        
421              0.5716012        51.8626768       0.818879101      -37.9776704      0.818879101      -37.9776704      0.571767237      51.8627206       
426              0.576347347      51.4947679       0.815554467      -38.3472329      0.815554467      -38.3472329      0.576514757      51.4948112       
431              0.58104308       51.1289824       0.812224489      -38.7146262      0.812224489      -38.7146262      0.581211849      51.1290252       
436              0.585688699      50.7653165       0.808889759      -39.0798556      0.808889759      -39.0798556      0.585858812      50.7653587       
441              0.59028451       50.4037657       0.805550859      -39.4429269      0.805550859      -39.4429269      0.590455952      50.4038074       
446              0.594830829      50.0443252       0.802208357      -39.8038462      0.802208357      -39.8038462      0.595003585      50.0443664       
451              0.599327978      49.6869896       0.798862807      -40.16262        0.798862807      -40.16262        0.599502035      49.6870304       
456              0.603776289      49.3317533       0.795514751      -40.5192552      0.795514751      -40.5192552      0.603951632      49.3317935       
461              0.608176101      48.9786099       0.79216472       -40.8737592      0.79216472       -40.8737592      0.608352715      48.9786497       
466              0.612527756      48.6275531       0.78881323       -41.2261394      0.78881323       -41.2261394      0.612705628      48.6275924       
471              0.616831607      48.2785757       0.785460785      -41.5764039      0.785460785      -41.5764039      0.617010723      48.2786147       
476              0.62108801       47.9316707       0.782107877      -41.924561       0.782107877      -41.924561       0.621268355      47.9317091       
481              0.625297328      47.5868302       0.778754985      -42.2706191      0.778754985      -42.2706191      0.625478889      47.5868682       
486              0.629459928      47.2440463       0.775402577      -42.6145871      0.775402577      -42.6145871      0.62964269       47.244084        
491              0.633576181      46.9033108       0.772051108      -42.9564743      0.772051108      -42.9564743      0.633760132      46.903348        
496              0.637646464      46.5646149       0.76870102       -43.2962899      0.76870102       -43.2962899      0.63783159       46.5646517       
501              0.641671158      46.2279499       0.765352746      -43.6340438      0.765352746      -43.6340438      0.641857445      46.2279863       
506              0.645650646      45.8933065       0.762006703      -43.9697457      0.762006703      -43.9697457      0.645838081      45.8933425       
511              0.649585316      45.5606752       0.758663301      -44.3034059      0.758663301      -44.3034059      0.649773886      45.5607109       
516              0.653475558      45.2300465       0.755322936      -44.6350346      0.755322936      -44.6350346      0.65366525       45.2300818       
521              0.657321764      44.9014103       0.751985993      -44.9646426      0.751985993      -44.9646426      0.657512566      44.9014453       
526              0.661124331      44.5747566       0.748652847      -45.2922405      0.748652847      -45.2922405      0.661316229      44.5747912       
531              0.664883656      44.2500748       0.74532386       -45.6178394      0.74532386       -45.6178394      0.665076637      44.2501091       
536              0.668600138      43.9273546       0.741999385      -45.9414503      0.741999385      -45.9414503      0.66879419       43.9273885       
541              0.672274178      43.606585        0.738679764      -46.2630847      0.738679764      -46.2630847      0.672469288      43.6066185       
546              0.675906177      43.2877551       0.735365327      -46.582754       0.735365327      -46.582754       0.676102334      43.2877883       
551              0.67949654       42.9708538       0.732056397      -46.9004698      0.732056397      -46.9004698      0.67969373       42.9708867       
556              0.68304567       42.6558699       0.728753284      -47.2162439      0.728753284      -47.2162439      0.683243882      42.6559024       
561              0.686553971      42.3427918       0.72545629       -47.5300882      0.72545629       -47.5300882      0.686753192      42.342824        
566              0.690021849      42.031608        0.722165704      -47.8420147      0.722165704      -47.8420147      0.690222068      42.0316399       
571              0.693449708      41.7223067       0.71888181       -48.1520356      0.71888181       -48.1520356      0.693650913      41.7223384       
576              0.696837953      41.4148762       0.71560488       -48.4601632      0.71560488       -48.4601632      0.697040132      41.4149076       
581              0.700186989      41.1093045       0.712335176      -48.7664097      0.712335176      -48.7664097      0.700390131      41.1093356       
586              0.70349722       40.8055795       0.709072952      -49.0707876      0.709072952      -49.0707876      0.703701313      40.8056103       
591              0.70676905       40.5036891       0.705818455      -49.3733094      0.705818455      -49.3733094      0.706974083      40.5037196       
596              0.71000288       40.203621        0.70257192       -49.6739878      0.70257192       -49.6739878      0.710208842      40.2036512       
601              0.713199114      39.9053629       0.699333575      -49.9728354      0.699333575      -49.9728354      0.713405993      39.9053928       
606              0.71635815       39.6089024       0.69610364       -50.2698649      0.69610364       -50.2698649      0.716565937      39.608932        
611              0.71948039       39.3142269       0.692882326      -50.5650891      0.692882326      -50.5650891      0.719689072      39.3142563       
616              0.722566229      39.0213241       0.689669838      -50.8585209      0.689669838      -50.8585209      0.722775797      39.0213532       
621              0.725616066      38.7301812       0.68646637       -51.150173       0.68646637       -51.150173       0.725826508      38.7302101       
626              0.728630293      38.4407857       0.683272111      -51.4400585      0.683272111      -51.4400585      0.7288416        38.4408143       
631              0.731609305      38.1531248       0.680087241      -51.7281903      0.680087241      -51.7281903      0.731821465      38.1531532       
636              0.734553491      37.867186        0.676911934      -52.0145813      0.676911934      -52.0145813      0.734766495      37.8672141       
