! Coilcraft 1812SMS-47N Midi Spring Air Core Inductor				
! 10 June 2003
# MHZ S MA R 50
!Freq             MagS11           AngS11           MagS21           AngS21           MagS12           AngS12           MagS22           AngS22
1                0.00420776568    41.8671274       0.996870788      -0.170260761     0.996870788      -0.170260761     0.00420840799    41.8768257       
6                0.0171897249     78.5050465       0.996732227      -1.02148475      0.996732227      -1.02148475      0.0171953831     78.5085316       
11               0.0311368418     82.3697432       0.996395939      -1.87236688      0.996395939      -1.87236688      0.0311473342     82.3716892       
16               0.0451471859     83.3117287       0.995862464      -2.72262302      0.995862464      -2.72262302      0.0451624807     83.3130737       
21               0.059156005      83.4044924       0.995132661      -3.57197046      0.995132661      -3.57197046      0.0591760859     83.4055192       
26               0.0731422913     83.1369275       0.994207698      -4.42012844      0.994207698      -4.42012844      0.0731671439     83.1377576       
31               0.0870937313     82.6838224       0.99308905       -5.26681882      0.99308905       -5.26681882      0.0871233403     82.6845189       
36               0.101000765      82.1232424       0.991778492      -6.11176664      0.991778492      -6.11176664      0.101035113      82.1238423       
41               0.114854993      81.4953671       0.990278092      -6.95470069      0.990278092      -6.95470069      0.114894061      81.4958938       
46               0.128648638      80.8230426       0.988590198      -7.7953541       0.988590198      -7.7953541       0.128692404      80.8235121       
51               0.142374324      80.1202647       0.986717434      -8.63346481      0.986717434      -8.63346481      0.142422764      80.1206882       
56               0.156024991      79.3961228       0.984662683      -9.46877612      0.984662683      -9.46877612      0.15607808       79.3965084       
61               0.169593852      78.6568064       0.982429078      -10.3010372      0.982429078      -10.3010372      0.169651561      78.6571604       
66               0.18307438       77.9067002       0.980019987      -11.1300034      0.980019987      -11.1300034      0.183136679      77.9070274       
71               0.196460302      77.1490166       0.977439         -11.9554368      0.977439         -11.9554368      0.196527158      77.1493207       
76               0.2097456        76.3861784       0.974689916      -12.7771066      0.974689916      -12.7771066      0.209816979      76.3864624       
81               0.222924518      75.6200599       0.971776725      -13.5947894      0.971776725      -13.5947894      0.223000383      75.6203263       
86               0.235991563      74.8521439       0.968703594      -14.4082696      0.968703594      -14.4082696      0.236071876      74.8523947       
91               0.248941514      74.0836267       0.965474851      -15.2173394      0.965474851      -15.2173394      0.249026234      74.0838637       
96               0.261769423      73.3154905       0.96209497       -16.0217996      0.96209497       -16.0217996      0.26185851       73.3157151       
101              0.274470622      72.548554        0.958568553      -16.8214593      0.958568553      -16.8214593      0.274564031      72.5487674       
106              0.287040724      71.7835088       0.954900317      -17.6161361      0.954900317      -17.6161361      0.287138411      71.783712        
111              0.299475625      71.0209458       0.951095073      -18.4056567      0.951095073      -18.4056567      0.299577543      71.0211398       
116              0.311771507      70.2613752       0.947157716      -19.1898566      0.947157716      -19.1898566      0.311877609      70.2615609       
121              0.323924835      69.5052412       0.943093203      -19.96858        0.943093203      -19.96858        0.324035073      69.5054191       
126              0.33593236       68.7529329       0.938906546      -20.7416806      0.938906546      -20.7416806      0.336046683      68.7531037       
131              0.34779111       68.0047935       0.93460279       -21.5090206      0.93460279       -21.5090206      0.347909468      68.0049577       
136              0.359498395      67.2611271       0.930187001      -22.2704717      0.930187001      -22.2704717      0.359620736      67.2612852       
141              0.371051798      66.5222036       0.925664255      -23.0259141      0.925664255      -23.0259141      0.371178069      66.522356        
146              0.38244917       65.7882638       0.921039621      -23.7752371      0.921039621      -23.7752371      0.382579318      65.7884109       
151              0.393688628      65.0595223       0.91631815       -24.5183388      0.91631815       -24.5183388      0.393822599      65.0596645       
156              0.404768544      64.3361706       0.911504865      -25.2551258      0.911504865      -25.2551258      0.404906284      64.3363082       
161              0.415687543      63.6183796       0.906604748      -25.9855134      0.906604748      -25.9855134      0.415828996      63.6185128       
166              0.426444491      62.9063014       0.901622729      -26.709425       0.901622729      -26.709425       0.426589602      62.9064306       
171              0.437038491      62.2000712       0.896563678      -27.4267924      0.896563678      -27.4267924      0.437187204      62.2001965       
176              0.44746887       61.4998084       0.891432395      -28.1375552      0.891432395      -28.1375552      0.44762113       61.4999301       
181              0.457735177      60.8056185       0.886233604      -28.8416608      0.886233604      -28.8416608      0.457890927      60.8057367       
186              0.467837165      60.1175934       0.880971941      -29.539064       0.880971941      -29.539064       0.467996349      60.1177084       
191              0.47777479       59.435813        0.875651954      -30.2297272      0.875651954      -30.2297272      0.477937353      59.4359249       
196              0.487548199      58.7603458       0.870278089      -30.9136196      0.870278089      -30.9136196      0.487714083      58.7604549       
201              0.497157716      58.0912499       0.864854693      -31.5907172      0.864854693      -31.5907172      0.497326866      58.0913561       
206              0.50660384       57.4285732       0.859386002      -32.2610027      0.859386002      -32.2610027      0.5067762        57.4286768       
211              0.515887229      56.7723548       0.853876143      -32.9244648      0.853876143      -32.9244648      0.516062744      56.7724559       
216              0.525008696      56.1226249       0.848329126      -33.5810986      0.848329126      -33.5810986      0.52518731       56.1227236       
221              0.533969194      55.4794058       0.842748845      -34.2309047      0.842748845      -34.2309047      0.534150852      55.4795022       
226              0.542769812      54.8427123       0.837139073      -34.8738892      0.837139073      -34.8738892      0.542954459      54.8428065       
231              0.551411761      54.212552        0.831503461      -35.5100636      0.831503461      -35.5100636      0.551599343      54.2126441       
236              0.559896369      53.5889261       0.825845539      -36.1394441      0.825845539      -36.1394441      0.560086833      53.5890161       
241              0.568225071      52.9718295       0.820168712      -36.7620518      0.820168712      -36.7620518      0.568418363      52.9719176       
246              0.5763994        52.3612515       0.814476262      -37.3779122      0.814476262      -37.3779122      0.576595467      52.3613378       
251              0.584420978      51.7571759       0.808771347      -37.987055       0.808771347      -37.987055       0.584619768      51.7572604       
256              0.592291511      51.1595816       0.803057003      -38.5895138      0.803057003      -38.5895138      0.592492972      51.1596644       
261              0.600012777      50.5684427       0.797336144      -39.1853259      0.797336144      -39.1853259      0.600216859      50.5685238       
266              0.607586625      49.9837291       0.791611562      -39.7745323      0.791611562      -39.7745323      0.607793277      49.9838086       
271              0.61501496       49.4054066       0.785885929      -40.3571768      0.785885929      -40.3571768      0.615224132      49.4054846       
276              0.622299743      48.8334372       0.780161802      -40.9333065      0.780161802      -40.9333065      0.622511386      48.8335137       
281              0.629442981      48.2677797       0.774441619      -41.5029713      0.774441619      -41.5029713      0.629657046      48.2678548       
286              0.636446721      47.7083895       0.768727707      -42.0662237      0.768727707      -42.0662237      0.636663161      47.7084632       
291              0.643313047      47.1552191       0.76302228       -42.6231183      0.76302228       -42.6231183      0.643531814      47.1552915       
296              0.65004407       46.6082184       0.757327443      -43.1737123      0.757327443      -43.1737123      0.650265119      46.6082895       
301              0.656641927      46.0673348       0.751645196      -43.7180646      0.751645196      -43.7180646      0.656865212      46.0674046       
306              0.663108773      45.5325134       0.745977435      -44.256236       0.745977435      -44.256236       0.663334249      45.532582        
311              0.66944678       45.0036973       0.740325954      -44.7882889      0.740325954      -44.7882889      0.669674403      45.0037648       
316              0.675658128      44.4808279       0.73469245       -45.3142874      0.73469245       -45.3142874      0.675887854      44.4808942       
321              0.681745004      43.9638447       0.729078526      -45.8342966      0.729078526      -45.8342966      0.681976792      43.96391         
326              0.6877096        43.452686        0.72348569       -46.3483831      0.72348569       -46.3483831      0.687943406      43.4527502       
331              0.693554103      42.9472886       0.717915364      -46.8566142      0.717915364      -46.8566142      0.693789888      42.9473517       
336              0.699280699      42.4475881       0.712368882      -47.3590584      0.712368882      -47.3590584      0.699518421      42.4476502       
341              0.704891565      41.9535193       0.706847494      -47.8557847      0.706847494      -47.8557847      0.705131186      41.9535804       
346              0.71038887       41.4650159       0.701352373      -48.346863       0.701352373      -48.346863       0.71063035       41.4650761       
351              0.71577477       40.9820111       0.695884612      -48.8323635      0.695884612      -48.8323635      0.71601807       40.9820704       
356              0.721051403      40.5044373       0.690445231      -49.3123569      0.690445231      -49.3123569      0.721296487      40.5044957       
361              0.726220895      40.0322265       0.685035178      -49.7869144      0.685035178      -49.7869144      0.726467725      40.032284        
366              0.731285349      39.5653102       0.679655332      -50.2561072      0.679655332      -50.2561072      0.73153389       39.5653669       
371              0.736246851      39.1036198       0.674306507      -50.7200066      0.674306507      -50.7200066      0.736497067      39.1036756       
376              0.74110746       38.6470863       0.668989455      -51.1786841      0.668989455      -51.1786841      0.741359317      38.6471413       
381              0.745869216      38.1956407       0.663704865      -51.6322112      0.663704865      -51.6322112      0.74612268       38.1956949       
386              0.750534131      37.749214        0.65845337       -52.0806592      0.65845337       -52.0806592      0.750789168      37.7492675       
391              0.755104191      37.3077372       0.653235549      -52.5240991      0.653235549      -52.5240991      0.75536077       37.3077899       
396              0.759581357      36.8711414       0.648051925      -52.962602       0.648051925      -52.962602       0.759839445      36.8711934       
401              0.763967559      36.4393581       0.642902975      -53.3962384      0.642902975      -53.3962384      0.764227125      36.4394093       
406              0.7682647        36.0123186       0.637789124      -53.8250785      0.637789124      -53.8250785      0.768525714      36.0123692       
411              0.772474654      35.5899551       0.632710755      -54.2491922      0.632710755      -54.2491922      0.772737085      35.590005        
416              0.776599263      35.1721997       0.627668205      -54.668649       0.627668205      -54.668649       0.776863083      35.1722489       
421              0.78064034       34.758985        0.622661772      -55.0835177      0.622661772      -55.0835177      0.78090552       34.7590336       
426              0.784599668      34.3502443       0.617691713      -55.4938667      0.617691713      -55.4938667      0.784866179      34.3502922       
431              0.788478996      33.9459111       0.612758248      -55.8997638      0.612758248      -55.8997638      0.788746812      33.9459585       
436              0.792280045      33.5459197       0.607861563      -56.3012762      0.607861563      -56.3012762      0.792549138      33.5459664       
441              0.796004503      33.1502046       0.603001811      -56.6984706      0.603001811      -56.6984706      0.796274846      33.1502507       
446              0.799654026      32.7587013       0.598179111      -57.0914127      0.598179111      -57.0914127      0.799925594      32.7587469       
451              0.803230239      32.3713457       0.593393555      -57.480168       0.593393555      -57.480168       0.803503007      32.3713907       
456              0.806734737      31.9880744       0.588645205      -57.8648008      0.588645205      -57.8648008      0.80700868       31.9881188       
461              0.810169081      31.6088246       0.583934097      -58.245375       0.583934097      -58.245375       0.810444176      31.6088684       
466              0.813534804      31.2335343       0.579260241      -58.6219538      0.579260241      -58.6219538      0.813811027      31.2335776       
471              0.816833405      30.8621421       0.574623626      -58.9945993      0.574623626      -58.9945993      0.817110732      30.8621849       
476              0.820066355      30.4945875       0.570024215      -59.3633731      0.570024215      -59.3633731      0.820344764      30.4946298       
481              0.823235092      30.1308106       0.565461953      -59.7283361      0.565461953      -59.7283361      0.823514561      30.1308524       
486              0.826341026      29.7707522       0.560936764      -60.0895482      0.560936764      -60.0895482      0.826621533      29.7707935       
491              0.829385536      29.414354        0.556448555      -60.4470685      0.556448555      -60.4470685      0.82966706       29.4143948       
496              0.832369971      29.0615583       0.551997215      -60.8009555      0.551997215      -60.8009555      0.832652491      29.0615987       
501              0.835295653      28.7123084       0.547582615      -61.1512667      0.547582615      -61.1512667      0.835579149      28.7123483       
506              0.838163872      28.3665482       0.543204614      -61.498059       0.543204614      -61.498059       0.838448325      28.3665876       
511              0.840975893      28.0242224       0.538863055      -61.8413882      0.538863055      -61.8413882      0.841261283      28.0242614       
516              0.843732951      27.6852766       0.534557769      -62.1813095      0.534557769      -62.1813095      0.844019259      27.6853151       
521              0.846436255      27.3496569       0.530288574      -62.5178773      0.530288574      -62.5178773      0.846723462      27.349695        
526              0.849086985      27.0173106       0.526055278      -62.851145       0.526055278      -62.851145       0.849375073      27.0173482       
531              0.851686296      26.6881854       0.521857676      -63.1811653      0.521857676      -63.1811653      0.851975248      26.6882227       
536              0.854235317      26.3622301       0.517695556      -63.5079903      0.517695556      -63.5079903      0.854525114      26.3622669       
541              0.856735149      26.039394        0.513568696      -63.8316709      0.513568696      -63.8316709      0.857025776      26.0394304       
546              0.859186872      25.7196273       0.509476865      -64.1522575      0.509476865      -64.1522575      0.859478311      25.7196633       
551              0.861591537      25.4028811       0.505419826      -64.4697995      0.505419826      -64.4697995      0.861883773      25.4029167       
556              0.863950173      25.089107        0.501397334      -64.7843458      0.501397334      -64.7843458      0.864243189      25.0891422       
561              0.866263786      24.7782576       0.497409139      -65.0959442      0.497409139      -65.0959442      0.866557567      24.7782924       
566              0.868533356      24.4702861       0.493454984      -65.4046419      0.493454984      -65.4046419      0.868827886      24.4703206       
571              0.870759843      24.1651466       0.489534606      -65.7104853      0.489534606      -65.7104853      0.871055108      24.1651806       
576              0.872944182      23.8627937       0.48564774       -66.01352        0.48564774       -66.01352        0.873240167      23.8628274       
581              0.875087289      23.563183        0.481794115      -66.3137909      0.481794115      -66.3137909      0.875383979      23.5632164       
586              0.877190056      23.2662708       0.477973457      -66.6113422      0.477973457      -66.6113422      0.877487438      23.2663038       
591              0.879253355      22.9720139       0.474185488      -66.9062173      0.474185488      -66.9062173      0.879551416      22.9720466       
596              0.881278039      22.68037         0.470429927      -67.1984587      0.470429927      -67.1984587      0.881576765      22.6804023       
601              0.883264938      22.3912975       0.466706493      -67.4881085      0.466706493      -67.4881085      0.883564316      22.3913295       
606              0.885214866      22.1047554       0.463014899      -67.775208       0.463014899      -67.775208       0.885514882      22.1047871       
611              0.887128613      21.8207034       0.45935486       -68.0597976      0.45935486       -68.0597976      0.887429256      21.8207348       
616              0.889006956      21.5391021       0.455726088      -68.3419172      0.455726088      -68.3419172      0.889308212      21.5391331       
621              0.890850649      21.2599124       0.452128292      -68.621606       0.452128292      -68.621606       0.891152507      21.2599432       
626              0.892660431      20.9830962       0.448561183      -68.8989024      0.448561183      -68.8989024      0.892962879      20.9831266       
631              0.894437021      20.7086158       0.44502447       -69.1738444      0.44502447       -69.1738444      0.894740048      20.7086459       
636              0.896181124      20.4364343       0.441517863      -69.4464691      0.441517863      -69.4464691      0.896484719      20.4364641       
