! Coilcraft 1812SMS-56N Midi Spring Air Core Inductor				
! 10 June 2003
# MHZ S MA R 50
!Freq             MagS11           AngS11           MagS21           AngS21           MagS12           AngS12           MagS22           AngS22
1                0.00523496964    39.9918095       0.995995318      -0.20098997      0.995995318      -0.20098997      0.00523563491    40.000426        
3                0.0108952345     67.8654362       0.995949816      -0.602953916     0.995949816      -0.602953916     0.0108981109     67.8714026       
5                0.0173568928     75.6767087       0.995858829      -1.00486989      0.995858829      -1.00486989      0.0173619074     75.6806261       
7                0.0239786993     78.995748        0.995722391      -1.40670595      0.995722391      -1.40670595      0.0239858119     78.9986208       
9                0.030654766      80.6991548       0.995540555      -1.80843016      0.995540555      -1.80843016      0.0306639597     80.701414        
11               0.0373535118     81.6482332       0.995313387      -2.21001069      0.995313387      -2.21001069      0.0373647778     81.6500921       
13               0.0440619497     82.1860136       0.995040973      -2.61141575      0.995040973      -2.61141575      0.0440752824     82.1875916       
15               0.0507734902     82.4753596       0.994723416      -3.01261365      0.994723416      -3.01261365      0.0507888852     82.47673         
17               0.0574842226     82.6033557       0.994360834      -3.4135728       0.994360834      -3.4135728       0.0575016763     82.6045664       
19               0.0641915192     82.6207427       0.993953362      -3.81426173      0.993953362      -3.81426173      0.0642110281     82.6218271       
21               0.070893431      82.5590734       0.993501153      -4.21464913      0.993501153      -4.21464913      0.0709149919     82.5600552       
23               0.0775883967     82.4389961       0.993004374      -4.61470381      0.993004374      -4.61470381      0.0776120062     82.4398929       
25               0.0842750907     82.2745913       0.992463211      -5.01439478      0.992463211      -5.01439478      0.0843007453     82.2754167       
27               0.0909523388     82.0757923       0.991877862      -5.4136912       0.991877862      -5.4136912       0.0909800348     82.0765568       
29               0.0976190688     81.8498096       0.991248545      -5.81256245      0.991248545      -5.81256245      0.0976488024     81.8505215       
31               0.10427428       81.6020055       0.990575491      -6.21097812      0.990575491      -6.21097812      0.104306048      81.6026716       
33               0.110917025      81.3364531       0.989858947      -6.60890803      0.989858947      -6.60890803      0.110950822      81.3370789       
35               0.117546397      81.0563028       0.989099174      -7.00632224      0.989099174      -7.00632224      0.117582219      81.0568928       
37               0.12416152       80.7640314       0.98829645       -7.40319104      0.98829645       -7.40319104      0.124199362      80.7645897       
39               0.130761545      80.4616146       0.987451064      -7.79948504      0.987451064      -7.79948504      0.130801403      80.4621442       
41               0.137345647      80.1506483       0.986563324      -8.19517509      0.986563324      -8.19517509      0.137387515      80.1511521       
43               0.143913019      79.8324372       0.985633547      -8.59023235      0.985633547      -8.59023235      0.143956893      79.8329176       
45               0.150462874      79.5080592       0.984662066      -8.98462828      0.984662066      -8.98462828      0.150508748      79.5085183       
47               0.156994441      79.1784133       0.983649228      -9.37833467      0.983649228      -9.37833467      0.157042308      79.1788529       
49               0.163506964      78.8442564       0.982595391      -9.77132364      0.982595391      -9.77132364      0.16355682       78.844678        
51               0.169999704      78.5062305       0.981500927      -10.1635676      0.981500927      -10.1635676      0.170051542      78.5066355       
53               0.176471937      78.1648848       0.980366219      -10.5550395      0.980366219      -10.5550395      0.17652575       78.1652746       
55               0.182922952      77.8206923       0.979191663      -10.9457124      0.979191663      -10.9457124      0.182978734      77.8210679       
57               0.189352055      77.4740629       0.977977665      -11.3355598      0.977977665      -11.3355598      0.189409799      77.4744252       
59               0.195758563      77.1253542       0.976724644      -11.7245558      0.976724644      -11.7245558      0.195818263      77.1257043       
61               0.202141811      76.77488         0.975433028      -12.1126746      0.975433028      -12.1126746      0.202203459      76.7752186       
63               0.208501147      76.4229171       0.974103256      -12.499891       0.974103256      -12.499891       0.208564736      76.423245        
65               0.214835934      76.0697111       0.972735777      -12.8861802      0.972735777      -12.8861802      0.214901456      76.0700288       
67               0.221145548      75.7154805       0.971331049      -13.2715176      0.971331049      -13.2715176      0.221212995      75.7157887       
69               0.227429381      75.3604213       0.96988954       -13.6558792      0.96988954       -13.6558792      0.227498746      75.3607205       
71               0.23368684       75.0047093       0.968411725      -14.0392416      0.968411725      -14.0392416      0.233758115      75.0050001       
73               0.239917348      74.6485034       0.96689809       -14.4215815      0.96689809       -14.4215815      0.239990523      74.6487862       
75               0.246120339      74.2919476       0.965349125      -14.8028763      0.965349125      -14.8028763      0.246195407      74.2922229       
77               0.252295266      73.9351728       0.963765332      -15.1831037      0.963765332      -15.1831037      0.252372218      73.9354409       
79               0.258441595      73.5782985       0.962147216      -15.562242       0.962147216      -15.562242       0.258520422      73.5785597       
81               0.264558808      73.2214338       0.96049529       -15.9402698      0.96049529       -15.9402698      0.264639502      73.2216886       
83               0.270646403      72.8646794       0.958810074      -16.3171662      0.958810074      -16.3171662      0.270728954      72.864928        
85               0.276703891      72.5081275       0.957092094      -16.692911       0.957092094      -16.692911       0.276788291      72.5083703       
87               0.2827308        72.1518635       0.955341879      -17.0674842      0.955341879      -17.0674842      0.282817039      72.1521007       
89               0.288726674      71.7959664       0.953559965      -17.4408663      0.953559965      -17.4408663      0.288814742      71.7961982       
91               0.294691071      71.4405095       0.951746892      -17.8130384      0.951746892      -17.8130384      0.294780959      71.4407362       
93               0.300623565      71.0855609       0.949903203      -18.1839821      0.949903203      -18.1839821      0.300715262      71.0857827       
95               0.306523744      70.7311839       0.948029448      -18.5536794      0.948029448      -18.5536794      0.306617242      70.731401        
97               0.312391214      70.3774379       0.946126177      -18.9221127      0.946126177      -18.9221127      0.312486502      70.3776505       
99               0.318225595      70.0243782       0.944193943      -19.2892651      0.944193943      -19.2892651      0.318322662      70.0245865       
101              0.32402652       69.6720565       0.942233304      -19.6551201      0.942233304      -19.6551201      0.324125357      69.6722607       
103              0.329793642      69.3205216       0.940244818      -20.0196616      0.940244818      -20.0196616      0.329894238      69.3207217       
105              0.335526625      68.969819        0.938229045      -20.3828741      0.938229045      -20.3828741      0.33562897       68.9700153       
107              0.341225149      68.6199916       0.936186549      -20.7447425      0.936186549      -20.7447425      0.341329233      68.6201842       
109              0.346888911      68.2710798       0.934117891      -21.1052522      0.934117891      -21.1052522      0.346994722      68.2712689       
111              0.352517621      67.9231216       0.932023635      -21.4643893      0.932023635      -21.4643893      0.352625149      67.9233073       
113              0.358111003      67.5761529       0.929904345      -21.8221399      0.929904345      -21.8221399      0.358220237      67.5763352       
115              0.363668798      67.2302074       0.927760586      -22.1784912      0.927760586      -22.1784912      0.363779727      67.2303865       
117              0.36919076       66.8853171       0.92559292       -22.5334304      0.92559292       -22.5334304      0.369303373      66.8854932       
119              0.374676657      66.5415121       0.923401911      -22.8869453      0.923401911      -22.8869453      0.374790944      66.5416852       
121              0.380126273      66.1988209       0.921188122      -23.2390243      0.921188122      -23.2390243      0.380242221      66.1989911       
123              0.385539403      65.8572705       0.918952112      -23.5896561      0.918952112      -23.5896561      0.385657002      65.8574378       
125              0.390915859      65.5168861       0.91669444       -23.9388301      0.91669444       -23.9388301      0.391035098      65.5170508       
127              0.396255465      65.177692        0.914415665      -24.2865359      0.914415665      -24.2865359      0.396376333      65.1778541       
129              0.401558059      64.8397109       0.912116341      -24.6327637      0.912116341      -24.6327637      0.401680544      64.8398704       
131              0.406823492      64.5029641       0.909797021      -24.9775042      0.909797021      -24.9775042      0.406947583      64.5031212       
133              0.412051629      64.1674721       0.907458255      -25.3207483      0.907458255      -25.3207483      0.412177314      64.1676268       
135              0.417242346      63.8332541       0.905100589      -25.6624878      0.905100589      -25.6624878      0.417369614      63.8334065       
137              0.422395534      63.5003281       0.902724568      -26.0027145      0.902724568      -26.0027145      0.422524374      63.5004782       
139              0.427511096      63.1687113       0.900330732      -26.3414208      0.900330732      -26.3414208      0.427641495      63.1688592       
141              0.432588945      62.8384197       0.897919618      -26.6785997      0.897919618      -26.6785997      0.432720893      62.8385655       
143              0.437629009      62.5094687       0.895491758      -27.0142443      0.895491758      -27.0142443      0.437762493      62.5096124       
145              0.442631226      62.1818724       0.893047681      -27.3483485      0.893047681      -27.3483485      0.442766236      62.1820141       
147              0.447595546      61.8556444       0.890587912      -27.6809062      0.890587912      -27.6809062      0.44773207       61.8557841       
149              0.452521932      61.5307972       0.888112971      -28.011912       0.888112971      -28.011912       0.452659958      61.5309351       
151              0.457410355      61.2073428       0.885623372      -28.3413609      0.885623372      -28.3413609      0.457549871      61.2074788       
153              0.462260799      60.8852923       0.883119627      -28.6692482      0.883119627      -28.6692482      0.462401794      60.8854265       
155              0.467073259      60.5646559       0.88060224       -28.9955695      0.88060224       -28.9955695      0.467215721      60.5647884       
157              0.471847739      60.2454435       0.878071711      -29.320321       0.878071711      -29.320321       0.471991656      60.2455743       
159              0.476584253      59.9276641       0.875528537      -29.6434992      0.875528537      -29.6434992      0.476729614      59.9277931       
161              0.481282826      59.6113259       0.872973205      -29.9651009      0.872973205      -29.9651009      0.48142962       59.6114533       
163              0.485943493      59.2964367       0.870406201      -30.2851234      0.870406201      -30.2851234      0.486091708      59.2965626       
165              0.490566296      58.9830038       0.867828002      -30.6035641      0.867828002      -30.6035641      0.490715921      58.9831281       
167              0.49515129       58.6710336       0.86523908       -30.9204212      0.86523908       -30.9204212      0.495302312      58.6711564       
169              0.499698535      58.3605321       0.862639903      -31.2356927      0.862639903      -31.2356927      0.499850943      58.3606535       
171              0.504208102      58.0515049       0.86003093       -31.5493774      0.86003093       -31.5493774      0.504361885      58.0516248       
173              0.508680071      57.7439569       0.857412616      -31.8614742      0.857412616      -31.8614742      0.508835216      57.7440754       
175              0.513114526      57.4378925       0.854785408      -32.1719824      0.854785408      -32.1719824      0.513271024      57.4380096       
177              0.517511565      57.1333157       0.85214975       -32.4809015      0.85214975       -32.4809015      0.517669402      57.1334314       
179              0.521871289      56.8302299       0.849506076      -32.7882314      0.849506076      -32.7882314      0.522030455      56.8303443       
181              0.526193807      56.5286382       0.846854815      -33.0939725      0.846854815      -33.0939725      0.526354291      56.5287514       
183              0.530479239      56.2285433       0.844196391      -33.3981251      0.844196391      -33.3981251      0.530641028      56.2286552       
185              0.534727707      55.9299472       0.841531219      -33.70069        0.841531219      -33.70069        0.534890791      55.9300578       
187              0.538939342      55.6328517       0.83885971       -34.0016685      0.83885971       -34.0016685      0.53910371       55.6329611       
189              0.543114282      55.3372582       0.836182266      -34.3010617      0.836182266      -34.3010617      0.543279922      55.3373665       
191              0.547252671      55.0431677       0.833499284      -34.5988713      0.833499284      -34.5988713      0.547419572      55.0432748       
193              0.551354658      54.7505807       0.830811154      -34.8950993      0.830811154      -34.8950993      0.551522809      54.7506867       
195              0.555420398      54.4594976       0.828118259      -35.1897477      0.828118259      -35.1897477      0.555589788      54.4596024       
197              0.559450053      54.1699182       0.825420977      -35.482819       0.825420977      -35.482819       0.559620671      54.1700219       
199              0.563443789      53.881842        0.822719676      -35.7743158      0.822719676      -35.7743158      0.563615624      53.8819447       
201              0.567401778      53.5952684       0.820014721      -36.0642409      0.820014721      -36.0642409      0.567574818      53.59537         
203              0.571324196      53.3101962       0.817306468      -36.3525975      0.817306468      -36.3525975      0.571498431      53.3102968       
205              0.575211224      53.0266241       0.814595267      -36.6393889      0.814595267      -36.6393889      0.575386644      53.0267237       
207              0.579063049      52.7445504       0.811881463      -36.9246187      0.811881463      -36.9246187      0.579239642      52.744649        
209              0.582879859      52.4639732       0.809165391      -37.2082906      0.809165391      -37.2082906      0.583057615      52.4640708       
211              0.586661851      52.1848902       0.806447383      -37.4904085      0.806447383      -37.4904085      0.586840758      52.1849869       
213              0.59040922       51.907299        0.803727761      -37.7709766      0.803727761      -37.7709766      0.590589269      51.9073947       
215              0.59412217       51.6311967       0.801006844      -38.0499993      0.801006844      -38.0499993      0.59430335       51.6312916       
217              0.597800906      51.3565805       0.798284943      -38.3274811      0.798284943      -38.3274811      0.597983206      51.3566745       
219              0.601445636      51.0834471       0.795562361      -38.6034267      0.795562361      -38.6034267      0.601629046      51.0835402       
221              0.605056572      50.8117931       0.792839396      -38.877841       0.792839396      -38.877841       0.605241082      50.8118853       
223              0.60863393       50.5416147       0.790116341      -39.1507291      0.790116341      -39.1507291      0.60881953       50.5417061       
225              0.612177927      50.2729082       0.787393481      -39.4220961      0.787393481      -39.4220961      0.612364606      50.2729987       
227              0.615688783      50.0056694       0.784671094      -39.6919475      0.784671094      -39.6919475      0.615876531      50.0057591       
229              0.619166722      49.7398941       0.781949453      -39.9602887      0.781949453      -39.9602887      0.619355529      49.7399829       
231              0.622611969      49.4755777       0.779228826      -40.2271254      0.779228826      -40.2271254      0.622801825      49.4756658       
233              0.626024751      49.2127157       0.776509473      -40.4924634      0.776509473      -40.4924634      0.626215645      49.212803        
235              0.629405297      48.9513033       0.773791647      -40.7563088      0.773791647      -40.7563088      0.629597221      48.9513898       
237              0.632753839      48.6913354       0.771075599      -41.0186674      0.771075599      -41.0186674      0.632946783      48.6914211       
239              0.636070611      48.4328068       0.76836157       -41.2795456      0.76836157       -41.2795456      0.636264564      48.4328919       
241              0.639355846      48.1757124       0.765649798      -41.5389497      0.765649798      -41.5389497      0.639550799      48.1757967       
243              0.642609781      47.9200466       0.762940513      -41.796886       0.762940513      -41.796886       0.642805725      47.9201302       
245              0.645832654      47.6658039       0.760233941      -42.0533611      0.760233941      -42.0533611      0.646029578      47.6658868       
247              0.649024702      47.4129785       0.757530301      -42.3083816      0.757530301      -42.3083816      0.649222598      47.4130607       
249              0.652186167      47.1615646       0.754829807      -42.5619544      0.754829807      -42.5619544      0.652385025      47.1616461       
251              0.655317287      46.9115562       0.752132668      -42.8140861      0.752132668      -42.8140861      0.655517099      46.911637        
253              0.658418306      46.6629472       0.749439088      -43.0647838      0.749439088      -43.0647838      0.658619061      46.6630274       
255              0.661489465      46.4157314       0.746749263      -43.3140544      0.746749263      -43.3140544      0.661691155      46.4158109       
