! Coilcraft 1812SMS-R12 Midi Spring Air Core Inductor				
! 10 June 2003
# MHZ S MA R 50
!Freq             MagS11           AngS11           MagS21           AngS21           MagS12           AngS12           MagS22           AngS22
1                0.0107062181     40.9534414       0.991940182      -0.415627371     0.991940182      -0.415627371     0.0107080948     40.9648424       
3                0.0226927278     68.0213695       0.991741441      -1.24672664      0.991741441      -1.24672664      0.0227006926     68.0289783       
5                0.0362587841     75.1275694       0.991344304      -2.07735988      0.991344304      -2.07735988      0.0362726198     75.1325325       
7                0.0501196475     77.8786304       0.990749457      -2.90721758      0.990749457      -2.90721758      0.0501392429     77.8822626       
9                0.064062613      79.0729543       0.989957928      -3.73599206      0.989957928      -3.73599206      0.064087916      79.0758082       
11               0.0780200954     79.5427578       0.988971077      -4.56337816      0.988971077      -4.56337816      0.0780510715     79.5451048       
13               0.0919606824     79.618752        0.987790592      -5.38907389      0.987790592      -5.38907389      0.0919973029     79.6207439       
15               0.105865465      79.4578794       0.986418483      -6.21278117      0.986418483      -6.21278117      0.105907703      79.4596088       
17               0.119720855      79.1441134       0.984857069      -7.03420641      0.984857069      -7.03420641      0.119768681      79.1456412       
19               0.133515904      78.7264636       0.983108969      -7.85306121      0.983108969      -7.85306121      0.133569287      78.7278317       
21               0.147241152      78.2354881       0.981177089      -8.6690629       0.981177089      -8.6690629       0.147300061      78.2367267       
23               0.160888085      77.6912609       0.979064609      -9.48193512      0.979064609      -9.48193512      0.160952486      77.6923922       
25               0.174448857      77.1075403       0.976774971      -10.2914084      0.976774971      -10.2914084      0.174518712      77.1085814       
27               0.18791614       76.4940945       0.974311859      -11.0972206      0.974311859      -11.0972206      0.187991409      76.4950587       
29               0.201283042      75.8580695       0.97167919       -11.8991173      0.97167919       -11.8991173      0.201363684      75.8589673       
31               0.214543062      75.2048292       0.968881088      -12.6968524      0.968881088      -12.6968524      0.214629033      75.2056692       
33               0.22769006       74.5384911       0.965921876      -13.4901884      0.965921876      -13.4901884      0.227781313      74.5392801       
35               0.240718244      73.8622784       0.962806055      -14.2788967      0.962806055      -14.2788967      0.240814731      73.8630224       
37               0.253622162      73.178759        0.959538283      -15.0627579      0.959538283      -15.0627579      0.253723832      73.1794628       
39               0.266396692      72.4900102       0.956123362      -15.8415621      0.956123362      -15.8415621      0.266503493      72.4906779       
41               0.279037043      71.797736        0.952566218      -16.6151091      0.952566218      -16.6151091      0.279148921      71.7983711       
43               0.291538752      71.1033508       0.948871882      -17.3832086      0.948871882      -17.3832086      0.29165565       71.1039563       
45               0.303897679      70.4080419       0.945045474      -18.1456801      0.945045474      -18.1456801      0.30401954       70.4086204       
47               0.316110005      69.7128152       0.941092186      -18.9023533      0.941092186      -18.9023533      0.316236769      69.713369        
49               0.328172231      69.0185302       0.937017264      -19.6530681      0.937017264      -19.6530681      0.328303838      69.0190614       
51               0.34008117       68.3259268       0.932825991      -20.3976743      0.932825991      -20.3976743      0.340217558      68.3264371       
53               0.351833947      67.6356458       0.928523673      -21.136032       0.928523673      -21.136032       0.351975053      67.6361367       
55               0.363427989      66.9482451       0.924115622      -21.8680112      0.924115622      -21.8680112      0.363573749      66.9487181       
57               0.374861021      66.2642126       0.919607143      -22.5934918      0.919607143      -22.5934918      0.375011371      66.264669        
59               0.386131061      65.5839767       0.915003519      -23.3123639      0.915003519      -23.3123639      0.386285935      65.5844175       
61               0.397236408      64.9079142       0.910309999      -24.0245267      0.910309999      -24.0245267      0.397395739      64.9083405       
63               0.408175636      64.2363574       0.905531784      -24.7298895      0.905531784      -24.7298895      0.408339358      64.2367701       
65               0.418947586      63.5695997       0.900674019      -25.4283706      0.900674019      -25.4283706      0.419115631      63.5699996       
67               0.429551354      62.9078998       0.895741778      -26.1198973      0.895741778      -26.1198973      0.429723655      62.9082877       
69               0.439986285      62.2514863       0.890740058      -26.8044062      0.890740058      -26.8044062      0.440162773      62.2518629       
71               0.450251959      61.6005604       0.885673768      -27.4818421      0.885673768      -27.4818421      0.450432567      61.6009263       
73               0.460348182      60.955299        0.880547723      -28.1521584      0.880547723      -28.1521584      0.460532843      60.9556548       
75               0.470274979      60.3158569       0.875366634      -28.8153165      0.875366634      -28.8153165      0.470463623      60.3162031       
77               0.480032575      59.6823692       0.870135105      -29.4712857      0.870135105      -29.4712857      0.480225135      59.6827063       
79               0.489621394      59.0549527       0.864857625      -30.1200427      0.864857625      -30.1200427      0.489817801      59.0552812       
81               0.49904204       58.433708        0.859538564      -30.7615715      0.859538564      -30.7615715      0.499242227      58.4340282       
83               0.508295291      57.8187203       0.854182168      -31.395863       0.854182168      -31.395863       0.508499191      57.8190328       
85               0.517382087      57.2100614       0.848792558      -32.0229147      0.848792558      -32.0229147      0.517589633      57.2103664       
87               0.526303519      56.6077901       0.843373725      -32.6427305      0.843373725      -32.6427305      0.526514644      56.608088        
89               0.535060818      56.0119538       0.837929529      -33.2553201      0.837929529      -33.2553201      0.535275457      56.0122449       
91               0.543655347      55.422589        0.832463696      -33.8606991      0.832463696      -33.8606991      0.543873434      55.4228736       
93               0.55208859       54.8397224       0.82697982       -34.4588884      0.82697982       -34.4588884      0.55231006       54.8400009       
95               0.56036214       54.2633717       0.82148136       -35.049914       0.82148136       -35.049914       0.56058693       54.2636442       
97               0.568477694      53.693546        0.815971641      -35.6338067      0.815971641      -35.6338067      0.568705739      53.6938128       
99               0.57643704       53.1302468       0.810453855      -36.2106018      0.810453855      -36.2106018      0.576668278      53.1305081       
101              0.584242052      52.5734684       0.80493106       -36.7803389      0.80493106       -36.7803389      0.58447642       52.5737245       
103              0.591894676      52.0231985       0.799406184      -37.3430614      0.799406184      -37.3430614      0.592132114      52.0234495       
105              0.599396929      51.4794188       0.793882024      -37.8988167      0.793882024      -37.8988167      0.599637376      51.4796649       
107              0.606750885      50.9421053       0.78836125       -38.4476553      0.78836125       -38.4476553      0.606994283      50.9423468       
109              0.613958674      50.411229        0.782846406      -38.989631       0.782846406      -38.989631       0.614204962      50.4114659       
111              0.621022467      49.886756        0.777339912      -39.5248006      0.777339912      -39.5248006      0.621271588      49.8869886       
113              0.627944477      49.3686484       0.771844068      -40.0532235      0.771844068      -40.0532235      0.628196374      49.3688767       
115              0.634726949      48.8568639       0.766361056      -40.5749615      0.766361056      -40.5749615      0.634981566      48.8570882       
117              0.641372154      48.351357        0.760892941      -41.0900789      0.760892941      -41.0900789      0.641629436      48.3515774       
119              0.647882385      47.8520787       0.755441678      -41.5986418      0.755441678      -41.5986418      0.648142278      47.8522952       
121              0.654259951      47.358977        0.750009112      -42.1007183      0.750009112      -42.1007183      0.654522402      47.3591899       
123              0.660507173      46.8719973       0.744596983      -42.5963781      0.744596983      -42.5963781      0.660772128      46.8722067       
125              0.666626376      46.3910825       0.739206927      -43.0856922      0.739206927      -43.0856922      0.666893785      46.3912885       
127              0.67261989       45.9161735       0.733840483      -43.5687333      0.733840483      -43.5687333      0.672889702      45.9163761       
129              0.678490043      45.4472088       0.728499092      -44.0455749      0.728499092      -44.0455749      0.678762209      45.4474082       
131              0.684239158      44.9841256       0.723184104      -44.5162915      0.723184104      -44.5162915      0.684513628      44.9843219       
133              0.689869547      44.5268595       0.717896778      -44.9809586      0.717896778      -44.9809586      0.690146274      44.5270527       
135              0.695383515      44.0753444       0.712638289      -45.4396523      0.712638289      -45.4396523      0.695662452      44.0755347       
137              0.700783349      43.6295135       0.707409728      -45.8924493      0.707409728      -45.8924493      0.701064451      43.6297009       
139              0.706071321      43.1892988       0.702212109      -46.3394267      0.702212109      -46.3394267      0.706354542      43.1894834       
141              0.711249681      42.7546314       0.697046367      -46.7806619      0.697046367      -46.7806619      0.711534978      42.7548132       
143              0.716320662      42.3254417       0.691913366      -47.2162326      0.691913366      -47.2162326      0.716607991      42.325621        
145              0.72128647       41.9016597       0.686813899      -47.6462165      0.686813899      -47.6462165      0.721575789      41.9018364       
147              0.726149287      41.4832149       0.681748694      -48.0706914      0.681748694      -48.0706914      0.726440555      41.4833891       
149              0.730911269      41.0700363       0.676718414      -48.4897351      0.676718414      -48.4897351      0.731204444      41.0702081       
151              0.735574542      40.6620529       0.671723661      -48.9034251      0.671723661      -48.9034251      0.735869586      40.6622223       
153              0.740141206      40.2591936       0.666764979      -49.3118387      0.666764979      -49.3118387      0.74043808       40.2593607       
155              0.744613328      39.8613872       0.661842858      -49.7150529      0.661842858      -49.7150529      0.744911993      39.861552        
157              0.748992944      39.4685624       0.656957734      -50.1131445      0.656957734      -50.1131445      0.749293363      39.4687251       
159              0.753282059      39.0806484       0.652109994      -50.5061896      0.652109994      -50.5061896      0.753584197      39.0808089       
161              0.757482646      38.6975744       0.647299976      -50.8942641      0.647299976      -50.8942641      0.757786466      38.6977329       
163              0.761596643      38.31927         0.642527975      -51.277443       0.642527975      -51.277443       0.761902111      38.3194264       
165              0.765625956      37.9456649       0.637794241      -51.655801       0.637794241      -51.655801       0.765933037      37.9458194       
167              0.769572455      37.5766896       0.633098985      -52.0294122      0.633098985      -52.0294122      0.769881117      37.5768421       
169              0.773437978      37.2122748       0.628442381      -52.3983498      0.628442381      -52.3983498      0.773748187      37.2124254       
171              0.777224327      36.8523518       0.623824563      -52.7626866      0.623824563      -52.7626866      0.777536053      36.8525005       
173              0.780933271      36.4968523       0.619245634      -53.1224943      0.619245634      -53.1224943      0.781246481      36.4969992       
175              0.784566544      36.1457088       0.614705663      -53.4778442      0.614705663      -53.4778442      0.784881208      36.145854        
177              0.788125844      35.7988544       0.61020469       -53.8288066      0.61020469       -53.8288066      0.788441933      35.7989978       
179              0.791612837      35.4562226       0.605742726      -54.1754511      0.605742726      -54.1754511      0.791930322      35.4563644       
181              0.795029154      35.117748        0.601319754      -54.5178462      0.601319754      -54.5178462      0.795348006      35.1178881       
183              0.798376391      34.7833655       0.596935732      -54.8560601      0.596935732      -54.8560601      0.798696583      34.783504        
185              0.801656113      34.4530111       0.592590596      -55.1901595      0.592590596      -55.1901595      0.801977616      34.453148        
187              0.804869848      34.1266213       0.588284257      -55.5202107      0.588284257      -55.5202107      0.805192638      34.1267566       
189              0.808019095      33.8041334       0.584016607      -55.8462789      0.584016607      -55.8462789      0.808343144      33.8042672       
191              0.811105316      33.4854855       0.579787517      -56.1684285      0.579787517      -56.1684285      0.8114306        33.4856178       
193              0.814129945      33.1706167       0.575596843      -56.4867228      0.575596843      -56.4867228      0.814456438      33.1707475       
195              0.817094381      32.8594666       0.57144442       -56.8012245      0.57144442       -56.8012245      0.81742206       32.859596        
197              0.819999993      32.5519757       0.567330069      -57.1119952      0.567330069      -57.1119952      0.820328834      32.5521037       
199              0.822848119      32.2480856       0.563253597      -57.4190956      0.563253597      -57.4190956      0.823178098      32.2482122       
201              0.825640065      31.9477383       0.559214797      -57.7225855      0.559214797      -57.7225855      0.825971161      31.9478635       
203              0.82837711       31.6508769       0.555213448      -58.0225239      0.555213448      -58.0225239      0.8287093        31.6510008       
205              0.831060501      31.3574453       0.55124932       -58.3189686      0.55124932       -58.3189686      0.831393763      31.3575679       
207              0.833691457      31.0673881       0.547322169      -58.6119768      0.547322169      -58.6119768      0.83402577       31.0675095       
209              0.836271168      30.780651        0.543431743      -58.9016046      0.543431743      -58.9016046      0.836606512      30.7807712       
211              0.838800796      30.4971803       0.539577781      -59.1879073      0.539577781      -59.1879073      0.839137151      30.4972992       
213              0.841281477      30.2169233       0.535760014      -59.4709393      0.535760014      -59.4709393      0.841618823      30.217041        
215              0.843714319      29.9398279       0.531978165      -59.7507541      0.531978165      -59.7507541      0.844052636      29.9399444       
217              0.846100404      29.665843        0.528231948      -60.0274043      0.528231948      -60.0274043      0.846439673      29.6659583       
219              0.848440787      29.3949183       0.524521075      -60.3009416      0.524521075      -60.3009416      0.848780991      29.3950325       
221              0.8507365        29.1270044       0.520845249      -60.5714168      0.520845249      -60.5714168      0.85107762       29.1271175       
223              0.852988548      28.8620525       0.517204169      -60.83888        0.517204169      -60.83888        0.853330567      28.8621644       
225              0.855197913      28.6000147       0.513597531      -61.1033803      0.513597531      -61.1033803      0.855540814      28.6001256       
227              0.857365554      28.340844        0.510025024      -61.3649661      0.510025024      -61.3649661      0.857709319      28.3409538       
229              0.859492405      28.084494        0.506486337      -61.6236847      0.506486337      -61.6236847      0.859837019      28.0846028       
231              0.861579379      27.8309193       0.502981153      -61.879583       0.502981153      -61.879583       0.861924825      27.8310271       
233              0.863627365      27.5800751       0.499509155      -62.1327066      0.499509155      -62.1327066      0.863973628      27.5801818       
235              0.865637234      27.3319173       0.496070022      -62.3831007      0.496070022      -62.3831007      0.865984298      27.3320231       
237              0.867609831      27.0864028       0.492663431      -62.6308095      0.492663431      -62.6308095      0.867957682      27.0865076       
239              0.869545985      26.8434891       0.489289061      -62.8758765      0.489289061      -62.8758765      0.869894607      26.8435929       
241              0.871446501      26.6031344       0.485946585      -63.1183445      0.485946585      -63.1183445      0.871795881      26.6032372       
243              0.873312167      26.3652977       0.48263568       -63.3582552      0.48263568       -63.3582552      0.87366229       26.3653995       
245              0.875143751      26.1299386       0.479356019      -63.5956501      0.479356019      -63.5956501      0.875494603      26.1300395       
247              0.876942001      25.8970175       0.476107277      -63.8305694      0.476107277      -63.8305694      0.87729357       25.8971176       
249              0.878707649      25.6664957       0.472889128      -64.0630531      0.472889128      -64.0630531      0.879059921      25.6665948       
251              0.880441408      25.4383347       0.469701246      -64.2931401      0.469701246      -64.2931401      0.880794369      25.438433        
253              0.882143973      25.212497        0.466543308      -64.5208687      0.466543308      -64.5208687      0.882497612      25.2125945       
255              0.883816022      24.9889459       0.46341499       -64.7462766      0.46341499       -64.7462766      0.884170326      24.9890424       
