! Coilcraft 1812SMS-39N Midi Spring Air Core Inductor				
! 10 June 2003
# MHZ S MA R 50
!Freq             MagS11           AngS11           MagS21           AngS21           MagS12           AngS12           MagS22           AngS22
1                0.00350527695    41.4614678       0.997376135      -0.143061351     0.997376135      -0.143061351     0.00350586492    41.4722879       
6                0.0142073325     78.5114048       0.997281531      -0.858324302     0.997281531      -0.858324302     0.0142125534     78.5153551       
11               0.0257281666     82.5811384       0.997051879      -1.57339959      0.997051879      -1.57339959      0.0257378527     82.5833458       
16               0.0373078587     83.6857103       0.996687423      -2.28813112      0.996687423      -2.28813112      0.0373219816     83.6872362       
21               0.0488935809     83.9279245       0.996188557      -3.00236329      0.996188557      -3.00236329      0.0489121278     83.9290895       
26               0.0604696872     83.803805        0.995555813      -3.71594125      0.995555813      -3.71594125      0.0604926481     83.8047468       
31               0.0720278899     83.490643        0.994789867      -4.42871111      0.994789867      -4.42871111      0.0720552546     83.4914332       
36               0.0835621936     83.0675595       0.993891535      -5.14052014      0.993891535      -5.14052014      0.0835939511     83.0682401       
41               0.0950675323     82.5752207       0.992861767      -5.85121703      0.992861767      -5.85121703      0.0951036702     82.5758185       
46               0.106539298      82.0366995       0.991701651      -6.56065206      0.991701651      -6.56065206      0.106579802      82.0372323       
51               0.117973149      81.4660866       0.990412404      -7.26867736      0.990412404      -7.26867736      0.118018006      81.4665672       
56               0.12936493       80.8724954       0.988995369      -7.97514704      0.988995369      -7.97514704      0.129414121      80.872933        
61               0.140710623      80.2620987       0.987452014      -8.67991744      0.987452014      -8.67991744      0.140764132      80.2625004       
66               0.152006339      79.6392411       0.985783927      -9.3828473       0.985783927      -9.3828473       0.152064146      79.6396123       
71               0.163248298      79.0070811       0.983992808      -10.0837979      0.983992808      -10.0837979      0.163310382      79.0074262       
76               0.174432834      78.3679801       0.98208047       -10.7826333      0.98208047       -10.7826333      0.174499173      78.3683024       
81               0.185556391      77.7237471       0.980048829      -11.4792205      0.980048829      -11.4792205      0.185626962      77.7240494       
86               0.196615524      77.0757986       0.9778999        -12.1734294      0.9778999        -12.1734294      0.196690301      77.0760833       
91               0.2076069        76.4252652       0.975635793      -12.8651332      0.975635793      -12.8651332      0.207685858      76.4255341       
96               0.218527304      75.7730649       0.973258708      -13.5542085      0.973258708      -13.5542085      0.218610416      75.7733198       
101              0.229373637      75.1199551       0.970770925      -14.2405351      0.970770925      -14.2405351      0.229460874      75.1201973       
106              0.240142922      74.4665693       0.968174803      -14.9239965      0.968174803      -14.9239965      0.240234254      74.4668001       
111              0.250832302      73.8134445       0.96547277       -15.60448        0.96547277       -15.60448        0.2509277        73.8136647       
116              0.261439046      73.1610403       0.962667322      -16.2818762      0.962667322      -16.2818762      0.261538477      73.161251        
121              0.271960549      72.509755        0.959761012      -16.9560799      0.959761012      -16.9560799      0.272063981      72.509957        
126              0.282394332      71.8599364       0.956756447      -17.6269896      0.956756447      -17.6269896      0.282501731      71.8601303       
131              0.292738044      71.2118906       0.95365628       -18.2945077      0.95365628       -18.2945077      0.292849375      71.212077        
136              0.302989464      70.5658893       0.950463205      -18.9585408      0.950463205      -18.9585408      0.303104693      70.5660688       
141              0.313146499      69.9221746       0.947179954      -19.6189991      0.947179954      -19.6189991      0.313265589      69.9223476       
146              0.323207184      69.2809639       0.943809286      -20.2757973      0.943809286      -20.2757973      0.323330098      69.2811309       
151              0.333169685      68.642453        0.940353984      -20.9288537      0.940353984      -20.9288537      0.333296386      68.6426144       
156              0.343032294      68.0068189       0.936816851      -21.578091       0.936816851      -21.578091       0.343162743      68.0069751       
161              0.352793429      67.3742222       0.933200702      -22.2234357      0.933200702      -22.2234357      0.352927588      67.3743735       
166              0.362451637      66.7448092       0.929508359      -22.8648185      0.929508359      -22.8648185      0.362589466      66.7449558       
171              0.372005584      66.1187127       0.925742649      -23.502174       0.925742649      -23.502174       0.372147044      66.118855        
176              0.381454064      65.4960542       0.921906394      -24.135441       0.921906394      -24.135441       0.381599114      65.4961924       
181              0.390795986      64.8769444       0.918002412      -24.7645618      0.918002412      -24.7645618      0.390944585      64.8770787       
186              0.400030381      64.2614845       0.914033508      -25.3894832      0.914033508      -25.3894832      0.400182488      64.2616151       
191              0.409156392      63.6497666       0.910002472      -26.0101553      0.910002472      -26.0101553      0.409311965      63.6498938       
196              0.418173277      63.041875        0.905912075      -26.6265324      0.905912075      -26.6265324      0.418332275      63.0419989       
201              0.427080404      62.4378861       0.901765062      -27.2385724      0.901765062      -27.2385724      0.427242785      62.4380068       
206              0.435877248      61.8378694       0.897564156      -27.8462368      0.897564156      -27.8462368      0.436042969      61.8379871       
211              0.444563386      61.2418879       0.893312044      -28.4494907      0.893312044      -28.4494907      0.444732405      61.2420027       
216              0.453138498      60.6499983       0.889011385      -29.0483029      0.889011385      -29.0483029      0.453310773      60.6501104       
221              0.461602361      60.0622517       0.884664796      -29.6426455      0.884664796      -29.6426455      0.461777849      60.0623613       
226              0.469954847      59.4786938       0.88027486       -30.2324939      0.88027486       -30.2324939      0.470133505      59.4788008       
231              0.478195916      58.8993649       0.875844116      -30.8178271      0.875844116      -30.8178271      0.478377702      58.8994695       
236              0.486325618      58.3243007       0.871375059      -31.3986268      0.871375059      -31.3986268      0.486510489      58.324403        
241              0.494344086      57.7535323       0.866870138      -31.9748783      0.866870138      -31.9748783      0.494531999      57.7536325       
246              0.502251531      57.1870865       0.862331756      -32.5465695      0.862331756      -32.5465695      0.502442444      57.1871846       
251              0.510048244      56.6249859       0.857762265      -33.1136914      0.857762265      -33.1136914      0.510242114      56.625082        
256              0.517734586      56.0672493       0.853163966      -33.6762378      0.853163966      -33.6762378      0.517931372      56.0673434       
261              0.525310991      55.5138918       0.84853911       -34.2342051      0.84853911       -34.2342051      0.525510649      55.513984        
266              0.532777955      54.9649248       0.843889892      -34.7875926      0.843889892      -34.7875926      0.532980445      54.9650153       
271              0.54013604       54.4203568       0.839218456      -35.3364018      0.839218456      -35.3364018      0.540341319      54.4204455       
276              0.547385865      53.8801927       0.834526889      -35.8806367      0.834526889      -35.8806367      0.547593892      53.8802797       
281              0.554528106      53.3444346       0.829817223      -36.4203039      0.829817223      -36.4203039      0.55473884       53.3445201       
286              0.561563491      52.8130819       0.825091436      -36.9554118      0.825091436      -36.9554118      0.56177689       52.8131658       
291              0.568492796      52.2861312       0.820351448      -37.4859713      0.820351448      -37.4859713      0.568708821      52.2862135       
296              0.575316847      51.7635764       0.815599124      -38.0119951      0.815599124      -38.0119951      0.575535456      51.7636573       
301              0.582036508      51.2454091       0.810836272      -38.5334979      0.810836272      -38.5334979      0.582257662      51.2454886       
306              0.588652686      50.7316188       0.806064644      -39.0504964      0.806064644      -39.0504964      0.588876345      50.7316969       
311              0.595166325      50.2221926       0.801285937      -39.5630089      0.801285937      -39.5630089      0.59539245       50.2222694       
316              0.601578401      49.7171156       0.796501792      -40.0710553      0.796501792      -40.0710553      0.601806953      49.7171912       
321              0.607889924      49.2163712       0.791713795      -40.5746575      0.791713795      -40.5746575      0.608120864      49.2164455       
326              0.614101931      48.7199406       0.786923477      -41.0738383      0.786923477      -41.0738383      0.614335221      48.7200137       
331              0.620215487      48.2278037       0.782132316      -41.5686224      0.782132316      -41.5686224      0.620451089      48.2278756       
336              0.626231677      47.7399385       0.777341734      -42.0590356      0.777341734      -42.0590356      0.626469555      47.7400093       
341              0.632151613      47.2563217       0.772553104      -42.5451051      0.772553104      -42.5451051      0.632391728      47.2563913       
346              0.637976421      46.7769284       0.767767745      -43.0268591      0.767767745      -43.0268591      0.638218737      46.776997        
351              0.643707246      46.3017327       0.762986925      -43.5043269      0.762986925      -43.5043269      0.643951728      46.3018003       
356              0.649345247      45.8307071       0.758211862      -43.9775392      0.758211862      -43.9775392      0.649591859      45.8307737       
361              0.654891598      45.3638233       0.753443725      -44.4465271      0.753443725      -44.4465271      0.655140304      45.3638889       
366              0.66034748       44.9010516       0.748683635      -44.911323       0.748683635      -44.911323       0.660598246      44.9011162       
371              0.665714086      44.4423616       0.743932665      -45.37196        0.743932665      -45.37196        0.665966878      44.4424253       
376              0.670992616      43.9877219       0.739191843      -45.828472       0.739191843      -45.828472       0.6712474        43.9877847       
381              0.676184275      43.5371002       0.734462151      -46.2808934      0.734462151      -46.2808934      0.676441017      43.5371621       
386              0.681290271      43.0904635       0.729744526      -46.7292595      0.729744526      -46.7292595      0.681548939      43.0905245       
391              0.686311817      42.6477781       0.725039865      -47.173606       0.725039865      -47.173606       0.686572378      42.6478383       
396              0.691250125      42.2090096       0.72034902       -47.6139693      0.72034902       -47.6139693      0.691512547      42.2090689       
401              0.696106408      41.774123        0.715672802      -48.0503861      0.715672802      -48.0503861      0.69637066       41.7741816       
406              0.700881879      41.3430829       0.711011986      -48.4828936      0.711011986      -48.4828936      0.701147929      41.3431407       
411              0.705577745      40.9158534       0.706367305      -48.9115293      0.706367305      -48.9115293      0.705845563      40.9159105       
416              0.710195213      40.4923981       0.701739456      -49.3363312      0.701739456      -49.3363312      0.710464769      40.4924544       
421              0.714735483      40.0726803       0.697129098      -49.7573375      0.697129098      -49.7573375      0.715006747      40.0727359       
426              0.719199752      39.6566629       0.692536857      -50.1745865      0.692536857      -50.1745865      0.719472695      39.6567178       
431              0.723589207      39.2443087       0.687963324      -50.5881169      0.687963324      -50.5881169      0.7238638        39.2443628       
436              0.72790503       38.83558         0.683409055      -50.9979675      0.683409055      -50.9979675      0.728181245      38.8356334       
441              0.732148396      38.4304391       0.678874577      -51.4041772      0.678874577      -51.4041772      0.732426205      38.4304919       
446              0.736320469      38.0288481       0.674360385      -51.806785       0.674360385      -51.806785       0.736599845      38.0289002       
451              0.740422405      37.630769        0.669866942      -52.2058299      0.669866942      -52.2058299      0.74070332       37.6308205       
456              0.74445535       37.2361637       0.665394686      -52.6013511      0.665394686      -52.6013511      0.744737778      37.2362146       
461              0.748420438      36.844994        0.660944022      -52.9933876      0.660944022      -52.9933876      0.748704353      36.8450443       
466              0.752318794      36.4572218       0.656515334      -53.3819785      0.656515334      -53.3819785      0.75260417       36.4572715       
471              0.756151531      36.0728089       0.652108975      -53.7671627      0.652108975      -53.7671627      0.756438342      36.0728579       
476              0.759919748      35.6917171       0.647725275      -54.1489793      0.647725275      -54.1489793      0.76020797       35.6917656       
481              0.763624535      35.3139084       0.64336454       -54.527467       0.64336454       -54.527467       0.763914144      35.3139563       
486              0.767266967      34.9393448       0.639027054      -54.9026645      0.639027054      -54.9026645      0.767557939      34.9393922       
491              0.770848108      34.5679884       0.634713076      -55.2746104      0.634713076      -55.2746104      0.771140418      34.5680352       
496              0.774369007      34.1998014       0.630422845      -55.643343       0.630422845      -55.643343       0.774662633      34.1998478       
501              0.7778307        33.8347464       0.626156581      -56.0089004      0.626156581      -56.0089004      0.778125619      33.8347922       
506              0.781234211      33.4727858       0.62191448       -56.3713208      0.62191448       -56.3713208      0.7815304        33.4728311       
511              0.784580548      33.1138824       0.617696724      -56.7306418      0.617696724      -56.7306418      0.784877985      33.1139272       
516              0.787870706      32.7579992       0.613503474      -57.086901       0.613503474      -57.086901       0.78816937       32.7580435       
521              0.791105667      32.4050994       0.609334874      -57.4401356      0.609334874      -57.4401356      0.791405536      32.4051432       
526              0.794286398      32.0551463       0.605191051      -57.7903828      0.605191051      -57.7903828      0.794587451      32.0551896       
531              0.797413851      31.7081036       0.601072118      -58.1376791      0.601072118      -58.1376791      0.797716068      31.7081465       
536              0.800488965      31.3639352       0.596978169      -58.4820611      0.596978169      -58.4820611      0.800792326      31.3639777       
541              0.803512665      31.0226054       0.592909286      -58.823565       0.592909286      -58.823565       0.803817149      31.0226474       
546              0.80648586       30.6840785       0.588865538      -59.1622266      0.588865538      -59.1622266      0.806791449      30.6841201       
551              0.809409447      30.3483194       0.584846979      -59.4980815      0.584846979      -59.4980815      0.809716121      30.3483605       
556              0.812284307      30.015293        0.58085365       -59.8311649      0.58085365       -59.8311649      0.812592047      30.0153337       
561              0.815111308      29.6849648       0.57688558       -60.1615118      0.57688558       -60.1615118      0.815420095      29.6850051       
566              0.817891303      29.3573003       0.572942787      -60.4891566      0.572942787      -60.4891566      0.818201119      29.3573402       
571              0.82062513       29.0322656       0.569025279      -60.8141337      0.569025279      -60.8141337      0.820935958      29.0323051       
576              0.823313617      28.709827        0.565133051      -61.136477       0.565133051      -61.136477       0.823625439      28.7098661       
581              0.825957573      28.3899511       0.56126609       -61.4562199      0.56126609       -61.4562199      0.826270372      28.3899898       
586              0.828557797      28.0726049       0.557424373      -61.7733957      0.557424373      -61.7733957      0.828871556      28.0726432       
591              0.831115073      27.7577557       0.553607867      -62.0880373      0.553607867      -62.0880373      0.831429774      27.7577936       
596              0.833630171      27.4453711       0.549816532      -62.4001771      0.549816532      -62.4001771      0.833945799      27.4454086       
601              0.836103847      27.1354191       0.546050319      -62.7098472      0.546050319      -62.7098472      0.836420386      27.1354563       
606              0.838536846      26.8278681       0.542309172      -63.0170794      0.542309172      -63.0170794      0.83885428       26.8279049       
611              0.840929899      26.5226867       0.538593026      -63.3219051      0.538593026      -63.3219051      0.841248212      26.5227231       
616              0.843283721      26.219844        0.534901811      -63.6243554      0.534901811      -63.6243554      0.843602899      26.2198801       
621              0.84559902       25.9193094       0.53123545       -63.9244608      0.53123545       -63.9244608      0.845919046      25.9193452       
626              0.847876485      25.6210526       0.52759386       -64.2222518      0.52759386       -64.2222518      0.848197346      25.6210881       
631              0.850116796      25.3250437       0.52397695       -64.5177582      0.52397695       -64.5177582      0.850438477      25.3250789       
636              0.852320621      25.0312532       0.520384628      -64.8110095      0.520384628      -64.8110095      0.852643108      25.031288        
