! Coilcraft 1812SMS-82N Midi Spring Air Core Inductor				
! 10 June 2003
# MHZ S MA R 50
!Freq             MagS11           AngS11           MagS21           AngS21           MagS12           AngS12           MagS22           AngS22
1                0.00769544617    39.2407258       0.994052458      -0.289148675     0.994052458      -0.289148675     0.00769656162    39.2507872       
3                0.0158460511     67.1369863       0.993957006      -0.86739581      0.993957006      -0.86739581      0.0158509251     67.1441027       
5                0.0251920873     74.9308039       0.993766181      -1.44549235      0.993766181      -1.44549235      0.0252006002     74.9354946       
7                0.0347768651     78.1550828       0.993480136      -2.02333809      0.993480136      -2.02333809      0.0347889451     78.1585269       
9                0.0444391048     79.7305029       0.993099103      -2.60083309      0.993099103      -2.60083309      0.0444547205     79.7332127       
11               0.0541296063     80.5353067       0.99262339       -3.17787781      0.99262339       -3.17787781      0.0541487398     80.5375369       
13               0.0638273282     80.919882        0.992053382      -3.75437317      0.992053382      -3.75437317      0.0638499667     80.9217755       
15               0.0735209428     81.0507555       0.991389537      -4.33022072      0.991389537      -4.33022072      0.0735470755     81.0524          
17               0.0832032047     81.0170416       0.990632386      -4.90532271      0.990632386      -4.90532271      0.0832328214     81.0184947       
19               0.0928688367     80.8707063       0.989782536      -5.47958218      0.989782536      -5.47958218      0.0929019273     80.8720077       
21               0.102513615      80.6440939       0.988840663      -6.05290309      0.988840663      -6.05290309      0.102550169      80.6452722       
23               0.112133929      80.3583951       0.987807512      -6.6251904       0.987807512      -6.6251904       0.112173936      80.3594715       
25               0.121726557      80.0280808       0.986683898      -7.19635019      0.986683898      -7.19635019      0.121770004      80.0290715       
27               0.131288535      79.663378        0.985470701      -7.7662897       0.985470701      -7.7662897       0.13133541       79.6642955       
29               0.140817086      79.2717261       0.984168867      -8.33491749      0.984168867      -8.33491749      0.140867377      79.2725805       
31               0.150309579      78.8586727       0.982779402      -8.90214348      0.982779402      -8.90214348      0.150363272      78.8594721       
33               0.159763497      78.4284442       0.981303375      -9.46787903      0.981303375      -9.46787903      0.159820577      78.4291953       
35               0.169176424      77.9843219       0.97974191       -10.032037       0.97974191       -10.032037       0.169236876      77.9850301       
37               0.178546031      77.5288962       0.978096191      -10.594532       0.978096191      -10.594532       0.17860984       77.5295661       
39               0.187870074      77.0642428       0.97636745       -11.1552802      0.97636745       -11.1552802      0.187937221      77.0648784       
41               0.197146381      76.5920479       0.974556975      -11.7141995      0.974556975      -11.7141995      0.19721685       76.5926525       
43               0.206372859      76.1136977       0.972666098      -12.2712097      0.972666098      -12.2712097      0.206446632      76.1142742       
45               0.215547485      75.6303446       0.970696199      -12.8262324      0.970696199      -12.8262324      0.215624543      75.6308955       
47               0.224668309      75.1429567       0.9686487        -13.3791911      0.9686487        -13.3791911      0.224748633      75.1434841       
49               0.233733453      74.6523545       0.966525064      -13.9300114      0.966525064      -13.9300114      0.233817021      74.6528603       
51               0.242741107      74.1592397       0.96432679       -14.4786209      0.96432679       -14.4786209      0.2428279        74.1597256       
53               0.251689535      73.6642169       0.962055414      -15.0249491      0.962055414      -15.0249491      0.251779531      73.6646845       
55               0.26057707       73.1678112       0.959712502      -15.5689277      0.959712502      -15.5689277      0.260670247      73.1682618       
57               0.269402118      72.6704813       0.957299649      -16.1104906      0.957299649      -16.1104906      0.269498453      72.6709161       
59               0.278163153      72.1726307       0.95481848       -16.6495738      0.95481848       -16.6495738      0.278262624      72.1730506       
61               0.286858724      71.674616        0.952270638      -17.1861155      0.952270638      -17.1861155      0.286961307      71.6750222       
63               0.295487447      71.1767545       0.949657792      -17.7200561      0.949657792      -17.7200561      0.295593118      71.1771477       
65               0.304048012      70.6793292       0.946981627      -18.2513383      0.946981627      -18.2513383      0.304156747      70.6797103       
67               0.312539179      70.1825944       0.944243843      -18.7799067      0.944243843      -18.7799067      0.312650952      70.182964        
69               0.320959776      69.6867786       0.941446155      -19.3057086      0.941446155      -19.3057086      0.321074562      69.6871375       
71               0.329308703      69.1920887       0.938590288      -19.8286933      0.938590288      -19.8286933      0.329426477      69.1924374       
73               0.33758493       68.6987119       0.935677973      -20.3488123      0.935677973      -20.3488123      0.337705666      68.6990511       
75               0.345787494      68.2068187       0.932710948      -20.8660195      0.932710948      -20.8660195      0.345911165      68.2071487       
77               0.353915501      67.7165641       0.929690954      -21.380271       0.929690954      -21.380271       0.35404208       67.7168856       
79               0.361968124      67.2280899       0.926619734      -21.8915249      0.926619734      -21.8915249      0.362097583      67.2284032       
81               0.369944601      66.7415258       0.923499028      -22.3997417      0.923499028      -22.3997417      0.370076915      66.7418313       
83               0.377844238      66.2569904       0.920330573      -22.9048842      0.920330573      -22.9048842      0.377979378      66.2572885       
85               0.385666404      65.7745928       0.917116099      -23.4069171      0.917116099      -23.4069171      0.385804342      65.7748838       
87               0.393410529      65.2944329       0.913857331      -23.9058075      0.913857331      -23.9058075      0.393551238      65.2947171       
89               0.401076108      64.8166025       0.910555982      -24.4015244      0.910555982      -24.4015244      0.401219559      64.8168803       
91               0.408662695      64.3411861       0.907213756      -24.8940391      0.907213756      -24.8940391      0.40880886       64.3414578       
93               0.416169903      63.8682612       0.903832341      -25.3833248      0.903832341      -25.3833248      0.416318754      63.868527        
95               0.423597404      63.3978991       0.900413414      -25.8693569      0.900413414      -25.8693569      0.423748912      63.3981593       
97               0.430944925      62.9301652       0.896958632      -26.3521125      0.896958632      -26.3521125      0.431099062      62.9304199       
99               0.438212249      62.4651194       0.893469636      -26.831571       0.893469636      -26.831571       0.438368985      62.4653689       
101              0.445399212      62.0028167       0.889948049      -27.3077136      0.889948049      -27.3077136      0.445558518      62.0030613       
103              0.4525057        61.5433075       0.886395472      -27.7805233      0.886395472      -27.7805233      0.452667548      61.5435472       
105              0.459531652      61.0866375       0.882813484      -28.2499851      0.882813484      -28.2499851      0.459696013      61.0868726       
107              0.466477053      60.6328486       0.879203642      -28.7160856      0.879203642      -28.7160856      0.466643899      60.6330793       
109              0.473341938      60.1819786       0.875567481      -29.1788134      0.875567481      -29.1788134      0.473511239      60.1822051       
111              0.480126384      59.734062        0.871906508      -29.6381586      0.871906508      -29.6381586      0.480298112      59.7342843       
113              0.486830514      59.2891295       0.868222208      -30.0941131      0.868222208      -30.0941131      0.487004639      59.2893478       
115              0.493454491      58.8472089       0.864516037      -30.5466705      0.864516037      -30.5466705      0.493630985      58.8474233       
117              0.49999852       58.4083247       0.860789425      -30.9958257      0.860789425      -30.9958257      0.500177354      58.4085355       
119              0.506462843      57.9724989       0.857043775      -31.4415755      0.857043775      -31.4415755      0.506643989      57.9727061       
121              0.512847741      57.5397505       0.853280461      -31.8839179      0.853280461      -31.8839179      0.51303117       57.5399542       
123              0.519153529      57.110096        0.849500828      -32.3228524      0.849500828      -32.3228524      0.519339213      57.1102963       
125              0.525380555      56.6835495       0.845706194      -32.75838        0.845706194      -32.75838        0.525568467      56.6837466       
127              0.531529202      56.2601228       0.841897846      -33.1905031      0.841897846      -33.1905031      0.531719312      56.2603167       
129              0.537599882      55.8398255       0.838077042      -33.6192252      0.838077042      -33.6192252      0.537792162      55.8400164       
131              0.543593034      55.4226652       0.834245009      -34.0445511      0.834245009      -34.0445511      0.543787457      55.4228531       
133              0.549509127      55.0086474       0.830402946      -34.466487       0.830402946      -34.466487       0.549705666      55.0088325       
135              0.555348656      54.597776        0.826552021      -34.8850401      0.826552021      -34.8850401      0.555547283      54.5979582       
137              0.56111214       54.1900528       0.822693371      -35.3002187      0.822693371      -35.3002187      0.561312827      54.1902323       
139              0.566800121      53.7854782       0.818828104      -35.7120323      0.818828104      -35.7120323      0.567002841      53.7856551       
141              0.572413162      53.384051        0.814957299      -36.1204914      0.814957299      -36.1204914      0.572617889      53.3842253       
143              0.577951848      52.9857682       0.811082002      -36.5256073      0.811082002      -36.5256073      0.578158555      52.9859401       
145              0.583416781      52.5906258       0.807203231      -36.9273925      0.807203231      -36.9273925      0.583625442      52.5907952       
147              0.588808583      52.1986181       0.803321975      -37.3258603      0.803321975      -37.3258603      0.589019171      52.1987851       
149              0.594127891      51.8097383       0.799439193      -37.7210249      0.799439193      -37.7210249      0.59434038       51.8099031       
151              0.599375356      51.4239784       0.795555815      -38.1129013      0.795555815      -38.1129013      0.599589721      51.4241409       
153              0.604551646      51.0413291       0.79167274       -38.5015052      0.79167274       -38.5015052      0.604767861      51.0414895       
155              0.609657439      50.6617803       0.787790842      -38.8868531      0.787790842      -38.8868531      0.609875479      50.6619386       
157              0.614693427      50.2853206       0.783910963      -39.2689622      0.783910963      -39.2689622      0.614913266      50.2854768       
159              0.61966031       49.9119378       0.780033921      -39.6478505      0.780033921      -39.6478505      0.619881925      49.9120919       
161              0.624558801      49.5416186       0.776160504      -40.0235364      0.776160504      -40.0235364      0.624782167      49.5417708       
163              0.629389619      49.1743491       0.772291472      -40.3960391      0.772291472      -40.3960391      0.629614711      49.1744994       
165              0.634153492      48.8101144       0.768427561      -40.7653782      0.768427561      -40.7653782      0.634380286      48.8102628       
167              0.638851153      48.4488989       0.76456948       -41.1315739      0.76456948       -41.1315739      0.639079626      48.4490455       
169              0.643483344      48.0906863       0.76071791       -41.4946469      0.76071791       -41.4946469      0.643713471      48.0908312       
171              0.648050808      47.7354597       0.756873509      -41.8546184      0.756873509      -41.8546184      0.648282567      47.7356028       
173              0.652554295      47.3832015       0.75303691       -42.2115099      0.75303691       -42.2115099      0.652787664      47.3833429       
175              0.656994559      47.0338934       0.749208721      -42.5653434      0.749208721      -42.5653434      0.657229513      47.0340331       
177              0.661372353      46.6875168       0.745389525      -42.9161412      0.745389525      -42.9161412      0.661608871      46.6876549       
179              0.665688436      46.3440524       0.741579884      -43.2639262      0.741579884      -43.2639262      0.665926496      46.3441889       
181              0.669943566      46.0034805       0.737780336      -43.6087212      0.737780336      -43.6087212      0.670183146      46.0036154       
183              0.674138501      45.6657809       0.733991395      -43.9505496      0.733991395      -43.9505496      0.67437958       45.6659143       
185              0.678274002      45.3309332       0.730213557      -44.2894351      0.730213557      -44.2894351      0.678516558      45.3310651       
187              0.682350827      44.9989164       0.726447292      -44.6254013      0.726447292      -44.6254013      0.682594838      44.9990468       
189              0.686369733      44.6697092       0.722693054      -44.9584723      0.722693054      -44.9584723      0.686615179      44.6698382       
191              0.690331475      44.3432901       0.718951272      -45.2886724      0.718951272      -45.2886724      0.690578337      44.3434177       
193              0.694236809      44.0196372       0.715222359      -45.6160259      0.715222359      -45.6160259      0.694485065      44.0197635       
195              0.698086484      43.6987284       0.711506707      -45.9405575      0.711506707      -45.9405575      0.698336115      43.6988533       
197              0.701881249      43.3805414       0.707804688      -46.2622918      0.707804688      -46.2622918      0.702132235      43.380665        
199              0.705621849      43.0650536       0.704116659      -46.5812537      0.704116659      -46.5812537      0.705874169      43.0651759       
201              0.709309023      42.7522423       0.700442956      -46.8974679      0.700442956      -46.8974679      0.70956266       42.7523633       
203              0.712943509      42.4420845       0.696783899      -47.2109595      0.696783899      -47.2109595      0.713198444      42.4422043       
205              0.716526039      42.1345573       0.693139792      -47.5217536      0.693139792      -47.5217536      0.716782252      42.1346758       
207              0.72005734       41.8296374       0.689510922      -47.8298753      0.689510922      -47.8298753      0.720314813      41.8297547       
209              0.723538133      41.5273016       0.68589756       -48.1353495      0.68589756       -48.1353495      0.723796849      41.5274178       
211              0.726969136      41.2275265       0.682299962      -48.4382015      0.682299962      -48.4382015      0.727229076      41.2276416       
213              0.730351058      40.9302888       0.678718368      -48.7384564      0.678718368      -48.7384564      0.730612205      40.9304027       
215              0.733684606      40.6355649       0.675153006      -49.0361393      0.675153006      -49.0361393      0.733946943      40.6356777       
217              0.736970478      40.3433313       0.671604087      -49.3312753      0.671604087      -49.3312753      0.737233987      40.343443        
219              0.740209366      40.0535645       0.668071811      -49.6238894      0.668071811      -49.6238894      0.74047403       40.0536752       
221              0.743401956      39.7662411       0.664556364      -49.9140067      0.664556364      -49.9140067      0.743667759      39.7663507       
223              0.746548928      39.4813374       0.661057919      -50.201652       0.661057919      -50.201652       0.746815854      39.4814459       
225              0.749650953      39.19883         0.657576636      -50.4868503      0.657576636      -50.4868503      0.749918985      39.1989375       
227              0.752708698      38.9186954       0.654112666      -50.7696262      0.654112666      -50.7696262      0.752977821      38.9188019       
229              0.755722821      38.6409101       0.650666146      -51.0500046      0.650666146      -51.0500046      0.755993018      38.6410157       
231              0.758693972      38.3654509       0.647237202      -51.32801        0.647237202      -51.32801        0.758965229      38.3655555       
233              0.761622795      38.0922944       0.643825951      -51.6036669      0.643825951      -51.6036669      0.761895097      38.092398        
235              0.764509928      37.8214174       0.640432498      -51.8769996      0.640432498      -51.8769996      0.764783258      37.8215201       
237              0.767355998      37.5527967       0.637056939      -52.1480324      0.637056939      -52.1480324      0.767630343      37.5528985       
239              0.770161627      37.2864093       0.63369936       -52.4167894      0.63369936       -52.4167894      0.770436973      37.2865102       
241              0.77292743       37.0222323       0.630359839      -52.6832946      0.630359839      -52.6832946      0.773203761      37.0223323       
243              0.775654011      36.7602428       0.627038443      -52.9475718      0.627038443      -52.9475718      0.775931314      36.760342        
245              0.778341971      36.5004181       0.623735232      -53.2096447      0.623735232      -53.2096447      0.778620231      36.5005164       
247              0.780991899      36.2427356       0.620450258      -53.4695369      0.620450258      -53.4695369      0.781271104      36.2428331       
249              0.783604378      35.9871729       0.617183563      -53.7272717      0.617183563      -53.7272717      0.783884514      35.9872695       
251              0.786179985      35.7337075       0.613935185      -53.9828723      0.613935185      -53.9828723      0.786461038      35.7338033       
253              0.788719287      35.4823174       0.61070515       -54.2363617      0.61070515       -54.2363617      0.789001245      35.4824123       
255              0.791222844      35.2329804       0.607493481      -54.4877629      0.607493481      -54.4877629      0.791505693      35.2330745       
