! Coilcraft 0603CS-3N9 Chip Inductor				
! 21 May 2002			
# MHZ S MA R 50
!Freq             MagS11           AngS11           MagS21           AngS21           MagS12           AngS12           MagS22           AngS22
1                0.000292607703   56.8437013       0.999839996      -0.0140377537    0.999839996      -0.0140377537    0.000292607703   56.8437013       
35.16            0.00864999105    83.8714351       0.999113547      -0.493218803     0.999113547      -0.493218803     0.00864999105    83.8714351       
69.32            0.0170057076     85.0351888       0.998671975      -0.972036984     0.998671975      -0.972036984     0.0170057076     85.0351888       
103.48           0.0253552646     85.2896153       0.998237739      -1.45055395      0.998237739      -1.45055395      0.0253552646     85.2896153       
137.64           0.0336978028     85.2490137       0.997774261      -1.92876438      0.997774261      -1.92876438      0.0336978028     85.2490137       
171.8            0.0420323162     85.0698523       0.997267318      -2.40664651      0.997267318      -2.40664651      0.0420323162     85.0698523       
205.96           0.0503577046     84.8127916       0.996709684      -2.8841713       0.996709684      -2.8841713       0.0503577046     84.8127916       
240.12           0.0586728126     84.5069322       0.99609716       -3.36130575      0.99609716       -3.36130575      0.0586728126     84.5069322       
274.28           0.0669764522     84.168212        0.995427107      -3.83801452      0.995427107      -3.83801452      0.0669764522     84.168212        
308.44           0.0752674158     83.8061948       0.994697793      -4.31426076      0.994697793      -4.31426076      0.0752674158     83.8061948       
342.6            0.0835444854     83.4270194       0.993908057      -4.79000667      0.993908057      -4.79000667      0.0835444854     83.4270194       
376.76           0.091806438      83.0348353       0.993057122      -5.26521381      0.993057122      -5.26521381      0.091806438      83.0348353       
410.92           0.100052051      82.6325662       0.992144485      -5.73984335      0.992144485      -5.73984335      0.100052051      82.6325662       
445.08           0.108280104      82.2223431       0.991169844      -6.21385626      0.991169844      -6.21385626      0.108280104      82.2223431       
479.24           0.116489383      81.8057636       0.990133052      -6.6872134       0.990133052      -6.6872134       0.116489383      81.8057636       
513.4            0.124678682      81.3840553       0.989034086      -7.15987567      0.989034086      -7.15987567      0.124678682      81.3840553       
547.56           0.132846805      80.958181        0.987873023      -7.63180409      0.987873023      -7.63180409      0.132846805      80.958181        
581.72           0.140992569      80.5289104       0.986650025      -8.10295983      0.986650025      -8.10295983      0.140992569      80.5289104       
615.88           0.1491148        80.0968684       0.985365323      -8.57330431      0.985365323      -8.57330431      0.1491148        80.0968684       
650.04           0.157212344      79.6625701       0.98401921       -9.04279923      0.98401921       -9.04279923      0.157212344      79.6625701       
684.2            0.165284057      79.2264456       0.982612036      -9.51140663      0.982612036      -9.51140663      0.165284057      79.2264456       
718.36           0.173328815      78.7888585       0.981144196      -9.97908892      0.981144196      -9.97908892      0.173328815      78.7888585       
752.52           0.181345511      78.3501194       0.97961613       -10.4458089      0.97961613       -10.4458089      0.181345511      78.3501194       
786.68           0.189333056      77.9104963       0.978028318      -10.9115299      0.978028318      -10.9115299      0.189333056      77.9104963       
820.84           0.19729038       77.4702227       0.976381273      -11.3762155      0.976381273      -11.3762155      0.19729038       77.4702227       
855              0.205216434      77.0295035       0.974675546      -11.8398301      0.974675546      -11.8398301      0.205216434      77.0295035       
889.16           0.213110189      76.5885202       0.972911714      -12.3023383      0.972911714      -12.3023383      0.213110189      76.5885202       
923.32           0.220970638      76.1474344       0.971090385      -12.7637055      0.971090385      -12.7637055      0.220970638      76.1474344       
957.48           0.228796795      75.7063913       0.969212191      -13.2238975      0.969212191      -13.2238975      0.228796795      75.7063913       
991.64           0.236587698      75.2655218       0.967277792      -13.6828808      0.967277792      -13.6828808      0.236587698      75.2655218       
1025.8           0.244342407      74.8249447       0.965287868      -14.1406224      0.965287868      -14.1406224      0.244342407      74.8249447       
1059.96          0.252060006      74.3847685       0.963243121      -14.5970901      0.963243121      -14.5970901      0.252060006      74.3847685       
1094.12          0.259739603      73.9450926       0.961144272      -15.052252       0.961144272      -15.052252       0.259739603      73.9450926       
1128.28          0.26738033       73.5060083       0.958992063      -15.5060773      0.958992063      -15.5060773      0.26738033       73.5060083       
1162.44          0.274981345      73.0676002       0.95678725       -15.9585354      0.95678725       -15.9585354      0.274981345      73.0676002       
1196.6           0.28254183       72.6299467       0.954530607      -16.4095968      0.954530607      -16.4095968      0.28254183       72.6299467       
1230.76          0.290060991      72.1931205       0.952222922      -16.8592323      0.952222922      -16.8592323      0.290060991      72.1931205       
1264.92          0.297538062      71.7571898       0.949864997      -17.3074137      0.949864997      -17.3074137      0.297538062      71.7571898       
1299.08          0.304972301      71.3222179       0.947457647      -17.7541134      0.947457647      -17.7541134      0.304972301      71.3222179       
1333.24          0.312362992      70.8882646       0.945001697      -18.1993044      0.945001697      -18.1993044      0.312362992      70.8882646       
1367.4           0.319709445      70.4553859       0.942497983      -18.6429605      0.942497983      -18.6429605      0.319709445      70.4553859       
1401.56          0.327010997      70.0236343       0.939947353      -19.0850563      0.939947353      -19.0850563      0.327010997      70.0236343       
1435.72          0.334267009      69.5930595       0.93735066       -19.5255671      0.93735066       -19.5255671      0.334267009      69.5930595       
1469.88          0.341476869      69.1637083       0.934708766      -19.9644687      0.934708766      -19.9644687      0.341476869      69.1637083       
1504.04          0.348639993      68.7356251       0.932022541      -20.401738       0.932022541      -20.401738       0.348639993      68.7356251       
1538.2           0.355755818      68.3088517       0.929292859      -20.8373524      0.929292859      -20.8373524      0.355755818      68.3088517       
1572.36          0.362823812      67.8834278       0.9265206        -21.27129        0.9265206        -21.27129        0.362823812      67.8834278       
1606.52          0.369843467      67.4593908       0.923706647      -21.7035298      0.923706647      -21.7035298      0.369843467      67.4593908       
1640.68          0.376814298      67.0367764       0.920851888      -22.1340514      0.920851888      -22.1340514      0.376814298      67.0367764       
1674.84          0.38373585       66.6156183       0.917957214      -22.5628352      0.917957214      -22.5628352      0.38373585       66.6156183       
1709             0.39060769       66.1959485       0.915023515      -22.9898623      0.915023515      -22.9898623      0.39060769       66.1959485       
1743.16          0.39742941       65.7777973       0.912051684      -23.4151147      0.912051684      -23.4151147      0.39742941       65.7777973       
1777.32          0.40420063       65.3611935       0.909042614      -23.8385747      0.909042614      -23.8385747      0.40420063       65.3611935       
1811.48          0.41092099       64.9461644       0.905997199      -24.2602258      0.905997199      -24.2602258      0.41092099       64.9461644       
1845.64          0.417590158      64.5327358       0.90291633       -24.680052       0.90291633       -24.680052       0.417590158      64.5327358       
1879.8           0.424207823      64.1209323       0.899800898      -25.0980379      0.899800898      -25.0980379      0.424207823      64.1209323       
1913.96          0.430773701      63.7107769       0.896651789      -25.514169       0.896651789      -25.514169       0.430773701      63.7107769       
1948.12          0.437287528      63.3022917       0.89346989       -25.9284314      0.89346989       -25.9284314      0.437287528      63.3022917       
1982.28          0.443749065      62.8954973       0.890256082      -26.3408119      0.890256082      -26.3408119      0.443749065      62.8954973       
2016.44          0.450158095      62.4904133       0.887011243      -26.7512981      0.887011243      -26.7512981      0.450158095      62.4904133       
2050.6           0.456514423      62.0870583       0.883736245      -27.159878       0.883736245      -27.159878       0.456514423      62.0870583       
2084.76          0.462817875      61.6854495       0.880431957      -27.5665407      0.880431957      -27.5665407      0.462817875      61.6854495       
2118.92          0.469068301      61.2856034       0.877099242      -27.9712755      0.877099242      -27.9712755      0.469068301      61.2856034       
2153.08          0.47526557       60.8875353       0.873738956      -28.3740726      0.873738956      -28.3740726      0.47526557       60.8875353       
2187.24          0.48140957       60.4912596       0.870351949      -28.7749229      0.870351949      -28.7749229      0.48140957       60.4912596       
2221.4           0.487500213      60.0967897       0.866939065      -29.1738177      0.866939065      -29.1738177      0.487500213      60.0967897       
2255.56          0.493537429      59.7041383       0.863501139      -29.5707492      0.863501139      -29.5707492      0.493537429      59.7041383       
2289.72          0.499521165      59.3133169       0.860039         -29.9657101      0.860039         -29.9657101      0.499521165      59.3133169       
2323.88          0.50545139       58.9243365       0.856553468      -30.3586935      0.856553468      -30.3586935      0.50545139       58.9243365       
2358.04          0.51132809       58.537207        0.853045355      -30.7496934      0.853045355      -30.7496934      0.51132809       58.537207        
2392.2           0.517151269      58.1519376       0.849515465      -31.1387043      0.849515465      -31.1387043      0.517151269      58.1519376       
2426.36          0.522920947      57.7685368       0.845964591      -31.5257212      0.845964591      -31.5257212      0.522920947      57.7685368       
2460.52          0.528637164      57.3870122       0.84239352       -31.9107396      0.84239352       -31.9107396      0.528637164      57.3870122       
2494.68          0.534299974      57.0073709       0.838803025      -32.2937557      0.838803025      -32.2937557      0.534299974      57.0073709       
2528.84          0.539909447      56.629619        0.835193875      -32.6747662      0.835193875      -32.6747662      0.539909447      56.629619        
2563             0.545465669      56.2537622       0.831566823      -33.0537683      0.831566823      -33.0537683      0.545465669      56.2537622       
2597.16          0.550968743      55.8798053       0.827922616      -33.4307597      0.827922616      -33.4307597      0.550968743      55.8798053       
2631.32          0.556418783      55.5077527       0.824261989      -33.8057386      0.824261989      -33.8057386      0.556418783      55.5077527       
2665.48          0.561815919      55.137608        0.820585666      -34.1787038      0.820585666      -34.1787038      0.561815919      55.137608        
2699.64          0.567160295      54.7693742       0.816894362      -34.5496543      0.816894362      -34.5496543      0.567160295      54.7693742       
2733.8           0.572452068      54.4030538       0.81318878       -34.91859        0.81318878       -34.91859        0.572452068      54.4030538       
2767.96          0.577691407      54.0386486       0.809469611      -35.2855108      0.809469611      -35.2855108      0.577691407      54.0386486       
2802.12          0.582878492      53.6761601       0.805737538      -35.6504174      0.805737538      -35.6504174      0.582878492      53.6761601       
2836.28          0.588013519      53.315589        0.801993229      -36.0133107      0.801993229      -36.0133107      0.588013519      53.315589        
2870.44          0.593096691      52.9569356       0.798237343      -36.3741922      0.798237343      -36.3741922      0.593096691      52.9569356       
2904.6           0.598128224      52.6001997       0.794470528      -36.7330636      0.794470528      -36.7330636      0.598128224      52.6001997       
2938.76          0.603108345      52.2453807       0.79069342       -37.0899272      0.79069342       -37.0899272      0.603108345      52.2453807       
2972.92          0.608037289      51.8924773       0.786906642      -37.4447856      0.786906642      -37.4447856      0.608037289      51.8924773       
3007.08          0.612915302      51.5414879       0.783110808      -37.7976417      0.783110808      -37.7976417      0.612915302      51.5414879       
3041.24          0.617742639      51.1924106       0.779306519      -38.1484989      0.779306519      -38.1484989      0.617742639      51.1924106       
3075.4           0.622519564      50.8452428       0.775494365      -38.4973609      0.775494365      -38.4973609      0.622519564      50.8452428       
3109.56          0.627246349      50.4999817       0.771674926      -38.8442316      0.771674926      -38.8442316      0.627246349      50.4999817       
3143.72          0.631923274      50.1566241       0.767848767      -39.1891155      0.767848767      -39.1891155      0.631923274      50.1566241       
3177.88          0.636550627      49.8151661       0.764016445      -39.5320172      0.764016445      -39.5320172      0.636550627      49.8151661       
3212.04          0.641128702      49.475604        0.760178504      -39.8729417      0.760178504      -39.8729417      0.641128702      49.475604        
3246.2           0.645657802      49.1379332       0.756335476      -40.2118942      0.756335476      -40.2118942      0.645657802      49.1379332       
3280.36          0.650138235      48.8021491       0.752487884      -40.5488803      0.752487884      -40.5488803      0.650138235      48.8021491       
3314.52          0.654570316      48.4682466       0.748636237      -40.8839059      0.748636237      -40.8839059      0.654570316      48.4682466       
3348.68          0.658954363      48.1362204       0.744781035      -41.216977       0.744781035      -41.216977       0.658954363      48.1362204       
3382.84          0.663290703      47.8060649       0.740922765      -41.5481         0.740922765      -41.5481         0.663290703      47.8060649       
3417             0.667579667      47.4777741       0.737061905      -41.8772815      0.737061905      -41.8772815      0.667579667      47.4777741       
3451.16          0.67182159       47.1513418       0.733198921      -42.2045283      0.733198921      -42.2045283      0.67182159       47.1513418       
3485.32          0.676016811      46.8267615       0.729334267      -42.5298474      0.729334267      -42.5298474      0.676016811      46.8267615       
3519.48          0.680165675      46.5040265       0.725468389      -42.8532461      0.725468389      -42.8532461      0.680165675      46.5040265       
3553.64          0.68426853       46.1831298       0.72160172       -43.174732       0.72160172       -43.174732       0.68426853       46.1831298       
3587.8           0.688325727      45.8640641       0.717734683      -43.4943125      0.717734683      -43.4943125      0.688325727      45.8640641       
3621.96          0.692337621      45.5468219       0.713867691      -43.8119957      0.713867691      -43.8119957      0.692337621      45.5468219       
3656.12          0.696304569      45.2313958       0.710001147      -44.1277895      0.710001147      -44.1277895      0.696304569      45.2313958       
3690.28          0.700226932      44.9177776       0.706135443      -44.4417022      0.706135443      -44.4417022      0.700226932      44.9177776       
3724.44          0.704105072      44.6059595       0.702270961      -44.753742       0.702270961      -44.753742       0.704105072      44.6059595       
3758.6           0.707939355      44.2959331       0.698408074      -45.0639176      0.698408074      -45.0639176      0.707939355      44.2959331       
3792.76          0.711730148      43.98769         0.694547144      -45.3722375      0.694547144      -45.3722375      0.711730148      43.98769         
3826.92          0.715477819      43.6812217       0.690688524      -45.6787106      0.690688524      -45.6787106      0.715477819      43.6812217       
3861.08          0.719182738      43.3765192       0.686832557      -45.9833458      0.686832557      -45.9833458      0.719182738      43.3765192       
3895.24          0.722845278      43.0735738       0.682979577      -46.2861521      0.682979577      -46.2861521      0.722845278      43.0735738       
3929.4           0.72646581       42.7723764       0.679129909      -46.5871387      0.679129909      -46.5871387      0.72646581       42.7723764       
3963.56          0.730044709      42.4729178       0.675283869      -46.8863149      0.675283869      -46.8863149      0.730044709      42.4729178       
3997.72          0.733582348      42.1751886       0.671441763      -47.18369        0.671441763      -47.18369        0.733582348      42.1751886       
4031.88          0.737079102      41.8791794       0.667603888      -47.4792735      0.667603888      -47.4792735      0.737079102      41.8791794       
4066.04          0.740535346      41.5848808       0.663770535      -47.7730749      0.663770535      -47.7730749      0.740535346      41.5848808       
4100.2           0.743951454      41.2922829       0.659941982      -48.0651039      0.659941982      -48.0651039      0.743951454      41.2922829       
4134.36          0.747327803      41.0013761       0.656118504      -48.3553701      0.656118504      -48.3553701      0.747327803      41.0013761       
4168.52          0.750664766      40.7121505       0.652300363      -48.6438833      0.652300363      -48.6438833      0.750664766      40.7121505       
4202.68          0.753962718      40.4245961       0.648487816      -48.9306533      0.648487816      -48.9306533      0.753962718      40.4245961       
4236.84          0.757222033      40.138703        0.644681109      -49.2156901      0.644681109      -49.2156901      0.757222033      40.138703        
4271             0.760443084      39.854461        0.640880484      -49.4990035      0.640880484      -49.4990035      0.760443084      39.854461        
4305.16          0.763626243      39.57186         0.637086173      -49.7806035      0.637086173      -49.7806035      0.763626243      39.57186         
4339.32          0.766771883      39.2908898       0.633298401      -50.0605001      0.633298401      -50.0605001      0.766771883      39.2908898       
