! Coilcraft 0603CS-R18 Chip Inductor				
! 21 May 2002			
# MHZ S MA R 50
!Freq             MagS11           AngS11           MagS21           AngS21           MagS12           AngS12           MagS22           AngS22
1                0.0120128083     68.1247132       0.995586592      -0.641569651     0.995586592      -0.641569651     0.0120128083     68.1247132       
5.74             0.0645298962     77.7343819       0.988304671      -3.65813232      0.988304671      -3.65813232      0.0645298962     77.7343819       
10.48            0.116281168      77.055318        0.980522805      -6.6369188       0.980522805      -6.6369188       0.116281168      77.055318        
15.22            0.166908839      75.2249011       0.970941051      -9.56811779      0.970941051      -9.56811779      0.166908839      75.2249011       
19.96            0.216096864      73.0280092       0.95944708       -12.4402442      0.95944708       -12.4402442      0.216096864      73.0280092       
24.7             0.263568226      70.6932415       0.94614129       -15.2425291      0.94614129       -15.2425291      0.263568226      70.6932415       
29.44            0.309095851      68.3182043       0.931208019      -17.9655997      0.931208019      -17.9655997      0.309095851      68.3182043       
34.18            0.352507183      65.9539784       0.914870975      -20.6017633      0.914870975      -20.6017633      0.352507183      65.9539784       
38.92            0.393684195      63.6306181       0.897369762      -23.1450983      0.897369762      -23.1450983      0.393684195      63.6306181       
43.66            0.432560131      61.3669316       0.878944781      -25.5914237      0.878944781      -25.5914237      0.432560131      61.3669316       
48.4             0.46911407       59.1749199       0.859826881      -27.9381863      0.859826881      -27.9381863      0.46911407       59.1749199       
53.14            0.503364225      57.0620837       0.840230398      -30.1842943      0.840230398      -30.1842943      0.503364225      57.0620837       
57.88            0.535360753      55.0327693       0.820348854      -32.3299224      0.820348854      -32.3299224      0.535360753      55.0327693       
62.62            0.565178682      53.0890331       0.800352742      -34.3763061      0.800352742      -34.3763061      0.565178682      53.0890331       
67.36            0.592911343      51.2312426       0.780388933      -36.3255396      0.780388933      -36.3255396      0.592911343      51.2312426       
72.1             0.618664571      49.4585166       0.76058126       -38.1803866      0.76058126       -38.1803866      0.618664571      49.4585166       
76.84            0.642551794      47.7690587       0.741031903      -39.9441105      0.741031903      -39.9441105      0.642551794      47.7690587       
81.58            0.664690007      46.1604165       0.721823278      -41.6203264      0.721823278      -41.6203264      0.664690007      46.1604165       
86.32            0.685196603      44.6296836       0.703020175      -43.2128757      0.703020175      -43.2128757      0.685196603      44.6296836       
91.06            0.704186963      43.1736568       0.684671973      -44.7257231      0.684671973      -44.7257231      0.704186963      43.1736568       
95.8             0.721772688      41.7889591       0.66681481       -46.1628727      0.66681481       -46.1628727      0.721772688      41.7889591       
100.54           0.738060387      40.4721338       0.649473611      -47.5283032      0.649473611      -47.5283032      0.738060387      40.4721338       
105.28           0.75315089       39.2197163       0.632663951      -48.8259175      0.632663951      -48.8259175      0.75315089       39.2197163       
110.02           0.767138808      38.0282875       0.616393701      -50.0595058      0.616393701      -50.0595058      0.767138808      38.0282875       
114.76           0.780112354      36.8945131       0.600664479      -51.2327193      0.600664479      -51.2327193      0.780112354      36.8945131       
119.5            0.792153359      35.8151706       0.585472898      -52.3490525      0.585472898      -52.3490525      0.792153359      35.8151706       
124.24           0.803337422      34.7871685       0.570811629      -53.411832       0.570811629      -53.411832       0.803337422      34.7871685       
128.98           0.81373416       33.8075575       0.556670293      -54.4242117      0.556670293      -54.4242117      0.81373416       33.8075575       
133.72           0.82340752       32.8735368       0.54303621       -55.3891711      0.54303621       -55.3891711      0.82340752       32.8735368       
138.46           0.832416122      31.9824566       0.52989501       -56.3095173      0.52989501       -56.3095173      0.832416122      31.9824566       
143.2            0.840813626      31.1318165       0.517231145      -57.187889       0.517231145      -57.187889       0.840813626      31.1318165       
147.94           0.848649097      30.3192635       0.50502829       -58.0267622      0.50502829       -58.0267622      0.848649097      30.3192635       
152.68           0.855967363      29.5425865       0.493269679      -58.8284574      0.493269679      -58.8284574      0.855967363      29.5425865       
157.42           0.862809363      28.799711        0.481938365      -59.5951466      0.481938365      -59.5951466      0.862809363      28.799711        
162.16           0.869212478      28.088693        0.471017425      -60.3288614      0.471017425      -60.3288614      0.869212478      28.088693        
166.9            0.875210834      27.4077119       0.460490125      -61.0315012      0.460490125      -61.0315012      0.875210834      27.4077119       
171.64           0.880835596      26.7550637       0.45034004       -61.7048408      0.45034004       -61.7048408      0.880835596      26.7550637       
176.38           0.886115228      26.1291543       0.440551145      -62.3505386      0.440551145      -62.3505386      0.886115228      26.1291543       
181.12           0.89107574       25.5284926       0.431107889      -62.970144       0.431107889      -62.970144       0.89107574       25.5284926       
185.86           0.89574091       24.9516839       0.421995233      -63.5651046      0.421995233      -63.5651046      0.89574091       24.9516839       
190.6            0.90013249       24.3974237       0.413198691      -64.1367734      0.413198691      -64.1367734      0.90013249       24.3974237       
195.34           0.904270391      23.8644915       0.404704338      -64.6864147      0.404704338      -64.6864147      0.904270391      23.8644915       
200.08           0.90817285       23.3517454       0.396498828      -65.215211       0.396498828      -65.215211       0.90817285       23.3517454       
204.82           0.911856587      22.8581166       0.388569386      -65.7242683      0.388569386      -65.7242683      0.911856587      22.8581166       
209.56           0.915336941      22.3826042       0.380903808      -66.2146214      0.380903808      -66.2146214      0.915336941      22.3826042       
214.3            0.918627995      21.9242705       0.373490446      -66.6872395      0.373490446      -66.6872395      0.918627995      21.9242705       
219.04           0.921742692      21.482237        0.366318197      -67.1430301      0.366318197      -67.1430301      0.921742692      21.482237        
223.78           0.924692937      21.0556798       0.359376485      -67.5828439      0.359376485      -67.5828439      0.924692937      21.0556798       
228.52           0.927489689      20.643826        0.352655241      -68.0074787      0.352655241      -68.0074787      0.927489689      20.643826        
233.26           0.930143045      20.24595         0.346144888      -68.4176828      0.346144888      -68.4176828      0.930143045      20.24595         
238              0.932662319      19.8613706       0.339836316      -68.8141591      0.339836316      -68.8141591      0.932662319      19.8613706       
242.74           0.935056107      19.4894475       0.333720862      -69.1975677      0.333720862      -69.1975677      0.935056107      19.4894475       
247.48           0.937332351      19.1295786       0.327790295      -69.5685291      0.327790295      -69.5685291      0.937332351      19.1295786       
252.22           0.939498396      18.7811975       0.322036788      -69.927627       0.322036788      -69.927627       0.939498396      18.7811975       
256.96           0.94156104       18.443771        0.316452903      -70.2754108      0.316452903      -70.2754108      0.94156104       18.443771        
261.7            0.943526579      18.1167969       0.311031571      -70.6123977      0.311031571      -70.6123977      0.943526579      18.1167969       
266.44           0.945400854      17.7998015       0.305766071      -70.9390754      0.305766071      -70.9390754      0.945400854      17.7998015       
271.18           0.947189284      17.4923385       0.300650016      -71.2559035      0.300650016      -71.2559035      0.947189284      17.4923385       
275.92           0.948896901      17.1939865       0.29567733       -71.5633158      0.29567733       -71.5633158      0.948896901      17.1939865       
280.66           0.950528384      16.9043474       0.290842238      -71.8617218      0.290842238      -71.8617218      0.950528384      16.9043474       
285.4            0.952088088      16.6230455       0.286139245      -72.1515084      0.286139245      -72.1515084      0.952088088      16.6230455       
290.14           0.953580066      16.3497251       0.281563124      -72.4330414      0.281563124      -72.4330414      0.953580066      16.3497251       
294.88           0.955008096      16.0840501       0.277108901      -72.7066666      0.277108901      -72.7066666      0.955008096      16.0840501       
299.62           0.956375702      15.8257021       0.272771839      -72.9727114      0.272771839      -72.9727114      0.956375702      15.8257021       
304.36           0.957686173      15.5743797       0.26854743       -73.2314858      0.26854743       -73.2314858      0.957686173      15.5743797       
309.1            0.958942583      15.3297972       0.264431378      -73.4832837      0.264431378      -73.4832837      0.958942583      15.3297972       
313.84           0.960147805      15.0916837       0.260419591      -73.7283834      0.260419591      -73.7283834      0.960147805      15.0916837       
318.58           0.961304526      14.8597822       0.256508168      -73.9670493      0.256508168      -73.9670493      0.961304526      14.8597822       
323.32           0.962415264      14.6338488       0.25269339       -74.1995321      0.25269339       -74.1995321      0.962415264      14.6338488       
328.06           0.963482377      14.4136516       0.248971709      -74.4260698      0.248971709      -74.4260698      0.963482377      14.4136516       
332.8            0.964508078      14.1989706       0.245339742      -74.646889       0.245339742      -74.646889       0.964508078      14.1989706       
337.54           0.965494441      13.9895963       0.241794257      -74.8622046      0.241794257      -74.8622046      0.965494441      13.9895963       
342.28           0.966443415      13.7853296       0.23833217       -75.0722213      0.23833217       -75.0722213      0.966443415      13.7853296       
347.02           0.967356831      13.5859807       0.234950535      -75.2771338      0.234950535      -75.2771338      0.967356831      13.5859807       
351.76           0.968236413      13.3913692       0.231646536      -75.4771277      0.231646536      -75.4771277      0.968236413      13.3913692       
356.5            0.96908378       13.2013231       0.228417484      -75.6723796      0.228417484      -75.6723796      0.96908378       13.2013231       
361.24           0.969900458      13.0156783       0.225260804      -75.8630579      0.225260804      -75.8630579      0.969900458      13.0156783       
365.98           0.970687885      12.8342784       0.222174035      -76.0493232      0.222174035      -76.0493232      0.970687885      12.8342784       
370.72           0.971447415      12.6569742       0.219154823      -76.2313286      0.219154823      -76.2313286      0.971447415      12.6569742       
375.46           0.972180329      12.4836231       0.216200913      -76.4092205      0.216200913      -76.4092205      0.972180329      12.4836231       
380.2            0.972887831      12.3140892       0.213310146      -76.5831384      0.213310146      -76.5831384      0.972887831      12.3140892       
384.94           0.973571063      12.1482423       0.210480455      -76.7532158      0.210480455      -76.7532158      0.973571063      12.1482423       
389.68           0.974231102      11.9859581       0.207709856      -76.9195801      0.207709856      -76.9195801      0.974231102      11.9859581       
394.42           0.974868965      11.8271178       0.204996452      -77.0823535      0.204996452      -77.0823535      0.974868965      11.8271178       
399.16           0.975485618      11.6716075       0.202338419      -77.2416524      0.202338419      -77.2416524      0.975485618      11.6716075       
403.9            0.976081973      11.5193184       0.19973401       -77.3975885      0.19973401       -77.3975885      0.976081973      11.5193184       
408.64           0.976658894      11.3701463       0.197181549      -77.5502688      0.197181549      -77.5502688      0.976658894      11.3701463       
413.38           0.977217199      11.2239911       0.194679425      -77.6997955      0.194679425      -77.6997955      0.977217199      11.2239911       
418.12           0.977757666      11.0807571       0.192226093      -77.8462668      0.192226093      -77.8462668      0.977757666      11.0807571       
422.86           0.978281032      10.9403526       0.189820067      -77.9897766      0.189820067      -77.9897766      0.978281032      10.9403526       
427.6            0.978787996      10.8026894       0.18745992       -78.1304153      0.18745992       -78.1304153      0.978787996      10.8026894       
432.34           0.979279221      10.667683        0.185144281      -78.2682692      0.185144281      -78.2682692      0.979279221      10.667683        
437.08           0.97975534       10.5352524       0.182871832      -78.4034214      0.182871832      -78.4034214      0.97975534       10.5352524       
441.82           0.980216951      10.4053196       0.180641302      -78.5359516      0.180641302      -78.5359516      0.980216951      10.4053196       
446.56           0.980664627      10.2778097       0.178451472      -78.6659362      0.178451472      -78.6659362      0.980664627      10.2778097       
451.3            0.981098908      10.1526509       0.176301166      -78.7934488      0.176301166      -78.7934488      0.981098908      10.1526509       
456.04           0.981520313      10.0297739       0.174189255      -78.9185601      0.174189255      -78.9185601      0.981520313      10.0297739       
460.78           0.981929333      9.90911241       0.172114647      -79.0413379      0.172114647      -79.0413379      0.981929333      9.90911241       
465.52           0.982326438      9.79060232       0.170076295      -79.1618476      0.170076295      -79.1618476      0.982326438      9.79060232       
470.26           0.982712073      9.67418208       0.168073187      -79.2801519      0.168073187      -79.2801519      0.982712073      9.67418208       
475              0.983086666      9.55979245       0.166104347      -79.3963113      0.166104347      -79.3963113      0.983086666      9.55979245       
479.74           0.983450624      9.44737632       0.164168837      -79.510384       0.164168837      -79.510384       0.983450624      9.44737632       
484.48           0.983804333      9.33687873       0.162265749      -79.622426       0.162265749      -79.622426       0.983804333      9.33687873       
489.22           0.984148166      9.22824668       0.160394209      -79.7324912      0.160394209      -79.7324912      0.984148166      9.22824668       
493.96           0.984482475      9.12142909       0.158553373      -79.8406316      0.158553373      -79.8406316      0.984482475      9.12142909       
498.7            0.9848076        9.01637673       0.156742426      -79.9468973      0.156742426      -79.9468973      0.9848076        9.01637673       
503.44           0.985123863      8.91304208       0.154960581      -80.0513365      0.154960581      -80.0513365      0.985123863      8.91304208       
508.18           0.985431574      8.8113793        0.15320708       -80.1539957      0.15320708       -80.1539957      0.985431574      8.8113793        
512.92           0.985731029      8.71134417       0.151481187      -80.2549199      0.151481187      -80.2549199      0.985731029      8.71134417       
517.66           0.986022511      8.61289398       0.149782193      -80.3541523      0.149782193      -80.3541523      0.986022511      8.61289398       
522.4            0.98630629       8.51598749       0.148109412      -80.4517347      0.148109412      -80.4517347      0.98630629       8.51598749       
527.14           0.986582628      8.42058486       0.146462182      -80.5477074      0.146462182      -80.5477074      0.986582628      8.42058486       
531.88           0.986851771      8.3266476        0.144839862      -80.6421092      0.144839862      -80.6421092      0.986851771      8.3266476        
536.62           0.98711396       8.23413851       0.143241831      -80.7349778      0.143241831      -80.7349778      0.98711396       8.23413851       
541.36           0.987369422      8.14302162       0.141667489      -80.8263495      0.141667489      -80.8263495      0.987369422      8.14302162       
546.1            0.987618376      8.05326216       0.140116255      -80.9162592      0.140116255      -80.9162592      0.987618376      8.05326216       
550.84           0.987861034      7.96482647       0.138587567      -81.0047408      0.138587567      -81.0047408      0.987861034      7.96482647       
555.58           0.988097596      7.87768201       0.137080881      -81.091827       0.137080881      -81.091827       0.988097596      7.87768201       
560.32           0.988328257      7.79179729       0.135595669      -81.1775495      0.135595669      -81.1775495      0.988328257      7.79179729       
565.06           0.988553203      7.7071418        0.13413142       -81.2619387      0.13413142       -81.2619387      0.988553203      7.7071418        
569.8            0.988772612      7.62368602       0.13268764       -81.3450243      0.13268764       -81.3450243      0.988772612      7.62368602       
574.54           0.988986657      7.54140135       0.131263848      -81.4268348      0.131263848      -81.4268348      0.988986657      7.54140135       
579.28           0.989195502      7.4602601        0.129859581      -81.5073979      0.129859581      -81.5073979      0.989195502      7.4602601        
584.02           0.989399306      7.38023542       0.128474386      -81.5867402      0.128474386      -81.5867402      0.989399306      7.38023542       
588.76           0.989598222      7.30130129       0.127107827      -81.6648876      0.127107827      -81.6648876      0.989598222      7.30130129       
593.5            0.989792398      7.2234325        0.125759479      -81.7418651      0.125759479      -81.7418651      0.989792398      7.2234325        
598.24           0.989981974      7.14660459       0.12442893       -81.8176969      0.12442893       -81.8176969      0.989981974      7.14660459       
602.98           0.990167086      7.07079384       0.123115782      -81.8924065      0.123115782      -81.8924065      0.990167086      7.07079384       
