! Coilcraft 0603CS-33N Chip Inductor				
! 21 May 2002			
# MHZ S MA R 50
!Freq             MagS11           AngS11           MagS21           AngS21           MagS12           AngS12           MagS22           AngS22
1                0.00225831679    66.4176199       0.999098665      -0.118693017     0.999098665      -0.118693017     0.00225831679    66.4176199       
10.22            0.0212955308     81.6410927       0.997126817      -1.21075082      0.997126817      -1.21075082      0.0212955308     81.6410927       
19.44            0.0402936111     82.5576887       0.995582886      -2.29997944      0.995582886      -2.29997944      0.0402936111     82.5576887       
28.66            0.0592280028     82.3952369       0.993897194      -3.38629199      0.993897194      -3.38629199      0.0592280028     82.3952369       
37.88            0.0780830173     81.8704552       0.99197442       -4.46923184      0.99197442       -4.46923184      0.0780830173     81.8704552       
47.1             0.0968423166     81.1747798       0.989779359      -5.54825025      0.989779359      -5.54825025      0.0968423166     81.1747798       
56.32            0.115489373      80.3842215       0.987296836      -6.62276513      0.987296836      -6.62276513      0.115489373      80.3842215       
65.54            0.134007795      79.5359349       0.984520907      -7.6921843       0.984520907      -7.6921843       0.134007795      79.5359349       
74.76            0.152381542      78.6506559       0.981450776      -8.75591776      0.981450776      -8.75591776      0.152381542      78.6506559       
83.98            0.17059507       77.7410945       0.978088915      -9.81338511      0.978088915      -9.81338511      0.17059507       77.7410945       
93.2             0.188633445      76.8156122       0.974440065      -10.8640207      0.974440065      -10.8640207      0.188633445      76.8156122       
102.42           0.206482429      75.8800244       0.97051065       -11.9072776      0.97051065       -11.9072776      0.206482429      75.8800244       
111.64           0.224128548      74.9385615       0.966308393      -12.9426303      0.966308393      -12.9426303      0.224128548      74.9385615       
120.86           0.241559148      73.9944166       0.961842044      -13.9695769      0.961842044      -13.9695769      0.241559148      73.9944166       
130.08           0.258762436      73.0500742       0.957121183      -14.9876416      0.957121183      -14.9876416      0.258762436      73.0500742       
139.3            0.27572751       72.1075165       0.952156055      -15.9963751      0.952156055      -15.9963751      0.27572751       72.1075165       
148.52           0.29244438       71.1683576       0.946957433      -16.9953565      0.946957433      -16.9953565      0.29244438       71.1683576       
157.74           0.308903983      70.2339341       0.941536507      -17.9841937      0.941536507      -17.9841937      0.308903983      70.2339341       
166.96           0.325098183      69.3053673       0.935904775      -18.9625239      0.935904775      -18.9625239      0.325098183      69.3053673       
176.18           0.341019767      68.3836077       0.930073956      -19.9300139      0.930073956      -19.9300139      0.341019767      68.3836077       
185.4            0.356662437      67.4694666       0.924055908      -20.8863604      0.924055908      -20.8863604      0.356662437      67.4694666       
194.62           0.372020792      66.5636405       0.917862546      -21.8312892      0.917862546      -21.8312892      0.372020792      66.5636405       
203.84           0.387090304      65.6667289       0.911505782      -22.7645555      0.911505782      -22.7645555      0.387090304      65.6667289       
213.06           0.401867291      64.7792479       0.904997458      -23.6859431      0.904997458      -23.6859431      0.401867291      64.7792479       
222.28           0.416348889      63.9016417       0.898349294      -24.5952635      0.898349294      -24.5952635      0.416348889      63.9016417       
231.5            0.430533013      63.0342909       0.891572835      -25.4923559      0.891572835      -25.4923559      0.430533013      63.0342909       
240.72           0.444418322      62.1775202       0.88467941       -26.3770854      0.88467941       -26.3770854      0.444418322      62.1775202       
249.94           0.45800418       61.3316039       0.877680094      -27.2493426      0.877680094      -27.2493426      0.45800418       61.3316039       
259.16           0.471290613      60.4967712       0.87058567       -28.1090425      0.87058567       -28.1090425      0.471290613      60.4967712       
268.38           0.484278267      59.6732105       0.863406606      -28.9561232      0.863406606      -28.9561232      0.484278267      59.6732105       
277.6            0.496968366      58.8610733       0.856153028      -29.7905449      0.856153028      -29.7905449      0.496968366      58.8610733       
286.82           0.509362671      58.0604774       0.848834701      -30.6122888      0.848834701      -30.6122888      0.509362671      58.0604774       
296.04           0.521463433      57.2715101       0.841461015      -31.4213556      0.841461015      -31.4213556      0.521463433      57.2715101       
305.26           0.533273354      56.4942305       0.834040971      -32.2177647      0.834040971      -32.2177647      0.533273354      56.4942305       
314.48           0.544795544      55.7286726       0.826583174      -33.0015527      0.826583174      -33.0015527      0.544795544      55.7286726       
323.7            0.556033484      54.9748468       0.819095827      -33.7727724      0.819095827      -33.7727724      0.556033484      54.9748468       
332.92           0.566990986      54.2327425       0.811586732      -34.5314913      0.811586732      -34.5314913      0.566990986      54.2327425       
342.14           0.577672153      53.5023301       0.804063285      -35.2777909      0.804063285      -35.2777909      0.577672153      53.5023301       
351.36           0.588081348      52.7835621       0.796532484      -36.0117653      0.796532484      -36.0117653      0.588081348      52.7835621       
360.58           0.598223159      52.0763755       0.789000931      -36.7335202      0.789000931      -36.7335202      0.598223159      52.0763755       
369.8            0.608102366      51.3806927       0.781474837      -37.4431718      0.781474837      -37.4431718      0.608102366      51.3806927       
379.02           0.617723913      50.6964236       0.773960036      -38.1408458      0.773960036      -38.1408458      0.617723913      50.6964236       
388.24           0.627092878      50.0234663       0.766461985      -38.8266766      0.766461985      -38.8266766      0.627092878      50.0234663       
397.46           0.636214449      49.3617085       0.758985784      -39.500806       0.758985784      -39.500806       0.636214449      49.3617085       
406.68           0.6450939        48.7110289       0.751536181      -40.1633829      0.751536181      -40.1633829      0.6450939        48.7110289       
415.9            0.653736567      48.0712979       0.744117585      -40.8145618      0.744117585      -40.8145618      0.653736567      48.0712979       
425.12           0.662147827      47.4423791       0.736734082      -41.4545026      0.736734082      -41.4545026      0.662147827      47.4423791       
434.34           0.670333084      46.8241295       0.729389443      -42.0833696      0.729389443      -42.0833696      0.670333084      46.8241295       
443.56           0.678297746      46.2164009       0.72208714       -42.7013309      0.72208714       -42.7013309      0.678297746      46.2164009       
452.78           0.686047211      45.6190406       0.71483036       -43.3085577      0.71483036       -43.3085577      0.686047211      45.6190406       
462              0.693586858      45.0318919       0.707622015      -43.9052237      0.707622015      -43.9052237      0.693586858      45.0318919       
471.22           0.700922028      44.454795        0.700464758      -44.4915046      0.700464758      -44.4915046      0.700922028      44.454795        
480.44           0.708058014      43.8875876       0.693360997      -45.0675776      0.693360997      -45.0675776      0.708058014      43.8875876       
489.66           0.715000056      43.3301052       0.686312905      -45.6336208      0.686312905      -45.6336208      0.715000056      43.3301052       
498.88           0.721753326      42.782182        0.679322435      -46.1898131      0.679322435      -46.1898131      0.721753326      42.782182        
508.1            0.728322924      42.2436511       0.672391329      -46.7363332      0.672391329      -46.7363332      0.728322924      42.2436511       
517.32           0.734713871      41.714345        0.665521137      -47.27336        0.665521137      -47.27336        0.734713871      41.714345        
526.54           0.740931101      41.1940959       0.658713221      -47.8010717      0.658713221      -47.8010717      0.740931101      41.1940959       
535.76           0.74697946       40.6827365       0.65196877       -48.3196456      0.65196877       -48.3196456      0.74697946       40.6827365       
544.98           0.752863699      40.1800996       0.645288811      -48.829258       0.645288811      -48.829258       0.752863699      40.1800996       
554.2            0.75858847       39.6860189       0.638674218      -49.3300839      0.638674218      -49.3300839      0.75858847       39.6860189       
563.42           0.764158328      39.2003293       0.632125725      -49.8222966      0.632125725      -49.8222966      0.764158328      39.2003293       
572.64           0.769577725      38.7228668       0.625643931      -50.3060678      0.625643931      -50.3060678      0.769577725      38.7228668       
581.86           0.774851007      38.2534688       0.619229312      -50.7815673      0.619229312      -50.7815673      0.774851007      38.2534688       
591.08           0.779982418      37.7919745       0.612882229      -51.2489626      0.612882229      -51.2489626      0.779982418      37.7919745       
600.3            0.784976097      37.338225        0.606602938      -51.7084192      0.606602938      -51.7084192      0.784976097      37.338225        
609.52           0.789836076      36.892063        0.600391593      -52.1601002      0.600391593      -52.1601002      0.789836076      36.892063        
618.74           0.794566284      36.4533337       0.594248261      -52.6041663      0.594248261      -52.6041663      0.794566284      36.4533337       
627.96           0.799170543      36.0218842       0.588172921      -53.0407756      0.588172921      -53.0407756      0.799170543      36.0218842       
637.18           0.803652573      35.597564        0.582165476      -53.4700838      0.582165476      -53.4700838      0.803652573      35.597564        
646.4            0.80801599       35.180225        0.576225757      -53.8922437      0.576225757      -53.8922437      0.80801599       35.180225        
655.62           0.81226431       34.7697215       0.570353529      -54.3074057      0.570353529      -54.3074057      0.81226431       34.7697215       
664.84           0.816400947      34.3659102       0.564548497      -54.7157172      0.564548497      -54.7157172      0.816400947      34.3659102       
674.06           0.820429218      33.9686504       0.558810313      -55.1173231      0.558810313      -55.1173231      0.820429218      33.9686504       
683.28           0.824352341      33.5778039       0.553138576      -55.5123654      0.553138576      -55.5123654      0.824352341      33.5778039       
692.5            0.828173442      33.1932351       0.547532841      -55.9009832      0.547532841      -55.9009832      0.828173442      33.1932351       
701.72           0.831895551      32.814811        0.541992622      -56.2833132      0.541992622      -56.2833132      0.831895551      32.814811        
710.94           0.835521607      32.4424012       0.536517396      -56.6594888      0.536517396      -56.6594888      0.835521607      32.4424012       
720.16           0.839054462      32.0758778       0.531106605      -57.029641       0.531106605      -57.029641       0.839054462      32.0758778       
729.38           0.842496879      31.7151157       0.525759662      -57.3938981      0.525759662      -57.3938981      0.842496879      31.7151157       
738.6            0.845851536      31.3599922       0.520475954      -57.7523853      0.520475954      -57.7523853      0.845851536      31.3599922       
747.82           0.849121028      31.0103872       0.515254843      -58.1052253      0.515254843      -58.1052253      0.849121028      31.0103872       
757.04           0.852307871      30.6661832       0.510095671      -58.4525383      0.510095671      -58.4525383      0.852307871      30.6661832       
766.26           0.855414501      30.3272652       0.504997761      -58.7944415      0.504997761      -58.7944415      0.855414501      30.3272652       
775.48           0.858443278      29.9935207       0.49996042       -59.1310496      0.49996042       -59.1310496      0.858443278      29.9935207       
784.7            0.861396486      29.6648396       0.494982942      -59.4624749      0.494982942      -59.4624749      0.861396486      29.6648396       
793.92           0.86427634       29.3411144       0.490064609      -59.7888268      0.490064609      -59.7888268      0.86427634       29.3411144       
803.14           0.867084982      29.0222398       0.485204693      -60.1102125      0.485204693      -60.1102125      0.867084982      29.0222398       
812.36           0.869824488      28.708113        0.48040246       -60.4267366      0.48040246       -60.4267366      0.869824488      28.708113        
821.58           0.872496866      28.3986335       0.475657168      -60.7385013      0.475657168      -60.7385013      0.872496866      28.3986335       
830.8            0.875104063      28.0937032       0.470968071      -61.0456062      0.470968071      -61.0456062      0.875104063      28.0937032       
840.02           0.877647961      27.7932261       0.466334418      -61.348149       0.466334418      -61.348149       0.877647961      27.7932261       
849.24           0.880130383      27.4971083       0.461755458      -61.6462247      0.461755458      -61.6462247      0.880130383      27.4971083       
858.46           0.882553094      27.2052585       0.45723044       -61.9399262      0.45723044       -61.9399262      0.882553094      27.2052585       
867.68           0.884917802      26.9175871       0.45275861       -62.2293442      0.45275861       -62.2293442      0.884917802      26.9175871       
876.9            0.887226162      26.6340067       0.448339217      -62.5145672      0.448339217      -62.5145672      0.887226162      26.6340067       
886.12           0.889479773      26.3544321       0.443971513      -62.7956817      0.443971513      -62.7956817      0.889479773      26.3544321       
895.34           0.891680187      26.0787801       0.439654752      -63.072772       0.439654752      -63.072772       0.891680187      26.0787801       
904.56           0.893828903      25.8069691       0.435388191      -63.3459203      0.435388191      -63.3459203      0.893828903      25.8069691       
913.78           0.895927374      25.5389198       0.431171092      -63.615207       0.431171092      -63.615207       0.895927374      25.5389198       
923              0.897977006      25.2745547       0.427002722      -63.8807104      0.427002722      -63.8807104      0.897977006      25.2745547       
932.22           0.899979161      25.0137981       0.422882355      -64.1425072      0.422882355      -64.1425072      0.899979161      25.0137981       
941.44           0.901935157      24.7565759       0.418809267      -64.4006718      0.418809267      -64.4006718      0.901935157      24.7565759       
950.66           0.90384627       24.5028161       0.414782745      -64.6552771      0.414782745      -64.6552771      0.90384627       24.5028161       
959.88           0.905713737      24.2524482       0.41080208       -64.9063943      0.41080208       -64.9063943      0.905713737      24.2524482       
969.1            0.907538754      24.0054033       0.406866571      -65.1540925      0.406866571      -65.1540925      0.907538754      24.0054033       
978.32           0.909322481      23.7616144       0.402975525      -65.3984395      0.402975525      -65.3984395      0.909322481      23.7616144       
987.54           0.911066039      23.5210159       0.399128257      -65.6395014      0.399128257      -65.6395014      0.911066039      23.5210159       
996.76           0.912770518      23.2835437       0.395324087      -65.8773424      0.395324087      -65.8773424      0.912770518      23.2835437       
1005.98          0.914436968      23.0491353       0.391562349      -66.1120255      0.391562349      -66.1120255      0.914436968      23.0491353       
1015.2           0.916066412      22.8177298       0.387842379      -66.3436119      0.387842379      -66.3436119      0.916066412      22.8177298       
1024.42          0.917659837      22.5892675       0.384163527      -66.5721616      0.384163527      -66.5721616      0.917659837      22.5892675       
1033.64          0.919218202      22.3636903       0.380525148      -66.7977328      0.380525148      -66.7977328      0.919218202      22.3636903       
1042.86          0.920742433      22.1409413       0.376926608      -67.0203826      0.376926608      -67.0203826      0.920742433      22.1409413       
1052.08          0.922233431      21.9209652       0.373367281      -67.2401666      0.373367281      -67.2401666      0.922233431      21.9209652       
1061.3           0.923692068      21.7037078       0.369846549      -67.4571389      0.369846549      -67.4571389      0.923692068      21.7037078       
1070.52          0.925119187      21.4891161       0.366363806      -67.6713525      0.366363806      -67.6713525      0.925119187      21.4891161       
1079.74          0.926515607      21.2771385       0.362918451      -67.8828591      0.362918451      -67.8828591      0.926515607      21.2771385       
1088.96          0.927882123      21.0677247       0.359509896      -68.0917091      0.359509896      -68.0917091      0.927882123      21.0677247       
1098.18          0.929219503      20.8608253       0.356137559      -68.2979516      0.356137559      -68.2979516      0.929219503      20.8608253       
1107.4           0.930528495      20.6563922       0.352800868      -68.5016346      0.352800868      -68.5016346      0.930528495      20.6563922       
1116.62          0.931809821      20.4543784       0.34949926       -68.7028049      0.34949926       -68.7028049      0.931809821      20.4543784       
1125.84          0.933064184      20.2547381       0.346232182      -68.9015084      0.346232182      -68.9015084      0.933064184      20.2547381       
1135.06          0.934292263      20.0574264       0.342999088      -69.0977896      0.342999088      -69.0977896      0.934292263      20.0574264       
1144.28          0.93549472       19.8623994       0.339799442      -69.291692       0.339799442      -69.291692       0.93549472       19.8623994       
1153.5           0.936672195      19.6696145       0.336632717      -69.4832581      0.336632717      -69.4832581      0.936672195      19.6696145       
1162.72          0.937825309      19.4790297       0.333498393      -69.6725294      0.333498393      -69.6725294      0.937825309      19.4790297       
1171.94          0.938954665      19.2906043       0.330395962      -69.8595464      0.330395962      -69.8595464      0.938954665      19.2906043       
