! Coilcraft 0603CS-3N6 Chip Inductor				
! 21 May 2002			
# MHZ S MA R 50
!Freq             MagS11           AngS11           MagS21           AngS21           MagS12           AngS12           MagS22           AngS22
1                0.000268641204   57.3255155       0.999854995      -0.0129581209    0.999854995      -0.0129581209    0.000268641204   57.3255155       
37.41            0.0084913362     84.2184964       0.99918034       -0.484445796     0.99918034       -0.484445796     0.0084913362     84.2184964       
73.82            0.0167133952     85.2957966       0.998768217      -0.955602527     0.998768217      -0.955602527     0.0167133952     85.2957966       
110.23           0.0249297784     85.5144761       0.998359713      -1.42648313      0.998359713      -1.42648313      0.0249297784     85.5144761       
146.64           0.033139645      85.4552257       0.997921034      -1.8970814       0.997921034      -1.8970814       0.033139645      85.4552257       
183.05           0.0413420284     85.2655827       0.997439048      -2.36737619      0.997439048      -2.36737619      0.0413420284     85.2655827       
219.46           0.0495358782     85.0026773       0.996907088      -2.83733971      0.996907088      -2.83733971      0.0495358782     85.0026773       
255.87           0.0577200943     84.6938968       0.996321277      -3.30694061      0.996321277      -3.30694061      0.0577200943     84.6938968       
292.28           0.0658935469     84.3542332       0.99567918       -3.77614541      0.99567918       -3.77614541      0.0658935469     84.3542332       
328.69           0.0740550887     83.9926794       0.994979199      -4.24491923      0.994979199      -4.24491923      0.0740550887     83.9926794       
365.1            0.0822035628     83.6150059       0.994220262      -4.71322634      0.994220262      -4.71322634      0.0822035628     83.6150059       
401.51           0.0903378078     83.2251128       0.993401653      -5.18103043      0.993401653      -5.18103043      0.0903378078     83.2251128       
437.92           0.0984566622     82.8257471       0.992522908      -5.64829482      0.992522908      -5.64829482      0.0984566622     82.8257471       
474.33           0.106558968      82.418911        0.991583748      -6.11498266      0.991583748      -6.11498266      0.106558968      82.418911        
510.74           0.11464357       82.0061054       0.99058404       -6.58105699      0.99058404       -6.58105699      0.11464357       82.0061054       
547.15           0.122709324      81.5884833       0.989523764      -7.04648089      0.989523764      -7.04648089      0.122709324      81.5884833       
583.56           0.130755092      81.1669493       0.988402991      -7.51121751      0.988402991      -7.51121751      0.130755092      81.1669493       
619.97           0.138779748      80.7422261       0.987221872      -7.97523018      0.987221872      -7.97523018      0.138779748      80.7422261       
656.38           0.146782177      80.3149008       0.985980623      -8.43848243      0.985980623      -8.43848243      0.146782177      80.3149008       
692.79           0.154761277      79.8854572       0.984679517      -8.90093804      0.984679517      -8.90093804      0.154761277      79.8854572       
729.2            0.16271596       79.4542993       0.98331888       -9.3625611       0.98331888       -9.3625611       0.16271596       79.4542993       
765.61           0.170645154      79.0217688       0.981899078      -9.82331603      0.981899078      -9.82331603      0.170645154      79.0217688       
802.02           0.178547803      78.5881575       0.980420522      -10.2831676      0.980420522      -10.2831676      0.178547803      78.5881575       
838.43           0.186422866      78.1537172       0.978883657      -10.742081       0.978883657      -10.742081       0.186422866      78.1537172       
874.84           0.194269322      77.7186673       0.977288964      -11.2000219      0.977288964      -11.2000219      0.194269322      77.7186673       
911.25           0.202086165      77.2832007       0.975636953      -11.6569563      0.975636953      -11.6569563      0.202086165      77.2832007       
947.66           0.209872412      76.847488        0.973928164      -12.1128507      0.973928164      -12.1128507      0.209872412      76.847488        
984.07           0.217627097      76.4116812       0.972163162      -12.5676722      0.972163162      -12.5676722      0.217627097      76.4116812       
1020.48          0.225349275      75.9759169       0.970342539      -13.0213883      0.970342539      -13.0213883      0.225349275      75.9759169       
1056.89          0.23303802       75.5403185       0.968466909      -13.4739671      0.968466909      -13.4739671      0.23303802       75.5403185       
1093.3           0.24069243       75.1049979       0.966536907      -13.9253772      0.966536907      -13.9253772      0.24069243       75.1049979       
1129.71          0.248311622      74.6700573       0.964553189      -14.3755878      0.964553189      -14.3755878      0.248311622      74.6700573       
1166.12          0.255894737      74.2355905       0.962516429      -14.8245686      0.962516429      -14.8245686      0.255894737      74.2355905       
1202.53          0.263440936      73.8016838       0.960427321      -15.27229        0.960427321      -15.27229        0.263440936      73.8016838       
1238.94          0.270949405      73.3684169       0.958286573      -15.7187229      0.958286573      -15.7187229      0.270949405      73.3684169       
1275.35          0.278419352      72.935864        0.956094909      -16.163839       0.956094909      -16.163839       0.278419352      72.935864        
1311.76          0.285850007      72.5040939       0.953853068      -16.6076103      0.953853068      -16.6076103      0.285850007      72.5040939       
1348.17          0.293240627      72.0731711       0.951561802      -17.0500098      0.951561802      -17.0500098      0.293240627      72.0731711       
1384.58          0.300590488      71.6431557       0.949221873      -17.4910108      0.949221873      -17.4910108      0.300590488      71.6431557       
1420.99          0.307898893      71.2141044       0.946834059      -17.9305876      0.946834059      -17.9305876      0.307898893      71.2141044       
1457.4           0.315165167      70.7860701       0.944399144      -18.3687148      0.944399144      -18.3687148      0.315165167      70.7860701       
1493.81          0.322388662      70.3591032       0.941917923      -18.8053679      0.941917923      -18.8053679      0.322388662      70.3591032       
1530.22          0.32956875       69.9332506       0.939391201      -19.240523       0.939391201      -19.240523       0.32956875       69.9332506       
1566.63          0.33670483       69.5085572       0.936819789      -19.6741568      0.936819789      -19.6741568      0.33670483       69.5085572       
1603.04          0.343796324      69.0850651       0.934204505      -20.1062468      0.934204505      -20.1062468      0.343796324      69.0850651       
1639.45          0.350842678      68.6628144       0.931546175      -20.5367711      0.931546175      -20.5367711      0.350842678      68.6628144       
1675.86          0.357843362      68.2418429       0.928845627      -20.9657084      0.928845627      -20.9657084      0.357843362      68.2418429       
1712.27          0.364797871      67.8221867       0.926103697      -21.3930382      0.926103697      -21.3930382      0.364797871      67.8221867       
1748.68          0.371705723      67.4038798       0.923321222      -21.8187407      0.923321222      -21.8187407      0.371705723      67.4038798       
1785.09          0.378566459      66.9869548       0.920499044      -22.2427965      0.920499044      -22.2427965      0.378566459      66.9869548       
1821.5           0.385379645      66.5714423       0.917638007      -22.6651873      0.917638007      -22.6651873      0.385379645      66.5714423       
1857.91          0.392144868      66.1573717       0.914738957      -23.0858951      0.914738957      -23.0858951      0.392144868      66.1573717       
1894.32          0.398861742      65.7447708       0.911802739      -23.5049029      0.911802739      -23.5049029      0.398861742      65.7447708       
1930.73          0.405529902      65.3336659       0.908830201      -23.922194       0.908830201      -23.922194       0.405529902      65.3336659       
1967.14          0.412149003      64.9240821       0.905822189      -24.3377526      0.905822189      -24.3377526      0.412149003      64.9240821       
2003.55          0.418718727      64.5160432       0.90277955       -24.7515635      0.90277955       -24.7515635      0.418718727      64.5160432       
2039.96          0.425238776      64.1095719       0.899703127      -25.1636122      0.899703127      -25.1636122      0.425238776      64.1095719       
2076.37          0.431708875      63.7046895       0.896593763      -25.5738849      0.896593763      -25.5738849      0.431708875      63.7046895       
2112.78          0.438128768      63.3014163       0.893452299      -25.9823682      0.893452299      -25.9823682      0.438128768      63.3014163       
2149.19          0.444498223      62.8997716       0.89027957       -26.3890496      0.89027957       -26.3890496      0.444498223      62.8997716       
2185.6           0.450817029      62.4997736       0.88707641       -26.7939171      0.88707641       -26.7939171      0.450817029      62.4997736       
2222.01          0.457084994      62.1014394       0.883843649      -27.1969593      0.883843649      -27.1969593      0.457084994      62.1014394       
2258.42          0.463301948      61.7047851       0.88058211       -27.5981656      0.88058211       -27.5981656      0.463301948      61.7047851       
2294.83          0.469467738      61.3098262       0.877292614      -27.9975258      0.877292614      -27.9975258      0.469467738      61.3098262       
2331.24          0.475582235      60.916577        0.873975975      -28.3950304      0.873975975      -28.3950304      0.475582235      60.916577        
2367.65          0.481645326      60.525051        0.870633001      -28.7906704      0.870633001      -28.7906704      0.481645326      60.525051        
2404.06          0.487656917      60.1352607       0.867264495      -29.1844376      0.867264495      -29.1844376      0.487656917      60.1352607       
2440.47          0.493616934      59.7472181       0.863871251      -29.5763242      0.863871251      -29.5763242      0.493616934      59.7472181       
2476.88          0.499525319      59.3609341       0.86045406       -29.966323       0.86045406       -29.966323       0.499525319      59.3609341       
2513.29          0.505382033      58.976419        0.857013702      -30.3544274      0.857013702      -30.3544274      0.505382033      58.976419        
2549.7           0.511187054      58.5936823       0.853550952      -30.7406312      0.853550952      -30.7406312      0.511187054      58.5936823       
2586.11          0.516940376      58.2127328       0.850066575      -31.124929       0.850066575      -31.124929       0.516940376      58.2127328       
2622.52          0.52264201       57.8335785       0.846561329      -31.5073158      0.846561329      -31.5073158      0.52264201       57.8335785       
2658.93          0.528291983      57.4562268       0.843035963      -31.887787       0.843035963      -31.887787       0.528291983      57.4562268       
2695.34          0.533890336      57.0806844       0.839491218      -32.2663387      0.839491218      -32.2663387      0.533890336      57.0806844       
2731.75          0.539437128      56.7069573       0.835927826      -32.6429674      0.835927826      -32.6429674      0.539437128      56.7069573       
2768.16          0.544932429      56.3350511       0.83234651       -33.0176701      0.83234651       -33.0176701      0.544932429      56.3350511       
2804.57          0.550376327      55.9649704       0.828747982      -33.3904443      0.828747982      -33.3904443      0.550376327      55.9649704       
2840.98          0.55576892       55.5967196       0.825132948      -33.761288       0.825132948      -33.761288       0.55576892       55.5967196       
2877.39          0.561110321      55.2303023       0.8215021        -34.1301995      0.8215021        -34.1301995      0.561110321      55.2303023       
2913.8           0.566400658      54.8657216       0.817856123      -34.4971778      0.817856123      -34.4971778      0.566400658      54.8657216       
2950.21          0.571640068      54.50298         0.814195691      -34.8622221      0.814195691      -34.8622221      0.571640068      54.50298         
2986.62          0.576828702      54.1420796       0.81052147       -35.2253323      0.81052147       -35.2253323      0.576828702      54.1420796       
3023.03          0.581966722      53.7830219       0.806834112      -35.5865083      0.806834112      -35.5865083      0.581966722      53.7830219       
3059.44          0.587054302      53.4258078       0.803134262      -35.9457508      0.803134262      -35.9457508      0.587054302      53.4258078       
3095.85          0.592091626      53.070438        0.799422553      -36.3030607      0.799422553      -36.3030607      0.592091626      53.070438        
3132.26          0.597078889      52.7169125       0.795699608      -36.6584394      0.795699608      -36.6584394      0.597078889      52.7169125       
3168.67          0.602016296      52.365231        0.79196604       -37.0118885      0.79196604       -37.0118885      0.602016296      52.365231        
3205.08          0.606904061      52.0153926       0.78822245       -37.3634101      0.78822245       -37.3634101      0.606904061      52.0153926       
3241.49          0.611742408      51.6673961       0.784469429      -37.7130066      0.784469429      -37.7130066      0.611742408      51.6673961       
3277.9           0.616531569      51.3212398       0.780707559      -38.0606808      0.780707559      -38.0606808      0.616531569      51.3212398       
3314.31          0.621271786      50.9769218       0.77693741       -38.4064358      0.77693741       -38.4064358      0.621271786      50.9769218       
3350.72          0.625963308      50.6344395       0.77315954       -38.7502749      0.77315954       -38.7502749      0.625963308      50.6344395       
3387.13          0.630606391      50.2937903       0.769374499      -39.092202       0.769374499      -39.092202       0.630606391      50.2937903       
3423.54          0.6352013        49.9549709       0.765582825      -39.4322209      0.765582825      -39.4322209      0.6352013        49.9549709       
3459.95          0.639748306      49.6179779       0.761785045      -39.7703361      0.761785045      -39.7703361      0.639748306      49.6179779       
3496.36          0.644247688      49.2828075       0.757981677      -40.1065521      0.757981677      -40.1065521      0.644247688      49.2828075       
3532.77          0.648699729      48.9494554       0.754173227      -40.4408738      0.754173227      -40.4408738      0.648699729      48.9494554       
3569.18          0.65310472       48.6179173       0.750360191      -40.7733063      0.750360191      -40.7733063      0.65310472       48.6179173       
3605.59          0.657462958      48.2881884       0.746543055      -41.1038551      0.746543055      -41.1038551      0.657462958      48.2881884       
3642             0.661774744      47.9602636       0.742722293      -41.4325256      0.742722293      -41.4325256      0.661774744      47.9602636       
3678.41          0.666040384      47.6341377       0.738898371      -41.7593238      0.738898371      -41.7593238      0.666040384      47.6341377       
3714.82          0.670260189      47.3098049       0.735071743      -42.0842558      0.735071743      -42.0842558      0.670260189      47.3098049       
3751.23          0.674434476      46.9872596       0.731242854      -42.4073278      0.731242854      -42.4073278      0.674434476      46.9872596       
3787.64          0.678563565      46.6664956       0.727412139      -42.7285464      0.727412139      -42.7285464      0.678563565      46.6664956       
3824.05          0.682647778      46.3475066       0.723580021      -43.0479182      0.723580021      -43.0479182      0.682647778      46.3475066       
3860.46          0.686687445      46.030286        0.719746916      -43.3654502      0.719746916      -43.3654502      0.686687445      46.030286        
3896.87          0.690682895      45.7148271       0.715913229      -43.6811495      0.715913229      -43.6811495      0.690682895      45.7148271       
3933.28          0.694634463      45.4011228       0.712079353      -43.9950232      0.712079353      -43.9950232      0.694634463      45.4011228       
3969.69          0.698542486      45.0891661       0.708245675      -44.3070788      0.708245675      -44.3070788      0.698542486      45.0891661       
4006.1           0.702407302      44.7789496       0.704412572      -44.6173239      0.704412572      -44.6173239      0.702407302      44.7789496       
4042.51          0.706229254      44.4704657       0.700580409      -44.9257662      0.700580409      -44.9257662      0.706229254      44.4704657       
4078.92          0.710008686      44.1637067       0.696749544      -45.2324135      0.696749544      -45.2324135      0.710008686      44.1637067       
4115.33          0.713745943      43.8586647       0.692920325      -45.5372739      0.692920325      -45.5372739      0.713745943      43.8586647       
4151.74          0.717441373      43.5553317       0.689093092      -45.8403554      0.689093092      -45.8403554      0.717441373      43.5553317       
4188.15          0.721095325      43.2536995       0.685268175      -46.1416664      0.685268175      -46.1416664      0.721095325      43.2536995       
4224.56          0.724708149      42.9537597       0.681445895      -46.4412151      0.681445895      -46.4412151      0.724708149      42.9537597       
4260.97          0.728280197      42.655504        0.677626567      -46.7390101      0.677626567      -46.7390101      0.728280197      42.655504        
4297.38          0.731811821      42.3589237       0.673810493      -47.0350599      0.673810493      -47.0350599      0.731811821      42.3589237       
4333.79          0.735303374      42.0640101       0.669997971      -47.3293731      0.669997971      -47.3293731      0.735303374      42.0640101       
4370.2           0.738755209      41.7707544       0.666189288      -47.6219586      0.666189288      -47.6219586      0.738755209      41.7707544       
4406.61          0.742167681      41.4791476       0.662384724      -47.9128252      0.662384724      -47.9128252      0.742167681      41.4791476       
4443.02          0.745541144      41.1891807       0.658584551      -48.2019816      0.658584551      -48.2019816      0.745541144      41.1891807       
4479.43          0.748875951      40.9008447       0.654789032      -48.4894371      0.654789032      -48.4894371      0.748875951      40.9008447       
4515.84          0.752172457      40.6141302       0.650998424      -48.7752004      0.650998424      -48.7752004      0.752172457      40.6141302       
4552.25          0.755431016      40.3290281       0.647212975      -49.0592808      0.647212975      -49.0592808      0.755431016      40.3290281       
4588.66          0.75865198       40.0455288       0.643432926      -49.3416875      0.643432926      -49.3416875      0.75865198       40.0455288       
4625.07          0.761835704      39.7636231       0.639658512      -49.6224295      0.639658512      -49.6224295      0.761835704      39.7636231       
