! Coilcraft 0603CS-1N8 Chip Inductor				
! 21 May 2002			
# MHZ S MA R 50
!Freq             MagS11           AngS11           MagS21           AngS21           MagS12           AngS12           MagS22           AngS22
1                0.000157751488   45.7889262       0.999890006      -0.00647928724   0.999890006      -0.00647928723   0.000157751488   45.7889261       
56.11            0.00638620217    82.8155859       0.999221409      -0.36331495      0.999221409      -0.36331495      0.00638620217    82.8155859       
111.22           0.0126096241     84.4421773       0.998857603      -0.719923204     0.998857603      -0.719923204     0.0126096241     84.4421773       
166.33           0.0188298181     84.9710661       0.998525595      -1.07636628      0.998525595      -1.07636628      0.0188298181     84.9710661       
221.44           0.025046725      85.1437155       0.998191661      -1.43265973      0.998191661      -1.43265973      0.025046725      85.1437155       
276.55           0.0312601541     85.1488383       0.997842675      -1.7888078       0.997842675      -1.7888078       0.0312601541     85.1488383       
331.66           0.037469842      85.059589        0.99747191       -2.14480968      0.99747191       -2.14480968      0.037469842      85.059589        
386.77           0.0436754828     84.9110543       0.997075389      -2.50066176      0.997075389      -2.50066176      0.0436754828     84.9110543       
441.88           0.0498767436     84.7224401       0.996650542      -2.85635872      0.996650542      -2.85635872      0.0498767436     84.7224401       
496.99           0.0560732732     84.5052597       0.996195608      -3.21189411      0.996195608      -3.21189411      0.0560732732     84.5052597       
552.1            0.0622647079     84.2668912       0.995709326      -3.56726064      0.995709326      -3.56726064      0.0622647079     84.2668912       
607.21           0.068450675      84.012311        0.995190767      -3.92245045      0.995190767      -3.92245045      0.068450675      84.012311        
662.32           0.0746307956     83.7450148       0.994639233      -4.27745524      0.994639233      -4.27745524      0.0746307956     83.7450148       
717.43           0.0808046859     83.4675407       0.99405419       -4.63226636      0.99405419       -4.63226636      0.0808046859     83.4675407       
772.54           0.0869719589     83.1817825       0.99343523       -4.98687491      0.99343523       -4.98687491      0.0869719589     83.1817825       
827.65           0.0931322255     82.8891872       0.992782035      -5.34127179      0.992782035      -5.34127179      0.0931322255     82.8891872       
882.76           0.0992850949     82.590882        0.992094364      -5.69544772      0.992094364      -5.69544772      0.0992850949     82.590882        
937.87           0.105430176      82.2877605       0.991372034      -6.04939331      0.991372034      -6.04939331      0.105430176      82.2877605       
992.98           0.111567077      81.980542        0.990614911      -6.40309909      0.990614911      -6.40309909      0.111567077      81.980542        
1048.09          0.117695406      81.6698136       0.9898229        -6.75655547      0.9898229        -6.75655547      0.117695406      81.6698136       
1103.2           0.123814773      81.3560596       0.988995939      -7.10975283      0.988995939      -7.10975283      0.123814773      81.3560596       
1158.31          0.129924788      81.0396847       0.988133996      -7.46268153      0.988133996      -7.46268153      0.129924788      81.0396847       
1213.42          0.136025063      80.7210298       0.987237064      -7.81533187      0.987237064      -7.81533187      0.136025063      80.7210298       
1268.53          0.142115211      80.4003848       0.986305158      -8.16769414      0.986305158      -8.16769414      0.142115211      80.4003848       
1323.64          0.148194847      80.0779984       0.985338309      -8.51975865      0.985338309      -8.51975865      0.148194847      80.0779984       
1378.75          0.154263588      79.7540856       0.984336571      -8.87151569      0.984336571      -8.87151569      0.154263588      79.7540856       
1433.86          0.160321054      79.4288331       0.983300007      -9.22295557      0.983300007      -9.22295557      0.160321054      79.4288331       
1488.97          0.166366865      79.1024049       0.982228698      -9.57406862      0.982228698      -9.57406862      0.166366865      79.1024049       
1544.08          0.172400646      78.7749451       0.981122738      -9.92484521      0.981122738      -9.92484521      0.172400646      78.7749451       
1599.19          0.178422025      78.4465816       0.979982231      -10.2752757      0.979982231      -10.2752757      0.178422025      78.4465816       
1654.3           0.184430631      78.1174281       0.978807291      -10.6253506      0.978807291      -10.6253506      0.184430631      78.1174281       
1709.41          0.190426097      77.7875868       0.977598046      -10.9750602      0.977598046      -10.9750602      0.190426097      77.7875868       
1764.52          0.19640806       77.4571494       0.97635463       -11.3243952      0.97635463       -11.3243952      0.19640806       77.4571494       
1819.63          0.202376159      77.1261985       0.975077186      -11.6733461      0.975077186      -11.6733461      0.202376159      77.1261985       
1874.74          0.208330037      76.7948096       0.973765868      -12.0219035      0.973765868      -12.0219035      0.208330037      76.7948096       
1929.85          0.21426934       76.463051        0.972420836      -12.3700581      0.972420836      -12.3700581      0.21426934       76.463051        
1984.96          0.220193719      76.1309854       0.971042256      -12.7178007      0.971042256      -12.7178007      0.220193719      76.1309854       
2040.07          0.226102827      75.7986702       0.969630304      -13.065122       0.969630304      -13.065122       0.226102827      75.7986702       
2095.18          0.231996323      75.4661585       0.968185162      -13.4120129      0.968185162      -13.4120129      0.231996323      75.4661585       
2150.29          0.237873868      75.133499        0.966707016      -13.7584644      0.966707016      -13.7584644      0.237873868      75.133499        
2205.4           0.243735128      74.8007371       0.965196062      -14.1044675      0.965196062      -14.1044675      0.243735128      74.8007371       
2260.51          0.249579772      74.4679149       0.963652499      -14.4500133      0.963652499      -14.4500133      0.249579772      74.4679149       
2315.62          0.255407476      74.1350715       0.962076532      -14.7950929      0.962076532      -14.7950929      0.255407476      74.1350715       
2370.73          0.261217916      73.8022438       0.960468373      -15.1396976      0.960468373      -15.1396976      0.261217916      73.8022438       
2425.84          0.267010777      73.4694659       0.958828238      -15.4838188      0.958828238      -15.4838188      0.267010777      73.4694659       
2480.95          0.272785745      73.1367702       0.957156347      -15.8274479      0.957156347      -15.8274479      0.272785745      73.1367702       
2536.06          0.278542511      72.8041869       0.955452926      -16.1705763      0.955452926      -16.1705763      0.278542511      72.8041869       
2591.17          0.284280773      72.4717446       0.953718205      -16.5131957      0.953718205      -16.5131957      0.284280773      72.4717446       
2646.28          0.290000231      72.1394704       0.95195242       -16.8552978      0.95195242       -16.8552978      0.290000231      72.1394704       
2701.39          0.29570059       71.8073898       0.95015581       -17.1968744      0.95015581       -17.1968744      0.29570059       71.8073898       
2756.5           0.301381561      71.4755272       0.948328616      -17.5379172      0.948328616      -17.5379172      0.301381561      71.4755272       
2811.61          0.307042858      71.1439055       0.946471085      -17.8784184      0.946471085      -17.8784184      0.307042858      71.1439055       
2866.72          0.312684201      70.8125466       0.94458347       -18.2183698      0.94458347       -18.2183698      0.312684201      70.8125466       
2921.83          0.318305316      70.4814715       0.942666022      -18.5577638      0.942666022      -18.5577638      0.318305316      70.4814715       
2976.94          0.323905931      70.1507001       0.940719         -18.8965926      0.940719         -18.8965926      0.323905931      70.1507001       
3032.05          0.32948578       69.8202514       0.938742665      -19.2348485      0.938742665      -19.2348485      0.32948578       69.8202514       
3087.16          0.335044605      69.4901437       0.93673728       -19.572524       0.93673728       -19.572524       0.335044605      69.4901437       
3142.27          0.340582147      69.1603944       0.934703112      -19.9096116      0.934703112      -19.9096116      0.340582147      69.1603944       
3197.38          0.346098158      68.8310202       0.932640431      -20.2461041      0.932640431      -20.2461041      0.346098158      68.8310202       
3252.49          0.351592392      68.5020373       0.930549508      -20.5819941      0.930549508      -20.5819941      0.351592392      68.5020373       
3307.6           0.357064607      68.173461        0.928430621      -20.9172746      0.928430621      -20.9172746      0.357064607      68.173461        
3362.71          0.362514569      67.8453062       0.926284044      -21.2519386      0.926284044      -21.2519386      0.362514569      67.8453062       
3417.82          0.367942047      67.5175872       0.924110059      -21.585979       0.924110059      -21.585979       0.367942047      67.5175872       
3472.93          0.373346816      67.1903178       0.921908947      -21.9193892      0.921908947      -21.9193892      0.373346816      67.1903178       
3528.04          0.378728656      66.8635111       0.919680992      -22.2521623      0.919680992      -22.2521623      0.378728656      66.8635111       
3583.15          0.384087353      66.5371802       0.917426481      -22.5842919      0.917426481      -22.5842919      0.384087353      66.5371802       
3638.26          0.389422695      66.2113372       0.9151457        -22.9157714      0.9151457        -22.9157714      0.389422695      66.2113372       
3693.37          0.394734478      65.8859941       0.912838941      -23.2465944      0.912838941      -23.2465944      0.394734478      65.8859941       
3748.48          0.400022504      65.5611624       0.910506493      -23.5767547      0.910506493      -23.5767547      0.400022504      65.5611624       
3803.59          0.405286577      65.2368533       0.90814865       -23.9062461      0.90814865       -23.9062461      0.405286577      65.2368533       
3858.7           0.410526508      64.9130776       0.905765706      -24.2350625      0.905765706      -24.2350625      0.410526508      64.9130776       
3913.81          0.415742112      64.5898456       0.903357955      -24.5631981      0.903357955      -24.5631981      0.415742112      64.5898456       
3968.92          0.420933212      64.2671675       0.900925696      -24.8906469      0.900925696      -24.8906469      0.420933212      64.2671675       
4024.03          0.426099632      63.9450531       0.898469225      -25.2174032      0.898469225      -25.2174032      0.426099632      63.9450531       
4079.14          0.431241204      63.6235118       0.895988842      -25.5434615      0.895988842      -25.5434615      0.431241204      63.6235118       
4134.25          0.436357764      63.3025527       0.893484845      -25.8688162      0.893484845      -25.8688162      0.436357764      63.3025527       
4189.36          0.441449154      62.9821848       0.890957535      -26.193462       0.890957535      -26.193462       0.441449154      62.9821848       
4244.47          0.446515219      62.6624166       0.888407213      -26.5173934      0.888407213      -26.5173934      0.446515219      62.6624166       
4299.58          0.451555811      62.3432564       0.88583418       -26.8406054      0.88583418       -26.8406054      0.451555811      62.3432564       
4354.69          0.456570786      62.0247125       0.88323874       -27.1630929      0.88323874       -27.1630929      0.456570786      62.0247125       
4409.8           0.461560006      61.7067925       0.880621193      -27.4848509      0.880621193      -27.4848509      0.461560006      61.7067925       
4464.91          0.466523336      61.3895041       0.877981843      -27.8058745      0.877981843      -27.8058745      0.466523336      61.3895041       
4520.02          0.471460648      61.0728546       0.875320994      -28.1261591      0.875320994      -28.1261591      0.471460648      61.0728546       
4575.13          0.476371818      60.7568511       0.872638947      -28.4457         0.872638947      -28.4457         0.476371818      60.7568511       
4630.24          0.481256726      60.4415006       0.869936007      -28.7644926      0.869936007      -28.7644926      0.481256726      60.4415006       
4685.35          0.486115259      60.1268098       0.867212476      -29.0825325      0.867212476      -29.0825325      0.486115259      60.1268098       
4740.46          0.490947306      59.8127851       0.864468657      -29.3998154      0.864468657      -29.3998154      0.490947306      59.8127851       
4795.57          0.495752764      59.4994329       0.861704854      -29.7163371      0.861704854      -29.7163371      0.495752764      59.4994329       
4850.68          0.500531531      59.1867592       0.858921368      -30.0320934      0.858921368      -30.0320934      0.500531531      59.1867592       
4905.79          0.505283513      58.8747699       0.856118502      -30.3470805      0.856118502      -30.3470805      0.505283513      58.8747699       
4960.9           0.510008619      58.5634707       0.853296557      -30.6612943      0.853296557      -30.6612943      0.510008619      58.5634707       
5016.01          0.514706762      58.2528672       0.850455835      -30.9747311      0.850455835      -30.9747311      0.514706762      58.2528672       
5071.12          0.519377861      57.9429648       0.847596637      -31.2873872      0.847596637      -31.2873872      0.519377861      57.9429648       
5126.23          0.524021839      57.6337685       0.844719261      -31.599259       0.844719261      -31.599259       0.524021839      57.6337685       
5181.34          0.528638623      57.3252834       0.841824009      -31.9103429      0.841824009      -31.9103429      0.528638623      57.3252834       
5236.45          0.533228145      57.0175144       0.838911177      -32.2206357      0.838911177      -32.2206357      0.533228145      57.0175144       
5291.56          0.537790342      56.7104661       0.835981063      -32.530134       0.835981063      -32.530134       0.537790342      56.7104661       
5346.67          0.542325153      56.4041431       0.833033965      -32.8388347      0.833033965      -32.8388347      0.542325153      56.4041431       
5401.78          0.546832523      56.0985497       0.830070178      -33.1467346      0.830070178      -33.1467346      0.546832523      56.0985497       
5456.89          0.551312401      55.7936901       0.827089996      -33.4538307      0.827089996      -33.4538307      0.551312401      55.7936901       
5512             0.555764741      55.4895684       0.824093713      -33.7601202      0.824093713      -33.7601202      0.555764741      55.4895684       
5567.11          0.5601895        55.1861886       0.821081621      -34.0656003      0.821081621      -34.0656003      0.5601895        55.1861886       
5622.22          0.564586638      54.8835543       0.818054011      -34.3702681      0.818054011      -34.3702681      0.564586638      54.8835543       
5677.33          0.568956122      54.5816693       0.815011174      -34.6741213      0.815011174      -34.6741213      0.568956122      54.5816693       
5732.44          0.573297921      54.2805371       0.811953398      -34.9771571      0.811953398      -34.9771571      0.573297921      54.2805371       
5787.55          0.577612007      53.9801609       0.808880969      -35.2793731      0.808880969      -35.2793731      0.577612007      53.9801609       
5842.66          0.581898359      53.6805441       0.805794174      -35.5807672      0.805794174      -35.5807672      0.581898359      53.6805441       
5897.77          0.586156956      53.3816897       0.802693296      -35.8813369      0.802693296      -35.8813369      0.586156956      53.3816897       
5952.88          0.590387784      53.0836008       0.79957862       -36.1810801      0.79957862       -36.1810801      0.590387784      53.0836008       
6007.99          0.594590831      52.7862801       0.796450424      -36.4799948      0.796450424      -36.4799948      0.594590831      52.7862801       
6063.1           0.598766089      52.4897305       0.79330899       -36.7780789      0.79330899       -36.7780789      0.598766089      52.4897305       
6118.21          0.602913554      52.1939544       0.790154595      -37.0753306      0.790154595      -37.0753306      0.602913554      52.1939544       
6173.32          0.607033224      51.8989545       0.786987515      -37.3717481      0.786987515      -37.3717481      0.607033224      51.8989545       
6228.43          0.611125102      51.6047331       0.783808025      -37.6673296      0.783808025      -37.6673296      0.611125102      51.6047331       
6283.54          0.615189195      51.3112924       0.780616397      -37.9620735      0.780616397      -37.9620735      0.615189195      51.3112924       
6338.65          0.619225511      51.0186347       0.777412902      -38.2559782      0.777412902      -38.2559782      0.619225511      51.0186347       
6393.76          0.623234063      50.7267619       0.774197809      -38.5490422      0.774197809      -38.5490422      0.623234063      50.7267619       
6448.87          0.627214868      50.435676        0.770971385      -38.8412641      0.770971385      -38.8412641      0.627214868      50.435676        
6503.98          0.631167943      50.1453788       0.767733896      -39.1326426      0.767733896      -39.1326426      0.631167943      50.1453788       
6559.09          0.635093313      49.8558721       0.764485605      -39.4231764      0.764485605      -39.4231764      0.635093313      49.8558721       
6614.2           0.638991001      49.5671575       0.761226773      -39.7128644      0.761226773      -39.7128644      0.638991001      49.5671575       
6669.31          0.642861036      49.2792365       0.75795766       -40.0017054      0.75795766       -40.0017054      0.642861036      49.2792365       
6724.42          0.646703449      48.9921105       0.754678522      -40.2896985      0.754678522      -40.2896985      0.646703449      48.9921105       
6779.53          0.650518276      48.7057809       0.751389616      -40.5768426      0.751389616      -40.5768426      0.650518276      48.7057809       
6834.64          0.654305552      48.4202489       0.748091193      -40.8631369      0.748091193      -40.8631369      0.654305552      48.4202489       
6889.75          0.658065317      48.1355156       0.744783507      -41.1485805      0.744783507      -41.1485805      0.658065317      48.1355156       
6944.86          0.661797615      47.8515822       0.741466805      -41.4331728      0.741466805      -41.4331728      0.661797615      47.8515822       
6999.97          0.66550249       47.5684496       0.738141334      -41.716913       0.738141334      -41.716913       0.66550249       47.5684496       
