! Coilcraft 0603CS-43N Chip Inductor				
! 21 May 2002			
# MHZ S MA R 50
!Freq             MagS11           AngS11           MagS21           AngS21           MagS12           AngS12           MagS22           AngS22
1                0.00289557996    68.6075341       0.998947463      -0.154637268     0.998947463      -0.154637268     0.00289557996    68.6075341       
10.97            0.0297065762     82.0566769       0.996329249      -1.69218728      0.996329249      -1.69218728      0.0297065762     82.0566769       
20.94            0.0564111955     82.2813048       0.99399653       -3.22388369      0.99399653       -3.22388369      0.0564111955     82.2813048       
30.91            0.082958563      81.5637337       0.991231839      -4.7487699       0.991231839      -4.7487699       0.082958563      81.5637337       
40.88            0.109302183      80.5347427       0.9879259        -6.26526754      0.9879259        -6.26526754      0.109302183      80.5347427       
50.85            0.135395091      79.3631059       0.984046863      -7.77167886      0.984046863      -7.77167886      0.135395091      79.3631059       
60.82            0.161191471      78.1164623       0.979590025      -9.26629883      0.979590025      -9.26629883      0.161191471      78.1164623       
70.79            0.186647582      76.8284154       0.974564157      -10.7474641      0.974564157      -10.7474641      0.186647582      76.8284154       
80.76            0.211722368      75.518152        0.968986146      -12.2135814      0.968986146      -12.2135814      0.211722368      75.518152        
90.73            0.236377884      74.1977679       0.962878355      -13.6631456      0.962878355      -13.6631456      0.236377884      74.1977679       
100.7            0.260579601      72.8754729       0.956267058      -15.0947536      0.956267058      -15.0947536      0.260579601      72.8754729       
110.67           0.284296605      71.5571587       0.949181382      -16.5071127      0.949181382      -16.5071127      0.284296605      71.5571587       
120.64           0.307501721      70.2472353       0.941652501      -17.8990474      0.941652501      -17.8990474      0.307501721      70.2472353       
130.61           0.330171554      68.949107        0.933712992      -19.269503       0.933712992      -19.269503       0.330171554      68.949107        
140.58           0.352286473      67.6654596       0.925396284      -20.617547       0.925396284      -20.617547       0.352286473      67.6654596       
150.55           0.373830532      66.3984417       0.916736194      -21.9423692      0.916736194      -21.9423692      0.373830532      66.3984417       
160.52           0.394791346      65.149785        0.907766514      -23.2432796      0.907766514      -23.2432796      0.394791346      65.149785        
170.49           0.415159933      63.9208868       0.898520664      -24.5197054      0.898520664      -24.5197054      0.415159933      63.9208868       
180.46           0.434930512      62.7128693       0.889031388      -25.7711868      0.889031388      -25.7711868      0.434930512      62.7128693       
190.43           0.454100293      61.5266236       0.8793305        -26.9973714      0.8793305        -26.9973714      0.454100293      61.5266236       
200.4            0.472669233      60.3628436       0.869448681      -28.1980088      0.869448681      -28.1980088      0.472669233      60.3628436       
210.37           0.4906398        59.2220536       0.859415303      -29.3729436      0.859415303      -29.3729436      0.4906398        59.2220536       
220.34           0.508016719      58.1046296       0.849258305      -30.5221091      0.849258305      -30.5221091      0.508016719      58.1046296       
230.31           0.524806721      57.0108189       0.839004095      -31.64552        0.839004095      -31.64552        0.524806721      57.0108189       
240.28           0.541018309      55.9407557       0.828677489      -32.7432654      0.828677489      -32.7432654      0.541018309      55.9407557       
250.25           0.556661512      54.8944754       0.818301673      -33.8155018      0.818301673      -33.8155018      0.556661512      54.8944754       
260.22           0.57174767       53.8719269       0.807898194      -34.8624458      0.807898194      -34.8624458      0.57174767       53.8719269       
270.19           0.586289218      52.8729835       0.797486966      -35.8843682      0.797486966      -35.8843682      0.586289218      52.8729835       
280.16           0.600299492      51.8974532       0.787086297      -36.8815867      0.787086297      -36.8815867      0.600299492      51.8974532       
290.13           0.613792548      50.9450873       0.776712933      -37.8544606      0.776712933      -37.8544606      0.613792548      50.9450873       
300.1            0.626782996      50.0155886       0.766382107      -38.8033843      0.766382107      -38.8033843      0.626782996      50.0155886       
310.07           0.639285851      49.1086187       0.756107602      -39.7287828      0.756107602      -39.7287828      0.639285851      49.1086187       
320.04           0.651316402      48.2238045       0.745901818      -40.631106       0.745901818      -40.631106       0.651316402      48.2238045       
330.01           0.662890089      47.3607439       0.735775848      -41.5108244      0.735775848      -41.5108244      0.662890089      47.3607439       
339.98           0.6740224        46.5190112       0.72573955       -42.3684251      0.72573955       -42.3684251      0.6740224        46.5190112       
349.95           0.684728782      45.698162        0.715801627      -43.2044078      0.715801627      -43.2044078      0.684728782      45.698162        
359.92           0.695024559      44.897737        0.7059697        -44.0192814      0.7059697        -44.0192814      0.695024559      44.897737        
369.89           0.704924867      44.1172661       0.696250393      -44.8135612      0.696250393      -44.8135612      0.704924867      44.1172661       
379.86           0.714444598      43.3562716       0.686649397      -45.5877657      0.686649397      -45.5877657      0.714444598      43.3562716       
389.83           0.72359835       42.6142708       0.677171554      -46.3424145      0.677171554      -46.3424145      0.72359835       42.6142708       
399.8            0.732400391      41.8907791       0.667820918      -47.078026       0.667820918      -47.078026       0.732400391      41.8907791       
409.77           0.740864629      41.1853118       0.658600825      -47.7951157      0.658600825      -47.7951157      0.740864629      41.1853118       
419.74           0.749004584      40.4973864       0.649513958      -48.4941946      0.649513958      -48.4941946      0.749004584      40.4973864       
429.71           0.756833375      39.8265237       0.640562404      -49.1757676      0.640562404      -49.1757676      0.756833375      39.8265237       
439.68           0.764363702      39.1722499       0.631747711      -49.8403322      0.631747711      -49.8403322      0.764363702      39.1722499       
449.65           0.771607843      38.5340973       0.623070943      -50.4883782      0.623070943      -50.4883782      0.771607843      38.5340973       
459.62           0.778577645      37.9116055       0.614532724      -51.1203859      0.614532724      -51.1203859      0.778577645      37.9116055       
469.59           0.785284527      37.3043225       0.606133287      -51.7368262      0.606133287      -51.7368262      0.785284527      37.3043225       
479.56           0.791739479      36.711805        0.597872515      -52.3381597      0.597872515      -52.3381597      0.791739479      36.711805        
489.53           0.797953067      36.1336189       0.58974998       -52.9248362      0.58974998       -52.9248362      0.797953067      36.1336189       
499.5            0.803935442      35.5693403       0.581764977      -53.4972945      0.581764977      -53.4972945      0.803935442      35.5693403       
509.47           0.809696342      35.0185553       0.573916558      -54.0559624      0.573916558      -54.0559624      0.809696342      35.0185553       
519.44           0.815245106      34.4808605       0.566203563      -54.6012561      0.566203563      -54.6012561      0.815245106      34.4808605       
529.41           0.820590685      33.955863        0.558624642      -55.1335802      0.558624642      -55.1335802      0.820590685      33.955863        
539.38           0.825741647      33.4431807       0.551178289      -55.6533282      0.551178289      -55.6533282      0.825741647      33.4431807       
549.35           0.830706197      32.9424421       0.543862853      -56.1608819      0.543862853      -56.1608819      0.830706197      32.9424421       
559.32           0.835492181      32.4532864       0.536676568      -56.6566116      0.536676568      -56.6566116      0.835492181      32.4532864       
569.29           0.840107105      31.9753635       0.529617566      -57.1408767      0.529617566      -57.1408767      0.840107105      31.9753635       
579.26           0.844558141      31.5083339       0.522683897      -57.6140251      0.522683897      -57.6140251      0.844558141      31.5083339       
589.23           0.848852147      31.0518682       0.51587354       -58.0763942      0.51587354       -58.0763942      0.848852147      31.0518682       
599.2            0.852995672      30.6056474       0.509184419      -58.5283104      0.509184419      -58.5283104      0.852995672      30.6056474       
609.17           0.856994975      30.1693626       0.502614416      -58.9700895      0.502614416      -58.9700895      0.856994975      30.1693626       
619.14           0.860856031      29.7427146       0.496161379      -59.4020375      0.496161379      -59.4020375      0.860856031      29.7427146       
629.11           0.864584547      29.3254139       0.489823133      -59.8244498      0.489823133      -59.8244498      0.864584547      29.3254139       
639.08           0.868185973      28.9171804       0.48359749       -60.2376126      0.48359749       -60.2376126      0.868185973      28.9171804       
649.05           0.871665512      28.517743        0.477482254      -60.6418021      0.477482254      -60.6418021      0.871665512      28.517743        
659.02           0.875028131      28.1268398       0.471475227      -61.0372857      0.471475227      -61.0372857      0.875028131      28.1268398       
668.99           0.878278573      27.7442173       0.465574221      -61.4243215      0.465574221      -61.4243215      0.878278573      27.7442173       
678.96           0.881421367      27.3696305       0.459777054      -61.8031591      0.459777054      -61.8031591      0.881421367      27.3696305       
688.93           0.884460836      27.0028426       0.454081562      -62.1740396      0.454081562      -62.1740396      0.884460836      27.0028426       
698.9            0.887401107      26.6436248       0.448485601      -62.5371959      0.448485601      -62.5371959      0.887401107      26.6436248       
708.87           0.890246124      26.2917557       0.442987048      -62.8928532      0.442987048      -62.8928532      0.890246124      26.2917557       
718.84           0.89299965       25.9470215       0.437583806      -63.2412287      0.437583806      -63.2412287      0.89299965       25.9470215       
728.81           0.895665281      25.6092157       0.432273808      -63.5825325      0.432273808      -63.5825325      0.895665281      25.6092157       
738.78           0.898246452      25.2781385       0.427055014      -63.9169676      0.427055014      -63.9169676      0.898246452      25.2781385       
748.75           0.900746443      24.9535971       0.421925419      -64.2447297      0.421925419      -64.2447297      0.900746443      24.9535971       
758.72           0.903168388      24.6354048       0.41688305       -64.5660084      0.41688305       -64.5660084      0.903168388      24.6354048       
768.69           0.905515284      24.3233815       0.411925969      -64.8809865      0.411925969      -64.8809865      0.905515284      24.3233815       
778.66           0.907789993      24.017353        0.407052275      -65.1898406      0.407052275      -65.1898406      0.907789993      24.017353        
788.63           0.909995251      23.7171511       0.402260102      -65.4927416      0.402260102      -65.4927416      0.909995251      23.7171511       
798.6            0.912133676      23.4226128       0.397547622      -65.7898543      0.397547622      -65.7898543      0.912133676      23.4226128       
808.57           0.914207769      23.1335811       0.392913042      -66.0813382      0.392913042      -66.0813382      0.914207769      23.1335811       
818.54           0.916219922      22.8499038       0.38835461       -66.3673473      0.38835461       -66.3673473      0.916219922      22.8499038       
828.51           0.918172425      22.571434        0.383870609      -66.6480304      0.383870609      -66.6480304      0.918172425      22.571434        
838.48           0.920067469      22.2980295       0.379459361      -66.9235314      0.379459361      -66.9235314      0.920067469      22.2980295       
848.45           0.921907148      22.0295529       0.375119226      -67.1939895      0.375119226      -67.1939895      0.921907148      22.0295529       
858.42           0.92369347       21.7658713       0.370848599      -67.4595391      0.370848599      -67.4595391      0.92369347       21.7658713       
868.39           0.925428354      21.5068561       0.366645913      -67.7203102      0.366645913      -67.7203102      0.925428354      21.5068561       
878.36           0.927113642      21.2523831       0.362509639      -67.9764285      0.362509639      -67.9764285      0.927113642      21.2523831       
888.33           0.928751094      21.0023318       0.358438282      -68.2280155      0.358438282      -68.2280155      0.928751094      21.0023318       
898.3            0.930342398      20.7565859       0.354430384      -68.4751889      0.354430384      -68.4751889      0.930342398      20.7565859       
908.27           0.931889172      20.5150328       0.350484521      -68.7180623      0.350484521      -68.7180623      0.931889172      20.5150328       
918.24           0.933392966      20.2775634       0.346599304      -68.9567459      0.346599304      -68.9567459      0.933392966      20.2775634       
928.21           0.934855267      20.0440723       0.342773379      -69.1913461      0.342773379      -69.1913461      0.934855267      20.0440723       
938.18           0.936277499      19.8144572       0.339005423      -69.4219659      0.339005423      -69.4219659      0.936277499      19.8144572       
948.15           0.937661029      19.5886194       0.335294147      -69.6487051      0.335294147      -69.6487051      0.937661029      19.5886194       
958.12           0.939007169      19.3664629       0.331638295      -69.87166        0.331638295      -69.87166        0.939007169      19.3664629       
968.09           0.940317178      19.1478951       0.328036641      -70.0909243      0.328036641      -70.0909243      0.940317178      19.1478951       
978.06           0.941592262      18.9328261       0.32448799       -70.3065883      0.32448799       -70.3065883      0.941592262      18.9328261       
988.03           0.942833582      18.7211688       0.320991176      -70.5187397      0.320991176      -70.5187397      0.942833582      18.7211688       
998              0.94404225       18.512839        0.317545064      -70.7274633      0.317545064      -70.7274633      0.94404225       18.512839        
1007.97          0.945219337      18.3077547       0.314148546      -70.9328412      0.314148546      -70.9328412      0.945219337      18.3077547       
1017.94          0.946365869      18.1058369       0.310800545      -71.1349532      0.310800545      -71.1349532      0.946365869      18.1058369       
1027.91          0.947482834      17.9070087       0.307500007      -71.3338763      0.307500007      -71.3338763      0.947482834      17.9070087       
1037.88          0.94857118       17.7111956       0.304245908      -71.5296853      0.304245908      -71.5296853      0.94857118       17.7111956       
1047.85          0.94963182       17.5183254       0.301037248      -71.7224526      0.301037248      -71.7224526      0.94963182       17.5183254       
1057.82          0.95066563       17.328328        0.297873053      -71.9122484      0.297873053      -71.9122484      0.95066563       17.328328        
1067.79          0.951673455      17.1411356       0.294752374      -72.0991409      0.294752374      -72.0991409      0.951673455      17.1411356       
1077.76          0.952656106      16.9566822       0.291674286      -72.2831959      0.291674286      -72.2831959      0.952656106      16.9566822       
1087.73          0.953614363      16.7749038       0.288637886      -72.4644776      0.288637886      -72.4644776      0.953614363      16.7749038       
1097.7           0.954548979      16.5957384       0.285642296      -72.6430479      0.285642296      -72.6430479      0.954548979      16.5957384       
1107.67          0.955460677      16.4191257       0.282686659      -72.8189671      0.282686659      -72.8189671      0.955460677      16.4191257       
1117.64          0.956350154      16.2450072       0.27977014       -72.9922936      0.27977014       -72.9922936      0.956350154      16.2450072       
1127.61          0.95721808       16.073326        0.276891924      -73.163084       0.276891924      -73.163084       0.95721808       16.073326        
1137.58          0.958065102      15.9040272       0.274051217      -73.3313932      0.274051217      -73.3313932      0.958065102      15.9040272       
1147.55          0.958891843      15.737057        0.271247245      -73.4972747      0.271247245      -73.4972747      0.958891843      15.737057        
1157.52          0.959698903      15.5723634       0.268479255      -73.6607801      0.268479255      -73.6607801      0.959698903      15.5723634       
1167.49          0.960486861      15.4098959       0.265746511      -73.8219598      0.265746511      -73.8219598      0.960486861      15.4098959       
1177.46          0.961256274      15.2496054       0.263048294      -73.9808625      0.263048294      -73.9808625      0.961256274      15.2496054       
1187.43          0.962007681      15.091444        0.260383907      -74.1375355      0.260383907      -74.1375355      0.962007681      15.091444        
1197.4           0.9627416        14.9353654       0.257752666      -74.292025       0.257752666      -74.292025       0.9627416        14.9353654       
1207.37          0.963458532      14.7813244       0.255153906      -74.4443754      0.255153906      -74.4443754      0.963458532      14.7813244       
1217.34          0.964158961      14.6292772       0.25258698       -74.5946302      0.25258698       -74.5946302      0.964158961      14.6292772       
1227.31          0.964843352      14.479181        0.250051253      -74.7428314      0.250051253      -74.7428314      0.964843352      14.479181        
1237.28          0.965512155      14.3309945       0.247546108      -74.8890201      0.247546108      -74.8890201      0.965512155      14.3309945       
1247.25          0.966165806      14.1846771       0.245070945      -75.0332359      0.245070945      -75.0332359      0.966165806      14.1846771       
1257.22          0.966804724      14.0401897       0.242625174      -75.1755174      0.242625174      -75.1755174      0.966804724      14.0401897       
1267.19          0.967429315      13.897494        0.240208223      -75.3159022      0.240208223      -75.3159022      0.967429315      13.897494        
