! Coilcraft 0603CS-3N3 Chip Inductor				
! 1 August 2002			
# MHZ S MA R 50
!Freq             MagS11           AngS11           MagS21           AngS21           MagS12           AngS12           MagS22           AngS22
1                0.000234224326   62.2575033       0.99989099       -0.0118787051    0.99989099       -0.0118787051    0.000234224326   62.2575033       
43.64            0.00906313175    85.638131        0.999351559      -0.518118178     0.999351559      -0.518118178     0.00906313175    85.638131        
86.28            0.0178923066     86.2661558       0.998994383      -1.02406187      0.998994383      -1.02406187      0.0178923066     86.2661558       
128.92           0.0267155736     86.2623404       0.998614361      -1.52973496      0.998614361      -1.52973496      0.0267155736     86.2623404       
171.56           0.0355316588     86.0555185       0.998185387      -2.03511166      0.998185387      -2.03511166      0.0355316588     86.0555185       
214.2            0.0443391802     85.7538407       0.997697385      -2.54015386      0.997697385      -2.54015386      0.0443391802     85.7538407       
256.84           0.053136687      85.3990479       0.997145294      -3.04481802      0.997145294      -3.04481802      0.053136687      85.3990479       
299.48           0.0619226905     85.0111173       0.996526228      -3.54905776      0.996526228      -3.54905776      0.0619226905     85.0111173       
342.12           0.0706956814     84.6009777       0.99583843       -4.05282503      0.99583843       -4.05282503      0.0706956814     84.6009777       
384.76           0.0794541408     84.1751868       0.995080807      -4.55607082      0.995080807      -4.55607082      0.0794541408     84.1751868       
427.4            0.0881965474     83.7379567       0.994252689      -5.05874552      0.994252689      -5.05874552      0.0881965474     83.7379567       
470.04           0.0969213827     83.2921396       0.993353696      -5.56079926      0.993353696      -5.56079926      0.0969213827     83.2921396       
512.68           0.105627135      82.8397501       0.992383657      -6.06218202      0.992383657      -6.06218202      0.105627135      82.8397501       
555.32           0.114312302      82.3822618       0.991342565      -6.56284388      0.991342565      -6.56284388      0.114312302      82.3822618       
597.96           0.122975394      81.9207845       0.990230534      -7.06273504      0.990230534      -7.06273504      0.122975394      81.9207845       
640.6            0.131614937      81.4561755       0.989047786      -7.56180599      0.989047786      -7.56180599      0.131614937      81.4561755       
683.24           0.140229472      80.9891118       0.987794624      -8.06000753      0.987794624      -8.06000753      0.140229472      80.9891118       
725.88           0.14881756       80.5201383       0.98647143       -8.55729087      0.98647143       -8.55729087      0.14881756       80.5201383       
768.52           0.157377781      80.0497013       0.985078648      -9.05360771      0.985078648      -9.05360771      0.157377781      80.0497013       
811.16           0.165908737      79.5781722       0.983616781      -9.54891023      0.983616781      -9.54891023      0.165908737      79.5781722       
853.8            0.174409053      79.1058642       0.982086382      -10.0431512      0.982086382      -10.0431512      0.174409053      79.1058642       
896.44           0.182877378      78.6330449       0.980488052      -10.5362839      0.980488052      -10.5362839      0.182877378      78.6330449       
939.08           0.191312385      78.1599457       0.978822436      -11.0282625      0.978822436      -11.0282625      0.191312385      78.1599457       
981.72           0.199712775      77.6867685       0.977090217      -11.5190416      0.977090217      -11.5190416      0.199712775      77.6867685       
1024.36          0.208077275      77.2136914       0.975292117      -12.0085765      0.975292117      -12.0085765      0.208077275      77.2136914       
1067             0.216404641      76.740873        0.97342889       -12.4968235      0.97342889       -12.4968235      0.216404641      76.740873        
1109.64          0.224693658      76.268455        0.971501323      -12.9837395      0.971501323      -12.9837395      0.224693658      76.268455        
1152.28          0.232943139      75.7965659       0.969510232      -13.4692822      0.969510232      -13.4692822      0.232943139      75.7965659       
1194.92          0.24115193       75.3253219       0.967456462      -13.9534101      0.967456462      -13.9534101      0.24115193       75.3253219       
1237.56          0.249318907      74.8548296       0.965340883      -14.4360826      0.965340883      -14.4360826      0.249318907      74.8548296       
1280.2           0.257442976      74.3851868       0.963164388      -14.9172601      0.963164388      -14.9172601      0.257442976      74.3851868       
1322.84          0.265523079      73.9164837       0.960927894      -15.3969035      0.960927894      -15.3969035      0.265523079      73.9164837       
1365.48          0.273558187      73.4488039       0.958632338      -15.874975       0.958632338      -15.874975       0.273558187      73.4488039       
1408.12          0.281547305      72.9822253       0.956278677      -16.3514376      0.956278677      -16.3514376      0.281547305      72.9822253       
1450.76          0.289489473      72.5168204       0.953867884      -16.826255       0.953867884      -16.826255       0.289489473      72.5168204       
1493.4           0.297383762      72.0526573       0.951400952      -17.2993922      0.951400952      -17.2993922      0.297383762      72.0526573       
1536.04          0.305229279      71.5897996       0.948878884      -17.7708149      0.948878884      -17.7708149      0.305229279      71.5897996       
1578.68          0.313025164      71.1283073       0.9463027        -18.2404899      0.9463027        -18.2404899      0.313025164      71.1283073       
1621.32          0.320770591      70.6682369       0.943673432      -18.7083849      0.943673432      -18.7083849      0.320770591      70.6682369       
1663.96          0.32846477       70.2096417       0.940992122      -19.1744686      0.940992122      -19.1744686      0.32846477       70.2096417       
1706.6           0.336106942      69.7525719       0.938259823      -19.6387107      0.938259823      -19.6387107      0.336106942      69.7525719       
1749.24          0.343696386      69.2970752       0.935477594      -20.1010817      0.935477594      -20.1010817      0.343696386      69.2970752       
1791.88          0.351232411      68.8431965       0.932646504      -20.5615535      0.932646504      -20.5615535      0.351232411      68.8431965       
1834.52          0.358714364      68.3909787       0.929767627      -21.0200986      0.929767627      -21.0200986      0.358714364      68.3909787       
1877.16          0.366141623      67.940462        0.926842043      -21.4766906      0.926842043      -21.4766906      0.366141623      67.940462        
1919.8           0.373513602      67.4916849       0.923870834      -21.9313042      0.923870834      -21.9313042      0.373513602      67.4916849       
1962.44          0.380829746      67.0446835       0.920855087      -22.383915       0.920855087      -22.383915       0.380829746      67.0446835       
2005.08          0.388089534      66.5994923       0.917795889      -22.8344995      0.917795889      -22.8344995      0.388089534      66.5994923       
2047.72          0.395292479      66.1561438       0.91469433       -23.2830353      0.91469433       -23.2830353      0.395292479      66.1561438       
2090.36          0.402438125      65.714669        0.911551497      -23.729501       0.911551497      -23.729501       0.402438125      65.714669        
2133             0.40952605       65.2750971       0.908368478      -24.1738761      0.908368478      -24.1738761      0.40952605       65.2750971       
2175.64          0.41655586       64.8374555       0.90514636       -24.6161409      0.90514636       -24.6161409      0.41655586       64.8374555       
2218.28          0.423527197      64.4017706       0.901886224      -25.056277       0.901886224      -25.056277       0.423527197      64.4017706       
2260.92          0.43043973       63.9680668       0.89858915       -25.4942667      0.89858915       -25.4942667      0.43043973       63.9680668       
2303.56          0.43729316       63.5363674       0.895256212      -25.9300933      0.895256212      -25.9300933      0.43729316       63.5363674       
2346.2           0.444087217      63.1066943       0.89188848       -26.363741       0.89188848       -26.363741       0.444087217      63.1066943       
2388.84          0.450821661      62.6790679       0.888487016      -26.7951949      0.888487016      -26.7951949      0.450821661      62.6790679       
2431.48          0.457496281      62.2535076       0.885052878      -27.2244411      0.885052878      -27.2244411      0.457496281      62.2535076       
2474.12          0.464110893      61.8300313       0.881587114      -27.6514665      0.881587114      -27.6514665      0.464110893      61.8300313       
2516.76          0.470665341      61.4086558       0.878090766      -28.0762589      0.878090766      -28.0762589      0.470665341      61.4086558       
2559.4           0.477159496      60.9893969       0.874564865      -28.4988069      0.874564865      -28.4988069      0.477159496      60.9893969       
2602.04          0.483593256      60.5722691       0.871010434      -28.9191001      0.871010434      -28.9191001      0.483593256      60.5722691       
2644.68          0.489966542      60.1572859       0.867428488      -29.3371287      0.867428488      -29.3371287      0.489966542      60.1572859       
2687.32          0.496279303      59.7444596       0.863820029      -29.7528841      0.863820029      -29.7528841      0.496279303      59.7444596       
2729.96          0.502531512      59.3338016       0.860186049      -30.166358       0.860186049      -30.166358       0.502531512      59.3338016       
2772.6           0.508723164      58.9253223       0.856527528      -30.5775433      0.856527528      -30.5775433      0.508723164      58.9253223       
2815.24          0.514854279      58.5190312       0.852845437      -30.9864335      0.852845437      -30.9864335      0.514854279      58.5190312       
2857.88          0.520924898      58.1149367       0.849140731      -31.393023       0.849140731      -31.393023       0.520924898      58.1149367       
2900.52          0.526935085      57.7130463       0.845414356      -31.7973066      0.845414356      -31.7973066      0.526935084      57.7130463       
2943.16          0.532884923      57.3133669       0.841667242      -32.1992802      0.841667242      -32.1992802      0.532884923      57.3133669       
2985.8           0.538774518      56.9159041       0.837900309      -32.5989403      0.837900309      -32.5989403      0.538774518      56.9159041       
3028.44          0.544603995      56.5206631       0.834114462      -32.996284       0.834114462      -32.996284       0.544603995      56.5206631       
3071.08          0.550373497      56.127648        0.830310591      -33.3913091      0.830310591      -33.3913091      0.550373497      56.127648        
3113.72          0.556083186      55.7368622       0.826489575      -33.7840141      0.826489575      -33.7840141      0.556083186      55.7368622       
3156.36          0.561733242      55.3483084       0.822652276      -34.1743981      0.822652276      -34.1743981      0.561733242      55.3483084       
3199             0.567323863      54.9619886       0.818799543      -34.562461       0.818799543      -34.562461       0.567323863      54.9619886       
3241.64          0.57285526       54.577904        0.814932211      -34.948203       0.814932211      -34.948203       0.57285526       54.577904        
3284.28          0.578327665      54.1960551       0.811051099      -35.3316252      0.811051099      -35.3316252      0.578327665      54.1960551       
3326.92          0.583741321      53.8164418       0.807157013      -35.712729       0.807157013      -35.712729       0.583741321      53.8164418       
3369.56          0.589096487      53.4390633       0.803250743      -36.0915165      0.803250743      -36.0915165      0.589096487      53.4390633       
3412.2           0.594393436      53.0639182       0.799333063      -36.4679903      0.799333063      -36.4679903      0.594393436      53.0639182       
3454.84          0.599632455      52.6910046       0.795404734      -36.8421537      0.795404734      -36.8421537      0.599632455      52.6910046       
3497.48          0.604813842      52.3203198       0.7914665        -37.2140101      0.7914665        -37.2140101      0.604813842      52.3203198       
3540.12          0.609937909      51.9518608       0.787519093      -37.5835638      0.787519093      -37.5835638      0.609937909      51.9518608       
3582.76          0.615004978      51.5856239       0.783563226      -37.9508194      0.783563226      -37.9508194      0.615004978      51.5856239       
3625.4           0.620015383      51.2216049       0.779599599      -38.315782       0.779599599      -38.315782       0.620015383      51.2216049       
3668.04          0.624969468      50.8597991       0.775628897      -38.678457       0.775628897      -38.678457       0.624969468      50.8597991       
3710.68          0.629867587      50.5002014       0.77165179       -39.0388504      0.77165179       -39.0388504      0.629867587      50.5002014       
3753.32          0.634710104      50.142806        0.767668933      -39.3969686      0.767668933      -39.3969686      0.634710104      50.142806        
3795.96          0.63949739       49.7876069       0.763680965      -39.7528182      0.763680965      -39.7528182      0.63949739       49.7876069       
3838.6           0.644229825      49.4345977       0.759688511      -40.1064064      0.759688511      -40.1064064      0.644229825      49.4345977       
3881.24          0.648907799      49.0837713       0.755692182      -40.4577406      0.755692182      -40.4577406      0.648907799      49.0837713       
3923.88          0.653531706      48.7351205       0.751692573      -40.8068288      0.751692573      -40.8068288      0.653531706      48.7351205       
3966.52          0.658101948      48.3886375       0.747690265      -41.153679       0.747690265      -41.153679       0.658101948      48.3886375       
4009.16          0.662618936      48.0443143       0.743685826      -41.4982997      0.743685826      -41.4982997      0.662618936      48.0443143       
4051.8           0.667083082      47.7021426       0.739679806      -41.8406998      0.739679806      -41.8406998      0.667083082      47.7021426       
4094.44          0.671494807      47.3621134       0.735672746      -42.1808883      0.735672746      -42.1808883      0.671494807      47.3621134       
4137.08          0.675854537      47.0242178       0.731665169      -42.5188745      0.731665169      -42.5188745      0.675854537      47.0242178       
4179.72          0.6801627        46.6884465       0.727657585      -42.8546682      0.727657585      -42.8546682      0.6801627        46.6884465       
4222.36          0.684419732      46.3547897       0.723650491      -43.1882791      0.723650491      -43.1882791      0.684419732      46.3547897       
4265             0.68862607       46.0232376       0.719644371      -43.5197174      0.719644371      -43.5197174      0.68862607       46.0232376       
4307.64          0.692782155      45.6937799       0.715639695      -43.8489935      0.715639695      -43.8489935      0.692782155      45.6937799       
4350.28          0.696888431      45.3664062       0.71163692       -44.1761178      0.71163692       -44.1761178      0.696888431      45.3664062       
4392.92          0.700945347      45.0411059       0.707636489      -44.5011012      0.707636489      -44.5011012      0.700945347      45.0411059       
4435.56          0.70495335       44.717868        0.703638834      -44.8239546      0.703638834      -44.8239546      0.70495335       44.717868        
4478.2           0.708912895      44.3966815       0.699644372      -45.1446892      0.699644372      -45.1446892      0.708912895      44.3966815       
4520.84          0.712824432      44.077535        0.695653511      -45.4633162      0.695653511      -45.4633162      0.712824432      44.077535        
4563.48          0.716688419      43.7604171       0.691666645      -45.7798472      0.691666645      -45.7798472      0.716688419      43.7604171       
4606.12          0.72050531       43.445316        0.687684154      -46.0942937      0.687684154      -46.0942937      0.72050531       43.445316        
4648.76          0.724275563      43.13222         0.68370641       -46.4066675      0.68370641       -46.4066675      0.724275563      43.13222         
4691.4           0.727999636      42.821117        0.679733771      -46.7169805      0.679733771      -46.7169805      0.727999636      42.821117        
4734.04          0.731677986      42.511995        0.675766584      -47.0252447      0.675766584      -47.0252447      0.731677986      42.511995        
4776.68          0.735311072      42.2048416       0.671805185      -47.3314722      0.671805185      -47.3314722      0.735311072      42.2048416       
4819.32          0.738899352      41.8996444       0.6678499        -47.6356752      0.6678499        -47.6356752      0.738899352      41.8996444       
4861.96          0.742443283      41.596391        0.663901042      -47.9378659      0.663901042      -47.9378659      0.742443283      41.596391        
4904.6           0.745943323      41.2950687       0.659958916      -48.2380569      0.659958916      -48.2380569      0.745943323      41.2950687       
4947.24          0.749399927      40.9956648       0.656023815      -48.5362605      0.656023815      -48.5362605      0.749399927      40.9956648       
4989.88          0.752813552      40.6981665       0.652096022      -48.8324893      0.652096022      -48.8324893      0.752813552      40.6981665       
5032.52          0.756184651      40.4025609       0.64817581       -49.1267558      0.64817581       -49.1267558      0.756184651      40.4025609       
5075.16          0.759513678      40.1088351       0.644263444      -49.4190727      0.644263444      -49.4190727      0.759513678      40.1088351       
5117.8           0.762801083      39.8169759       0.640359177      -49.7094527      0.640359177      -49.7094527      0.762801083      39.8169759       
5160.44          0.766047317      39.5269704       0.636463254      -49.9979085      0.636463254      -49.9979085      0.766047317      39.5269704       
5203.08          0.769252826      39.2388054       0.632575911      -50.2844528      0.632575911      -50.2844528      0.769252826      39.2388054       
5245.72          0.772418057      38.9524676       0.628697375      -50.5690983      0.628697375      -50.5690983      0.772418057      38.9524676       
5288.36          0.775543454      38.6679439       0.624827865      -50.851858       0.624827865      -50.851858       0.775543454      38.6679439       
5331             0.778629458      38.3852211       0.620967589      -51.1327445      0.620967589      -51.1327445      0.778629458      38.3852211       
5373.64          0.781676507      38.1042857       0.617116749      -51.4117707      0.617116749      -51.4117707      0.781676507      38.1042857       
5416.28          0.784685039      37.8251245       0.613275538      -51.6889493      0.613275538      -51.6889493      0.784685039      37.8251245       
