! Coilcraft 0603CS-5N1 Chip Inductor				
! 21 May 2002			
# MHZ S MA R 50
!Freq             MagS11           AngS11           MagS21           AngS21           MagS12           AngS12           MagS22           AngS22
1                0.000405099919   52.2442842       0.99975201       -0.0183554473    0.99975201       -0.0183554473    0.000405099919   52.2442842       
27.68            0.00893167534    82.2045808       0.99882774       -0.50761978      0.99882774       -0.50761978      0.00893167534    82.2045808       
54.36            0.0174606109     83.8416287       0.998277831      -0.996412188     0.998277831      -0.996412188     0.0174606109     83.8416287       
81.04            0.0259823665     84.3029453       0.99775579       -1.48482495      0.99775579       -1.48482495      0.0259823665     84.3029453       
107.72           0.0344959318     84.3818906       0.99721404       -1.97286239      0.99721404       -1.97286239      0.0344959318     84.3818906       
134.4            0.0430002625     84.2811648       0.996634005      -2.46050694      0.996634005      -2.46050694      0.0430002625     84.2811648       
161.08           0.0514942242     84.0794065       0.996006221      -2.94773129      0.996006221      -2.94773129      0.0514942242     84.0794065       
187.76           0.0599766194     83.8143428       0.99532516       -3.43450287      0.99532516       -3.43450287      0.0599766194     83.8143428       
214.44           0.068446211      83.5066313       0.994587333      -3.92078589      0.994587333      -3.92078589      0.068446211      83.5066313       
241.12           0.076901737      83.1686628       0.993790425      -4.40654256      0.993790425      -4.40654256      0.076901737      83.1686628       
267.8            0.0853419207     82.8083856       0.992932863      -4.89173373      0.992932863      -4.89173373      0.0853419207     82.8083856       
294.48           0.0937654782     82.4311689       0.992013569      -5.37631938      0.992013569      -5.37631938      0.0937654782     82.4311689       
321.16           0.102171123      82.0407919       0.99103182       -5.8602589       0.99103182       -5.8602589       0.102171123      82.0407919       
347.84           0.110557573      81.6400061       0.989987146      -6.34351134      0.989987146      -6.34351134      0.110557573      81.6400061       
374.52           0.118923547      81.2308722       0.988879278      -6.82603556      0.988879278      -6.82603556      0.118923547      81.2308722       
401.2            0.127267777      80.8149705       0.987708101      -7.30779041      0.987708101      -7.30779041      0.127267777      80.8149705       
427.88           0.135589003      80.393539        0.986473624      -7.78873477      0.986473624      -7.78873477      0.135589003      80.393539        
454.56           0.143885976      79.9675648       0.985175961      -8.26882769      0.985175961      -8.26882769      0.143885976      79.9675648       
481.24           0.152157464      79.5378479       0.983815313      -8.74802844      0.983815313      -8.74802844      0.152157464      79.5378479       
507.92           0.16040225       79.105046        0.982391957      -9.2262966       0.982391957      -9.2262966       0.16040225       79.105046        
534.6            0.168619131      78.669707        0.980906233      -9.70359208      0.980906233      -9.70359208      0.168619131      78.669707        
561.28           0.176806926      78.2322924       0.979358541      -10.1798752      0.979358541      -10.1798752      0.176806926      78.2322924       
587.96           0.184964472      77.7931953       0.977749331      -10.6551067      0.977749331      -10.6551067      0.184964472      77.7931953       
614.64           0.193090627      77.3527538       0.976079101      -11.1292478      0.976079101      -11.1292478      0.193090627      77.3527538       
641.32           0.201184267      76.9112612       0.974348389      -11.6022602      0.974348389      -11.6022602      0.201184267      76.9112612       
668              0.209244295      76.4689743       0.972557771      -12.0741063      0.972557771      -12.0741063      0.209244295      76.4689743       
694.68           0.217269634      76.0261192       0.97070786       -12.5447489      0.97070786       -12.5447489      0.217269634      76.0261192       
721.36           0.225259232      75.5828967       0.968799299      -13.0141514      0.968799299      -13.0141514      0.225259232      75.5828967       
748.04           0.233212061      75.1394864       0.966832763      -13.482278       0.966832763      -13.482278       0.233212061      75.1394864       
774.72           0.241127117      74.6960493       0.964808954      -13.9490934      0.964808954      -13.9490934      0.241127117      74.6960493       
801.4            0.249003423      74.2527312       0.962728596      -14.414563       0.962728596      -14.414563       0.249003423      74.2527312       
828.08           0.256840027      73.8096644       0.960592442      -14.8786529      0.960592442      -14.8786529      0.256840027      73.8096644       
854.76           0.264636005      73.3669697       0.958401263      -15.3413299      0.958401263      -15.3413299      0.264636005      73.3669697       
881.44           0.272390458      72.9247575       0.956155851      -15.8025614      0.956155851      -15.8025614      0.272390458      72.9247575       
908.12           0.280102516      72.4831297       0.953857018      -16.2623158      0.953857018      -16.2623158      0.280102516      72.4831297       
934.8            0.287771334      72.0421801       0.951505591      -16.7205621      0.951505591      -16.7205621      0.287771334      72.0421801       
961.48           0.295396098      71.6019956       0.949102414      -17.17727        0.949102414      -17.17727        0.295396098      71.6019956       
988.16           0.302976019      71.1626571       0.946648346      -17.6324099      0.946648346      -17.6324099      0.302976019      71.1626571       
1014.84          0.310510339      70.7242396       0.944144259      -18.0859533      0.944144259      -18.0859533      0.310510339      70.7242396       
1041.52          0.317998326      70.2868133       0.941591035      -18.5378722      0.941591035      -18.5378722      0.317998326      70.2868133       
1068.2           0.325439277      69.8504438       0.93898957       -18.9881394      0.93898957       -18.9881394      0.325439277      69.8504438       
1094.88          0.332832518      69.4151927       0.936340767      -19.4367286      0.936340767      -19.4367286      0.332832518      69.4151927       
1121.56          0.340177403      68.9811175       0.933645541      -19.8836143      0.933645541      -19.8836143      0.340177403      68.9811175       
1148.24          0.347473314      68.5482726       0.93090481       -20.3287717      0.93090481       -20.3287717      0.347473314      68.5482726       
1174.92          0.354719662      68.116709        0.928119503      -20.7721768      0.928119503      -20.7721768      0.354719662      68.116709        
1201.6           0.361915886      67.6864748       0.925290551      -21.2138067      0.925290551      -21.2138067      0.361915886      67.6864748       
1228.28          0.369061453      67.2576154       0.922418893      -21.6536388      0.922418893      -21.6536388      0.369061453      67.2576154       
1254.96          0.376155858      66.8301734       0.919505468      -22.0916518      0.919505468      -22.0916518      0.376155858      66.8301734       
1281.64          0.383198624      66.4041893       0.916551221      -22.5278249      0.916551221      -22.5278249      0.383198624      66.4041893       
1308.32          0.390189301      65.9797014       0.913557097      -22.9621381      0.913557097      -22.9621381      0.390189301      65.9797014       
1335             0.397127466      65.5567455       0.910524043      -23.3945724      0.910524043      -23.3945724      0.397127466      65.5567455       
1361.68          0.404012724      65.1353558       0.907453006      -23.8251093      0.907453006      -23.8251093      0.404012724      65.1353558       
1388.36          0.410844707      64.7155645       0.904344932      -24.2537315      0.904344932      -24.2537315      0.410844707      64.7155645       
1415.04          0.41762307       64.2974019       0.901200768      -24.680422       0.901200768      -24.680422       0.41762307       64.2974019       
1441.72          0.424347499      63.8808967       0.898021456      -25.105165       0.898021456      -25.105165       0.424347499      63.8808967       
1468.4           0.431017702      63.4660761       0.894807936      -25.5279452      0.894807936      -25.5279452      0.431017702      63.4660761       
1495.08          0.437633414      63.0529656       0.891561147      -25.9487482      0.891561147      -25.9487482      0.437633414      63.0529656       
1521.76          0.444194394      62.6415893       0.888282022      -26.3675603      0.888282022      -26.3675603      0.444194394      62.6415893       
1548.44          0.450700427      62.2319699       0.884971489      -26.7843685      0.884971489      -26.7843685      0.450700426      62.2319699       
1575.12          0.457151318      61.8241286       0.881630471      -27.1991606      0.881630471      -27.1991606      0.457151318      61.8241286       
1601.8           0.463546901      61.4180856       0.878259888      -27.6119252      0.878259888      -27.6119252      0.463546901      61.4180856       
1628.48          0.46988703       61.0138597       0.874860649      -28.0226516      0.874860649      -28.0226516      0.46988703       61.0138597       
1655.16          0.476171581      60.6114685       0.87143366       -28.4313295      0.87143366       -28.4313295      0.476171581      60.6114685       
1681.84          0.482400455      60.2109284       0.867979819      -28.8379498      0.867979819      -28.8379498      0.482400455      60.2109284       
1708.52          0.488573571      59.8122548       0.864500014      -29.2425037      0.864500014      -29.2425037      0.488573571      59.8122548       
1735.2           0.494690872      59.415462        0.860995127      -29.6449833      0.860995127      -29.6449833      0.494690872      59.415462        
1761.88          0.500752321      59.0205633       0.857466032      -30.0453813      0.857466032      -30.0453813      0.500752321      59.0205633       
1788.56          0.5067579        58.627571        0.853913591      -30.4436909      0.853913591      -30.4436909      0.5067579        58.627571        
1815.24          0.512707612      58.2364964       0.850338659      -30.8399061      0.850338659      -30.8399061      0.512707612      58.2364964       
1841.92          0.518601478      57.8473499       0.846742082      -31.2340216      0.846742082      -31.2340216      0.518601478      57.8473499       
1868.6           0.52443954       57.460141        0.843124692      -31.6260326      0.843124692      -31.6260326      0.52443954       57.460141        
1895.28          0.530221853      57.0748783       0.839487316      -32.0159348      0.839487316      -32.0159348      0.530221853      57.0748783       
1921.96          0.535948495      56.6915697       0.835830766      -32.4037248      0.835830766      -32.4037248      0.535948495      56.6915697       
1948.64          0.541619558      56.3102221       0.832155846      -32.7893994      0.832155846      -32.7893994      0.541619558      56.3102221       
1975.32          0.547235151      55.9308419       0.828463347      -33.1729563      0.828463347      -33.1729563      0.547235151      55.9308419       
2002             0.552795399      55.5534344       0.824754049      -33.5543936      0.824754049      -33.5543936      0.552795399      55.5534344       
2028.68          0.558300443      55.1780043       0.821028722      -33.9337098      0.821028722      -33.9337098      0.558300443      55.1780043       
2055.36          0.563750437      54.8045558       0.817288123      -34.3109042      0.817288123      -34.3109042      0.563750437      54.8045558       
2082.04          0.569145551      54.4330922       0.813532997      -34.6859764      0.813532997      -34.6859764      0.569145551      54.4330922       
2108.72          0.574485968      54.0636162       0.809764077      -35.0589267      0.809764077      -35.0589267      0.574485968      54.0636162       
2135.4           0.579771887      53.6961298       0.805982086      -35.4297556      0.805982086      -35.4297556      0.579771887      53.6961298       
2162.08          0.585003515      53.3306344       0.802187731      -35.7984643      0.802187731      -35.7984643      0.585003515      53.3306344       
2188.76          0.590181075      52.967131        0.79838171       -36.1650544      0.79838171       -36.1650544      0.590181075      52.967131        
2215.44          0.595304801      52.6056198       0.794564707      -36.529528       0.794564707      -36.529528       0.595304801      52.6056198       
2242.12          0.600374938      52.2461004       0.790737395      -36.8918874      0.790737395      -36.8918874      0.600374938      52.2461004       
2268.8           0.605391741      51.8885722       0.786900432      -37.2521357      0.786900432      -37.2521357      0.605391741      51.8885722       
2295.48          0.610355477      51.5330337       0.783054465      -37.610276       0.783054465      -37.610276       0.610355477      51.5330337       
2322.16          0.615266423      51.1794831       0.77920013       -37.9663121      0.77920013       -37.9663121      0.615266423      51.1794831       
2348.84          0.620124863      50.8279181       0.775338048      -38.320248       0.775338048      -38.320248       0.620124863      50.8279181       
2375.52          0.624931093      50.4783359       0.771468829      -38.6720882      0.771468829      -38.6720882      0.624931093      50.4783359       
2402.2           0.629685416      50.1307333       0.76759307       -39.0218374      0.76759307       -39.0218374      0.629685416      50.1307333       
2428.88          0.634388143      49.7851066       0.763711354      -39.3695008      0.763711354      -39.3695008      0.634388143      49.7851066       
2455.56          0.639039593      49.4414518       0.759824255      -39.7150839      0.759824255      -39.7150839      0.639039593      49.4414518       
2482.24          0.643640093      49.0997643       0.755932332      -40.0585923      0.755932332      -40.0585923      0.643640093      49.0997643       
2508.92          0.648189977      48.7600394       0.752036132      -40.4000322      0.752036132      -40.4000322      0.648189977      48.7600394       
2535.6           0.652689583      48.4222718       0.748136191      -40.73941        0.748136191      -40.73941        0.652689583      48.4222718       
2562.28          0.657139258      48.0864559       0.744233032      -41.0767324      0.744233032      -41.0767324      0.657139258      48.0864559       
2588.96          0.661539353      47.7525858       0.740327165      -41.4120061      0.740327165      -41.4120061      0.661539353      47.7525858       
2615.64          0.665890225      47.4206553       0.73641909       -41.7452386      0.73641909       -41.7452386      0.665890225      47.4206553       
2642.32          0.670192237      47.0906579       0.732509293      -42.0764371      0.732509293      -42.0764371      0.670192237      47.0906579       
2669             0.674445754      46.7625865       0.728598251      -42.4056094      0.728598251      -42.4056094      0.674445754      46.7625865       
2695.68          0.678651148      46.4364342       0.724686426      -42.7327633      0.724686426      -42.7327633      0.678651148      46.4364342       
2722.36          0.682808794      46.1121936       0.720774272      -43.0579071      0.720774272      -43.0579071      0.682808794      46.1121936       
2749.04          0.68691907       45.7898568       0.716862228      -43.381049       0.716862228      -43.381049       0.68691907       45.7898568       
2775.72          0.690982358      45.4694161       0.712950724      -43.7021975      0.712950724      -43.7021975      0.690982358      45.4694161       
2802.4           0.694999043      45.1508632       0.709040179      -44.0213614      0.709040179      -44.0213614      0.694999043      45.1508632       
2829.08          0.698969512      44.8341897       0.705130999      -44.3385495      0.705130999      -44.3385495      0.698969512      44.8341897       
2855.76          0.702894157      44.5193872       0.701223583      -44.653771       0.701223583      -44.653771       0.702894157      44.5193872       
2882.44          0.706773368      44.2064466       0.697318314      -44.967035       0.697318314      -44.967035       0.706773368      44.2064466       
2909.12          0.710607541      43.8953591       0.693415569      -45.2783509      0.693415569      -45.2783509      0.710607541      43.8953591       
2935.8           0.714397071      43.5861154       0.689515712      -45.5877282      0.689515712      -45.5877282      0.714397071      43.5861154       
2962.48          0.718142356      43.2787063       0.685619098      -45.8951765      0.685619098      -45.8951765      0.718142356      43.2787063       
2989.16          0.721843794      42.973122        0.681726071      -46.2007057      0.681726071      -46.2007057      0.721843794      42.973122        
3015.84          0.725501785      42.669353        0.677836966      -46.5043255      0.677836966      -46.5043255      0.725501785      42.669353        
3042.52          0.729116728      42.3673895       0.673952107      -46.806046       0.673952107      -46.806046       0.729116728      42.3673895       
3069.2           0.732689025      42.0672213       0.67007181       -47.1058773      0.67007181       -47.1058773      0.732689025      42.0672213       
3095.88          0.736219077      41.7688385       0.666196381      -47.4038295      0.666196381      -47.4038295      0.736219077      41.7688385       
3122.56          0.739707284      41.4722309       0.662326115      -47.6999129      0.662326115      -47.6999129      0.739707284      41.4722309       
3149.24          0.743154049      41.177388        0.658461299      -47.9941379      0.658461299      -47.9941379      0.743154049      41.177388        
3175.92          0.74655977       40.8842994       0.654602213      -48.2865148      0.654602213      -48.2865148      0.74655977       40.8842994       
3202.6           0.74992485       40.5929546       0.650749126      -48.5770541      0.650749126      -48.5770541      0.74992485       40.5929546       
3229.28          0.753249687      40.3033429       0.646902298      -48.8657665      0.646902298      -48.8657665      0.753249687      40.3033429       
3255.96          0.756534681      40.0154537       0.643061981      -49.1526623      0.643061981      -49.1526623      0.756534681      40.0154537       
3282.64          0.75978023       39.7292761       0.639228421      -49.4377524      0.639228421      -49.4377524      0.75978023       39.7292761       
3309.32          0.762986731      39.4447992       0.635401852      -49.7210472      0.635401852      -49.7210472      0.762986731      39.4447992       
3336             0.766154579      39.1620121       0.631582503      -50.0025576      0.631582503      -50.0025576      0.766154579      39.1620121       
3362.68          0.769284169      38.8809038       0.627770593      -50.2822943      0.627770593      -50.2822943      0.769284169      38.8809038       
3389.36          0.772375894      38.6014633       0.623966336      -50.560268       0.623966336      -50.560268       0.772375894      38.6014633       
