! Coilcraft 0603CS-22N Chip Inductor				
! 21 May 2002			
# MHZ S MA R 50
!Freq             MagS11           AngS11           MagS21           AngS21           MagS12           AngS12           MagS22           AngS22
1                0.00168767117    54.4627598       0.999020015      -0.0787627661    0.999020015      -0.0787627661    0.00168767117    54.4627598       
14.96            0.0206668155     82.2927732       0.997438627      -1.17652027      0.997438627      -1.17652027      0.0206668155     82.2927732       
28.92            0.0397612017     83.3003184       0.996144294      -2.27194524      0.996144294      -2.27194524      0.0397612017     83.3003184       
42.88            0.0588048868     83.1017396       0.994651845      -3.36480054      0.994651845      -3.36480054      0.0588048868     83.1017396       
56.84            0.0777759762     82.5305838       0.992888626      -4.45455369      0.992888626      -4.45455369      0.0777759762     82.5305838       
70.8             0.0966559037     81.7914479       0.99082892       -5.54060378      0.99082892       -5.54060378      0.0966559037     81.7914479       
84.76            0.115426835      80.9618996       0.988462579      -6.62232769      0.988462579      -6.62232769      0.115426835      80.9618996       
98.72            0.13407142       80.0787103       0.985786711      -7.69909862      0.985786711      -7.69909862      0.13407142       80.0787103       
112.68           0.152572832      79.1619576       0.982802558      -8.77029599      0.982802558      -8.77029599      0.152572832      79.1619576       
126.64           0.17091484       78.2237524       0.979514054      -9.83531183      0.979514054      -9.83531183      0.17091484       78.2237524       
140.6            0.189081897      77.2719699       0.975927057      -10.8935552      0.975927057      -10.8935552      0.189081897      77.2719699       
154.56           0.207059205      76.3120421       0.972048888      -11.9444557      0.972048888      -11.9444557      0.207059205      76.3120421       
168.52           0.224832779      75.3478992       0.967888024      -12.9874659      0.967888024      -12.9874659      0.224832779      75.3478992       
182.48           0.242389493      74.3824983       0.963453874      -14.0220639      0.963453874      -14.0220639      0.242389493      74.3824983       
196.44           0.259717123      73.4181365       0.958756611      -15.0477546      0.958756611      -15.0477546      0.259717123      73.4181365       
210.4            0.276804373      72.4566468       0.953807027      -16.0640714      0.953807027      -16.0640714      0.276804373      72.4566468       
224.36           0.293640897      71.4995226       0.948616407      -17.0705769      0.948616407      -17.0705769      0.293640897      71.4995226       
238.32           0.310217311      70.5480025       0.94319643       -18.066864       0.94319643       -18.066864       0.310217311      70.5480025       
252.28           0.326525191      69.6031272       0.937559065      -19.0525561      0.937559065      -19.0525561      0.326525191      69.6031272       
266.24           0.342557075      68.6657803       0.931716483      -20.0273073      0.931716483      -20.0273073      0.342557075      68.6657803       
280.2            0.358306445      67.7367174       0.92568098       -20.9908027      0.92568098       -20.9908027      0.358306445      67.7367174       
294.16           0.373767715      66.8165877       0.919464899      -21.942758       0.919464899      -21.942758       0.373767715      66.8165877       
308.12           0.388936201      65.9059504       0.913080565      -22.8829191      0.913080565      -22.8829191      0.388936201      65.9059504       
322.08           0.403808098      65.0052871       0.90654022       -23.8110616      0.90654022       -23.8110616      0.403808098      65.0052871       
336.04           0.418380443      64.115012        0.899855974      -24.7269902      0.899855974      -24.7269902      0.418380443      64.115012        
350              0.432651082      63.2354792       0.893039746      -25.6305376      0.893039746      -25.6305376      0.432651082      63.2354792       
363.96           0.446618629      62.36699         0.886103226      -26.521564       0.886103226      -26.521564       0.446618629      62.36699         
377.92           0.460282427      61.5097976       0.879057834      -27.3999558      0.879057834      -27.3999558      0.460282427      61.5097976       
391.88           0.473642499      60.6641124       0.871914687      -28.2656245      0.871914687      -28.2656245      0.473642499      60.6641124       
405.84           0.486699513      59.8301055       0.864684568      -29.1185058      0.864684568      -29.1185058      0.486699513      59.8301055       
419.8            0.499454729      59.0079124       0.857377904      -29.958558       0.857377904      -29.958558       0.499454729      59.0079124       
433.76           0.511909961      58.197636        0.850004744      -30.7857611      0.850004744      -30.7857611      0.511909961      58.197636        
447.72           0.524067527      57.3993497       0.842574748      -31.6001156      0.842574748      -31.6001156      0.524067527      57.3993497       
461.68           0.535930211      56.6130998       0.835097168      -32.4016408      0.835097168      -32.4016408      0.535930211      56.6130998       
475.64           0.547501213      55.8389077       0.827580847      -33.1903742      0.827580847      -33.1903742      0.547501213      55.8389077       
489.6            0.558784114      55.0767721       0.82003421       -33.9663695      0.82003421       -33.9663695      0.558784114      55.0767721       
503.56           0.569782835      54.3266711       0.812465262      -34.7296962      0.812465262      -34.7296962      0.569782835      54.3266711       
517.52           0.580501594      53.5885642       0.804881593      -35.4804377      0.804881593      -35.4804377      0.580501594      53.5885642       
531.48           0.590944874      52.8623935       0.797290375      -36.2186904      0.797290375      -36.2186904      0.590944874      52.8623935       
545.44           0.601117388      52.1480859       0.789698372      -36.9445629      0.789698372      -36.9445629      0.601117388      52.1480859       
559.4            0.611024044      51.4455542       0.782111944      -37.6581743      0.782111944      -37.6581743      0.611024044      51.4455542       
573.36           0.620669914      50.7546987       0.774537058      -38.3596535      0.774537058      -38.3596535      0.620669914      50.7546987       
587.32           0.630060208      50.0754082       0.766979295      -39.0491384      0.766979295      -39.0491384      0.630060208      50.0754082       
601.28           0.639200246      49.4075617       0.759443866      -39.7267745      0.759443866      -39.7267745      0.639200246      49.4075617       
615.24           0.64809543       48.7510292       0.751935617      -40.3927143      0.751935617      -40.3927143      0.64809543       48.7510292       
629.2            0.656751227      48.1056728       0.744459048      -41.0471163      0.744459048      -41.0471163      0.656751227      48.1056728       
643.16           0.665173144      47.4713476       0.737018321      -41.6901444      0.737018321      -41.6901444      0.665173144      47.4713476       
657.12           0.673366707      46.847903        0.729617277      -42.3219668      0.729617277      -42.3219668      0.673366707      46.847903        
671.08           0.68133745       46.2351831       0.722259449      -42.9427557      0.722259449      -42.9427557      0.68133745       46.2351831       
685.04           0.689090893      45.6330275       0.714948076      -43.5526863      0.714948076      -43.5526863      0.689090893      45.6330275       
699              0.69663253       45.0412725       0.707686114      -44.1519366      0.707686114      -44.1519366      0.69663253       45.0412725       
712.96           0.703967816      44.4597511       0.700476256      -44.7406863      0.700476256      -44.7406863      0.703967816      44.4597511       
726.92           0.711102157      43.8882942       0.693320938      -45.3191166      0.693320938      -45.3191166      0.711102157      43.8882942       
740.88           0.718040899      43.3267308       0.68622236       -45.8874097      0.68622236       -45.8874097      0.718040899      43.3267308       
754.84           0.724789317      42.7748886       0.679182495      -46.4457485      0.679182495      -46.4457485      0.724789317      42.7748886       
768.8            0.73135261       42.2325944       0.672203099      -46.9943156      0.672203099      -46.9943156      0.73135261       42.2325944       
782.76           0.737735895      41.6996749       0.665285733      -47.5332938      0.665285733      -47.5332938      0.737735895      41.6996749       
796.72           0.743944198      41.1759565       0.658431764      -48.0628649      0.658431764      -48.0628649      0.743944198      41.1759565       
810.68           0.749982451      40.6612661       0.651642384      -48.5832102      0.651642384      -48.5832102      0.749982451      40.6612661       
824.64           0.75585549       40.1554313       0.644918619      -49.0945095      0.644918619      -49.0945095      0.75585549       40.1554313       
838.6            0.761568047      39.6582806       0.638261339      -49.5969413      0.638261339      -49.5969413      0.761568047      39.6582806       
852.56           0.767124753      39.1696436       0.631671271      -50.0906825      0.631671271      -50.0906825      0.767124753      39.1696436       
866.52           0.772530131      38.6893517       0.625149004      -50.5759081      0.625149004      -50.5759081      0.772530131      38.6893517       
880.48           0.777788598      38.2172375       0.618695005      -51.0527911      0.618695005      -51.0527911      0.777788598      38.2172375       
894.44           0.782904463      37.7531357       0.61230962       -51.5215024      0.61230962       -51.5215024      0.782904463      37.7531357       
908.4            0.787881926      37.2968829       0.60599309       -51.9822104      0.60599309       -51.9822104      0.787881926      37.2968829       
922.36           0.792725078      36.8483179       0.599745554      -52.4350813      0.599745554      -52.4350813      0.792725078      36.8483179       
936.32           0.797437903      36.4072816       0.593567061      -52.8802787      0.593567061      -52.8802787      0.797437903      36.4072816       
950.28           0.802024277      35.9736175       0.587457572      -53.3179635      0.587457572      -53.3179635      0.802024277      35.9736175       
964.24           0.806487969      35.5471712       0.581416969      -53.7482941      0.581416969      -53.7482941      0.806487969      35.5471712       
978.2            0.810832642      35.127791        0.575445065      -54.171426       0.575445065      -54.171426       0.810832642      35.127791        
992.16           0.815061854      34.7153277       0.569541603      -54.587512       0.569541603      -54.587512       0.815061854      34.7153277       
1006.12          0.819179063      34.3096348       0.563706269      -54.9967022      0.563706269      -54.9967022      0.819179063      34.3096348       
1020.08          0.823187623      33.9105684       0.55793869       -55.3991436      0.55793869       -55.3991436      0.823187623      33.9105684       
1034.04          0.82709079       33.5179872       0.552238446      -55.7949806      0.552238446      -55.7949806      0.82709079       33.5179872       
1048             0.830891723      33.1317527       0.54660507       -56.1843546      0.54660507       -56.1843546      0.830891723      33.1317527       
1061.96          0.834593485      32.7517291       0.541038053      -56.5674042      0.541038053      -56.5674042      0.834593485      32.7517291       
1075.92          0.838199046      32.3777832       0.53553685       -56.9442651      0.53553685       -56.9442651      0.838199046      32.3777832       
1089.88          0.841711284      32.0097846       0.530100883      -57.3150701      0.530100883      -57.3150701      0.841711284      32.0097846       
1103.84          0.84513299       31.6476056       0.524729541      -57.6799494      0.524729541      -57.6799494      0.84513299       31.6476056       
1117.8           0.848466866      31.2911211       0.519422191      -58.0390301      0.519422191      -58.0390301      0.848466866      31.2911211       
1131.76          0.851715531      30.9402089       0.514178174      -58.3924367      0.514178174      -58.3924367      0.851715531      30.9402089       
1145.72          0.854881521      30.5947491       0.508996809      -58.7402908      0.508996809      -58.7402908      0.854881521      30.5947491       
1159.68          0.857967293      30.2546246       0.503877399      -59.0827116      0.503877399      -59.0827116      0.857967293      30.2546246       
1173.64          0.860975224      29.9197209       0.498819231      -59.4198152      0.498819231      -59.4198152      0.860975224      29.9197209       
1187.6           0.863907618      29.589926        0.49382158       -59.7517153      0.49382158       -59.7517153      0.863907618      29.589926        
1201.56          0.866766703      29.2651304       0.488883706      -60.0785229      0.488883706      -60.0785229      0.866766703      29.2651304       
1215.52          0.869554637      28.9452272       0.484004864      -60.4003465      0.484004864      -60.4003465      0.869554637      28.9452272       
1229.48          0.87227351       28.6301118       0.479184298      -60.7172921      0.479184298      -60.7172921      0.87227351       28.6301118       
1243.44          0.874925343      28.3196821       0.47442125       -61.029463       0.47442125       -61.029463       0.874925343      28.3196821       
1257.4           0.877512093      28.0138383       0.469714954      -61.3369604      0.469714954      -61.3369604      0.877512093      28.0138383       
1271.36          0.880035654      27.7124829       0.465064643      -61.6398828      0.465064643      -61.6398828      0.880035654      27.7124829       
1285.32          0.882497859      27.4155208       0.460469549      -61.9383266      0.460469549      -61.9383266      0.882497859      27.4155208       
1299.28          0.884900481      27.122859        0.455928901      -62.2323857      0.455928901      -62.2323857      0.884900481      27.122859        
1313.24          0.887245238      26.8344066       0.451441932      -62.5221519      0.451441932      -62.5221519      0.887245238      26.8344066       
1327.2           0.88953379       26.5500752       0.447007874      -62.8077147      0.447007874      -62.8077147      0.88953379       26.5500752       
1341.16          0.891767745      26.2697781       0.442625963      -63.0891615      0.442625963      -63.0891615      0.891767745      26.2697781       
1355.12          0.89394866       25.9934309       0.438295437      -63.3665776      0.438295437      -63.3665776      0.89394866       25.9934309       
1369.08          0.896078041      25.7209511       0.43401554       -63.6400461      0.43401554       -63.6400461      0.896078041      25.7209511       
1383.04          0.898157345      25.4522581       0.429785518      -63.9096484      0.429785518      -63.9096484      0.898157345      25.4522581       
1397             0.900187983      25.1872735       0.425604627      -64.1754635      0.425604627      -64.1754635      0.900187983      25.1872735       
1410.96          0.902171321      24.9259205       0.421472123      -64.4375688      0.421472123      -64.4375688      0.902171321      24.9259205       
1424.92          0.90410868       24.6681243       0.417387274      -64.6960398      0.417387274      -64.6960398      0.90410868       24.6681243       
1438.88          0.90600134       24.4138116       0.41334935       -64.9509499      0.41334935       -64.9509499      0.90600134       24.4138116       
1452.84          0.907850541      24.1629113       0.409357632      -65.202371       0.409357632      -65.202371       0.907850541      24.1629113       
1466.8           0.90965748       23.9153536       0.405411407      -65.4503731      0.405411407      -65.4503731      0.90965748       23.9153536       
1480.76          0.91142332       23.6710706       0.401509969      -65.6950246      0.401509969      -65.6950246      0.91142332       23.6710706       
1494.72          0.913149185      23.429996        0.397652623      -65.9363921      0.397652623      -65.9363921      0.913149185      23.429996        
1508.68          0.914836163      23.192065        0.393838678      -66.1745407      0.393838678      -66.1745407      0.914836163      23.192065        
1522.64          0.916485309      22.9572144       0.390067457      -66.4095339      0.390067457      -66.4095339      0.916485309      22.9572144       
1536.6           0.918097645      22.7253824       0.386338286      -66.6414334      0.386338286      -66.6414334      0.918097645      22.7253824       
1550.56          0.919674159      22.4965089       0.382650505      -66.8702998      0.382650505      -66.8702998      0.919674159      22.4965089       
1564.52          0.92121581       22.2705351       0.379003461      -67.096192       0.379003461      -67.096192       0.92121581       22.2705351       
1578.48          0.922723525      22.0474035       0.375396508      -67.3191675      0.375396508      -67.3191675      0.922723525      22.0474035       
1592.44          0.924198205      21.8270581       0.371829013      -67.5392823      0.371829013      -67.5392823      0.924198205      21.8270581       
1606.4           0.92564072       21.6094442       0.36830035       -67.7565913      0.36830035       -67.7565913      0.92564072       21.6094442       
1620.36          0.927051915      21.3945083       0.364809902      -67.9711479      0.364809902      -67.9711479      0.927051915      21.3945083       
1634.32          0.928432608      21.1821984       0.361357062      -68.1830041      0.361357062      -68.1830041      0.928432608      21.1821984       
1648.28          0.929783593      20.9724635       0.357941233      -68.3922109      0.357941233      -68.3922109      0.929783593      20.9724635       
1662.24          0.931105638      20.7652539       0.354561826      -68.5988179      0.354561826      -68.5988179      0.931105638      20.7652539       
1676.2           0.932399488      20.5605209       0.351218262      -68.8028734      0.351218262      -68.8028734      0.932399488      20.5605209       
1690.16          0.933665867      20.3582172       0.347909971      -69.0044249      0.347909971      -69.0044249      0.933665867      20.3582172       
1704.12          0.934905474      20.1582965       0.344636392      -69.2035184      0.344636392      -69.2035184      0.934905474      20.1582965       
1718.08          0.93611899       19.9607135       0.341396973      -69.4001989      0.341396973      -69.4001989      0.93611899       19.9607135       
1732.04          0.937307074      19.765424        0.338191172      -69.5945104      0.338191172      -69.5945104      0.937307074      19.765424        
1746             0.938470363      19.5723848       0.335018455      -69.7864957      0.335018455      -69.7864957      0.938470363      19.5723848       
1759.96          0.93960948       19.3815539       0.331878298      -69.9761968      0.331878298      -69.9761968      0.93960948       19.3815539       
1773.92          0.940725024      19.1928899       0.328770184      -70.1636545      0.328770184      -70.1636545      0.940725024      19.1928899       
