! Coilcraft 0603CS-39N Chip Inductor				
! 21 May 2002			
# MHZ S MA R 50
!Freq             MagS11           AngS11           MagS21           AngS21           MagS12           AngS12           MagS22           AngS22
1                0.00264398156    67.6598783       0.998998005      -0.140259472     0.998998005      -0.140259472     0.00264398156    67.6598783       
10.47            0.0257466333     81.8384897       0.996670808      -1.46526995      0.996670808      -1.46526995      0.0257466333     81.8384897       
19.94            0.048778209      82.3953664       0.994720581      -2.78600536      0.994720581      -2.78600536      0.048778209      82.3953664       
29.41            0.0717034927     81.9440462       0.99249399       -4.10203242      0.99249399       -4.10203242      0.0717034927     81.9440462       
38.88            0.0944934303     81.1561685       0.989885766      -5.41241422      0.989885766      -5.41241422      0.0944934303     81.1561685       
48.35            0.117118172      80.2114017       0.986860349      -6.71610025      0.986860349      -6.71610025      0.117118172      80.2114017       
57.82            0.139548076      79.1813983       0.983405948      -8.012011        0.983405948      -8.012011        0.139548076      79.1813983       
67.29            0.161754304      78.1014416       0.979522124      -9.29907304      0.979522124      -9.29907304      0.161754304      78.1014416       
76.76            0.183709209      76.9914306       0.975215038      -10.5762384      0.975215038      -10.5762384      0.183709209      76.9914306       
86.23            0.205386604      75.8637265       0.970495201      -11.8424972      0.970495201      -11.8424972      0.205386604      75.8637265       
95.7             0.22676197       74.7265886       0.965376228      -13.0968862      0.965376228      -13.0968862      0.22676197       74.7265886       
105.17           0.247812607      73.5858583       0.959874051      -14.3384954      0.959874051      -14.3384954      0.247812607      73.5858583       
114.64           0.268517739      72.4458553       0.95400637       -15.5664731      0.95400637       -15.5664731      0.268517739      72.4458553       
124.11           0.288858597      71.3098894       0.947792227      -16.7800291      0.947792227      -16.7800291      0.288858597      71.3098894       
133.58           0.308818454      70.180567        0.941251671      -17.9784372      0.941251671      -17.9784372      0.308818454      70.180567        
143.05           0.328382642      69.059984        0.934405464      -19.1610372      0.934405464      -19.1610372      0.328382642      69.059984        
152.52           0.347538541      67.9498519       0.927274831      -20.3272347      0.927274831      -20.3272347      0.347538541      67.9498519       
161.99           0.366275545      66.851583        0.91988124       -21.4765019      0.91988124       -21.4765019      0.366275545      66.851583        
171.46           0.384585007      65.76635         0.912246205      -22.6083764      0.912246205      -22.6083764      0.384585007      65.76635         
180.93           0.402460171      64.6951293       0.904391116      -23.7224601      0.904391116      -23.7224601      0.402460171      64.6951293       
190.4            0.419896087      63.6387321       0.896337081      -24.8184174      0.896337081      -24.8184174      0.419896087      63.6387321       
199.87           0.436889515      62.5978293       0.8881048        -25.8959731      0.8881048        -25.8959731      0.436889515      62.5978293       
209.34           0.453438822      61.5729703       0.87971445       -26.9549098      0.87971445       -26.9549098      0.453438822      61.5729703       
218.81           0.46954387       60.5645985       0.871185587      -27.9950652      0.871185587      -27.9950652      0.46954387       60.5645985       
228.28           0.485205907      59.5730637       0.862537066      -29.0163292      0.862537066      -29.0163292      0.485205907      59.5730637       
237.75           0.500427444      58.5986329       0.853786979      -30.0186405      0.853786979      -30.0186405      0.500427444      58.5986329       
247.22           0.515212142      57.6414994       0.844952607      -31.0019836      0.844952607      -31.0019836      0.515212142      57.6414994       
256.69           0.529564698      56.7017908       0.836050377      -31.9663856      0.836050377      -31.9663856      0.529564698      56.7017908       
266.16           0.543490732      55.7795761       0.827095843      -32.9119124      0.827095843      -32.9119124      0.543490732      55.7795761       
275.63           0.556996675      54.8748719       0.81810367       -33.8386661      0.81810367       -33.8386661      0.556996675      54.8748719       
285.1            0.570089672      53.9876482       0.809087629      -34.7467814      0.809087629      -34.7467814      0.570089672      53.9876482       
294.57           0.582777477      53.1178335       0.800060601      -35.6364225      0.800060601      -35.6364225      0.582777477      53.1178335       
304.04           0.595068361      52.2653194       0.791034589      -36.5077801      0.791034589      -36.5077801      0.595068361      52.2653194       
313.51           0.606971028      51.4299652       0.782020731      -37.3610688      0.782020731      -37.3610688      0.606971028      51.4299652       
322.98           0.618494532      50.6116014       0.77302933       -38.1965239      0.77302933       -38.1965239      0.618494532      50.6116014       
332.45           0.629648204      49.8100337       0.764069869      -39.0143991      0.764069869      -39.0143991      0.629648204      49.8100337       
341.92           0.640441582      49.0250459       0.755151051      -39.8149641      0.755151051      -39.8149641      0.640441582      49.0250459       
351.39           0.650884354      48.2564032       0.746280824      -40.5985021      0.746280824      -40.5985021      0.650884354      48.2564032       
360.86           0.660986293      47.5038548       0.737466421      -41.3653077      0.737466421      -41.3653077      0.660986293      47.5038548       
370.33           0.670757219      46.7671365       0.728714387      -42.1156852      0.728714387      -42.1156852      0.670757219      46.7671365       
379.8            0.680206944      46.0459727       0.720030624      -42.8499463      0.720030624      -42.8499463      0.680206944      46.0459727       
389.27           0.689345238      45.3400788       0.71142042       -43.5684089      0.71142042       -43.5684089      0.689345238      45.3400788       
398.74           0.698181794      44.6491629       0.702888489      -44.2713953      0.702888489      -44.2713953      0.698181794      44.6491629       
408.21           0.706726195      43.9729275       0.694439006      -44.959231       0.694439006      -44.959231       0.706726195      43.9729275       
417.68           0.714987893      43.311071        0.686075639      -45.6322431      0.686075639      -45.6322431      0.714987893      43.311071        
427.15           0.72297618       42.663289        0.677801588      -46.2907597      0.677801588      -46.2907597      0.72297618       42.663289        
436.62           0.730700177      42.0292757       0.669619615      -46.9351084      0.669619615      -46.9351084      0.730700177      42.0292757       
446.09           0.738168813      41.4087249       0.661532074      -47.5656154      0.661532074      -47.5656154      0.738168813      41.4087249       
455.56           0.745390813      40.8013307       0.653540946      -48.1826053      0.653540946      -48.1826053      0.745390813      40.8013307       
465.03           0.752374691      40.2067889       0.645647864      -48.7863997      0.645647864      -48.7863997      0.752374691      40.2067889       
474.5            0.759128738      39.6247973       0.637854142      -49.3773167      0.637854142      -49.3773167      0.759128738      39.6247973       
483.97           0.76566102       39.0550563       0.630160799      -49.9556708      0.630160799      -49.9556708      0.76566102       39.0550563       
493.44           0.771979373      38.4972699       0.622568589      -50.5217719      0.622568589      -50.5217719      0.771979373      38.4972699       
502.91           0.778091397      37.9511458       0.615078017      -51.0759252      0.615078017      -51.0759252      0.778091397      37.9511458       
512.38           0.784004462      37.416396        0.607689367      -51.6184308      0.607689367      -51.6184308      0.784004462      37.416396        
521.85           0.789725703      36.8927371       0.600402719      -52.1495835      0.600402719      -52.1495835      0.789725703      36.8927371       
531.32           0.795262021      36.3798906       0.593217968      -52.6696721      0.593217968      -52.6696721      0.795262021      36.3798906       
540.79           0.800620089      35.8775831       0.586134842      -53.1789801      0.586134842      -53.1789801      0.800620089      35.8775831       
550.26           0.805806354      35.3855466       0.579152919      -53.6777845      0.579152919      -53.6777845      0.805806354      35.3855466       
559.73           0.810827038      34.9035186       0.572271644      -54.1663567      0.572271644      -54.1663567      0.810827038      34.9035186       
569.2            0.815688144      34.4312423       0.565490339      -54.6449617      0.565490339      -54.6449617      0.815688144      34.4312423       
578.67           0.820395462      33.9684664       0.558808218      -55.1138582      0.558808218      -55.1138582      0.820395462      33.9684664       
588.14           0.82495457       33.5149455       0.552224402      -55.5732989      0.552224402      -55.5732989      0.82495457       33.5149455       
597.61           0.829370844      33.0704401       0.545737925      -56.0235302      0.545737925      -56.0235302      0.829370844      33.0704401       
607.08           0.833649461      32.6347162       0.539347749      -56.4647922      0.539347749      -56.4647922      0.833649461      32.6347162       
616.55           0.837795405      32.207546        0.533052769      -56.8973191      0.533052769      -56.8973191      0.837795405      32.207546        
626.02           0.841813472      31.788707        0.526851825      -57.3213386      0.526851825      -57.3213386      0.841813472      31.788707        
635.49           0.845708277      31.3779828       0.520743709      -57.7370729      0.520743709      -57.7370729      0.845708277      31.3779828       
644.96           0.849484259      30.9751625       0.514727172      -58.1447377      0.514727172      -58.1447377      0.849484259      30.9751625       
654.43           0.853145689      30.5800408       0.50880093       -58.5445431      0.50880093       -58.5445431      0.853145689      30.5800408       
663.9            0.85669667       30.1924179       0.50296367       -58.9366935      0.50296367       -58.9366935      0.85669667       30.1924179       
673.37           0.860141152      29.8120993       0.497214059      -59.3213875      0.497214059      -59.3213875      0.860141152      29.8120993       
682.84           0.863482928      29.4388961       0.491550743      -59.6988181      0.491550743      -59.6988181      0.863482928      29.4388961       
692.31           0.866725647      29.0726244       0.485972356      -60.0691731      0.485972356      -60.0691731      0.866725647      29.0726244       
701.78           0.869872813      28.7131055       0.480477521      -60.4326347      0.480477521      -60.4326347      0.869872813      28.7131055       
711.25           0.872927797      28.3601656       0.475064859      -60.7893801      0.475064859      -60.7893801      0.872927797      28.3601656       
720.72           0.875893838      28.013636        0.469732984      -61.1395813      0.469732984      -61.1395813      0.875893838      28.013636        
730.19           0.878774046      27.6733526       0.464480515      -61.4834055      0.464480515      -61.4834055      0.878774046      27.6733526       
739.66           0.881571415      27.3391561       0.459306071      -61.8210148      0.459306071      -61.8210148      0.881571415      27.3391561       
749.13           0.884288818      27.0108916       0.454208279      -62.1525668      0.454208279      -62.1525668      0.884288818      27.0108916       
758.6            0.886929018      26.6884089       0.449185772      -62.4782146      0.449185772      -62.4782146      0.886929018      26.6884089       
768.07           0.889494671      26.3715617       0.444237193      -62.7981065      0.444237193      -62.7981065      0.889494671      26.3715617       
777.54           0.891988328      26.0602083       0.439361199      -63.1123869      0.439361199      -63.1123869      0.891988328      26.0602083       
787.01           0.894412443      25.754211        0.434556456      -63.4211957      0.434556456      -63.4211957      0.894412443      25.754211        
796.48           0.896769375      25.4534358       0.429821648      -63.7246686      0.429821648      -63.7246686      0.896769375      25.4534358       
805.95           0.89906139       25.157753        0.42515547       -64.0229377      0.42515547       -64.0229377      0.89906139       25.157753        
815.42           0.901290668      24.8670364       0.420556638      -64.316131       0.420556638      -64.316131       0.901290668      24.8670364       
824.89           0.903459305      24.5811634       0.416023881      -64.6043727      0.416023881      -64.6043727      0.903459305      24.5811634       
834.36           0.905569316      24.3000152       0.41155595       -64.8877836      0.41155595       -64.8877836      0.905569316      24.3000152       
843.83           0.90762264       24.023476        0.40715161       -65.1664806      0.40715161       -65.1664806      0.90762264       24.023476        
853.3            0.909621141      23.7514339       0.402809649      -65.4405775      0.402809649      -65.4405775      0.909621141      23.7514339       
862.77           0.911566613      23.4837797       0.398528871      -65.7101847      0.398528871      -65.7101847      0.911566613      23.4837797       
872.24           0.913460781      23.2204077       0.394308103      -65.9754093      0.394308103      -65.9754093      0.913460781      23.2204077       
881.71           0.915305304      22.9612151       0.390146189      -66.2363554      0.390146189      -66.2363554      0.915305304      22.9612151       
891.18           0.917101782      22.7061021       0.386041995      -66.4931239      0.386041995      -66.4931239      0.917101782      22.7061021       
900.65           0.918851751      22.4549716       0.381994406      -66.7458129      0.381994406      -66.7458129      0.918851751      22.4549716       
910.12           0.920556692      22.2077296       0.378002329      -66.9945178      0.378002329      -66.9945178      0.920556692      22.2077296       
919.59           0.922218029      21.9642844       0.37406469       -67.2393309      0.37406469       -67.2393309      0.922218029      21.9642844       
929.06           0.923837136      21.7245472       0.370180435      -67.4803421      0.370180435      -67.4803421      0.923837136      21.7245472       
938.53           0.925415332      21.4884316       0.366348532      -67.7176385      0.366348532      -67.7176385      0.925415332      21.4884316       
948              0.926953892      21.2558536       0.362567967      -67.9513051      0.362567967      -67.9513051      0.926953892      21.2558536       
957.47           0.928454042      21.0267317       0.358837747      -68.1814239      0.358837747      -68.1814239      0.928454042      21.0267317       
966.94           0.929916962      20.8009866       0.3551569        -68.4080751      0.3551569        -68.4080751      0.929916962      20.8009866       
976.41           0.931343791      20.5785413       0.35152447       -68.6313362      0.35152447       -68.6313362      0.931343791      20.5785413       
985.88           0.932735626      20.3593207       0.347939524      -68.8512828      0.347939524      -68.8512828      0.932735626      20.3593207       
995.35           0.934093526      20.1432522       0.344401147      -69.0679882      0.344401147      -69.0679882      0.934093526      20.1432522       
1004.82          0.935418509      19.930265        0.340908443      -69.2815236      0.340908443      -69.2815236      0.935418509      19.930265        
1014.29          0.936711559      19.7202901       0.337460534      -69.4919583      0.337460534      -69.4919583      0.936711559      19.7202901       
1023.76          0.937973625      19.5132607       0.33405656       -69.6993596      0.33405656       -69.6993596      0.937973625      19.5132607       
1033.23          0.93920562       19.3091116       0.330695682      -69.903793       0.330695682      -69.903793       0.93920562       19.3091116       
1042.7           0.940408429      19.1077796       0.327377075      -70.105322       0.327377075      -70.105322       0.940408429      19.1077796       
1052.17          0.941582902      18.909203        0.324099934      -70.3040085      0.324099934      -70.3040085      0.941582902      18.909203        
1061.64          0.94272986       18.713322        0.32086347       -70.4999126      0.32086347       -70.4999126      0.94272986       18.713322        
1071.11          0.943850099      18.5200782       0.317666912      -70.6930929      0.317666912      -70.6930929      0.943850099      18.5200782       
1080.58          0.944944382      18.3294148       0.314509503      -70.883606       0.314509503      -70.883606       0.944944382      18.3294148       
1090.05          0.946013451      18.1412768       0.311390507      -71.0715074      0.311390507      -71.0715074      0.946013451      18.1412768       
1099.52          0.947058019      17.9556104       0.308309199      -71.2568508      0.308309199      -71.2568508      0.947058019      17.9556104       
1108.99          0.948078776      17.7723632       0.305264873      -71.4396885      0.305264873      -71.4396885      0.948078776      17.7723632       
1118.46          0.949076388      17.5914843       0.302256836      -71.6200714      0.302256836      -71.6200714      0.949076388      17.5914843       
1127.93          0.9500515        17.4129242       0.299284411      -71.798049       0.299284411      -71.798049       0.9500515        17.4129242       
1137.4           0.951004734      17.2366346       0.296346937      -71.9736695      0.296346937      -71.9736695      0.951004734      17.2366346       
1146.87          0.951936691      17.0625685       0.293443765      -72.1469798      0.293443765      -72.1469798      0.951936691      17.0625685       
1156.34          0.952847953      16.8906801       0.290574263      -72.3180255      0.290574263      -72.3180255      0.952847953      16.8906801       
1165.81          0.953739083      16.7209248       0.287737808      -72.4868509      0.287737808      -72.4868509      0.953739083      16.7209248       
1175.28          0.954610624      16.5532591       0.284933796      -72.6534993      0.284933796      -72.6534993      0.954610624      16.5532591       
1184.75          0.955463103      16.3876407       0.282161634      -72.8180126      0.282161634      -72.8180126      0.955463103      16.3876407       
1194.22          0.956297027      16.2240285       0.279420739      -72.980432       0.279420739      -72.980432       0.956297027      16.2240285       
1203.69          0.95711289       16.062382        0.276710546      -73.1407972      0.276710546      -73.1407972      0.95711289       16.062382        
