! Coilcraft 0603CS-7N5 Chip Inductor				
! 21 May 2002			
# MHZ S MA R 50
!Freq             MagS11           AngS11           MagS21           AngS21           MagS12           AngS12           MagS22           AngS22
1                0.000540007456   60.7143502       0.999735959      -0.0269928722    0.999735959      -0.0269928722    0.000540007456   60.7143502       
24.94            0.0117886714     84.0828723       0.998853536      -0.672628977     0.998853536      -0.672628977     0.0117886714     84.0828723       
48.88            0.0230424393     84.9904595       0.998251846      -1.31761077      0.998251846      -1.31761077      0.0230424393     84.9904595       
72.82            0.0342833714     85.0337927       0.997616986      -1.9619763       0.997616986      -1.9619763       0.0342833714     85.0337927       
96.76            0.0455083105     84.7988895       0.996905301      -2.6056574       0.996905301      -2.6056574       0.0455083105     84.7988895       
120.7            0.0567140676     84.4341752       0.996099982      -3.2485597       0.996099982      -3.2485597       0.0567140676     84.4341752       
144.64           0.0678973601     83.9969999       0.995192728      -3.8905776       0.995192728      -3.8905776       0.0678973601     83.9969999       
168.58           0.0790548528     83.514832        0.994178963      -4.53159982      0.994178963      -4.53159982      0.0790548528     83.514832        
192.52           0.0901831906     83.0027155       0.993056071      -5.17151208      0.993056071      -5.17151208      0.0901831906     83.0027155       
216.46           0.101279021      82.4696919       0.991822606      -5.81019862      0.991822606      -5.81019862      0.101279021      82.4696919       
240.4            0.112339013      81.9215835       0.990477884      -6.44754316      0.990477884      -6.44754316      0.112339013      81.9215835       
264.34           0.123359865      81.362346        0.989021753      -7.08342959      0.989021753      -7.08342959      0.123359865      81.362346        
288.28           0.134338319      80.7947856       0.987454458      -7.71774244      0.987454458      -7.71774244      0.134338319      80.7947856       
312.22           0.145271171      80.2209656       0.985776554      -8.35036724      0.985776554      -8.35036724      0.145271171      80.2209656       
336.16           0.15615527       79.6424498       0.98398884       -8.98119089      0.98398884       -8.98119089      0.15615527       79.6424498       
360.1            0.166987535      79.0604548       0.982092327      -9.61010185      0.982092327      -9.61010185      0.166987535      79.0604548       
384.04           0.177764953      78.4759487       0.980088198      -10.2369904      0.980088198      -10.2369904      0.177764953      78.4759487       
407.98           0.188484585      77.8897178       0.97797779       -10.8617488      0.97797779       -10.8617488      0.188484585      77.8897178       
431.92           0.199143573      77.3024115       0.975762573      -11.4842715      0.975762573      -11.4842715      0.199143573      77.3024115       
455.86           0.209739145      76.7145752       0.973444137      -12.1044552      0.973444137      -12.1044552      0.209739145      76.7145752       
479.8            0.220268612      76.1266732       0.97102418       -12.7221992      0.97102418       -12.7221992      0.220268612      76.1266732       
503.74           0.230729379      75.5391055       0.968504492      -13.3374052      0.968504492      -13.3374052      0.230729379      75.5391055       
527.68           0.241118941      74.9522208       0.965886951      -13.9499777      0.965886951      -13.9499777      0.241118941      74.9522208       
551.62           0.251434893      74.366326        0.963173513      -14.5598239      0.963173513      -14.5598239      0.251434893      74.366326        
575.56           0.261674922      73.7816932       0.960366202      -15.1668537      0.960366202      -15.1668537      0.261674922      73.7816932       
599.5            0.27183682       73.1985659       0.957467107      -15.7709802      0.957467107      -15.7709802      0.27183682       73.1985659       
623.44           0.281918475      72.6171633       0.95447837       -16.3721193      0.95447837       -16.3721193      0.281918475      72.6171633       
647.38           0.291917879      72.0376837       0.951402183      -16.97019        0.951402183      -16.97019        0.291917879      72.0376837       
671.32           0.301833127      71.4603076       0.948240783      -17.5651142      0.948240783      -17.5651142      0.301833127      71.4603076       
695.26           0.311662416      70.8851996       0.944996442      -18.1568172      0.944996442      -18.1568172      0.311662416      70.8851996       
719.2            0.321404045      70.3125107       0.941671466      -18.7452272      0.941671466      -18.7452272      0.321404045      70.3125107       
743.14           0.33105642       69.7423798       0.938268187      -19.3302756      0.938268187      -19.3302756      0.33105642       69.7423798       
767.08           0.340618045      69.1749346       0.934788959      -19.911897       0.934788959      -19.911897       0.340618045      69.1749346       
791.02           0.350087531      68.6102931       0.931236153      -20.4900291      0.931236153      -20.4900291      0.350087531      68.6102931       
814.96           0.359463586      68.0485642       0.927612151      -21.064613       0.927612151      -21.064613       0.359463586      68.0485642       
838.9            0.368745022      67.4898487       0.923919346      -21.6355926      0.923919346      -21.6355926      0.368745022      67.4898487       
862.84           0.377930748      66.9342398       0.920160131      -22.2029151      0.920160131      -22.2029151      0.377930748      66.9342398       
886.78           0.387019772      66.3818235       0.916336902      -22.766531       0.916336902      -22.766531       0.387019772      66.3818235       
910.72           0.396011198      65.8326797       0.91245205       -23.3263935      0.91245205       -23.3263935      0.396011198      65.8326797       
934.66           0.404904225      65.2868819       0.908507956      -23.8824592      0.908507956      -23.8824592      0.404904225      65.2868819       
958.6            0.413698143      64.7444979       0.904506993      -24.4346875      0.904506993      -24.4346875      0.413698143      64.7444979       
982.54           0.422392336      64.2055904       0.900451517      -24.983041       0.900451517      -24.983041       0.422392336      64.2055904       
1006.48          0.430986273      63.6702167       0.896343868      -25.527485       0.896343868      -25.527485       0.430986273      63.6702167       
1030.42          0.439479512      63.1384297       0.892186365      -26.0679879      0.892186365      -26.0679879      0.439479512      63.1384297       
1054.36          0.447871693      62.6102774       0.887981303      -26.6045207      0.887981303      -26.6045207      0.447871693      62.6102774       
1078.3           0.456162539      62.0858036       0.883730952      -27.1370575      0.883730952      -27.1370575      0.456162539      62.0858036       
1102.24          0.464351851      61.5650482       0.879437554      -27.6655747      0.879437554      -27.6655747      0.464351851      61.5650482       
1126.18          0.472439507      61.0480468       0.87510332       -28.1900517      0.87510332       -28.1900517      0.472439507      61.0480468       
1150.12          0.480425459      60.5348318       0.870730429      -28.7104704      0.870730429      -28.7104704      0.480425459      60.5348318       
1174.06          0.48830973       60.0254315       0.866321026      -29.2268152      0.866321026      -29.2268152      0.48830973       60.0254315       
1198             0.496092411      59.5198712       0.86187722       -29.7390729      0.86187722       -29.7390729      0.496092411      59.5198712       
1221.94          0.503773662      59.0181727       0.857401083      -30.2472329      0.857401083      -30.2472329      0.503773662      59.0181727       
1245.88          0.511353701      58.5203549       0.852894647      -30.7512866      0.852894647      -30.7512866      0.511353701      58.5203549       
1269.82          0.518832811      58.0264336       0.848359905      -31.2512279      0.848359905      -31.2512279      0.518832811      58.0264336       
1293.76          0.52621133       57.5364218       0.843798808      -31.7470528      0.843798808      -31.7470528      0.52621133       57.5364218       
1317.7           0.533489653      57.0503299       0.839213266      -32.2387595      0.839213266      -32.2387595      0.533489653      57.0503299       
1341.64          0.540668226      56.5681656       0.834605146      -32.726348       0.834605146      -32.726348       0.540668226      56.5681656       
1365.58          0.547747546      56.0899341       0.829976271      -33.2098206      0.829976271      -33.2098206      0.547747546      56.0899341       
1389.52          0.554728156      55.6156383       0.825328419      -33.6891812      0.825328419      -33.6891812      0.554728156      55.6156383       
1413.46          0.561610645      55.145279        0.820663326      -34.1644355      0.820663326      -34.1644355      0.561610645      55.145279        
1437.4           0.568395642      54.6788545       0.815982681      -34.6355913      0.815982681      -34.6355913      0.568395642      54.6788545       
1461.34          0.575083819      54.2163615       0.811288128      -35.1026577      0.811288128      -35.1026577      0.575083819      54.2163615       
1485.28          0.581675883      53.7577943       0.806581268      -35.5656455      0.806581268      -35.5656455      0.581675883      53.7577943       
1509.22          0.588172575      53.3031456       0.801863653      -36.0245671      0.801863653      -36.0245671      0.588172575      53.3031456       
1533.16          0.59457467       52.8524065       0.797136792      -36.4794364      0.797136792      -36.4794364      0.59457467       52.8524065       
1557.1           0.600882974      52.4055661       0.79240215       -36.9302685      0.79240215       -36.9302685      0.600882974      52.4055661       
1581.04          0.607098319      51.962612        0.787661146      -37.3770801      0.787661146      -37.3770801      0.607098319      51.962612        
1604.98          0.613221565      51.5235304       0.782915153      -37.819889       0.782915153      -37.819889       0.613221565      51.5235304       
1628.92          0.619253595      51.0883061       0.778165502      -38.258714       0.778165502      -38.258714       0.619253595      51.0883061       
1652.86          0.625195314      50.6569224       0.773413479      -38.6935755      0.773413479      -38.6935755      0.625195314      50.6569224       
1676.8           0.631047647      50.2293615       0.768660328      -39.1244947      0.768660328      -39.1244947      0.631047647      50.2293615       
1700.74          0.636811537      49.8056042       0.763907248      -39.5514937      0.763907248      -39.5514937      0.636811537      49.8056042       
1724.68          0.642487944      49.3856303       0.759155397      -39.9745957      0.759155397      -39.9745957      0.642487944      49.3856303       
1748.62          0.648077843      48.9694187       0.754405892      -40.3938249      0.754405892      -40.3938249      0.648077843      48.9694187       
1772.56          0.653582221      48.5569469       0.749659808      -40.8092061      0.749659808      -40.8092061      0.653582221      48.5569469       
1796.5           0.659002077      48.1481918       0.74491818       -41.2207652      0.74491818       -41.2207652      0.659002077      48.1481918       
1820.44          0.664338419      47.7431293       0.740182004      -41.6285284      0.740182004      -41.6285284      0.664338419      47.7431293       
1844.38          0.669592265      47.3417345       0.735452235      -42.032523       0.735452235      -42.032523       0.669592265      47.3417345       
1868.32          0.67476464       46.9439819       0.730729793      -42.4327768      0.730729793      -42.4327768      0.67476464       46.9439819       
1892.26          0.679856573      46.549845        0.726015558      -42.829318       0.726015558      -42.829318       0.679856573      46.549845        
1916.2           0.6848691        46.1592969       0.721310375      -43.2221757      0.721310375      -43.2221757      0.6848691        46.1592969       
1940.14          0.689803259      45.7723099       0.716615054      -43.6113791      0.716615054      -43.6113791      0.689803259      45.7723099       
1964.08          0.694660089      45.388856        0.711930368      -43.9969581      0.711930368      -43.9969581      0.69466009       45.388856        
1988.02          0.699440634      45.0089065       0.707257057      -44.378943       0.707257057      -44.378943       0.699440634      45.0089065       
2011.96          0.704145933      44.6324322       0.702595827      -44.7573644      0.702595827      -44.7573644      0.704145933      44.6324322       
2035.9           0.708777029      44.2594037       0.697947354      -45.1322532      0.697947354      -45.1322532      0.708777029      44.2594037       
2059.84          0.713334961      43.889791        0.693312281      -45.5036409      0.693312281      -45.5036409      0.713334961      43.889791        
2083.78          0.717820764      43.5235639       0.688691219      -45.8715587      0.688691219      -45.8715587      0.717820764      43.5235639       
2107.72          0.722235472      43.1606919       0.68408475       -46.2360387      0.68408475       -46.2360387      0.722235472      43.1606919       
2131.66          0.726580115      42.8011441       0.679493429      -46.5971125      0.679493429      -46.5971125      0.726580115      42.8011441       
2155.6           0.730855716      42.4448895       0.674917781      -46.9548125      0.674917781      -46.9548125      0.730855716      42.4448895       
2179.54          0.735063294      42.0918969       0.670358303      -47.3091709      0.670358303      -47.3091709      0.735063294      42.0918969       
2203.48          0.739203862      41.7421348       0.665815466      -47.6602199      0.665815466      -47.6602199      0.739203862      41.7421348       
2227.42          0.743278427      41.3955717       0.661289717      -48.0079922      0.661289717      -48.0079922      0.743278427      41.3955717       
2251.36          0.747287986      41.0521759       0.656781477      -48.3525201      0.656781477      -48.3525201      0.747287986      41.0521759       
2275.3           0.751233531      40.7119157       0.652291141      -48.6938361      0.652291141      -48.6938361      0.751233531      40.7119157       
2299.24          0.755116045      40.3747593       0.647819083      -49.031973       0.647819083      -49.031973       0.755116045      40.3747593       
2323.18          0.758936503      40.0406748       0.643365654      -49.3669631      0.643365654      -49.3669631      0.758936503      40.0406748       
2347.12          0.76269587       39.7096305       0.638931183      -49.698839       0.638931183      -49.698839       0.76269587       39.7096305       
2371.06          0.766395102      39.3815943       0.634515977      -50.027633       0.634515977      -50.027633       0.766395102      39.3815943       
2395             0.770035145      39.0565346       0.630120324      -50.3533777      0.630120324      -50.3533777      0.770035145      39.0565346       
2418.94          0.773616938      38.7344196       0.625744493      -50.6761051      0.625744493      -50.6761051      0.773616938      38.7344196       
2442.88          0.777141405      38.4152175       0.62138873       -50.9958476      0.62138873       -50.9958476      0.777141405      38.4152175       
2466.82          0.780609464      38.0988968       0.617053269      -51.3126372      0.617053269      -51.3126372      0.780609464      38.0988968       
2490.76          0.784022019      37.785426        0.61273832       -51.6265057      0.61273832       -51.6265057      0.784022019      37.785426        
2514.7           0.787379966      37.4747735       0.608444081      -51.9374849      0.608444081      -51.9374849      0.787379966      37.4747735       
2538.64          0.790684189      37.1669083       0.604170731      -52.2456064      0.604170731      -52.2456064      0.790684189      37.1669083       
2562.58          0.79393556       36.8617991       0.599918433      -52.5509016      0.599918433      -52.5509016      0.79393556       36.8617991       
2586.52          0.797134941      36.559415        0.595687338      -52.8534018      0.595687338      -52.8534018      0.797134941      36.559415        
2610.46          0.800283181      36.2597252       0.591477578      -53.1531378      0.591477578      -53.1531378      0.800283181      36.2597252       
2634.4           0.803381121      35.962699        0.587289276      -53.4501407      0.587289276      -53.4501407      0.803381121      35.962699        
2658.34          0.806429587      35.6683061       0.583122536      -53.7444408      0.583122536      -53.7444408      0.806429587      35.6683061       
2682.28          0.809429394      35.3765162       0.578977455      -54.0360687      0.578977455      -54.0360687      0.809429394      35.3765162       
2706.22          0.812381349      35.0872992       0.574854113      -54.3250544      0.574854113      -54.3250544      0.812381349      35.0872992       
2730.16          0.815286243      34.8006254       0.570752581      -54.6114277      0.570752581      -54.6114277      0.815286243      34.8006254       
2754.1           0.818144857      34.5164652       0.566672916      -54.8952184      0.566672916      -54.8952184      0.818144857      34.5164652       
2778.04          0.820957962      34.2347891       0.562615168      -55.1764558      0.562615168      -55.1764558      0.820957962      34.2347891       
2801.98          0.823726316      33.9555682       0.558579373      -55.455169       0.558579373      -55.455169       0.823726316      33.9555682       
2825.92          0.826450664      33.6787735       0.55456556       -55.7313867      0.55456556       -55.7313867      0.826450664      33.6787735       
2849.86          0.829131744      33.4043764       0.550573745      -56.0051377      0.550573745      -56.0051377      0.829131744      33.4043764       
2873.8           0.831770277      33.1323485       0.546603938      -56.2764501      0.546603938      -56.2764501      0.831770277      33.1323485       
2897.74          0.834366977      32.8626617       0.542656138      -56.545352       0.542656138      -56.545352       0.834366977      32.8626617       
2921.68          0.836922545      32.5952881       0.538730339      -56.8118711      0.538730339      -56.8118711      0.836922545      32.5952881       
2945.62          0.839437671      32.3302001       0.534826524      -57.0760348      0.534826524      -57.0760348      0.839437671      32.3302001       
2969.56          0.841913034      32.0673705       0.53094467       -57.3378701      0.53094467       -57.3378701      0.841913034      32.0673705       
2993.5           0.844349302      31.8067721       0.527084745      -57.5974041      0.527084745      -57.5974041      0.844349302      31.8067721       
3017.44          0.846747131      31.5483782       0.523246713      -57.8546631      0.523246713      -57.8546631      0.846747131      31.5483782       
3041.38          0.849107167      31.2921623       0.519430529      -58.1096735      0.519430529      -58.1096735      0.849107167      31.2921623       
