! Coilcraft 0603CS-72N Chip Inductor				
! 21 May 2002			
# MHZ S MA R 50
!Freq             MagS11           AngS11           MagS21           AngS21           MagS12           AngS12           MagS22           AngS22
1                0.00482451417    69.1458969       0.998292704      -0.258758383     0.998292704      -0.258758383     0.00482451417    69.1458969       
8.73             0.039566294      80.7801988       0.994427817      -2.250812        0.994427817      -2.250812        0.039566294      80.7801988       
16.46            0.0740655875     80.7103065       0.990743884      -4.23096002      0.990743884      -4.23096002      0.0740655875     80.7103065       
24.19            0.108228811      79.6377393       0.98629558       -6.19674694      0.98629558       -6.19674694      0.108228811      79.6377393       
31.92            0.141956758      78.2331874       0.980945214      -8.14467783      0.980945214      -8.14467783      0.141956758      78.2331874       
39.65            0.175152089      76.6814549       0.974669447      -10.0711417      0.974669447      -10.0711417      0.175152089      76.6814549       
47.38            0.207723382      75.0583113       0.96748743       -11.972638       0.96748743       -11.972638       0.207723382      75.0583113       
55.11            0.239587344      73.4022779       0.959440315      -13.8458823      0.959440315      -13.8458823      0.239587344      73.4022779       
62.84            0.270670143      71.7358586       0.950582588      -15.6878663      0.950582588      -15.6878663      0.270670143      71.7358586       
70.57            0.3009082        70.0735221       0.940977291      -17.4958959      0.940977291      -17.4958959      0.3009082        70.0735221       
78.3             0.330248544      68.4252133       0.930692846      -19.2676121      0.930692846      -19.2676121      0.330248544      68.4252133       
86.03            0.358648833      66.7980829       0.919800692      -21.0010009      0.919800692      -21.0010009      0.358648833      66.7980829       
93.76            0.386077085      65.1974181       0.908373412      -22.6943934      0.908373412      -22.6943934      0.386077085      65.1974181       
101.49           0.41251118       63.6271831       0.896483211      -24.3464575      0.896483211      -24.3464575      0.41251118       63.6271831       
109.22           0.437938196      62.0903532       0.884200692      -25.9561843      0.884200692      -25.9561843      0.437938196      62.0903532       
116.95           0.462353609      60.589136        0.871593867      -27.5228689      0.871593867      -27.5228689      0.462353609      60.589136        
124.68           0.485760426      59.1251249       0.858727407      -29.0460886      0.858727407      -29.0460886      0.485760426      59.1251249       
132.41           0.508168276      57.6994124       0.845662085      -30.5256781      0.845662085      -30.5256781      0.508168276      57.6994124       
140.14           0.529592489      56.3126776       0.832454392      -31.9617039      0.832454392      -31.9617039      0.529592489      56.3126776       
147.87           0.550053211      54.9652555       0.819156312      -33.3544378      0.819156312      -33.3544378      0.550053211      54.9652555       
155.6            0.569574552      53.6571941       0.805815227      -34.7043315      0.805815227      -34.7043315      0.569574552      53.6571941       
163.33           0.588183798      52.388303        0.792473925      -36.0119914      0.792473925      -36.0119914      0.588183798      52.388303        
171.06           0.605910692      51.1581939       0.779170695      -37.2781549      0.779170695      -37.2781549      0.605910692      51.1581939       
178.79           0.622786781      49.9663162       0.765939497      -38.5036684      0.765939497      -38.5036684      0.622786781      49.9663162       
186.52           0.638844853      48.811987        0.752810168      -39.6894668      0.752810168      -39.6894668      0.638844853      48.811987        
194.25           0.654118433      47.6944177       0.739808673      -40.8365555      0.739808673      -40.8365555      0.654118433      47.6944177       
201.98           0.668641362      46.6127367       0.726957377      -41.9459933      0.726957377      -41.9459933      0.668641362      46.6127367       
209.71           0.682447435      45.5660089       0.71427532       -43.0188783      0.71427532       -43.0188783      0.682447435      45.5660089       
217.44           0.695570106      44.5532525       0.701778508      -44.0563345      0.701778508      -44.0563345      0.695570106      44.5532525       
225.17           0.708042247      43.5734536       0.689480187      -45.059501       0.689480187      -45.059501       0.708042247      43.5734536       
232.9            0.719895948      42.6255781       0.677391118      -46.0295221      0.677391118      -46.0295221      0.719895948      42.6255781       
240.63           0.731162375      41.7085822       0.665519833      -46.9675396      0.665519833      -46.9675396      0.731162375      41.7085822       
248.36           0.741871653      40.8214211       0.653872885      -47.8746853      0.653872885      -47.8746853      0.741871653      40.8214211       
256.09           0.752052785      39.9630559       0.642455068      -48.7520757      0.642455068      -48.7520757      0.752052785      39.9630559       
263.82           0.761733598      39.1324597       0.631269633      -49.6008074      0.631269633      -49.6008074      0.761733598      39.1324597       
271.55           0.770940713      38.3286226       0.620318479      -50.4219533      0.620318479      -50.4219533      0.770940713      38.3286226       
279.28           0.779699531      37.5505548       0.609602329      -51.2165593      0.609602329      -51.2165593      0.779699531      37.5505548       
287.01           0.788034233      36.7972904       0.599120892      -51.9856426      0.599120892      -51.9856426      0.788034233      36.7972904       
294.74           0.7959678        36.0678893       0.588873001      -52.7301897      0.588873001      -52.7301897      0.7959678        36.0678893       
302.47           0.80352203       35.3614389       0.578856747      -53.4511555      0.578856747      -53.4511555      0.80352203       35.3614389       
310.2            0.810717575      34.6770551       0.569069591      -54.1494623      0.569069591      -54.1494623      0.810717575      34.6770551       
317.93           0.817573974      34.0138837       0.559508466      -54.8259997      0.559508466      -54.8259997      0.817573974      34.0138837       
325.66           0.824109697      33.3711002       0.550169868      -55.4816242      0.550169868      -55.4816242      0.824109697      33.3711002       
333.39           0.830342186      32.7479101       0.541049935      -56.11716        0.541049935      -56.11716        0.830342186      32.7479101       
341.12           0.8362879        32.1435487       0.532144518      -56.7333987      0.532144518      -56.7333987      0.8362879        32.1435487       
348.85           0.841962363      31.5572811       0.523449239      -57.3311006      0.523449239      -57.3311006      0.841962363      31.5572811       
356.58           0.84738021       30.9884012       0.514959546      -57.9109945      0.514959546      -57.9109945      0.84738021       30.9884012       
364.31           0.852555231      30.4362315       0.506670763      -58.4737795      0.506670763      -58.4737795      0.852555231      30.4362315       
372.04           0.857500416      29.9001223       0.498578121      -59.0201249      0.498578121      -59.0201249      0.857500416      29.9001223       
379.77           0.862228002      29.3794507       0.4906768        -59.5506721      0.4906768        -59.5506721      0.862228002      29.3794507       
387.5            0.866749511      28.8736202       0.482961959      -60.0660345      0.482961959      -60.0660345      0.866749511      28.8736202       
395.23           0.871075792      28.3820593       0.475428752      -60.5667994      0.475428752      -60.5667994      0.871075792      28.3820593       
402.96           0.875217061      27.9042211       0.468072362      -61.0535287      0.468072362      -61.0535287      0.875217061      27.9042211       
410.69           0.879182939      27.4395819       0.460888009      -61.5267595      0.460888009      -61.5267595      0.879182939      27.4395819       
418.42           0.882982485      26.9876408       0.453870968      -61.9870057      0.453870968      -61.9870057      0.882982485      26.9876408       
426.15           0.886624231      26.5479186       0.447016586      -62.4347586      0.447016586      -62.4347586      0.886624231      26.5479186       
433.88           0.890116215      26.1199566       0.440320284      -62.8704879      0.440320284      -62.8704879      0.890116215      26.1199566       
441.61           0.893466009      25.7033161       0.433777572      -63.2946429      0.433777572      -63.2946429      0.893466009      25.7033161       
449.34           0.896680748      25.2975777       0.427384054      -63.7076531      0.427384054      -63.7076531      0.896680748      25.2975777       
457.07           0.899767158      24.9023397       0.42113543       -64.109929       0.42113543       -64.109929       0.899767158      24.9023397       
464.8            0.90273158       24.5172183       0.415027503      -64.5018635      0.415027503      -64.5018635      0.90273158       24.5172183       
472.53           0.905579994      24.1418459       0.409056182      -64.8838322      0.409056182      -64.8838322      0.905579994      24.1418459       
480.26           0.908318041      23.7758711       0.403217482      -65.2561942      0.403217482      -65.2561942      0.908318041      23.7758711       
487.99           0.910951046      23.4189574       0.397507525      -65.6192933      0.397507525      -65.6192933      0.910951046      23.4189574       
495.72           0.913484033      23.0707829       0.391922543      -65.9734582      0.391922543      -65.9734582      0.913484033      23.0707829       
503.45           0.915921747      22.7310392       0.386458874      -66.3190037      0.386458874      -66.3190037      0.915921747      22.7310392       
511.18           0.918268671      22.3994314       0.381112965      -66.6562308      0.381112965      -66.6562308      0.918268671      22.3994314       
518.91           0.92052904       22.0756769       0.375881367      -66.9854279      0.375881367      -66.9854279      0.92052904       22.0756769       
526.64           0.922706858      21.759505        0.370760737      -67.306871       0.370760737      -67.306871       0.922706858      21.759505        
534.37           0.924805911      21.4506565       0.365747836      -67.6208245      0.365747836      -67.6208245      0.924805911      21.4506565       
542.1            0.926829782      21.1488831       0.360839524      -67.9275417      0.360839524      -67.9275417      0.926829782      21.1488831       
549.83           0.928781859      20.8539465       0.356032761      -68.2272653      0.356032761      -68.2272653      0.928781859      20.8539465       
557.56           0.930665353      20.5656187       0.351324603      -68.5202277      0.351324603      -68.5202277      0.930665353      20.5656187       
565.29           0.932483302      20.2836808       0.346712201      -68.806652       0.346712201      -68.806652       0.932483302      20.2836808       
573.02           0.934238586      20.0079228       0.342192797      -69.0867519      0.342192797      -69.0867519      0.934238586      20.0079228       
580.75           0.935933934      19.7381436       0.337763723      -69.3607324      0.337763723      -69.3607324      0.935933934      19.7381436       
588.48           0.937571935      19.4741498       0.333422398      -69.6287903      0.333422398      -69.6287903      0.937571935      19.4741498       
596.21           0.939155044      19.2157561       0.329166325      -69.8911144      0.329166325      -69.8911144      0.939155044      19.2157561       
603.94           0.94068559       18.9627844       0.324993087      -70.1478858      0.324993087      -70.1478858      0.94068559       18.9627844       
611.67           0.942165786      18.7150638       0.32090035       -70.3992784      0.32090035       -70.3992784      0.942165786      18.7150638       
619.4            0.943597731      18.47243         0.316885854      -70.6454594      0.316885854      -70.6454594      0.943597731      18.47243         
627.13           0.944983421      18.2347253       0.312947413      -70.8865892      0.312947413      -70.8865892      0.944983421      18.2347253       
634.86           0.946324753      18.0017981       0.309082913      -71.1228221      0.309082913      -71.1228221      0.946324753      18.0017981       
642.59           0.94762353       17.7735024       0.305290312      -71.3543062      0.305290312      -71.3543062      0.94762353       17.7735024       
650.32           0.948881467      17.5496982       0.301567631      -71.5811841      0.301567631      -71.5811841      0.948881467      17.5496982       
658.05           0.950100198      17.3302505       0.29791296       -71.8035929      0.29791296       -71.8035929      0.950100198      17.3302505       
665.78           0.951281274      17.1150298       0.294324448      -72.0216642      0.294324448      -72.0216642      0.951281274      17.1150298       
673.51           0.952426177      16.903911        0.290800305      -72.235525       0.290800305      -72.235525       0.952426177      16.903911        
681.24           0.953536315      16.6967741       0.287338803      -72.4452974      0.287338803      -72.4452974      0.953536315      16.6967741       
688.97           0.954613031      16.4935032       0.283938265      -72.6510988      0.283938265      -72.6510988      0.954613031      16.4935032       
696.7            0.955657606      16.293987        0.280597072      -72.8530423      0.280597072      -72.8530423      0.955657606      16.293987        
704.43           0.956671262      16.098118        0.277313657      -73.0512371      0.277313657      -73.0512371      0.956671262      16.098118        
712.16           0.957655162      15.9057928       0.274086501      -73.2457881      0.274086501      -73.2457881      0.957655162      15.9057928       
719.89           0.958610419      15.7169115       0.270914136      -73.4367964      0.270914136      -73.4367964      0.958610419      15.7169115       
727.62           0.959538095      15.5313781       0.267795142      -73.6243596      0.267795142      -73.6243596      0.959538095      15.5313781       
735.35           0.960439202      15.3490998       0.264728141      -73.8085717      0.264728141      -73.8085717      0.960439202      15.3490998       
743.08           0.96131471       15.1699871       0.261711802      -73.9895235      0.261711802      -73.9895235      0.96131471       15.1699871       
750.81           0.962165544      14.9939536       0.258744834      -74.1673024      0.258744834      -74.1673024      0.962165544      14.9939536       
758.54           0.962992589      14.8209161       0.255825988      -74.3419928      0.255825988      -74.3419928      0.962992589      14.8209161       
766.27           0.963796691      14.6507941       0.252954053      -74.5136762      0.252954053      -74.5136762      0.963796691      14.6507941       
774              0.96457866       14.4835099       0.250127857      -74.6824311      0.250127857      -74.6824311      0.96457866       14.4835099       
781.73           0.96533927       14.3189885       0.247346263      -74.8483336      0.247346263      -74.8483336      0.96533927       14.3189885       
789.46           0.966079264      14.1571575       0.244608172      -75.011457       0.244608172      -75.011457       0.966079264      14.1571575       
797.19           0.966799352      13.9979467       0.241912516      -75.1718721      0.241912516      -75.1718721      0.966799352      13.9979467       
804.92           0.967500213      13.8412884       0.23925826       -75.3296472      0.23925826       -75.3296472      0.967500213      13.8412884       
812.65           0.9681825        13.6871173       0.236644403      -75.4848487      0.236644403      -75.4848487      0.9681825        13.6871173       
820.38           0.968846839      13.5353699       0.234069972      -75.6375403      0.234069972      -75.6375403      0.968846839      13.5353699       
828.11           0.969493827      13.3859852       0.231534024      -75.7877839      0.231534024      -75.7877839      0.969493827      13.3859852       
835.84           0.97012404       13.2389038       0.229035645      -75.9356393      0.229035645      -75.9356393      0.97012404       13.2389038       
843.57           0.970738029      13.0940684       0.226573948      -76.0811643      0.226573948      -76.0811643      0.970738029      13.0940684       
851.3            0.971336323      12.9514235       0.224148073      -76.2244148      0.224148073      -76.2244148      0.971336323      12.9514235       
859.03           0.97191943       12.8109155       0.221757183      -76.365445       0.221757183      -76.365445       0.97191943       12.8109155       
866.76           0.972487839      12.6724923       0.219400469      -76.5043072      0.219400469      -76.5043072      0.972487839      12.6724923       
874.49           0.973042017      12.5361035       0.217077144      -76.6410521      0.217077144      -76.6410521      0.973042017      12.5361035       
882.22           0.973582415      12.4017003       0.214786445      -76.7757289      0.214786445      -76.7757289      0.973582415      12.4017003       
889.95           0.974109465      12.2692354       0.212527629      -76.908385       0.212527629      -76.908385       0.974109465      12.2692354       
897.68           0.974623584      12.138663        0.210299976      -77.0390665      0.210299976      -77.0390665      0.974623584      12.138663        
905.41           0.975125171      12.0099386       0.208102787      -77.1678181      0.208102787      -77.1678181      0.975125171      12.0099386       
913.14           0.975614612      11.8830191       0.205935382      -77.2946828      0.205935382      -77.2946828      0.975614612      11.8830191       
920.87           0.976092275      11.7578628       0.203797101      -77.4197027      0.203797101      -77.4197027      0.976092275      11.7578628       
928.6            0.976558519      11.6344292       0.201687303      -77.5429183      0.201687303      -77.5429183      0.976558519      11.6344292       
936.33           0.977013685      11.5126788       0.199605363      -77.664369       0.199605363      -77.664369       0.977013685      11.5126788       
944.06           0.977458104      11.3925735       0.197550676      -77.7840928      0.197550676      -77.7840928      0.977458104      11.3925735       
951.79           0.977892093      11.2740764       0.195522652      -77.9021269      0.195522652      -77.9021269      0.977892093      11.2740764       
959.52           0.978315961      11.1571514       0.193520719      -78.018507       0.193520719      -78.018507       0.978315961      11.1571514       
967.25           0.978730001      11.0417636       0.191544319      -78.1332681      0.191544319      -78.1332681      0.978730001      11.0417636       
974.98           0.979134498      10.9278791       0.18959291       -78.2464437      0.18959291       -78.2464437      0.979134498      10.9278791       
982.71           0.979529727      10.815465        0.187665965      -78.3580668      0.187665965      -78.3580668      0.979529727      10.815465        
