! Coilcraft 0603CS-4N7 Chip Inductor				
! 21 May 2002			
# MHZ S MA R 50
!Freq             MagS11           AngS11           MagS21           AngS21           MagS12           AngS12           MagS22           AngS22
1                0.000373610595   52.191042        0.999771009      -0.0169161258    0.999771009      -0.0169161258    0.000373610595   52.1910421       
32.17            0.00955908412    82.5024244       0.998797655      -0.543674425     0.998797655      -0.543674425     0.00955908412    82.5024244       
63.34            0.0187414696     83.998963        0.998214673      -1.06989483      0.998214673      -1.06989483      0.0187414696     83.998963        
94.51            0.0279150286     84.3775688       0.997651962      -1.59567121      0.997651962      -1.59567121      0.0279150286     84.3775688       
125.68           0.0370785733     84.3925624       0.997060064      -2.12099827      0.997060064      -2.12099827      0.0370785733     84.3925624       
156.85           0.046230734      84.2366607       0.996419755      -2.64584625      0.996419755      -2.64584625      0.046230734      84.2366607       
188.02           0.0553700108     83.9846698       0.99572129       -3.1701746       0.99572129       -3.1701746       0.0553700108     83.9846698       
219.19           0.0644948268     83.6725029       0.994959026      -3.693937        0.994959026      -3.693937        0.0644948268     83.6725029       
250.36           0.0736035597     83.3198397       0.994129442      -4.21708365      0.994129442      -4.21708365      0.0736035597     83.3198397       
281.53           0.0826945618     82.9384956       0.993230247      -4.73956265      0.993230247      -4.73956265      0.0826945618     82.9384956       
312.7            0.0917661723     82.5360579       0.992259931      -5.26132071      0.992259931      -5.26132071      0.0917661723     82.5360579       
343.87           0.100816727      82.1176587       0.991217509      -5.78230373      0.991217509      -5.78230373      0.100816727      82.1176587       
375.04           0.109844564      81.6869159       0.990102368      -6.30245712      0.990102368      -6.30245712      0.109844564      81.6869159       
406.21           0.118848031      81.2464685       0.988914174      -6.8217261       0.988914174      -6.8217261       0.118848031      81.2464685       
437.38           0.127825486      80.7982969       0.98765281       -7.34005586      0.98765281       -7.34005586      0.127825486      80.7982969       
468.55           0.136775304      80.343924        0.986318324      -7.85739177      0.986318324      -7.85739177      0.136775304      80.343924        
499.72           0.145695878      79.8845458       0.984910907      -8.37367947      0.984910907      -8.37367947      0.145695878      79.8845458       
530.89           0.154585624      79.421119        0.983430865      -8.88886501      0.983430865      -8.88886501      0.154585624      79.421119        
562.06           0.163442978      78.9544218       0.981878602      -9.40289492      0.981878602      -9.40289492      0.163442978      78.9544218       
593.23           0.172266406      78.485096        0.98025461       -9.9157163       0.98025461       -9.9157163       0.172266406      78.485096        
624.4            0.181054399      78.0136788       0.978559454      -10.4272769      0.978559454      -10.4272769      0.181054399      78.0136788       
655.57           0.189805475      77.5406243       0.976793769      -10.9375252      0.976793769      -10.9375252      0.189805475      77.5406243       
686.74           0.198518186      77.0663214       0.974958246      -11.4464104      0.974958246      -11.4464104      0.198518186      77.0663214       
717.91           0.207191114      76.5911058       0.973053633      -11.9538825      0.973053633      -11.9538825      0.207191114      76.5911058       
749.08           0.215822875      76.1152703       0.971080726      -12.4598923      0.971080726      -12.4598923      0.215822875      76.1152703       
780.25           0.224412117      75.6390723       0.969040366      -12.9643918      0.969040366      -12.9643918      0.224412117      75.6390723       
811.42           0.232957526      75.1627397       0.966933437      -13.4673335      0.966933437      -13.4673335      0.232957526      75.1627397       
842.59           0.241457823      74.6864758       0.964760857      -13.9686713      0.964760857      -13.9686713      0.241457823      74.6864758       
873.76           0.249911765      74.210463        0.962523581      -14.4683597      0.962523581      -14.4683597      0.249911765      74.210463        
904.93           0.258318148      73.7348661       0.960222597      -14.9663545      0.960222597      -14.9663545      0.258318148      73.7348661       
936.1            0.266675805      73.2598345       0.957858918      -15.4626124      0.957858918      -15.4626124      0.266675805      73.2598345       
967.27           0.274983609      72.7855044       0.955433587      -15.9570914      0.955433587      -15.9570914      0.274983609      72.7855044       
998.44           0.283240471      72.3120005       0.952947672      -16.4497503      0.952947672      -16.4497503      0.283240471      72.3120005       
1029.61          0.291445344      71.8394375       0.95040226       -16.9405493      0.95040226       -16.9405493      0.291445344      71.8394375       
1060.78          0.299597218      71.3679211       0.947798462      -17.4294495      0.947798462      -17.4294495      0.299597218      71.3679211       
1091.95          0.307695126      70.8975491       0.945137403      -17.9164133      0.945137403      -17.9164133      0.307695126      70.8975491       
1123.12          0.315738139      70.4284123       0.942420229      -18.4014041      0.942420229      -18.4014041      0.315738139      70.4284123       
1154.29          0.32372537       69.960595        0.939648096      -18.8843867      0.939648096      -18.8843867      0.32372537       69.960595        
1185.46          0.331655973      69.4941759       0.936822177      -19.3653268      0.936822177      -19.3653268      0.331655973      69.4941759       
1216.63          0.339529141      69.0292284       0.933943653      -19.8441916      0.933943653      -19.8441916      0.339529141      69.0292284       
1247.8           0.347344109      68.5658212       0.931013716      -20.3209491      0.931013716      -20.3209491      0.347344109      68.5658212       
1278.97          0.355100152      68.1040185       0.928033565      -20.7955688      0.928033565      -20.7955688      0.355100152      68.1040185       
1310.14          0.362796583      67.6438806       0.925004407      -21.2680211      0.925004407      -21.2680211      0.362796583      67.6438806       
1341.31          0.370432758      67.1854639       0.921927454      -21.738278       0.921927454      -21.738278       0.370432758      67.1854639       
1372.48          0.37800807       66.7288217       0.918803919      -22.2063122      0.918803919      -22.2063122      0.37800807       66.7288217       
1403.65          0.385521954      66.2740035       0.915635019      -22.672098       0.915635019      -22.672098       0.385521954      66.2740035       
1434.82          0.39297388       65.8210564       0.912421973      -23.1356105      0.912421973      -23.1356105      0.39297388       65.8210564       
1465.99          0.400363359      65.3700242       0.909165999      -23.5968262      0.909165999      -23.5968262      0.400363359      65.3700242       
1497.16          0.407689939      64.9209482       0.905868313      -24.0557227      0.905868313      -24.0557227      0.407689939      64.9209482       
1528.33          0.414953205      64.4738672       0.902530128      -24.5122788      0.902530128      -24.5122788      0.414953205      64.4738672       
1559.5           0.42215278       64.0288176       0.899152654      -24.9664743      0.899152654      -24.9664743      0.42215278       64.0288176       
1590.67          0.429288322      63.5858334       0.895737097      -25.4182902      0.895737097      -25.4182902      0.429288322      63.5858334       
1621.84          0.436359524      63.1449466       0.892284656      -25.8677086      0.892284656      -25.8677086      0.436359524      63.1449466       
1653.01          0.443366115      62.7061871       0.888796524      -26.3147128      0.888796524      -26.3147128      0.443366115      62.7061871       
1684.18          0.450307858      62.2695829       0.885273886      -26.759287       0.885273886      -26.759287       0.450307858      62.2695829       
1715.35          0.457184548      61.8351601       0.881717917      -27.2014166      0.881717917      -27.2014166      0.457184548      61.8351601       
1746.52          0.463996014      61.4029428       0.878129786      -27.641088       0.878129786      -27.641088       0.463996014      61.4029428       
1777.69          0.470742116      60.9729537       0.874510649      -28.0782887      0.874510649      -28.0782887      0.470742116      60.9729537       
1808.86          0.477422747      60.5452136       0.870861651      -28.5130071      0.870861651      -28.5130071      0.477422747      60.5452136       
1840.03          0.484037829      60.119742        0.867183929      -28.9452327      0.867183929      -28.9452327      0.484037829      60.119742        
1871.2           0.490587313      59.6965566       0.863478603      -29.3749559      0.863478603      -29.3749559      0.490587313      59.6965566       
1902.37          0.497071179      59.2756738       0.859746783      -29.8021683      0.859746783      -29.8021683      0.497071179      59.2756738       
1933.54          0.503489437      58.8571085       0.855989565      -30.2268621      0.855989565      -30.2268621      0.503489437      58.8571085       
1964.71          0.509842122      58.4408743       0.852208031      -30.6490306      0.852208031      -30.6490306      0.509842122      58.4408743       
1995.88          0.516129295      58.0269836       0.848403248      -31.068668       0.848403248      -31.068668       0.516129295      58.0269836       
2027.05          0.522351044      57.6154474       0.844576269      -31.4857694      0.844576269      -31.4857694      0.522351044      57.6154474       
2058.22          0.528507482      57.2062754       0.840728131      -31.9003307      0.840728131      -31.9003307      0.528507482      57.2062754       
2089.39          0.534598742      56.7994764       0.836859856      -32.3123487      0.836859856      -32.3123487      0.534598742      56.7994764       
2120.56          0.540624986      56.395058        0.832972448      -32.7218209      0.832972448      -32.7218209      0.540624986      56.395058        
2151.73          0.546586393      55.9930265       0.829066898      -33.1287459      0.829066898      -33.1287459      0.546586393      55.9930265       
2182.9           0.552483165      55.5933874       0.825144177      -33.5331227      0.825144177      -33.5331227      0.552483165      55.5933874       
2214.07          0.558315526      55.1961452       0.821205241      -33.9349513      0.821205241      -33.9349513      0.558315526      55.1961452       
2245.24          0.564083717      54.8013033       0.817251028      -34.3342323      0.817251028      -34.3342323      0.564083717      54.8013033       
2276.41          0.569788001      54.4088641       0.813282459      -34.7309671      0.813282459      -34.7309671      0.569788         54.4088641       
2307.58          0.575428655      54.0188294       0.809300439      -35.1251578      0.809300439      -35.1251578      0.575428655      54.0188294       
2338.75          0.581005979      53.6311999       0.805305852      -35.5168072      0.805305852      -35.5168072      0.581005979      53.6311999       
2369.92          0.586520283      53.2459756       0.801299568      -35.9059185      0.801299568      -35.9059185      0.586520283      53.2459756       
2401.09          0.591971899      52.8631554       0.797282436      -36.2924959      0.797282436      -36.2924959      0.591971899      52.8631554       
2432.26          0.597361168      52.4827379       0.793255291      -36.676544       0.793255291      -36.676544       0.597361168      52.4827379       
2463.43          0.602688451      52.1047206       0.789218946      -37.0580679      0.789218946      -37.0580679      0.602688451      52.1047206       
2494.6           0.607954119      51.7291004       0.785174198      -37.4370734      0.785174198      -37.4370734      0.607954119      51.7291004       
2525.77          0.613158556      51.3558736       0.781121828      -37.8135669      0.781121828      -37.8135669      0.613158556      51.3558736       
2556.94          0.61830216       50.9850357       0.777062596      -38.1875552      0.777062596      -38.1875552      0.61830216       50.9850357       
2588.11          0.623385339      50.6165817       0.772997245      -38.5590456      0.772997245      -38.5590456      0.623385339      50.6165817       
2619.28          0.628408512      50.2505059       0.768926503      -38.928046       0.768926503      -38.928046       0.628408512      50.2505059       
2650.45          0.633372109      49.8868021       0.764851076      -39.2945648      0.764851076      -39.2945648      0.633372109      49.8868021       
2681.62          0.638276569      49.5254634       0.760771657      -39.6586106      0.760771657      -39.6586106      0.638276569      49.5254634       
2712.79          0.643122339      49.1664826       0.756688919      -40.0201926      0.756688919      -40.0201926      0.643122339      49.1664826       
2743.96          0.647909876      48.8098518       0.752603517      -40.3793204      0.752603517      -40.3793204      0.647909876      48.8098518       
2775.13          0.652639644      48.4555627       0.748516092      -40.7360041      0.748516092      -40.7360041      0.652639644      48.4555627       
2806.3           0.657312113      48.1036066       0.744427264      -41.0902539      0.744427264      -41.0902539      0.657312113      48.1036066       
2837.47          0.661927762      47.7539742       0.740337641      -41.4420806      0.740337641      -41.4420806      0.661927762      47.7539742       
2868.64          0.666487074      47.4066558       0.736247811      -41.7914952      0.736247811      -41.7914952      0.666487074      47.4066558       
2899.81          0.670990539      47.0616415       0.732158346      -42.1385091      0.732158346      -42.1385091      0.670990539      47.0616415       
2930.98          0.67543865       46.7189209       0.728069802      -42.4831341      0.728069802      -42.4831341      0.67543865       46.7189209       
2962.15          0.679831908      46.3784831       0.723982721      -42.825382       0.723982721      -42.825382       0.679831908      46.3784831       
2993.32          0.684170815      46.0403171       0.719897627      -43.1652651      0.719897627      -43.1652651      0.684170815      46.0403171       
3024.49          0.688455877      45.7044114       0.715815028      -43.502796       0.715815028      -43.502796       0.688455877      45.7044114       
3055.66          0.692687606      45.3707542       0.711735419      -43.8379874      0.711735419      -43.8379874      0.692687606      45.3707542       
3086.83          0.696866513      45.0393335       0.707659278      -44.1708523      0.707659278      -44.1708523      0.696866513      45.0393335       
3118             0.700993113      44.7101371       0.703587069      -44.5014039      0.703587069      -44.5014039      0.700993113      44.7101371       
3149.17          0.705067925      44.3831523       0.699519242      -44.8296556      0.699519242      -44.8296556      0.705067925      44.3831523       
3180.34          0.709091466      44.0583663       0.695456231      -45.155621       0.695456231      -45.155621       0.709091466      44.0583663       
3211.51          0.713064256      43.7357661       0.691398457      -45.4793138      0.691398457      -45.4793138      0.713064256      43.7357661       
3242.68          0.716986817      43.4153384       0.687346327      -45.8007481      0.687346327      -45.8007481      0.716986817      43.4153384       
3273.85          0.720859671      43.0970698       0.683300235      -46.1199379      0.683300235      -46.1199379      0.720859671      43.0970698       
3305.02          0.724683338      42.7809467       0.679260561      -46.4368975      0.679260561      -46.4368975      0.724683338      42.7809467       
3336.19          0.72845834       42.4669551       0.675227671      -46.7516412      0.675227671      -46.7516412      0.72845834       42.4669551       
3367.36          0.7321852        42.1550812       0.67120192       -47.0641834      0.67120192       -47.0641834      0.7321852        42.1550812       
3398.53          0.735864437      41.8453109       0.667183649      -47.3745388      0.667183649      -47.3745388      0.735864437      41.8453109       
3429.7           0.739496572      41.5376298       0.663173189      -47.6827221      0.663173189      -47.6827221      0.739496572      41.5376298       
3460.87          0.743082124      41.2320236       0.659170855      -47.988748       0.659170855      -47.988748       0.743082124      41.2320236       
3492.04          0.746621609      40.9284778       0.655176954      -48.2926313      0.655176954      -48.2926313      0.746621609      40.9284778       
3523.21          0.750115545      40.6269778       0.65119178       -48.5943869      0.65119178       -48.5943869      0.750115545      40.6269778       
3554.38          0.753564444      40.327509        0.647215616      -48.8940299      0.647215616      -48.8940299      0.753564444      40.327509        
3585.55          0.756968818      40.0300564       0.643248732      -49.1915752      0.643248732      -49.1915752      0.756968818      40.0300564       
3616.72          0.760329179      39.7346054       0.639291391      -49.4870379      0.639291391      -49.4870379      0.760329179      39.7346054       
3647.89          0.763646032      39.4411409       0.635343842      -49.780433       0.635343842      -49.780433       0.763646032      39.4411409       
3679.06          0.766919882      39.149648        0.631406326      -50.0717757      0.631406326      -50.0717757      0.766919882      39.149648        
3710.23          0.770151233      38.8601118       0.627479074      -50.3610811      0.627479074      -50.3610811      0.770151233      38.8601118       
3741.4           0.773340582      38.572517        0.623562305      -50.6483642      0.623562305      -50.6483642      0.773340582      38.572517        
3772.57          0.776488426      38.2868487       0.619656231      -50.9336403      0.619656231      -50.9336403      0.776488426      38.2868487       
3803.74          0.779595258      38.0030918       0.615761053      -51.2169244      0.615761053      -51.2169244      0.779595258      38.0030918       
3834.91          0.782661567      37.721231        0.611876963      -51.4982317      0.611876963      -51.4982317      0.782661567      37.721231        
3866.08          0.78568784       37.4412513       0.608004147      -51.7775771      0.608004147      -51.7775771      0.78568784       37.4412513       
3897.25          0.78867456       37.1631376       0.604142779      -52.0549759      0.604142779      -52.0549759      0.78867456       37.1631376       
3928.42          0.791622204      36.8868746       0.600293025      -52.330443       0.600293025      -52.330443       0.791622204      36.8868746       
3959.59          0.794531249      36.6124473       0.596455045      -52.6039934      0.596455045      -52.6039934      0.794531249      36.6124473       
