! Coilcraft 0603CS-47N Chip Inductor				
! 21 May 2002			
# MHZ S MA R 50
!Freq             MagS11           AngS11           MagS21           AngS21           MagS12           AngS12           MagS22           AngS22
1                0.00315832895    68.8916835       0.99886693       -0.169008549     0.99886693       -0.169008549     0.00315832895    68.8916835       
9.48             0.0280833385     81.7366029       0.996351431      -1.59838963      0.996351431      -1.59838963      0.0280833385     81.7366029       
17.96            0.0529171537     82.1649663       0.994169377      -3.02264309      0.994169377      -3.02264309      0.0529171537     82.1649663       
26.44            0.0776193954     81.6049939       0.991645301      -4.44112455      0.991645301      -4.44112455      0.0776193954     81.6049939       
34.92            0.102153396      80.7136164       0.988669042      -5.85262322      0.988669042      -5.85262322      0.102153396      80.7136164       
43.4             0.126481721      79.6682457       0.985205193      -7.25580628      0.985205193      -7.25580628      0.126481721      79.6682457       
51.88            0.150567493      78.5400761       0.981244275      -8.64931804      0.981244275      -8.64931804      0.150567493      78.5400761       
60.36            0.174375148      77.3643767       0.976789422      -10.0318223      0.976789422      -10.0318223      0.174375148      77.3643767       
68.84            0.19787093       76.1611685       0.971851216      -11.4020258      0.971851216      -11.4020258      0.19787093       76.1611685       
77.32            0.221023236      74.942976        0.966445199      -12.7586944      0.966445199      -12.7586944      0.221023236      74.942976        
85.8             0.243802867      73.7182276       0.960590462      -14.1006631      0.960590462      -14.1006631      0.243802867      73.7182276       
94.28            0.266183214      72.492923        0.954308713      -15.4268446      0.954308713      -15.4268446      0.266183214      72.492923        
102.76           0.288140372      71.2715234       0.94762361       -16.7362347      0.94762361       -16.7362347      0.288140372      71.2715234       
111.24           0.309653212      70.0574587       0.940560237      -18.0279161      0.940560237      -18.0279161      0.309653212      70.0574587       
119.72           0.330703405      68.8534328       0.933144663      -19.3010609      0.933144663      -19.3010609      0.330703405      68.8534328       
128.2            0.351275402      67.6616158       0.925403576      -20.5549315      0.925403576      -20.5549315      0.351275402      67.6616158       
136.68           0.37135638       66.4837708       0.917363954      -21.7888802      0.917363954      -21.7888802      0.37135638       66.4837708       
145.16           0.390936162      65.3213396       0.909052786      -23.0023484      0.909052786      -23.0023484      0.390936162      65.3213396       
153.64           0.410007104      64.1755037       0.900496824      -24.1948642      0.900496824      -24.1948642      0.410007104      64.1755037       
162.12           0.428563967      63.0472283       0.891722368      -25.3660398      0.891722368      -25.3660398      0.428563967      63.0472283       
170.6            0.446603771      61.9372961       0.882755086      -26.515568       0.882755086      -26.515568       0.446603771      61.9372961       
179.08           0.464125636      60.846333        0.873619859      -27.6432183      0.873619859      -27.6432183      0.464125636      60.846333        
187.56           0.481130617      59.774829        0.864340651      -28.7488326      0.864340651      -28.7488326      0.481130617      59.774829        
196.04           0.497621533      58.7231553       0.854940415      -29.8323207      0.854940415      -29.8323207      0.497621533      58.7231553       
204.52           0.513602798      57.6915786       0.845441009      -30.8936554      0.845441009      -30.8936554      0.513602798      57.6915786       
213              0.529080249      56.6802735       0.835863139      -31.9328679      0.835863139      -31.9328679      0.529080249      56.6802735       
221.48           0.544060981      55.6893331       0.826226326      -32.9500431      0.826226326      -32.9500431      0.544060981      55.6893331       
229.96           0.558553191      54.7187787       0.816548882      -33.945314       0.816548882      -33.945314       0.558553191      54.7187787       
238.44           0.572566021      53.7685682       0.806847903      -34.918858       0.806847903      -34.918858       0.572566021      53.7685682       
246.92           0.586109416      52.8386036       0.797139281      -35.8708918      0.797139281      -35.8708918      0.586109416      52.8386036       
255.4            0.599193991      51.9287378       0.787437719      -36.8016669      0.787437719      -36.8016669      0.599193991      51.9287378       
263.88           0.611830906      51.0387814       0.777756759      -37.7114658      0.777756759      -37.7114658      0.611830906      51.0387814       
272.36           0.624031748      50.1685074       0.768108816      -38.6005978      0.768108816      -38.6005978      0.624031748      50.1685074       
280.84           0.635808432      49.3176572       0.758505223      -39.4693953      0.758505223      -39.4693953      0.635808432      49.3176572       
289.32           0.647173102      48.4859446       0.748956271      -40.3182105      0.748956271      -40.3182105      0.647173102      48.4859446       
297.8            0.658138048      47.6730604       0.739471265      -41.1474119      0.739471265      -41.1474119      0.658138048      47.6730604       
306.28           0.668715628      46.878676        0.730058566      -41.9573818      0.730058566      -41.9573818      0.668715628      46.878676        
314.76           0.678918206      46.102447        0.720725653      -42.7485129      0.720725653      -42.7485129      0.678918206      46.102447        
323.24           0.688758088      45.3440161       0.711479169      -43.5212064      0.711479169      -43.5212064      0.688758088      45.3440161       
331.72           0.698247472      44.6030161       0.70232498       -44.2758697      0.70232498       -44.2758697      0.698247472      44.6030161       
340.2            0.707398408      43.879072        0.693268221      -45.0129138      0.693268221      -45.0129138      0.707398408      43.879072        
348.68           0.716222756      43.1718037       0.684313352      -45.7327523      0.684313352      -45.7327523      0.716222756      43.1718037       
357.16           0.724732155      42.4808276       0.675464206      -46.4357991      0.675464206      -46.4357991      0.724732155      42.4808276       
365.64           0.732938003      41.8057585       0.666724036      -47.1224674      0.666724036      -47.1224674      0.732938003      41.8057585       
374.12           0.740851425      41.1462112       0.658095561      -47.7931681      0.658095561      -47.7931681      0.740851425      41.1462112       
382.6            0.748483268      40.5018017       0.649581011      -48.4483088      0.649581011      -48.4483088      0.748483268      40.5018017       
391.08           0.75584408       39.8721482       0.641182167      -49.088293       0.641182167      -49.088293       0.75584408       39.8721482       
399.56           0.762944102      39.2568727       0.6329004        -49.713519       0.6329004        -49.713519       0.762944102      39.2568727       
408.04           0.769793265      38.6556014       0.62473671       -50.3243793      0.62473671       -50.3243793      0.769793265      38.6556014       
416.52           0.77640118       38.0679655       0.616691757      -50.9212599      0.616691757      -50.9212599      0.77640118       38.0679655       
425              0.782777144      37.4936018       0.608765895      -51.5045399      0.608765895      -51.5045399      0.782777144      37.4936018       
433.48           0.788930133      36.9321536       0.600959201      -52.0745911      0.600959201      -52.0745911      0.788930133      36.9321536       
441.96           0.794868809      36.3832707       0.593271507      -52.6317776      0.593271507      -52.6317776      0.794868809      36.3832707       
450.44           0.800601521      35.84661         0.585702418      -53.1764554      0.585702418      -53.1764554      0.800601521      35.84661         
458.92           0.806136311      35.3218357       0.578251344      -53.7089724      0.578251344      -53.7089724      0.806136311      35.3218357       
467.4            0.811480916      34.8086194       0.570917515      -54.2296683      0.570917515      -54.2296683      0.811480916      34.8086194       
475.88           0.816642782      34.3066406       0.563700007      -54.7388741      0.563700007      -54.7388741      0.816642782      34.3066406       
484.36           0.821629063      33.8155864       0.556597757      -55.2369126      0.556597757      -55.2369126      0.821629063      33.8155864       
492.84           0.826446632      33.335152        0.54960958       -55.7240979      0.54960958       -55.7240979      0.826446632      33.335152        
501.32           0.83110209       32.8650402       0.542734188      -56.2007358      0.542734188      -56.2007358      0.83110209       32.8650402       
509.8            0.835601774      32.4049619       0.5359702        -56.6671237      0.5359702        -56.6671237      0.835601774      32.4049619       
518.28           0.839951762      31.9546358       0.529316157      -57.1235504      0.529316157      -57.1235504      0.839951762      31.9546358       
526.76           0.844157886      31.5137884       0.522770533      -57.5702967      0.522770533      -57.5702967      0.844157886      31.5137884       
535.24           0.848225738      31.0821537       0.516331749      -58.0076353      0.516331749      -58.0076353      0.848225738      31.0821537       
543.72           0.852160679      30.6594736       0.509998176      -58.4358308      0.509998176      -58.4358308      0.852160679      30.6594736       
552.2            0.855967848      30.2454973       0.50376815       -58.8551398      0.50376815       -58.8551398      0.855967848      30.2454973       
560.68           0.85965217       29.8399814       0.497639977      -59.2658116      0.497639977      -59.2658116      0.85965217       29.8399814       
569.16           0.863218366      29.4426896       0.491611942      -59.6680877      0.491611942      -59.6680877      0.863218366      29.4426896       
577.64           0.866670956      29.0533929       0.485682312      -60.0622023      0.485682312      -60.0622023      0.866670956      29.0533929       
586.12           0.870014275      28.671869        0.479849344      -60.4483823      0.479849344      -60.4483823      0.870014275      28.671869        
594.6            0.873252471      28.2979024       0.474111292      -60.8268478      0.474111292      -60.8268478      0.873252471      28.2979024       
603.08           0.876389523      27.9312842       0.468466408      -61.197812       0.468466408      -61.197812       0.876389523      27.9312842       
611.56           0.879429238      27.5718117       0.462912948      -61.5614814      0.462912948      -61.5614814      0.879429238      27.5718117       
620.04           0.882375266      27.2192888       0.457449175      -61.9180561      0.457449175      -61.9180561      0.882375266      27.2192888       
628.52           0.885231104      26.8735253       0.452073362      -62.26773        0.452073362      -62.26773        0.885231104      26.8735253       
637              0.888000101      26.5343367       0.446783798      -62.6106907      0.446783798      -62.6106907      0.888000101      26.5343367       
645.48           0.890685465      26.2015445       0.441578784      -62.9471202      0.441578784      -62.9471202      0.890685465      26.2015445       
653.96           0.893290271      25.8749757       0.436456642      -63.2771944      0.436456642      -63.2771944      0.893290271      25.8749757       
662.44           0.895817467      25.5544625       0.431415711      -63.601084       0.431415711      -63.601084       0.895817467      25.5544625       
670.92           0.898269875      25.2398426       0.426454353      -63.9189541      0.426454353      -63.9189541      0.898269875      25.2398426       
679.4            0.900650201      24.9309587       0.421570954      -64.2309646      0.421570954      -64.2309646      0.900650201      24.9309587       
687.88           0.902961041      24.6276582       0.416763921      -64.5372705      0.416763921      -64.5372705      0.902961041      24.6276582       
696.36           0.905204881      24.3297935       0.412031687      -64.8380218      0.412031687      -64.8380218      0.905204881      24.3297935       
704.84           0.907384104      24.0372215       0.407372713      -65.1333637      0.407372713      -65.1333637      0.907384104      24.0372215       
713.32           0.909500998      23.7498035       0.402785483      -65.423437       0.402785483      -65.423437       0.909500998      23.7498035       
721.8            0.911557755      23.4674052       0.398268509      -65.7083779      0.398268509      -65.7083779      0.911557755      23.4674052       
730.28           0.913556479      23.1898965       0.393820331      -65.9883186      0.393820331      -65.9883186      0.913556479      23.1898965       
738.76           0.915499187      22.9171512       0.389439515      -66.2633868      0.389439515      -66.2633868      0.915499187      22.9171512       
747.24           0.917387815      22.6490471       0.385124657      -66.5337064      0.385124657      -66.5337064      0.917387815      22.6490471       
755.72           0.919224222      22.3854658       0.380874379      -66.7993976      0.380874379      -66.7993976      0.919224222      22.3854658       
764.2            0.921010191      22.1262924       0.37668733       -67.0605765      0.37668733       -67.0605765      0.921010191      22.1262924       
772.68           0.922747433      21.8714156       0.372562189      -67.3173559      0.372562189      -67.3173559      0.922747433      21.8714156       
781.16           0.924437593      21.6207276       0.368497661      -67.5698449      0.368497661      -67.5698449      0.924437593      21.6207276       
789.64           0.926082249      21.3741238       0.364492478      -67.8181494      0.364492478      -67.8181494      0.926082249      21.3741238       
798.12           0.927682917      21.1315027       0.3605454        -68.062372       0.3605454        -68.062372       0.927682917      21.1315027       
806.6            0.929241055      20.892766        0.356655215      -68.302612       0.356655215      -68.302612       0.929241055      20.892766        
815.08           0.930758061      20.6578183       0.352820734      -68.5389659      0.352820734      -68.5389659      0.930758061      20.6578183       
823.56           0.932235282      20.4265672       0.349040799      -68.7715271      0.349040799      -68.7715271      0.932235282      20.4265672       
832.04           0.93367401       20.1989229       0.345314275      -69.0003862      0.345314275      -69.0003862      0.93367401       20.1989229       
840.52           0.935075488      19.9747984       0.341640052      -69.2256311      0.341640052      -69.2256311      0.935075488      19.9747984       
849              0.936440913      19.7541092       0.338017046      -69.447347       0.338017046      -69.447347       0.936440913      19.7541092       
857.48           0.937771433      19.5367733       0.334444198      -69.6656166      0.334444198      -69.6656166      0.937771433      19.5367733       
865.96           0.939068155      19.3227113       0.330920473      -69.88052        0.330920473      -69.88052        0.939068155      19.3227113       
874.44           0.940332144      19.1118458       0.32744486       -70.092135       0.32744486       -70.092135       0.940332144      19.1118458       
882.92           0.941564424      18.9041021       0.324016371      -70.3005372      0.324016371      -70.3005372      0.941564424      18.9041021       
891.4            0.94276598       18.6994073       0.320634041      -70.5057997      0.320634041      -70.5057997      0.94276598       18.6994073       
899.88           0.943937763      18.4976908       0.317296927      -70.7079937      0.317296927      -70.7079937      0.943937763      18.4976908       
908.36           0.945080686      18.298884        0.314004109      -70.9071881      0.314004109      -70.9071881      0.945080686      18.298884        
916.84           0.94619563       18.1029203       0.310754686      -71.10345        0.310754686      -71.10345        0.94619563       18.1029203       
925.32           0.947283442      17.9097349       0.307547782      -71.2968442      0.307547782      -71.2968442      0.947283442      17.9097349       
933.8            0.948344941      17.719265        0.304382539      -71.487434       0.304382539      -71.487434       0.948344941      17.719265        
942.28           0.949380914      17.5314494       0.301258119      -71.6752807      0.301258119      -71.6752807      0.949380914      17.5314494       
950.76           0.95039212       17.3462289       0.298173704      -71.8604437      0.298173704      -71.8604437      0.95039212       17.3462289       
959.24           0.951379291      17.1635457       0.295128497      -72.042981       0.295128497      -72.042981       0.951379291      17.1635457       
967.72           0.952343133      16.9833437       0.292121716      -72.2229487      0.292121716      -72.2229487      0.952343133      16.9833437       
976.2            0.953284326      16.8055684       0.2891526        -72.4004013      0.2891526        -72.4004013      0.953284326      16.8055684       
984.68           0.954203529      16.6301668       0.286220407      -72.5753919      0.286220407      -72.5753919      0.954203529      16.6301668       
993.16           0.955101373      16.4570873       0.283324409      -72.747972       0.283324409      -72.747972       0.955101373      16.4570873       
1001.64          0.955978472      16.2862798       0.280463898      -72.9181916      0.280463898      -72.9181916      0.955978472      16.2862798       
1010.12          0.956835414      16.1176956       0.27763818       -73.0860994      0.27763818       -73.0860994      0.956835414      16.1176956       
1018.6           0.957672771      15.9512872       0.274846581      -73.2517427      0.274846581      -73.2517427      0.957672771      15.9512872       
1027.08          0.958491092      15.7870084       0.272088438      -73.4151675      0.272088438      -73.4151675      0.958491092      15.7870084       
1035.56          0.959290908      15.6248143       0.269363108      -73.5764185      0.269363108      -73.5764185      0.959290908      15.6248143       
1044.04          0.960072735      15.4646612       0.26666996       -73.735539       0.26666996       -73.735539       0.960072735      15.4646612       
1052.52          0.960837066      15.3065065       0.264008378      -73.8925714      0.264008378      -73.8925714      0.960837066      15.3065065       
1061             0.961584382      15.1503089       0.261377762      -74.0475568      0.261377762      -74.0475568      0.961584382      15.1503089       
1069.48          0.962315147      14.996028        0.258777524      -74.2005351      0.258777524      -74.2005351      0.962315147      14.996028        
1077.96          0.963029807      14.8436245       0.256207091      -74.3515452      0.256207091      -74.3515452      0.963029807      14.8436245       
