! Coilcraft 0603CS-R27 Chip Inductor				
! 21 May 2002			
# MHZ S MA R 50
!Freq             MagS11           AngS11           MagS21           AngS21           MagS12           AngS12           MagS22           AngS22
1                0.0186162577     62.8042964       0.991630043      -0.956769623     0.991630043      -0.956769623     0.0186162577     62.8042964       
4.99             0.0837933235     75.251349        0.98201693       -4.73322287      0.98201693       -4.73322287      0.0837933235     75.251349        
8.98             0.147949951      74.4399004       0.970831773      -8.44208932      0.970831773      -8.44208932      0.147949951      74.4399004       
12.97            0.21004846       72.1620629       0.956783092      -12.0627205      0.956783092      -12.0627205      0.21004846       72.1620629       
16.96            0.269493366      69.4571668       0.939942645      -15.5738705      0.939942645      -15.5738705      0.269493366      69.4571668       
20.95            0.325833948      66.6232989       0.920653276      -18.9574083      0.920653276      -18.9574083      0.325833948      66.6232989       
24.94            0.378759446      63.7857484       0.899355681      -22.199327       0.899355681      -22.199327       0.378759446      63.7857484       
28.93            0.428092535      61.0081011       0.876517166      -25.2899507      0.876517166      -25.2899507      0.428092535      61.0081011       
32.92            0.47377441       58.3255475       0.852591149      -28.2237095      0.852591149      -28.2237095      0.47377441       58.3255475       
36.91            0.515844435      55.7577981       0.827992737      -30.9986636      0.827992737      -30.9986636      0.515844435      55.7577981       
40.9             0.554417836      53.315141        0.80308531       -33.6159023      0.80308531       -33.6159023      0.554417836      53.315141        
44.89            0.589664164      51.001751        0.77817509       -36.0789105      0.77817509       -36.0789105      0.589664164      51.001751        
48.88            0.621788217      48.8177189       0.753511313      -38.3929642      0.753511313      -38.3929642      0.621788217      48.8177189       
52.87            0.651014286      46.7603996       0.72929001       -40.5645935      0.72929001       -40.5645935      0.651014286      46.7603996       
56.86            0.677573858      44.8253516       0.705659812      -42.6011292      0.705659812      -42.6011292      0.677573858      44.8253516       
60.85            0.701696562      43.0070078       0.682728628      -44.5103372      0.682728628      -44.5103372      0.701696562      43.0070078       
64.84            0.723603871      41.2991569       0.660570387      -46.3001349      0.660570387      -46.3001349      0.723603871      41.2991569       
68.83            0.743505044      39.6952882       0.639231368      -47.9783799      0.639231368      -47.9783799      0.743505044      39.6952882       
72.82            0.761594781      38.1888347       0.618735853      -49.552718       0.618735853      -49.552718       0.761594781      38.1888347       
76.81            0.778052146      36.77334         0.599090998      -51.0304811      0.599090998      -51.0304811      0.778052146      36.77334         
80.8             0.793040379      35.4425709       0.580290917      -52.4186216      0.580290917      -52.4186216      0.793040379      35.4425709       
84.79            0.806707308      34.1905868       0.562320034      -53.7236764      0.562320034      -53.7236764      0.806707308      34.1905868       
88.78            0.819186137      33.0117815       0.54515579       -54.9517516      0.54515579       -54.9517516      0.819186137      33.0117815       
92.77            0.830596456      31.9009018       0.528770782      -56.1085223      0.528770782      -56.1085223      0.830596456      31.9009018       
96.76            0.841045347      30.8530524       0.513134445      -57.1992428      0.513134445      -57.1992428      0.841045347      30.8530524       
100.75           0.850628521      29.8636897       0.498214348      -58.2287646      0.498214348      -58.2287646      0.850628521      29.8636897       
104.74           0.85943143       28.9286099       0.483977176      -59.2015571      0.483977176      -59.2015571      0.85943143       28.9286099       
108.73           0.867530323      28.0439314       0.470389471      -60.1217323      0.470389471      -60.1217323      0.867530323      28.0439314       
112.72           0.87499322       27.2060764       0.457418172      -60.993069       0.457418172      -60.993069       0.87499322       27.2060764       
116.71           0.88188082       26.4117501       0.44503101       -61.8190383      0.44503101       -61.8190383      0.88188082       26.4117501       
120.7            0.888247309      25.6579207       0.433196769      -62.6028275      0.433196769      -62.6028275      0.888247309      25.6579207       
124.69           0.894141092      24.9417986       0.421885475      -63.3473634      0.421885475      -63.3473634      0.894141092      24.9417986       
128.68           0.899605453      24.2608181       0.411068502      -64.0553341      0.411068502      -64.0553341      0.899605453      24.2608181       
132.67           0.904679132      23.6126181       0.400718631      -64.7292093      0.400718631      -64.7292093      0.904679132      23.6126181       
136.66           0.909396842      22.9950256       0.390810068      -65.3712597      0.390810068      -65.3712597      0.909396842      22.9950256       
140.65           0.913789726      22.4060395       0.381318436      -65.9835739      0.381318436      -65.9835739      0.913789726      22.4060395       
144.64           0.917885761      21.843816        0.372220746      -66.5680745      0.372220746      -66.5680745      0.917885761      21.843816        
148.63           0.921710113      21.3066551       0.363495351      -67.1265329      0.363495351      -67.1265329      0.921710113      21.3066551       
152.62           0.925285449      20.792988        0.355121894      -67.6605824      0.355121894      -67.6605824      0.925285449      20.792988        
156.61           0.928632218      20.3013658       0.34708125       -68.1717304      0.34708125       -68.1717304      0.928632218      20.3013658       
160.6            0.931768887      19.8304496       0.339355459      -68.6613695      0.339355459      -68.6613695      0.931768887      19.8304496       
164.59           0.934712166      19.3790003       0.331927669      -69.1307874      0.331927669      -69.1307874      0.934712166      19.3790003       
168.58           0.937477187      18.9458708       0.324782065      -69.5811757      0.324782065      -69.5811757      0.937477187      18.9458708       
172.57           0.940077681      18.5299979       0.317903812      -70.0136388      0.317903812      -70.0136388      0.940077681      18.5299979       
176.56           0.94252612       18.1303951       0.31127899       -70.4292007      0.31127899       -70.4292007      0.94252612       18.1303951       
180.55           0.944833848      17.7461464       0.304894541      -70.8288119      0.304894541      -70.8288119      0.944833848      17.7461464       
184.54           0.9470112        17.3764002       0.298738207      -71.2133559      0.298738207      -71.2133559      0.9470112        17.3764002       
188.53           0.949067605      17.0203644       0.292798484      -71.5836543      0.292798484      -71.5836543      0.949067605      17.0203644       
192.52           0.951011673      16.6773012       0.287064568      -71.9404723      0.287064568      -71.9404723      0.951011673      16.6773012       
196.51           0.95285128       16.3465229       0.28152631       -72.2845228      0.28152631       -72.2845228      0.95285128       16.3465229       
200.5            0.954593637      16.0273878       0.27617417       -72.6164709      0.27617417       -72.6164709      0.954593637      16.0273878       
204.49           0.956245359      15.7192966       0.270999182      -72.9369377      0.270999182      -72.9369377      0.956245359      15.7192966       
208.48           0.957812516      15.4216891       0.265992909      -73.2465038      0.265992909      -73.2465038      0.957812516      15.4216891       
212.47           0.95930069       15.1340414       0.26114741       -73.5457121      0.26114741       -73.5457121      0.95930069       15.1340414       
216.46           0.960715017      14.8558626       0.256455209      -73.835071       0.256455209      -73.835071       0.960715017      14.8558626       
220.45           0.96206023       14.5866927       0.25190926       -74.115057       0.25190926       -74.115057       0.96206023       14.5866927       
224.44           0.963340695      14.3261004       0.247502923      -74.386117       0.247502923      -74.386117       0.963340695      14.3261004       
228.43           0.964560442      14.0736804       0.243229934      -74.6486706      0.243229934      -74.6486706      0.964560442      14.0736804       
232.42           0.965723199      13.8290523       0.239084379      -74.9031119      0.239084379      -74.9031119      0.965723199      13.8290523       
236.41           0.966832416      13.591858        0.235060677      -75.1498117      0.235060677      -75.1498117      0.966832416      13.591858        
240.4            0.967891289      13.3617608       0.231153552      -75.3891185      0.231153552      -75.3891185      0.967891289      13.3617608       
244.39           0.968902781      13.1384433       0.227358018      -75.6213611      0.227358018      -75.6213611      0.968902781      13.1384433       
248.38           0.969869644      12.9216066       0.223669355      -75.846849       0.223669355      -75.846849       0.969869644      12.9216066       
252.37           0.970794436      12.7109684       0.220083101      -76.0658743      0.220083101      -76.0658743      0.970794436      12.7109684       
256.36           0.971679535      12.5062626       0.216595025      -76.2787127      0.216595025      -76.2787127      0.971679535      12.5062626       
260.35           0.972527155      12.3072375       0.21320112       -76.4856246      0.21320112       -76.4856246      0.972527155      12.3072375       
264.34           0.97333936       12.1136554       0.209897589      -76.6868561      0.209897589      -76.6868561      0.97333936       12.1136554       
268.33           0.974118076      11.9252913       0.206680827      -76.8826402      0.206680827      -76.8826402      0.974118076      11.9252913       
272.32           0.974865099      11.7419322       0.203547413      -77.0731973      0.203547413      -77.0731973      0.974865099      11.7419322       
276.31           0.975582109      11.5633763       0.200494098      -77.2587362      0.200494098      -77.2587362      0.975582109      11.5633763       
280.3            0.976270676      11.3894326       0.197517798      -77.4394549      0.197517798      -77.4394549      0.976270676      11.3894326       
284.29           0.976932269      11.2199195       0.194615576      -77.6155409      0.194615576      -77.6155409      0.976932269      11.2199195       
288.28           0.977568267      11.0546649       0.191784642      -77.7871726      0.191784642      -77.7871726      0.977568267      11.0546649       
292.27           0.978179958      10.8935054       0.189022339      -77.9545191      0.189022339      -77.9545191      0.978179958      10.8935054       
296.26           0.978768554      10.7362857       0.186326139      -78.117741       0.186326139      -78.117741       0.978768554      10.7362857       
300.25           0.979335192      10.5828579       0.183693631      -78.2769913      0.183693631      -78.2769913      0.979335192      10.5828579       
304.24           0.97988094       10.4330817       0.181122519      -78.4324154      0.181122519      -78.4324154      0.97988094       10.4330817       
308.23           0.980406801      10.2868232       0.178610613      -78.5841516      0.178610613      -78.5841516      0.980406801      10.2868232       
312.22           0.980913722      10.1439551       0.176155824      -78.7323317      0.176155824      -78.7323317      0.980913722      10.1439551       
316.21           0.981402592      10.0043559       0.173756158      -78.8770814      0.173756158      -78.8770814      0.981402592      10.0043559       
320.2            0.981874248      9.86790998       0.17140971       -79.0185202      0.17140971       -79.0185202      0.981874248      9.86790998       
324.19           0.982329483      9.73450686       0.16911466       -79.1567625      0.16911466       -79.1567625      0.982329483      9.73450686       
328.18           0.98276904       9.60404119       0.166869269      -79.2919171      0.166869269      -79.2919171      0.98276904       9.60404119       
332.17           0.983193625      9.47641232       0.164671875      -79.4240882      0.164671875      -79.4240882      0.983193625      9.47641232       
336.16           0.983603902      9.35152412       0.162520885      -79.5533752      0.162520885      -79.5533752      0.983603902      9.35152412       
340.15           0.9840005        9.22928471       0.160414779      -79.6798729      0.160414779      -79.6798729      0.9840005        9.22928471       
344.14           0.984384013      9.1096062        0.158352097      -79.8036724      0.158352097      -79.8036724      0.984384013      9.1096062        
348.13           0.984755005      8.99240452       0.156331442      -79.9248604      0.156331442      -79.9248604      0.984755005      8.99240452       
352.12           0.985114007      8.87759921       0.154351478      -80.0435201      0.154351478      -80.0435201      0.985114007      8.87759921       
356.11           0.985461525      8.7651132        0.152410919      -80.1597311      0.152410919      -80.1597311      0.985461525      8.7651132        
360.1            0.985798038      8.65487267       0.150508536      -80.2735696      0.150508536      -80.2735696      0.985798038      8.65487267       
364.09           0.986123999      8.54680687       0.148643149      -80.3851088      0.148643149      -80.3851088      0.986123999      8.54680687       
368.08           0.986439839      8.44084795       0.146813623      -80.4944187      0.146813623      -80.4944187      0.986439839      8.44084795       
372.07           0.986745966      8.33693083       0.145018872      -80.6015664      0.145018872      -80.6015664      0.986745966      8.33693083       
376.06           0.987042771      8.23499308       0.143257849      -80.7066163      0.143257849      -80.7066163      0.987042771      8.23499308       
380.05           0.987330621      8.13497473       0.14152955       -80.8096305      0.14152955       -80.8096305      0.987330621      8.13497473       
384.04           0.987609868      8.03681822       0.13983301       -80.9106681      0.13983301       -80.9106681      0.987609868      8.03681822       
388.03           0.987880846      7.94046822       0.138167301      -81.0097862      0.138167301      -81.0097862      0.987880846      7.94046822       
392.02           0.988143873      7.84587158       0.13653153       -81.1070397      0.13653153       -81.1070397      0.988143873      7.84587158       
396.01           0.988399252      7.75297717       0.134924838      -81.2024811      0.134924838      -81.2024811      0.988399252      7.75297717       
400              0.988647272      7.66173584       0.133346397      -81.2961612      0.133346397      -81.2961612      0.988647272      7.66173584       
403.99           0.988888207      7.57210028       0.131795412      -81.3881285      0.131795412      -81.3881285      0.988888207      7.57210028       
407.98           0.98912232       7.48402495       0.130271114      -81.4784301      0.130271114      -81.4784301      0.98912232       7.48402495       
411.97           0.989349862      7.39746602       0.128772765      -81.5671108      0.128772765      -81.5671108      0.989349862      7.39746602       
415.96           0.98957107       7.31238127       0.127299653      -81.6542142      0.127299653      -81.6542142      0.98957107       7.31238127       
419.95           0.989786173      7.22873          0.125851091      -81.7397821      0.125851091      -81.7397821      0.989786173      7.22873          
423.94           0.989995389      7.14647302       0.124426416      -81.8238546      0.124426416      -81.8238546      0.989995389      7.14647302       
427.93           0.990198926      7.06557252       0.123024989      -81.9064707      0.123024989      -81.9064707      0.990198926      7.06557252       
431.92           0.990396983      6.98599204       0.121646193      -81.9876676      0.121646193      -81.9876676      0.990396983      6.98599204       
435.91           0.990589751      6.9076964        0.120289434      -82.0674814      0.120289434      -82.0674814      0.990589751      6.9076964        
439.9            0.99077741       6.83065167       0.118954136      -82.145947       0.118954136      -82.145947       0.99077741       6.83065167       
443.89           0.990960137      6.75482508       0.117639744      -82.2230977      0.117639744      -82.2230977      0.990960137      6.75482508       
447.88           0.991138097      6.680185         0.116345721      -82.298966       0.116345721      -82.298966       0.991138097      6.680185         
451.87           0.99131145       6.60670085       0.11507155       -82.373583       0.11507155       -82.373583       0.99131145       6.60670085       
455.86           0.99148035       6.53434312       0.113816729      -82.446979       0.113816729      -82.446979       0.99148035       6.53434312       
459.85           0.991644943      6.46308328       0.112580774      -82.519183       0.112580774      -82.519183       0.991644943      6.46308328       
463.84           0.991805371      6.39289374       0.111363215      -82.5902231      0.111363215      -82.5902231      0.991805371      6.39289374       
467.83           0.991961767      6.32374782       0.1101636        -82.6601264      0.1101636        -82.6601264      0.991961767      6.32374782       
471.82           0.992114263      6.25561973       0.10898149       -82.7289192      0.10898149       -82.7289192      0.992114263      6.25561973       
475.81           0.992262981      6.18848451       0.107816459      -82.7966268      0.107816459      -82.7966268      0.992262981      6.18848451       
479.8            0.992408042      6.122318         0.106668098      -82.8632737      0.106668098      -82.8632737      0.992408042      6.122318         
483.79           0.992549559      6.05709681       0.105536007      -82.9288836      0.105536007      -82.9288836      0.992549559      6.05709681       
487.78           0.992687645      5.99279831       0.104419801      -82.9934794      0.104419801      -82.9934794      0.992687645      5.99279831       
491.77           0.992822403      5.92940057       0.103319106      -83.0570832      0.103319106      -83.0570832      0.992822403      5.92940057       
495.76           0.992953936      5.86688235       0.10223356       -83.1197164      0.10223356       -83.1197164      0.992953936      5.86688235       
499.75           0.993082342      5.80522307       0.101162812      -83.1813997      0.101162812      -83.1813997      0.993082342      5.80522307       
503.74           0.993207716      5.74440278       0.100106522      -83.2421532      0.100106522      -83.2421532      0.993207716      5.74440278       
507.73           0.993330146      5.68440213       0.0990643592     -83.3019963      0.0990643592     -83.3019963      0.993330146      5.68440213       
