! Coilcraft 0603CS-R15 Chip Inductor				
! 21 May 2002			
# MHZ S MA R 50
!Freq             MagS11           AngS11           MagS21           AngS21           MagS12           AngS12           MagS22           AngS22
1                0.0100144724     67.1367773       0.996151792      -0.530757445     0.996151792      -0.530757445     0.0100144724     67.1367773       
5.99             0.0558352791     77.6743962       0.989585571      -3.15988014      0.989585571      -3.15988014      0.0558352791     77.6743962       
10.98            0.101080794      77.4915043       0.983072879      -5.76109252      0.983072879      -5.76109252      0.101080794      77.4915043       
15.97            0.145542703      76.0877828       0.975292547      -8.3287188       0.975292547      -8.3287188       0.145542703      76.0877828       
20.96            0.189010226      74.2775925       0.966069381      -10.8552637      0.966069381      -10.8552637      0.189010226      74.2775925       
25.95            0.23128841       72.2966626       0.95542138       -13.3333413      0.95542138       -13.3333413      0.23128841       72.2966626       
30.94            0.272207409      70.2445446       0.943441158      -15.7561986      0.943441158      -15.7561986      0.272207409      70.2445446       
35.93            0.311626966      68.1728709       0.930258527      -18.1179495      0.930258527      -18.1179495      0.311626966      68.1728709       
40.92            0.349438138      66.1120452       0.916022653      -20.4136853      0.916022653      -20.4136853      0.349438138      66.1120452       
45.91            0.385563106      64.0814408       0.900891183      -22.6395102      0.900891183      -22.6395102      0.385563106      64.0814408       
50.9             0.419953569      62.093966        0.885022734      -24.7925266      0.885022734      -24.7925266      0.419953569      62.093966        
55.89            0.452588157      60.1583711       0.868571471      -26.870783       0.868571471      -26.870783       0.452588157      60.1583711       
60.88            0.483469213      58.280539        0.851683243      -28.8731972      0.851683243      -28.8731972      0.483469213      58.280539        
65.87            0.512619274      56.4642745       0.834492949      -30.7994632      0.834492949      -30.7994632      0.512619274      56.4642745       
70.86            0.540077477      54.7118259       0.817122924      -32.6499512      0.817122924      -32.6499512      0.540077477      54.7118259       
75.85            0.565896105      53.0242533       0.799682139      -34.4256047      0.799682139      -34.4256047      0.565896105      53.0242533       
80.84            0.590137394      51.4017019       0.782266057      -36.1278414      0.782266057      -36.1278414      0.590137394      51.4017019       
85.83            0.612870678      49.8436126       0.764956959      -37.7584594      0.764956959      -37.7584594      0.612870678      49.8436126       
90.82            0.634169922      48.3488884       0.747824622      -39.3195528      0.747824622      -39.3195528      0.634169922      48.3488884       
95.81            0.654111644      46.9160273       0.730927231      -40.8134359      0.730927231      -40.8134359      0.654111644      46.9160273       
100.8            0.672773212      45.5432302       0.714312411      -42.2425771      0.714312411      -42.2425771      0.672773212      45.5432302       
105.79           0.690231483      44.2284872       0.698018327      -43.6095438      0.698018327      -43.6095438      0.690231483      44.2284872       
110.78           0.706561752      42.969648        0.682074784      -44.9169546      0.682074784      -44.9169546      0.706561752      42.969648        
115.77           0.721836961      41.7644776       0.666504286      -46.1674411      0.666504286      -46.1674411      0.721836961      41.7644776       
120.76           0.736127138      40.6107009       0.651323034      -47.363617       0.651323034      -47.363617       0.736127138      40.6107009       
125.75           0.74949901       39.5060379       0.636541851      -48.508053       0.636541851      -48.508053       0.74949901       39.5060379       
130.74           0.762015776      38.4482309       0.62216701       -49.6032587      0.62216701       -49.6032587      0.762015776      38.4482309       
135.73           0.773736988      37.4350652       0.608200976      -50.6516675      0.608200976      -50.6516675      0.773736988      37.4350652       
140.72           0.784718532      36.4643845       0.594643063      -51.6556271      0.594643063      -51.6556271      0.784718532      36.4643845       
145.71           0.795012671      35.5341019       0.581490008      -52.6173923      0.581490008      -52.6173923      0.795012671      35.5341019       
150.7            0.804668146      34.6422083       0.568736463      -53.539121       0.568736463      -53.539121       0.804668146      34.6422083       
155.69           0.813730305      33.7867767       0.55637542       -54.4228716      0.55637542       -54.4228716      0.813730305      33.7867767       
160.68           0.822241263      32.9659651       0.544398575      -55.2706033      0.544398575      -55.2706033      0.822241263      32.9659651       
165.67           0.830240071      32.1780178       0.532796636      -56.0841762      0.532796636      -56.0841762      0.830240071      32.1780178       
170.66           0.837762903      31.4212652       0.521559577      -56.865354       0.521559577      -56.865354       0.837762903      31.4212652       
175.65           0.84484323       30.6941221       0.510676856      -57.6158061      0.510676856      -57.6158061      0.84484323       30.6941221       
180.64           0.851512009      29.9950861       0.500137596      -58.3371112      0.500137596      -58.3371112      0.851512009      29.9950861       
185.63           0.857797851      29.3227347       0.489930728      -59.0307604      0.489930728      -59.0307604      0.857797851      29.3227347       
190.62           0.863727198      28.6757227       0.480045113      -59.6981616      0.480045113      -59.6981616      0.863727198      28.6757227       
195.61           0.86932448       28.0527787       0.470469642      -60.3406429      0.470469642      -60.3406429      0.86932448       28.0527787       
200.6            0.874612268      27.4527019       0.461193312      -60.959457       0.461193312      -60.959457       0.874612268      27.4527019       
205.59           0.87961142       26.8743586       0.452205289      -61.5557849      0.452205289      -61.5557849      0.87961142       26.8743586       
210.58           0.884341212      26.3166789       0.443494956      -62.13074        0.443494956      -62.13074        0.884341212      26.3166789       
215.57           0.888819464      25.778653        0.435051951      -62.6853716      0.435051951      -62.6853716      0.888819464      25.778653        
220.56           0.893062657      25.2593285       0.426866195      -63.2206691      0.426866195      -63.2206691      0.893062657      25.2593285       
225.55           0.897086038      24.7578064       0.41892791       -63.7375649      0.41892791       -63.7375649      0.897086038      24.7578064       
230.54           0.900903718      24.2732387       0.411227634      -64.2369383      0.411227634      -64.2369383      0.900903718      24.2732387       
235.53           0.904528767      23.804825        0.40375623       -64.7196185      0.40375623       -64.7196185      0.904528767      23.804825        
240.52           0.907973294      23.3518098       0.396504888      -65.1863875      0.396504888      -65.1863875      0.907973294      23.3518098       
245.51           0.911248526      22.9134799       0.389465125      -65.6379833      0.389465125      -65.6379833      0.911248526      22.9134799       
250.5            0.914364875      22.4891618       0.382628786      -66.0751023      0.382628786      -66.0751023      0.914364875      22.4891618       
255.49           0.917332008      22.0782193       0.375988036      -66.4984022      0.375988036      -66.4984022      0.917332008      22.0782193       
260.48           0.920158904      21.6800512       0.369535357      -66.9085039      0.369535357      -66.9085039      0.920158904      21.6800512       
265.47           0.922853907      21.2940891       0.363263537      -67.3059943      0.363263537      -67.3059943      0.922853907      21.2940891       
270.46           0.925424776      20.9197958       0.357165663      -67.6914282      0.357165663      -67.6914282      0.925424776      20.9197958       
275.45           0.927878735      20.5566628       0.351235113      -68.06533        0.351235113      -68.06533        0.927878735      20.5566628       
280.44           0.930222509      20.204209        0.345465547      -68.4281962      0.345465547      -68.4281962      0.930222509      20.204209        
285.43           0.932462365      19.8619787       0.33985089       -68.7804963      0.33985089       -68.7804963      0.932462365      19.8619787       
290.42           0.93460415       19.5295406       0.334385334      -69.1226752      0.334385334      -69.1226752      0.93460415       19.5295406       
295.41           0.936653316      19.2064857       0.329063315      -69.4551543      0.329063315      -69.4551543      0.936653316      19.2064857       
300.4            0.938614958      18.8924263       0.323879513      -69.7783329      0.323879513      -69.7783329      0.938614958      18.8924263       
305.39           0.940493834      18.5869948       0.318828834      -70.0925899      0.318828834      -70.0925899      0.940493834      18.5869948       
310.38           0.942294396      18.2898422       0.313906409      -70.3982844      0.313906409      -70.3982844      0.942294396      18.2898422       
315.37           0.944020808      18.0006372       0.309107574      -70.6957576      0.309107574      -70.6957576      0.944020808      18.0006372       
320.36           0.945676969      17.7190652       0.304427869      -70.9853332      0.304427869      -70.9853332      0.945676969      17.7190652       
325.35           0.947266532      17.4448272       0.299863027      -71.267319       0.299863027      -71.267319       0.947266532      17.4448272       
330.34           0.948792923      17.177639        0.295408962      -71.5420073      0.295408962      -71.5420073      0.948792923      17.177639        
335.33           0.950259355      16.9172302       0.291061765      -71.8096763      0.291061765      -71.8096763      0.950259355      16.9172302       
340.32           0.951668844      16.6633436       0.286817691      -72.0705904      0.286817691      -72.0705904      0.951668844      16.6633436       
345.31           0.953024226      16.4157343       0.282673157      -72.3250016      0.282673157      -72.3250016      0.953024226      16.4157343       
350.3            0.954328164      16.174169        0.278624732      -72.5731496      0.278624732      -72.5731496      0.954328164      16.174169        
355.29           0.955583164      15.9384254       0.274669128      -72.8152628      0.274669128      -72.8152628      0.955583164      15.9384254       
360.28           0.956791582      15.7082917       0.270803194      -73.051559       0.270803194      -73.051559       0.956791582      15.7082917       
365.27           0.957955641      15.4835658       0.267023914      -73.2822457      0.267023914      -73.2822457      0.957955641      15.4835658       
370.26           0.959077433      15.2640549       0.263328394      -73.5075212      0.263328394      -73.5075212      0.959077433      15.2640549       
375.25           0.96015893       15.049575        0.259713862      -73.7275743      0.259713862      -73.7275743      0.96015893       15.049575        
380.24           0.961201993      14.8399502       0.256177657      -73.9425855      0.256177657      -73.9425855      0.961201993      14.8399502       
385.23           0.962208379      14.6350128       0.25271723       -74.1527273      0.25271723       -74.1527273      0.962208379      14.6350128       
390.22           0.963179748      14.4346021       0.249330132      -74.3581643      0.249330132      -74.3581643      0.963179748      14.4346021       
395.21           0.964117668      14.2385647       0.246014015      -74.5590541      0.246014015      -74.5590541      0.964117668      14.2385647       
400.2            0.96502362       14.0467539       0.242766624      -74.7555472      0.242766624      -74.7555472      0.96502362       14.0467539       
405.19           0.965899008      13.8590291       0.239585795      -74.9477878      0.239585795      -74.9477878      0.965899008      13.8590291       
410.18           0.966745158      13.675256        0.236469447      -75.1359137      0.236469447      -75.1359137      0.966745158      13.675256        
415.17           0.967563328      13.4953056       0.233415584      -75.320057       0.233415584      -75.320057       0.967563328      13.4953056       
420.16           0.96835471       13.3190547       0.230422286      -75.5003442      0.230422286      -75.5003442      0.96835471       13.3190547       
425.15           0.969120432      13.1463848       0.227487708      -75.6768965      0.227487708      -75.6768965      0.969120432      13.1463848       
430.14           0.969861565      12.9771827       0.224610075      -75.8498301      0.224610075      -75.8498301      0.969861565      12.9771827       
435.13           0.970579127      12.8113395       0.22178768       -76.0192564      0.22178768       -76.0192564      0.970579127      12.8113395       
440.12           0.971274081      12.6487509       0.219018883      -76.1852823      0.219018883      -76.1852823      0.971274081      12.6487509       
445.11           0.971947344      12.4893166       0.216302103      -76.3480103      0.216302103      -76.3480103      0.971947344      12.4893166       
450.1            0.972599788      12.3329405       0.21363582       -76.507539       0.21363582       -76.507539       0.972599788      12.3329405       
455.09           0.973232241      12.17953         0.211018569      -76.6639627      0.211018569      -76.6639627      0.973232241      12.17953         
460.08           0.97384549       12.0289965       0.208448941      -76.8173725      0.208448941      -76.8173725      0.97384549       12.0289965       
465.07           0.974440285      11.8812545       0.205925577      -76.9678555      0.205925577      -76.9678555      0.974440285      11.8812545       
470.06           0.97501734       11.7362219       0.203447167      -77.1154956      0.203447167      -77.1154956      0.97501734       11.7362219       
475.05           0.975577334      11.5938198       0.201012451      -77.2603735      0.201012451      -77.2603735      0.975577334      11.5938198       
480.04           0.976120916      11.4539721       0.198620212      -77.4025668      0.198620212      -77.4025668      0.976120916      11.4539721       
485.03           0.976648702      11.3166058       0.196269276      -77.54215        0.196269276      -77.54215        0.976648702      11.3166058       
490.02           0.977161282      11.1816503       0.193958513      -77.6791951      0.193958513      -77.6791951      0.977161282      11.1816503       
495.01           0.977659218      11.049038        0.191686829      -77.8137712      0.191686829      -77.8137712      0.977659218      11.049038        
500              0.978143045      10.9187033       0.189453171      -77.9459449      0.189453171      -77.9459449      0.978143045      10.9187033       
504.99           0.978613277      10.7905833       0.187256523      -78.0757803      0.187256523      -78.0757803      0.978613277      10.7905833       
509.98           0.979070401      10.6646173       0.1850959        -78.2033392      0.1850959        -78.2033392      0.979070401      10.6646173       
514.97           0.979514885      10.5407468       0.182970355      -78.3286813      0.182970355      -78.3286813      0.979514885      10.5407468       
519.96           0.979947177      10.4189151       0.180878971      -78.4518639      0.180878971      -78.4518639      0.979947177      10.4189151       
524.95           0.980367703      10.2990679       0.178820861      -78.5729423      0.178820861      -78.5729423      0.980367703      10.2990679       
529.94           0.980776873      10.1811524       0.17679517       -78.6919701      0.17679517       -78.6919701      0.980776873      10.1811524       
534.93           0.981175077      10.065118        0.174801069      -78.8089986      0.174801069      -78.8089986      0.981175077      10.065118        
539.92           0.98156269       9.95091545       0.172837759      -78.9240777      0.172837759      -78.9240777      0.98156269       9.95091545       
544.91           0.98194007       9.83849747       0.170904463      -79.0372553      0.170904463      -79.0372553      0.98194007       9.83849747       
549.9            0.982307562      9.72781823       0.169000434      -79.1485777      0.169000434      -79.1485777      0.982307562      9.72781823       
554.89           0.982665495      9.61883347       0.167124946      -79.2580897      0.167124946      -79.2580897      0.982665495      9.61883347       
559.88           0.983014184      9.5115004        0.165277296      -79.3658345      0.165277296      -79.3658345      0.983014184      9.5115004        
564.87           0.983353932      9.40577762       0.163456807      -79.4718538      0.163456807      -79.4718538      0.983353932      9.40577762       
569.86           0.98368503       9.30162511       0.161662818      -79.5761879      0.161662818      -79.5761879      0.98368503       9.30162511       
574.85           0.984007756      9.19900413       0.159894694      -79.6788758      0.159894694      -79.6788758      0.984007756      9.19900413       
579.84           0.984322378      9.09787721       0.158151816      -79.7799552      0.158151816      -79.7799552      0.984322378      9.09787721       
584.83           0.984629153      8.99820804       0.156433586      -79.8794624      0.156433586      -79.8794624      0.984629153      8.99820804       
589.82           0.984928328      8.8999615        0.154739423      -79.9774328      0.154739423      -79.9774328      0.984928328      8.8999615        
594.81           0.98522014       8.80310356       0.153068766      -80.0739003      0.153068766      -80.0739003      0.98522014       8.80310356       
599.8            0.985504817      8.70760125       0.151421069      -80.1688979      0.151421069      -80.1688979      0.985504817      8.70760125       
604.79           0.985782578      8.61342263       0.149795804      -80.2624574      0.149795804      -80.2624574      0.985782578      8.61342263       
609.78           0.986053634      8.52053675       0.148192456      -80.3546097      0.148192456      -80.3546097      0.986053634      8.52053675       
614.77           0.986318187      8.42891359       0.146610529      -80.4453847      0.146610529      -80.4453847      0.986318187      8.42891359       
619.76           0.986576432      8.33852405       0.14504954       -80.5348111      0.14504954       -80.5348111      0.986576432      8.33852405       
624.75           0.986828559      8.24933992       0.143509018      -80.622917       0.143509018      -80.622917       0.986828559      8.24933992       
629.74           0.987074746      8.16133382       0.14198851       -80.7097293      0.14198851       -80.7097293      0.987074746      8.16133382       
634.73           0.987315168      8.07447919       0.140487573      -80.7952743      0.140487573      -80.7952743      0.987315168      8.07447919       
