! Coilcraft 0603CS-51N Chip Inductor				
! 1 August 2002			
# MHZ S MA R 50
!Freq             MagS11           AngS11           MagS21           AngS21           MagS12           AngS12           MagS22           AngS22
1                0.00344252763    68.196871        0.998726496      -0.183366514     0.998726496      -0.183366514     0.00344252763    68.196871        
10.47            0.0336254642     81.4791847       0.995573297      -1.91415949      0.995573297      -1.91415949      0.0336254642     81.4791847       
19.94            0.0636521829     81.5994541       0.992700052      -3.63684519      0.992700052      -3.63684519      0.0636521829     81.5994541       
29.41            0.0934565077     80.7374645       0.989266839      -5.34995423      0.989266839      -5.34995423      0.0934565077     80.7374645       
38.88            0.122972531      79.5512607       0.985149069      -7.05120868      0.985149069      -7.05120868      0.122972531      79.5512607       
48.35            0.152134374      78.2184079       0.980315665      -8.73819854      0.980315665      -8.73819854      0.152134374      78.2184079       
57.82            0.180878703      76.8106132       0.974769064      -10.4085375      0.974769064      -10.4085375      0.180878703      76.8106132       
67.29            0.209146129      75.3638107       0.968528674      -12.0599327      0.968528674      -12.0599327      0.209146129      75.3638107       
76.76            0.23688211       73.8987126       0.961624223      -13.6902258      0.961624223      -13.6902258      0.23688211       73.8987126       
86.23            0.264037546      72.4284962       0.954092335      -15.2974192      0.954092335      -15.2974192      0.264037546      72.4284962       
95.7             0.290569168      70.9621706       0.945974395      -16.8796936      0.945974395      -16.8796936      0.290569168      70.9621706       
105.17           0.316439736      69.5062269       0.937315033      -18.4354194      0.937315033      -18.4354194      0.316439736      69.5062269       
114.64           0.341618094      68.0655195       0.928160934      -19.9631628      0.928160934      -19.9631628      0.341618094      68.0655195       
124.11           0.366079099      66.6437707       0.918559869      -21.4616872      0.918559869      -21.4616872      0.366079099      66.6437707       
133.58           0.389803429      65.243877        0.908559878      -22.9299517      0.908559878      -22.9299517      0.389803429      65.243877        
143.05           0.412777319      63.8681057       0.898208582      -24.3671059      0.898208582      -24.3671059      0.412777319      63.8681057       
152.52           0.434992214      62.518227        0.887552609      -25.7724829      0.887552609      -25.7724829      0.434992214      62.518227        
161.99           0.456444377      61.1956073       0.876637113      -27.1455897      0.876637113      -27.1455897      0.456444377      61.1956073       
171.46           0.477134462      59.9012783       0.865505403      -28.4860962      0.865505403      -28.4860962      0.477134461      59.9012783       
180.93           0.497067064      58.6359895       0.854198637      -29.793824       0.854198637      -29.793824       0.497067064      58.6359895       
190.4            0.516250273      57.400251        0.842755614      -31.0687329      0.842755614      -31.0687329      0.516250273      57.400251        
199.87           0.534695216      56.1943678       0.831212617      -32.310909       0.831212617      -32.310909       0.534695216      56.1943678       
209.34           0.552415632      55.0184693       0.81960333       -33.5205512      0.81960333       -33.5205512      0.552415632      55.0184693       
218.81           0.56942745       53.872534        0.807958804      -34.6979586      0.807958804      -34.6979586      0.56942745       53.872534        
228.28           0.585748408      52.7564116       0.796307462      -35.8435183      0.796307462      -35.8435183      0.585748408      52.7564116       
237.75           0.601397691      51.6698421       0.784675149      -36.9576937      0.784675149      -36.9576937      0.601397691      51.6698421       
247.22           0.616395603      50.6124727       0.773085208      -38.0410136      0.773085208      -38.0410136      0.616395603      50.6124727       
256.69           0.630763278      49.5838726       0.761558576      -39.0940613      0.761558576      -39.0940613      0.630763278      49.5838726       
266.16           0.644522413      48.5835464       0.750113902      -40.117466       0.750113902      -40.117466       0.644522413      48.5835464       
275.63           0.657695041      47.6109457       0.738767674      -41.1118931      0.738767674      -41.1118931      0.657695041      47.6109457       
285.1            0.670303325      46.6654796       0.727534358      -42.0780371      0.727534358      -42.0780371      0.670303325      46.6654796       
294.57           0.682369393      45.7465237       0.71642653       -43.0166141      0.71642653       -43.0166141      0.682369393      45.7465237       
304.04           0.693915184      44.853428        0.705455025      -43.9283554      0.705455025      -43.9283554      0.693915184      44.853428        
313.51           0.70496233       43.9855243       0.694629072      -44.8140023      0.694629072      -44.8140023      0.70496233       43.9855243       
322.98           0.715532054      43.1421318       0.683956429      -45.6743006      0.683956429      -45.6743006      0.715532054      43.1421318       
332.45           0.725645089      42.3225628       0.673443516      -46.5099967      0.673443516      -46.5099967      0.725645089      42.3225628       
341.92           0.735321607      41.5261268       0.663095538      -47.321834       0.663095538      -47.321834       0.735321607      41.5261268       
351.39           0.744581179      40.7521349       0.652916606      -48.1105493      0.652916606      -48.1105493      0.744581179      40.7521349       
360.86           0.753442731      39.9999025       0.642909843      -48.8768703      0.642909843      -48.8768703      0.753442731      39.9999025       
370.33           0.76192452       39.2687527       0.633077494      -49.6215135      0.633077494      -49.6215135      0.76192452       39.2687527       
379.8            0.770044119      38.5580182       0.623421014      -50.3451821      0.623421014      -50.3451821      0.770044119      38.5580182       
389.27           0.777818407      37.8670431       0.613941167      -51.0485648      0.613941167      -51.0485648      0.777818407      37.8670431       
398.74           0.785263573      37.195185        0.604638096      -51.732334       0.604638096      -51.732334       0.785263573      37.195185        
408.21           0.792395112      36.5418155       0.595511407      -52.3971455      0.595511407      -52.3971455      0.792395112      36.5418155       
417.68           0.799227844      35.9063219       0.586560232      -53.0436375      0.586560232      -53.0436375      0.799227844      35.9063219       
427.15           0.80577592       35.2881074       0.577783292      -53.67243        0.577783292      -53.67243        0.80577592       35.2881074       
436.62           0.81205284       34.6865918       0.569178952      -54.2841248      0.569178952      -54.2841248      0.81205284       34.6865918       
446.09           0.818071472      34.1012118       0.560745273      -54.8793049      0.560745273      -54.8793049      0.818071472      34.1012118       
455.56           0.823844071      33.5314213       0.552480054      -55.4585349      0.552480054      -55.4585349      0.823844071      33.5314213       
465.03           0.829382302      32.9766914       0.544380879      -56.0223606      0.544380879      -56.0223606      0.829382302      32.9766914       
474.5            0.834697258      32.4365104       0.536445145      -56.5713096      0.536445145      -56.5713096      0.834697258      32.4365104       
483.97           0.839799488      31.9103834       0.5286701        -57.1058914      0.5286701        -57.1058914      0.839799488      31.9103834       
493.44           0.844699016      31.3978326       0.521052873      -57.6265975      0.521052873      -57.6265975      0.844699016      31.3978326       
502.91           0.849405363      30.8983967       0.513590492      -58.133902       0.513590492      -58.133902       0.849405363      30.8983967       
512.38           0.853927575      30.4116306       0.506279916      -58.6282618      0.506279916      -58.6282618      0.853927575      30.4116306       
521.85           0.858274238      29.9371049       0.499118049      -59.1101172      0.499118049      -59.1101172      0.858274238      29.9371049       
531.32           0.862453504      29.4744062       0.492101757      -59.5798922      0.492101757      -59.5798922      0.862453504      29.4744062       
540.79           0.866473112      29.0231356       0.485227889      -60.0379953      0.485227889      -60.0379953      0.866473112      29.0231356       
550.26           0.870340406      28.5829094       0.478493284      -60.4848193      0.478493284      -60.4848193      0.870340406      28.5829094       
559.73           0.874062359      28.1533576       0.471894787      -60.9207426      0.471894787      -60.9207426      0.874062359      28.1533576       
569.2            0.877645586      27.7341245       0.465429256      -61.3461291      0.465429256      -61.3461291      0.877645586      27.7341245       
578.67           0.881096368      27.3248672       0.459093572      -61.7613289      0.459093572      -61.7613289      0.881096368      27.3248672       
588.14           0.884420665      26.9252562       0.45288465       -62.1666789      0.45288465       -62.1666789      0.884420665      26.9252562       
597.61           0.887624137      26.5349739       0.446799437      -62.5625029      0.446799437      -62.5625029      0.887624137      26.5349739       
607.08           0.890712156      26.1537151       0.440834926      -62.9491126      0.440834926      -62.9491126      0.890712156      26.1537151       
616.55           0.893689822      25.7811859       0.434988155      -63.3268078      0.434988155      -63.3268078      0.893689822      25.7811859       
626.02           0.89656198       25.4171036       0.429256212      -63.6958765      0.429256212      -63.6958765      0.89656198       25.4171036       
635.49           0.899333231      25.0611961       0.423636241      -64.0565961      0.423636241      -64.0565961      0.899333231      25.0611961       
644.96           0.902007946      24.7132017       0.418125438      -64.4092333      0.418125438      -64.4092333      0.902007946      24.7132017       
654.43           0.904590277      24.3728685       0.412721061      -64.7540445      0.412721061      -64.7540445      0.904590277      24.3728685       
663.9            0.907084172      24.0399541       0.407420422      -65.0912765      0.407420422      -65.0912765      0.907084172      24.0399541       
673.37           0.909493383      23.7142252       0.402220898      -65.4211666      0.402220898      -65.4211666      0.909493383      23.7142252       
682.84           0.911821478      23.3954574       0.397119923      -65.7439433      0.397119923      -65.7439433      0.911821478      23.3954574       
692.31           0.914071848      23.0834345       0.392114995      -66.0598264      0.392114995      -66.0598264      0.914071848      23.0834345       
701.78           0.916247721      22.7779485       0.387203672      -66.3690274      0.387203672      -66.3690274      0.916247721      22.7779485       
711.25           0.918352168      22.4787991       0.382383571      -66.6717497      0.382383571      -66.6717497      0.918352168      22.4787991       
720.72           0.920388112      22.1857935       0.377652374      -66.9681895      0.377652374      -66.9681895      0.920388112      22.1857935       
730.19           0.922358335      21.8987458       0.373007818      -67.2585353      0.373007818      -67.2585353      0.922358335      21.8987458       
739.66           0.924265488      21.6174771       0.368447703      -67.5429689      0.368447703      -67.5429689      0.924265488      21.6174771       
749.13           0.926112094      21.3418152       0.363969886      -67.8216651      0.363969886      -67.8216651      0.926112094      21.3418152       
758.6            0.927900559      21.071594        0.359572283      -68.0947926      0.359572283      -68.0947926      0.927900559      21.071594        
768.07           0.929633174      20.8066534       0.355252865      -68.3625137      0.355252865      -68.3625137      0.929633174      20.8066534       
777.54           0.931312125      20.5468392       0.351009659      -68.6249847      0.351009659      -68.6249847      0.931312125      20.5468392       
787.01           0.932939496      20.2920027       0.346840748      -68.8823565      0.346840748      -68.8823565      0.932939496      20.2920027       
796.48           0.934517275      20.0420005       0.342744267      -69.1347744      0.342744267      -69.1347744      0.934517275      20.0420005       
805.95           0.93604736       19.7966944       0.338718403      -69.3823785      0.338718403      -69.3823785      0.93604736       19.7966944       
815.42           0.93753156       19.555951        0.334761395      -69.6253039      0.334761395      -69.6253039      0.93753156       19.555951        
824.89           0.938971604      19.3196417       0.330871531      -69.8636808      0.330871531      -69.8636808      0.938971604      19.3196417       
834.36           0.940369144      19.0876423       0.327047147      -70.0976349      0.327047147      -70.0976349      0.940369144      19.0876423       
843.83           0.941725757      18.8598331       0.323286626      -70.3272876      0.323286626      -70.3272876      0.941725757      18.8598331       
853.3            0.943042951      18.6360984       0.3195884        -70.5527557      0.3195884        -70.5527557      0.943042951      18.6360984       
862.77           0.944322165      18.4163265       0.315950942      -70.7741522      0.315950942      -70.7741522      0.944322165      18.4163265       
872.24           0.945564779      18.2004096       0.31237277       -70.9915861      0.31237277       -70.9915861      0.945564779      18.2004096       
881.71           0.946772109      17.9882435       0.308852445      -71.2051627      0.308852445      -71.2051627      0.946772109      17.9882435       
891.18           0.947945417      17.7797277       0.305388567      -71.4149835      0.305388567      -71.4149835      0.947945417      17.7797277       
900.65           0.949085909      17.5747649       0.301979779      -71.6211469      0.301979779      -71.6211469      0.949085909      17.5747649       
910.12           0.95019474       17.3732611       0.29862476       -71.8237477      0.29862476       -71.8237477      0.95019474       17.3732611       
919.59           0.951273016      17.1751256       0.295322228      -72.0228774      0.295322228      -72.0228774      0.951273016      17.1751256       
929.06           0.952321797      16.9802705       0.292070937      -72.2186246      0.292070937      -72.2186246      0.952321797      16.9802705       
938.53           0.953342098      16.7886108       0.288869677      -72.4110751      0.288869677      -72.4110751      0.953342098      16.7886108       
948              0.954334892      16.6000645       0.285717271      -72.6003115      0.285717271      -72.6003115      0.954334892      16.6000645       
957.47           0.955301111      16.4145521       0.282612578      -72.786414       0.282612578      -72.786414       0.955301111      16.4145521       
966.94           0.95624165       16.2319967       0.279554487      -72.9694598      0.279554487      -72.9694598      0.95624165       16.2319967       
976.41           0.957157366      16.0523238       0.276541918      -73.149524       0.276541918      -73.149524       0.957157366      16.0523238       
985.88           0.958049084      15.8754614       0.273573823      -73.3266789      0.273573823      -73.3266789      0.958049084      15.8754614       
995.35           0.958917592      15.7013397       0.270649184      -73.5009947      0.270649184      -73.5009947      0.958917592      15.7013397       
1004.82          0.95976365       15.5298912       0.267767009      -73.6725392      0.267767009      -73.6725392      0.95976365       15.5298912       
1014.29          0.960587985      15.3610505       0.264926335      -73.8413782      0.264926335      -73.8413782      0.960587985      15.3610505       
1023.76          0.961391297      15.1947542       0.262126227      -74.0075751      0.262126227      -74.0075751      0.961391297      15.1947542       
1033.23          0.962174259      15.0309408       0.259365773      -74.1711917      0.259365773      -74.1711917      0.962174259      15.0309408       
1042.7           0.962937516      14.8695509       0.25664409       -74.3322875      0.25664409       -74.3322875      0.962937516      14.8695509       
1052.17          0.963681688      14.7105266       0.253960316      -74.4909204      0.253960316      -74.4909204      0.963681688      14.7105266       
1061.64          0.964407374      14.5538121       0.251313614      -74.6471462      0.251313614      -74.6471462      0.964407374      14.5538121       
1071.11          0.965115147      14.3993531       0.248703171      -74.8010193      0.248703171      -74.8010193      0.965115147      14.3993531       
1080.58          0.965805559      14.247097        0.246128195      -74.9525922      0.246128195      -74.9525922      0.965805559      14.247097        
1090.05          0.966479143      14.0969927       0.243587914      -75.1019159      0.243587914      -75.1019159      0.966479143      14.0969927       
1099.52          0.967136409      13.9489907       0.24108158       -75.2490397      0.24108158       -75.2490397      0.967136409      13.9489907       
1108.99          0.96777785       13.8030429       0.238608463      -75.3940115      0.238608463      -75.3940115      0.96777785       13.8030429       
1118.46          0.968403941      13.6591027       0.236167854      -75.5368777      0.236167854      -75.5368777      0.968403941      13.6591027       
1127.93          0.969015138      13.5171248       0.233759062      -75.6776835      0.233759062      -75.6776835      0.969015138      13.5171248       
1137.4           0.969611882      13.3770652       0.231381414      -75.8164725      0.231381414      -75.8164725      0.969611882      13.3770652       
1146.87          0.970194597      13.2388811       0.229034257      -75.9532869      0.229034257      -75.9532869      0.970194597      13.2388811       
1156.34          0.970763691      13.1025312       0.226716951      -76.088168       0.226716951      -76.088168       0.970763691      13.1025312       
1165.81          0.97131956       12.967975        0.224428878      -76.2211557      0.224428878      -76.2211557      0.97131956       12.967975        
1175.28          0.971862582      12.8351735       0.222169433      -76.3522886      0.222169433      -76.3522886      0.971862582      12.8351735       
1184.75          0.972393125      12.7040885       0.219938028      -76.4816043      0.219938028      -76.4816043      0.972393125      12.7040885       
1194.22          0.972911542      12.574683        0.217734088      -76.6091393      0.217734088      -76.6091393      0.972911542      12.574683        
1203.69          0.973418175      12.4469212       0.215557057      -76.734929       0.215557057      -76.734929       0.973418175      12.4469212       
