! Coilcraft 0603CS-R22 Chip Inductor				
! 21 May 2002			
# MHZ S MA R 50
!Freq             MagS11           AngS11           MagS21           AngS21           MagS12           AngS12           MagS22           AngS22
1                0.0150020073     64.9267386       0.993735405      -0.783485761     0.993735405      -0.783485761     0.0150020073     64.9267386       
5.24             0.0720511947     76.4373187       0.985595286      -4.07519702      0.985595286      -4.07519702      0.0720511947     76.4373187       
9.48             0.128309252      75.8489206       0.976588596      -7.31927041      0.976588596      -7.31927041      0.128309252      75.8489206       
13.72            0.183148247      73.9125618       0.965422734      -10.5025248      0.965422734      -10.5025248      0.183148247      73.9125618       
17.96            0.236155638      71.5601345       0.952036289      -13.6103205      0.952036289      -13.6103205      0.236155638      71.5601345       
22.2             0.286991713      69.0594338       0.936601807      -16.6293755      0.936601807      -16.6293755      0.286991713      69.0594338       
26.44            0.335393757      66.5235          0.919383165      -19.548576       0.919383165      -19.548576       0.335393757      66.5235          
30.68            0.381177871      64.0106596       0.900682681      -22.3592728      0.900682681      -22.3592728      0.381177871      64.0106596       
34.92            0.424235445      61.5544976       0.880812019      -25.0553137      0.880812019      -25.0553137      0.424235445      61.5544976       
39.16            0.464525549      59.1753315       0.86007352       -27.6329091      0.86007352       -27.6329091      0.464525549      59.1753315       
43.4             0.502064849      56.8854483       0.838748052      -30.0903927      0.838748052      -30.0903927      0.502064849      56.8854483       
47.64            0.536916495      54.6918606       0.817087662      -32.4279252      0.817087662      -32.4279252      0.536916495      54.6918606       
51.88            0.569179107      52.5979391       0.795311922      -34.6471759      0.795311922      -34.6471759      0.569179107      52.5979391       
56.12            0.598976627      50.6044761       0.77360703       -36.7510105      0.77360703       -36.7510105      0.598976627      50.6044761       
60.36            0.626449486      48.7104261       0.752126879      -38.743201       0.752126879      -38.743201       0.626449486      48.7104261       
64.6             0.651747279      46.9134462       0.730995386      -40.6281696      0.730995386      -40.6281696      0.651747279      46.9134462       
68.84            0.675022946      45.210299        0.710309556      -42.4107701      0.710309556      -42.4107701      0.675022946      45.210299        
73.08            0.69642834       43.5971579       0.690142864      -44.0961072      0.690142864      -44.0961072      0.69642834       43.5971579       
77.32            0.716110996      42.0698369       0.670548654      -45.6893925      0.670548654      -45.6893925      0.716110996      42.0698369       
81.56            0.734211914      40.6239641       0.651563381      -47.1958317      0.651563381      -47.1958317      0.734211914      40.6239641       
85.8             0.750864136      39.25511         0.633209577      -48.6205395      0.633209577      -48.6205395      0.750864136      39.25511         
90.04            0.766191954      37.9588816       0.615498473      -49.9684784      0.615498473      -49.9684784      0.766191954      37.9588816       
94.28            0.780310576      36.7309896       0.598432285      -51.2444153      0.598432285      -51.2444153      0.780310576      36.7309896       
98.52            0.79332614       35.5672941       0.582006158      -52.4528937      0.582006158      -52.4528937      0.79332614       35.5672941       
102.76           0.805335955      34.4638355       0.566209794      -53.5982173      0.566209794      -53.5982173      0.805335955      34.4638355       
107              0.816428906      33.4168522       0.551028801      -54.6844428      0.551028801      -54.6844428      0.816428906      33.4168522       
111.24           0.826685947      32.4227903       0.536445796      -55.7153791      0.536445796      -55.7153791      0.826685947      32.4227903       
115.48           0.836180652      31.4783059       0.522441303      -56.6945912      0.522441303      -56.6945912      0.836180652      31.4783059       
119.72           0.844979783      30.5802632       0.508994462      -57.6254084      0.508994462      -57.6254084      0.844979783      30.5802632       
123.96           0.853143856      29.725729        0.496083601      -58.5109334      0.496083601      -58.5109334      0.853143856      29.725729        
128.2            0.860727684      28.911965        0.483686679      -59.3540543      0.483686679      -59.3540543      0.860727684      28.911965        
132.44           0.867780899      28.1364182       0.47178163       -60.1574562      0.47178163       -60.1574562      0.867780899      28.1364182       
136.68           0.874348439      27.3967117       0.460346627      -60.9236342      0.460346627      -60.9236342      0.874348439      27.3967117       
140.92           0.880470997      26.6906333       0.449360273      -61.6549052      0.449360273      -61.6549052      0.880470997      26.6906333       
145.16           0.886185432      26.016126        0.438801753      -62.3534207      0.438801753      -62.3534207      0.886185432      26.016126        
149.4            0.891525149      25.3712768       0.42865093       -63.0211781      0.42865093       -63.0211781      0.891525149      25.3712768       
153.64           0.896520442      24.7543074       0.418888413      -63.6600321      0.418888413      -63.6600321      0.896520442      24.7543074       
157.88           0.9011988        24.163564        0.409495604      -64.2717053      0.409495604      -64.2717053      0.9011988        24.163564        
162.12           0.905585191      23.597509        0.400454716      -64.8577979      0.400454716      -64.8577979      0.905585191      23.597509        
166.36           0.909702309      23.0547116       0.391748781      -65.4197974      0.391748781      -65.4197974      0.909702309      23.0547116       
170.6            0.913570805      22.5338404       0.383361644      -65.959087       0.383361644      -65.959087       0.913570805      22.5338404       
174.84           0.917209483      22.033656        0.37527795       -66.4769535      0.37527795       -66.4769535      0.917209483      22.033656        
179.08           0.92063549       21.5530035       0.367483122      -66.974595       0.367483122      -66.974595       0.92063549       21.5530035       
183.32           0.923864471      21.0908066       0.359963337      -67.4531276      0.359963337      -67.4531276      0.923864471      21.0908066       
187.56           0.926910722      20.6460614       0.352705496      -67.9135916      0.352705496      -67.9135916      0.926910722      20.6460614       
191.8            0.929787313      20.2178309       0.345697194      -68.3569575      0.345697194      -68.3569575      0.929787313      20.2178309       
196.04           0.932506215      19.8052404       0.338926689      -68.7841313      0.338926689      -68.7841313      0.932506215      19.8052404       
200.28           0.935078395      19.4074721       0.332382871      -69.1959593      0.332382871      -69.1959593      0.935078395      19.4074721       
204.52           0.937513918      19.0237613       0.326055227      -69.5932327      0.326055227      -69.5932327      0.937513918      19.0237613       
208.76           0.939822027      18.6533924       0.319933813      -69.9766918      0.319933813      -69.9766918      0.939822027      18.6533924       
213              0.942011221      18.2956952       0.314009223      -70.3470295      0.314009223      -70.3470295      0.942011221      18.2956952       
217.24           0.944089324      17.9500416       0.308272557      -70.7048952      0.308272557      -70.7048952      0.944089324      17.9500416       
221.48           0.946063543      17.6158425       0.302715394      -71.0508979      0.302715394      -71.0508979      0.946063543      17.6158425       
225.72           0.947940527      17.2925449       0.297329766      -71.385609       0.297329766      -71.385609       0.947940527      17.2925449       
229.96           0.949726413      16.9796295       0.29210813       -71.7095649      0.29210813       -71.7095649      0.949726413      16.9796295       
234.2            0.951426876      16.6766082       0.287043347      -72.02327        0.287043347      -72.02327        0.951426876      16.6766082       
238.44           0.953047163      16.3830217       0.282128653      -72.3271985      0.282128653      -72.3271985      0.953047163      16.3830217       
242.68           0.954592136      16.0984379       0.277357643      -72.6217967      0.277357643      -72.6217967      0.954592136      16.0984379       
246.92           0.9560663        15.8224496       0.272724243      -72.907485       0.272724243      -72.907485       0.9560663        15.8224496       
251.16           0.957473836      15.5546732       0.2682227        -73.1846595      0.2682227        -73.1846595      0.957473836      15.5546732       
255.4            0.958818625      15.2947466       0.263847554      -73.453694       0.263847554      -73.453694       0.958818625      15.2947466       
259.64           0.960104278      15.0423281       0.259593627      -73.7149409      0.259593627      -73.7149409      0.960104278      15.0423281       
263.88           0.961334151      14.7970952       0.255456004      -73.9687334      0.255456004      -73.9687334      0.961334151      14.7970952       
268.12           0.962511372      14.5587428       0.251430017      -74.2153863      0.251430017      -74.2153863      0.962511372      14.5587428       
272.36           0.963638855      14.3269824       0.247511233      -74.4551971      0.247511233      -74.4551971      0.963638855      14.3269824       
276.6            0.964719319      14.101541        0.243695439      -74.6884476      0.243695439      -74.6884476      0.964719319      14.101541        
280.84           0.965755302      13.8821601       0.239978629      -74.9154045      0.239978629      -74.9154045      0.965755302      13.8821601       
285.08           0.966749175      13.6685948       0.236356995      -75.1363204      0.236356995      -75.1363204      0.966749175      13.6685948       
289.32           0.967703157      13.4606128       0.23282691       -75.351435       0.23282691       -75.351435       0.967703157      13.4606128       
293.56           0.968619324      13.2579938       0.229384923      -75.5609755      0.229384923      -75.5609755      0.968619324      13.2579938       
297.8            0.969499618      13.0605286       0.226027748      -75.7651576      0.226027748      -75.7651576      0.969499618      13.0605286       
302.04           0.970345863      12.8680185       0.222752254      -75.9641863      0.222752254      -75.9641863      0.970345863      12.8680185       
306.28           0.971159768      12.6802748       0.219555454      -76.1582562      0.219555454      -76.1582562      0.971159768      12.6802748       
310.52           0.971942938      12.4971179       0.216434503      -76.3475525      0.216434503      -76.3475525      0.971942938      12.4971179       
314.76           0.972696879      12.3183769       0.213386684      -76.5322513      0.213386684      -76.5322513      0.972696879      12.3183769       
319              0.973423009      12.1438893       0.210409406      -76.7125203      0.210409406      -76.7125203      0.973423009      12.1438893       
323.24           0.97412266       11.9735003       0.207500194      -76.888519       0.207500194      -76.888519       0.97412266       11.9735003       
327.48           0.974797089      11.8070621       0.204656683      -77.0603997      0.204656683      -77.0603997      0.974797089      11.8070621       
331.72           0.975447475      11.6444342       0.201876614      -77.2283073      0.201876614      -77.2283073      0.975447475      11.6444342       
335.96           0.976074934      11.4854823       0.199157828      -77.3923803      0.199157828      -77.3923803      0.976074934      11.4854823       
340.2            0.976680516      11.3300783       0.196498257      -77.5527505      0.196498257      -77.5527505      0.976680516      11.3300783       
344.44           0.977265214      11.1780998       0.193895927      -77.7095442      0.193895927      -77.7095442      0.977265214      11.1780998       
348.68           0.977829963      11.0294301       0.191348943      -77.8628816      0.191348943      -77.8628816      0.977829963      11.0294301       
352.92           0.978375648      10.8839574       0.188855495      -78.0128779      0.188855495      -78.0128779      0.978375648      10.8839574       
357.16           0.978903107      10.741575        0.186413848      -78.159643       0.186413848      -78.159643       0.978903107      10.741575        
361.4            0.979413131      10.6021806       0.184022337      -78.3032822      0.184022337      -78.3032822      0.979413131      10.6021806       
365.64           0.97990647       10.4656766       0.181679368      -78.4438961      0.181679368      -78.4438961      0.97990647       10.4656766       
369.88           0.980383832      10.3319692       0.179383413      -78.5815811      0.179383413      -78.5815811      0.980383832      10.3319692       
374.12           0.980845891      10.2009689       0.177133003      -78.7164296      0.177133003      -78.7164296      0.980845891      10.2009689       
378.36           0.981293285      10.0725897       0.174926731      -78.84853        0.174926731      -78.84853        0.981293285      10.0725897       
382.6            0.981726617      9.94674925       0.172763245      -78.9779671      0.172763245      -78.9779671      0.981726617      9.94674925       
386.84           0.982146464      9.82336848       0.170641246      -79.1048221      0.170641246      -79.1048221      0.982146464      9.82336848       
391.08           0.982553368      9.7023716        0.168559487      -79.2291731      0.168559487      -79.2291731      0.982553368      9.7023716        
395.32           0.98294785       9.58368586       0.166516769      -79.351095       0.166516769      -79.351095       0.98294785       9.58368586       
399.56           0.983330402      9.46724139       0.164511939      -79.4706595      0.164511939      -79.4706595      0.983330402      9.46724139       
403.8            0.983701491      9.35297107       0.162543888      -79.5879356      0.162543888      -79.5879356      0.983701491      9.35297107       
408.04           0.984061563      9.2408104        0.160611549      -79.7029897      0.160611549      -79.7029897      0.984061563      9.2408104        
412.28           0.984411043      9.1306974        0.158713896      -79.8158854      0.158713896      -79.8158854      0.984411043      9.1306974        
416.52           0.984750335      9.02257245       0.156849941      -79.926684       0.156849941      -79.926684       0.984750335      9.02257245       
420.76           0.985079823      8.91637818       0.155018731      -80.0354443      0.155018731      -80.0354443      0.985079823      8.91637818       
425              0.985399876      8.81205942       0.15321935       -80.1422231      0.15321935       -80.1422231      0.985399876      8.81205942       
429.24           0.985710842      8.70956302       0.151450914      -80.2470748      0.151450914      -80.2470748      0.985710842      8.70956302       
433.48           0.986013056      8.60883783       0.149712572      -80.3500518      0.149712572      -80.3500518      0.986013056      8.60883783       
437.72           0.986306836      8.50983457       0.148003501      -80.4512049      0.148003501      -80.4512049      0.986306836      8.50983457       
441.96           0.986592486      8.41250573       0.146322911      -80.5505825      0.146322911      -80.5505825      0.986592486      8.41250573       
446.2            0.986870299      8.31680555       0.144670036      -80.6482316      0.144670036      -80.6482316      0.986870299      8.31680555       
450.44           0.98714055       8.22268989       0.14304414       -80.7441975      0.14304414       -80.7441975      0.98714055       8.22268989       
454.68           0.987403506      8.13011616       0.14144451       -80.8385236      0.14144451       -80.8385236      0.987403506      8.13011616       
458.92           0.987659422      8.03904329       0.139870458      -80.931252       0.139870458      -80.931252       0.987659422      8.03904329       
463.16           0.987908539      7.94943164       0.138321321      -81.0224232      0.138321321      -81.0224232      0.987908539      7.94943164       
467.4            0.98815109       7.86124294       0.136796457      -81.1120763      0.136796457      -81.1120763      0.98815109       7.86124294       
471.64           0.988387299      7.77444022       0.135295246      -81.200249       0.135295246      -81.200249       0.988387299      7.77444022       
475.88           0.988617379      7.68898779       0.133817089      -81.2869778      0.133817089      -81.2869778      0.988617379      7.68898779       
480.12           0.988841533      7.60485115       0.132361406      -81.3722979      0.132361406      -81.3722979      0.988841533      7.60485115       
484.36           0.989059958      7.52199695       0.130927635      -81.4562431      0.130927635      -81.4562431      0.989059958      7.52199695       
488.6            0.989272842      7.44039297       0.129515236      -81.5388464      0.129515236      -81.5388464      0.989272842      7.44039297       
492.84           0.989480365      7.36000804       0.128123684      -81.6201394      0.128123684      -81.6201394      0.989480365      7.36000804       
497.08           0.9896827        7.280812         0.126752469      -81.7001527      0.126752469      -81.7001527      0.9896827        7.280812         
501.32           0.989880013      7.20277569       0.125401101      -81.778916       0.125401101      -81.778916       0.989880013      7.20277569       
505.56           0.990072463      7.12587087       0.124069104      -81.8564579      0.124069104      -81.8564579      0.990072463      7.12587087       
509.8            0.990260203      7.05007021       0.122756015      -81.9328062      0.122756015      -81.9328062      0.990260203      7.05007021       
514.04           0.99044338       6.97534725       0.121461389      -82.0079875      0.121461389      -82.0079875      0.99044338       6.97534725       
518.28           0.990622135      6.90167636       0.120184791      -82.0820278      0.120184791      -82.0820278      0.990622135      6.90167636       
522.52           0.990796605      6.8290327        0.118925803      -82.1549521      0.118925803      -82.1549521      0.990796605      6.8290327        
526.76           0.99096692       6.75739223       0.117684016      -82.2267848      0.117684016      -82.2267848      0.99096692       6.75739223       
531              0.991133205      6.68673161       0.116459038      -82.2975493      0.116459038      -82.2975493      0.991133205      6.68673161       
535.24           0.991295582      6.61702824       0.115250483      -82.3672683      0.115250483      -82.3672683      0.991295582      6.61702824       
539.48           0.991454166      6.5482602        0.114057982      -82.4359639      0.114057982      -82.4359639      0.991454166      6.5482602        
