! Coilcraft 0603CS-R39 Chip Inductor				
! 21 May 2002			
# MHZ S MA R 50
!Freq             MagS11           AngS11           MagS21           AngS21           MagS12           AngS12           MagS22           AngS22
1                0.0297776531     51.7351161       0.981837171      -1.36449101      0.981837171      -1.36449101      0.0297776531     51.7351161       
4.24             0.102917011      69.9036366       0.969467546      -5.72160459      0.969467546      -5.72160459      0.102917011      69.9036366       
7.48             0.175814572      70.1587434       0.954757793      -9.97475332      0.954757793      -9.97475332      0.175814572      70.1587434       
10.72            0.245784457      68.0884126       0.936465997      -14.0931877      0.936465997      -14.0931877      0.245784457      68.0884126       
13.96            0.311882848      65.3388133       0.914879072      -18.047626       0.914879072      -18.047626       0.311882848      65.3388133       
17.2             0.373530925      62.3785777       0.890599265      -21.8152302      0.890599265      -21.8152302      0.373530925      62.3785777       
20.44            0.4304156        59.3986078       0.864315251      -25.3806498      0.864315251      -25.3806498      0.4304156        59.3986078       
23.68            0.482443679      56.4911555       0.836702269      -28.7357419      0.836702269      -28.7357419      0.482443679      56.4911555       
26.92            0.529695273      53.7038154       0.808369206      -31.8786302      0.808369206      -31.8786302      0.529695273      53.7038154       
30.16            0.572376505      51.0605802       0.77983299       -34.8124763      0.77983299       -34.8124763      0.572376505      51.0605802       
33.4             0.610776189      48.5717508       0.751511008      -37.5442057      0.751511008      -37.5442057      0.610776189      48.5717508       
36.64            0.645229701      46.2393037       0.723724971      -40.0833413      0.723724971      -40.0833413      0.645229701      46.2393037       
39.88            0.676091126      44.0600986       0.696711194      -42.4410188      0.696711194      -42.4410188      0.676091126      44.0600986       
43.12            0.703713309      42.027914        0.670633694      -44.629206       0.670633694      -44.629206       0.703713309      42.027914        
46.36            0.728434619      40.1347814       0.645597707      -46.6601174      0.645597707      -46.6601174      0.728434619      40.1347814       
49.6             0.750570974      38.371868        0.621662276      -48.5457971      0.621662276      -48.5457971      0.750570974      38.371868        
52.84            0.770411737      36.7300585       0.598851208      -50.2978384      0.598851208      -50.2978384      0.770411737      36.7300585       
56.08            0.788218298      35.2003312       0.57716221       -51.9272083      0.57716221       -51.9272083      0.788218298      35.2003312       
59.32            0.804224411      33.7739929       0.556574257      -53.4441513      0.556574257      -53.4441513      0.804224411      33.7739929       
62.56            0.818637616      32.4428164       0.537053372      -54.8581471      0.537053372      -54.8581471      0.818637616      32.4428164       
65.8             0.83164123       31.1991133       0.518557066      -56.1779084      0.518557066      -56.1779084      0.83164123       31.1991133       
69.04            0.843396615      30.0357624       0.501037694      -57.411403       0.501037694      -57.411403       0.843396615      30.0357624       
72.28            0.854045495      28.9462096       0.484444929      -58.565891       0.484444929      -58.565891       0.854045495      28.9462096       
75.52            0.863712181      27.9244497       0.468727555      -59.6479716      0.468727555      -59.6479716      0.863712181      27.9244497       
78.76            0.872505665      26.9649979       0.453834748      -60.6636335      0.453834748      -60.6636335      0.872505665      26.9649979       
82               0.880521512      26.0628552       0.439716951      -61.6183065      0.439716951      -61.6183065      0.880521512      26.0628552       
85.24            0.887843562      25.2134712       0.426326458      -62.5169108      0.426326458      -62.5169108      0.887843562      25.2134712       
88.48            0.894545434      24.412707        0.413617776      -63.3639058      0.413617776      -63.3639058      0.894545434      24.412707        
91.72            0.900691854      23.6567989       0.401547834      -64.1633337      0.401547834      -64.1633337      0.900691854      23.6567989       
94.96            0.906339802      22.9423239       0.390076067      -64.9188611      0.390076067      -64.9188611      0.906339802      22.9423239       
98.2             0.911539524      22.266168        0.379164428      -65.6338164      0.379164428      -65.6338164      0.911539524      22.266168        
101.44           0.916335397      21.6254959       0.368777343      -66.3112235      0.368777343      -66.3112235      0.916335397      21.6254959       
104.68           0.920766689      21.0177245       0.358881619      -66.953833       0.358881619      -66.953833       0.920766689      21.0177245       
107.92           0.924868204      20.4404984       0.349446344      -67.5641496      0.349446344      -67.5641496      0.924868204      20.4404984       
111.16           0.928670853      19.8916671       0.34044276       -68.1444567      0.34044276       -68.1444567      0.928670853      19.8916671       
114.4            0.93220214       19.3692656       0.331844134      -68.6968385      0.331844134      -68.6968385      0.93220214       19.3692656       
117.64           0.935486581      18.871496        0.323625631      -69.2232004      0.323625631      -69.2232004      0.935486581      18.871496        
120.88           0.938546073      18.3967113       0.315764179      -69.7252857      0.315764179      -69.7252857      0.938546073      18.3967113       
124.12           0.941400207      17.9434011       0.30823835       -70.2046925      0.30823835       -70.2046925      0.941400207      17.9434011       
127.36           0.94406655       17.5101784       0.301028236      -70.6628871      0.301028236      -70.6628871      0.94406655       17.5101784       
130.6            0.946560873      17.0957679       0.29411534       -71.1012166      0.29411534       -71.1012166      0.946560873      17.0957679       
133.84           0.948897371      16.6989957       0.287482465      -71.5209207      0.287482465      -71.5209207      0.948897371      16.6989957       
137.08           0.951088836      16.3187799       0.281113618      -71.9231414      0.281113618      -71.9231414      0.951088836      16.3187799       
140.32           0.953146816      15.954122        0.274993917      -72.3089321      0.274993917      -72.3089321      0.953146816      15.954122        
143.56           0.955081759      15.6040993       0.269109505      -72.6792657      0.269109505      -72.6792657      0.955081759      15.6040993       
146.8            0.956903127      15.2678584       0.263447473      -73.035042       0.263447473      -73.035042       0.956903127      15.2678584       
150.04           0.958619507      14.9446089       0.257995783      -73.3770941      0.257995783      -73.3770941      0.958619507      14.9446089       
153.28           0.960238706      14.6336179       0.252743205      -73.7061942      0.252743205      -73.7061942      0.960238706      14.6336179       
156.52           0.961767826      14.334205        0.247679254      -74.023059       0.247679254      -74.023059       0.961767826      14.334205        
159.76           0.963213345      14.0457377       0.242794132      -74.3283545      0.242794132      -74.3283545      0.963213345      14.0457377       
163              0.964581176      13.7676279       0.238078678      -74.6227003      0.238078678      -74.6227003      0.964581176      13.7676279       
166.24           0.965876727      13.4993276       0.233524318      -74.9066732      0.233524318      -74.9066732      0.965876727      13.4993276       
169.48           0.967104947      13.2403258       0.229123024      -75.180811       0.229123024      -75.180811       0.967104947      13.2403258       
172.72           0.968270375      12.9901458       0.224867268      -75.4456156      0.224867268      -75.4456156      0.968270375      12.9901458       
175.96           0.96937718       12.748342        0.220749994      -75.701556       0.220749994      -75.701556       0.96937718       12.748342        
179.2            0.970429192      12.5144979       0.216764576      -75.9490705      0.216764576      -75.9490705      0.970429192      12.5144979       
182.44           0.971429937      12.2882232       0.212904789      -76.1885695      0.212904789      -76.1885695      0.971429937      12.2882232       
185.68           0.972382666      12.0691527       0.209164781      -76.4204376      0.209164781      -76.4204376      0.972382666      12.0691527       
188.92           0.973290378      11.8569436       0.205539048      -76.6450353      0.205539048      -76.6450353      0.973290378      11.8569436       
192.16           0.974155842      11.6512741       0.202022408      -76.8627013      0.202022408      -76.8627013      0.974155842      11.6512741       
195.4            0.974981621      11.4518418       0.198609975      -77.0737534      0.198609975      -77.0737534      0.974981621      11.4518418       
198.64           0.975770088      11.2583627       0.195297147      -77.2784907      0.195297147      -77.2784907      0.975770088      11.2583627       
201.88           0.97652344       11.070569        0.19207958       -77.4771947      0.19207958       -77.4771947      0.97652344       11.070569        
205.12           0.97724372       10.8882089       0.18895317       -77.6701303      0.18895317       -77.6701303      0.97724372       10.8882089       
208.36           0.977932822      10.7110448       0.185914043      -77.8575475      0.185914043      -77.8575475      0.977932822      10.7110448       
211.6            0.978592508      10.5388525       0.182958535      -78.039682       0.182958535      -78.039682       0.978592508      10.5388525       
214.84           0.979224418      10.3714204       0.180083178      -78.2167562      0.180083178      -78.2167562      0.979224418      10.3714204       
218.08           0.979830082      10.2085487       0.177284692      -78.3889805      0.177284692      -78.3889805      0.979830082      10.2085487       
221.32           0.980410922      10.0500483       0.174559967      -78.5565537      0.174559967      -78.5565537      0.980410922      10.0500483       
224.56           0.98096827       9.89574038       0.171906055      -78.7196639      0.171906055      -78.7196639      0.98096827       9.89574038       
227.8            0.981503368      9.74545548       0.169320162      -78.8784891      0.169320162      -78.8784891      0.981503368      9.74545548       
231.04           0.982017377      9.59903318       0.166799634      -79.0331982      0.166799634      -79.0331982      0.982017377      9.59903318       
234.28           0.982511385      9.4563213        0.164341952      -79.1839511      0.164341952      -79.1839511      0.982511385      9.4563213        
237.52           0.982986409      9.31717549       0.161944722      -79.3308995      0.161944722      -79.3308995      0.982986409      9.31717549       
240.76           0.983443405      9.18145869       0.159605667      -79.4741877      0.159605667      -79.4741877      0.983443405      9.18145869       
244              0.983883266      9.04904069       0.157322623      -79.6139525      0.157322623      -79.6139525      0.983883266      9.04904069       
247.24           0.984306834      8.91979773       0.155093528      -79.7503239      0.155093528      -79.7503239      0.984306834      8.91979773       
250.48           0.984714898      8.7936121        0.15291642       -79.8834258      0.15291642       -79.8834258      0.984714898      8.7936121        
253.72           0.985108201      8.67037177       0.150789428      -80.0133758      0.150789428      -80.0133758      0.985108201      8.67037177       
256.96           0.985487442      8.54997007       0.14871077       -80.1402861      0.14871077       -80.1402861      0.985487442      8.54997007       
260.2            0.985853278      8.43230536       0.146678745      -80.2642634      0.146678745      -80.2642634      0.985853278      8.43230536       
263.44           0.986206328      8.31728075       0.14469173       -80.3854097      0.14469173       -80.3854097      0.986206328      8.31728075       
266.68           0.986547178      8.20480384       0.142748175      -80.5038218      0.142748175      -80.5038218      0.986547178      8.20480384       
269.92           0.986876379      8.09478644       0.1408466        -80.6195926      0.1408466        -80.6195926      0.986876379      8.09478644       
273.16           0.987194451      7.98714435       0.138985591      -80.7328104      0.138985591      -80.7328104      0.987194451      7.98714435       
276.4            0.987501886      7.88179714       0.137163795      -80.8435597      0.137163795      -80.8435597      0.987501886      7.88179714       
279.64           0.98779915       7.77866794       0.135379918      -80.9519211      0.135379918      -80.9519211      0.98779915       7.77866794       
282.88           0.988086681      7.67768324       0.133632721      -81.0579718      0.133632721      -81.0579718      0.988086681      7.67768324       
286.12           0.988364896      7.57877272       0.13192102       -81.1617857      0.13192102       -81.1617857      0.988364896      7.57877272       
289.36           0.988634189      7.4818691        0.130243677      -81.2634333      0.130243677      -81.2634333      0.988634189      7.4818691        
292.6            0.988894934      7.38690791       0.128599605      -81.3629822      0.128599605      -81.3629822      0.988894934      7.38690791       
295.84           0.989147485      7.29382743       0.12698776       -81.4604972      0.12698776       -81.4604972      0.989147485      7.29382743       
299.08           0.989392178      7.20256849       0.125407142      -81.5560403      0.125407142      -81.5560403      0.989392178      7.20256849       
302.32           0.989629331      7.11307436       0.123856791      -81.6496709      0.123856791      -81.6496709      0.989629331      7.11307436       
305.56           0.989859247      7.02529064       0.122335785      -81.741446       0.122335785      -81.741446       0.989859247      7.02529064       
308.8            0.990082215      6.93916511       0.120843238      -81.8314203      0.120843238      -81.8314203      0.990082215      6.93916511       
312.04           0.990298507      6.85464764       0.119378301      -81.9196463      0.119378301      -81.9196463      0.990298507      6.85464764       
315.28           0.990508383      6.7716901        0.117940158      -82.0061743      0.117940158      -82.0061743      0.990508383      6.7716901        
318.52           0.990712092      6.69024624       0.116528022      -82.0910527      0.116528022      -82.0910527      0.990712092      6.69024624       
321.76           0.990909869      6.61027161       0.115141139      -82.1743279      0.115141139      -82.1743279      0.990909869      6.61027161       
325              0.991101937      6.53172348       0.113778781      -82.2560447      0.113778781      -82.2560447      0.991101937      6.53172348       
328.24           0.991288512      6.45456073       0.112440251      -82.3362458      0.112440251      -82.3362458      0.991288512      6.45456073       
331.48           0.991469797      6.37874383       0.111124874      -82.4149727      0.111124874      -82.4149727      0.991469797      6.37874383       
334.72           0.991645986      6.3042347        0.109832003      -82.4922649      0.109832003      -82.4922649      0.991645986      6.3042347        
337.96           0.991817265      6.23099669       0.108561013      -82.5681607      0.108561013      -82.5681607      0.991817265      6.23099669       
341.2            0.991983811      6.1589945        0.107311302      -82.6426969      0.107311302      -82.6426969      0.991983811      6.1589945        
344.44           0.992145794      6.0881941        0.106082291      -82.7159087      0.106082291      -82.7159087      0.992145794      6.0881941        
347.68           0.992303374      6.01856272       0.10487342       -82.7878304      0.10487342       -82.7878304      0.992303374      6.01856272       
350.92           0.992456707      5.95006874       0.103684149      -82.8584948      0.103684149      -82.8584948      0.992456707      5.95006874       
354.16           0.99260594       5.88268167       0.102513958      -82.9279334      0.102513958      -82.9279334      0.99260594       5.88268167       
357.4            0.992751214      5.81637212       0.101362345      -82.9961768      0.101362345      -82.9961768      0.992751214      5.81637212       
360.64           0.992892666      5.75111168       0.100228825      -83.0632544      0.100228825      -83.0632544      0.992892666      5.75111168       
363.88           0.993030423      5.68687296       0.0991129287     -83.1291945      0.0991129287     -83.1291945      0.993030423      5.68687296       
367.12           0.99316461       5.62362949       0.0980142039     -83.1940245      0.0980142039     -83.1940245      0.99316461       5.62362949       
370.36           0.993295346      5.56135573       0.0969322134     -83.2577707      0.0969322134     -83.2577707      0.993295346      5.56135573       
373.6            0.993422745      5.50002697       0.0958665345     -83.3204587      0.0958665345     -83.3204587      0.993422745      5.50002697       
376.84           0.993546916      5.43961935       0.0948167586     -83.3821128      0.0948167586     -83.3821128      0.993546916      5.43961935       
380.08           0.993667963      5.3801098        0.0937824904     -83.442757       0.0937824904     -83.442757       0.993667963      5.3801098        
383.32           0.993785986      5.32147599       0.0927633478     -83.502414       0.0927633478     -83.502414       0.993785986      5.32147599       
386.56           0.993901084      5.26369636       0.0917589608     -83.561106       0.0917589608     -83.561106       0.993901084      5.26369636       
389.8            0.994013346      5.20675001       0.0907689713     -83.6188543      0.0907689713     -83.6188543      0.994013346      5.20675001       
393.04           0.994122864      5.15061673       0.0897930328     -83.6756795      0.0897930328     -83.6756795      0.994122864      5.15061673       
396.28           0.994229721      5.09527697       0.0888308096     -83.7316017      0.0888308096     -83.7316017      0.994229721      5.09527697       
399.52           0.994334         5.04071178       0.0878819767     -83.78664        0.0878819767     -83.78664        0.994334         5.04071178       
402.76           0.99443578       4.9869028        0.0869462191     -83.840813       0.0869462191     -83.840813       0.99443578       4.9869028        
406              0.994535137      4.93383226       0.0860232316     -83.8941389      0.0860232316     -83.8941389      0.994535137      4.93383226       
409.24           0.994632143      4.88148295       0.0851127184     -83.9466348      0.0851127184     -83.9466348      0.994632143      4.88148295       
412.48           0.994726869      4.82983815       0.0842143926     -83.9983178      0.0842143926     -83.9983178      0.994726869      4.82983815       
