! Coilcraft 0603CS-R10 Chip Inductor				
! 21 May 2002			
# MHZ S MA R 50
!Freq             MagS11           AngS11           MagS21           AngS21           MagS12           AngS12           MagS22           AngS22
1                0.00672379085    68.4177898       0.997546343      -0.359119108     0.997546343      -0.359119108     0.00672379085    68.4177898       
7.23             0.0455377409     79.4060357       0.992637728      -2.58454527      0.992637728      -2.58454527      0.0455377409     79.4060357       
13.46            0.083993265      79.3435339       0.987922469      -4.7928682       0.987922469      -4.7928682       0.083993265      79.3435339       
19.69            0.121971321      78.1752911       0.982287495      -6.98073944      0.982287495      -6.98073944      0.121971321      78.1752911       
25.92            0.159338525      76.6371296       0.975570056      -9.14344003      0.975570056      -9.14344003      0.159338525      76.6371296       
32.15            0.19596592       74.9367897       0.967752872      -11.2761544      0.967752872      -11.2761544      0.19596592       74.9367897       
38.38            0.231735152      73.1606271       0.958873642      -13.3742975      0.958873642      -13.3742975      0.231735152      73.1606271       
44.61            0.266541624      71.3529622       0.948998339      -15.4336652      0.948998339      -15.4336652      0.266541624      71.3529622       
50.84            0.300296232      69.5398231       0.938209447      -17.4505179      0.938209447      -17.4505179      0.300296232      69.5398231       
57.07            0.332926147      67.7379421       0.926599201      -19.4216258      0.926599201      -19.4216258      0.332926147      67.7379421       
63.3             0.364374888      65.9587397       0.914264992      -21.344288       0.914264992      -21.344288       0.364374888      65.9587397       
69.53            0.394601838      64.2103032       0.901305943      -23.2163327      0.901305943      -23.2163327      0.394601838      64.2103032       
75.76            0.423581316      62.4984638       0.88782026       -25.0361013      0.88782026       -25.0361013      0.423581316      62.4984638       
81.99            0.451301353      60.8274329       0.873903173      -26.802422       0.873903173      -26.802422       0.451301353      60.8274329       
88.22            0.477762249      59.2002038       0.859645383      -28.5145744      0.859645383      -28.5145744      0.477762249      59.2002038       
94.45            0.502975029      57.618825        0.845131927      -30.172249       0.845131927      -30.172249       0.502975029      57.618825        
100.68           0.526959858      56.0845946       0.830441415      -31.775503       0.830441415      -31.775503       0.526959858      56.0845946       
106.91           0.549744498      54.5982084       0.815645581      -33.3247152      0.815645581      -33.3247152      0.549744498      54.5982084       
113.14           0.571362837      53.1598744       0.800809095      -34.8205417      0.800809095      -34.8205417      0.571362837      53.1598744       
119.37           0.591853533      51.7694067       0.785989583      -36.2638726      0.785989583      -36.2638726      0.591853533      51.7694067       
125.6            0.611258792      50.4263015       0.771237813      -37.6557919      0.771237813      -37.6557919      0.611258792      50.4263015       
131.83           0.629623287      49.1298012       0.756597998      -38.9975397      0.756597998      -38.9975397      0.629623287      49.1298012       
138.06           0.646993227      47.8789485       0.742108193      -40.2904793      0.742108193      -40.2904793      0.646993227      47.8789485       
144.29           0.663415565      46.6726312       0.72780074       -41.5360662      0.72780074       -41.5360662      0.663415565      46.6726312       
150.52           0.678937333      45.5096206       0.713702743      -42.7358224      0.713702743      -42.7358224      0.678937333      45.5096206       
156.75           0.693605111      44.3886035       0.69983656       -43.891313       0.69983656       -43.891313       0.693605111      44.3886035       
162.98           0.70746459       43.3082091       0.686220284      -45.0041267      0.686220284      -45.0041267      0.70746459       43.3082091       
169.21           0.720560241      42.2670311       0.672868209      -46.0758593      0.672868209      -46.0758593      0.720560241      42.2670311       
175.44           0.732935064      41.2636462       0.65979127       -47.1080998      0.65979127       -47.1080998      0.732935064      41.2636462       
181.67           0.744630404      40.2966291       0.646997463      -48.1024187      0.646997463      -48.1024187      0.744630404      40.2966291       
187.9            0.755685827      39.364565        0.634492222      -49.0603597      0.634492222      -49.0603597      0.755685827      39.364565        
194.13           0.766139049      38.4660589       0.622278764      -49.9834316      0.622278764      -49.9834316      0.766139049      38.4660589       
200.36           0.776025896      37.5997436       0.610358413      -50.8731031      0.610358413      -50.8731031      0.776025896      37.5997436       
206.59           0.785380305      36.7642853       0.598730872      -51.7307983      0.598730872      -51.7307983      0.785380305      36.7642853       
212.82           0.794234341      35.9583884       0.587394481      -52.557894       0.587394481      -52.557894       0.794234341      35.9583884       
219.05           0.80261824       35.1807987       0.576346439      -53.3557177      0.576346439      -53.3557177      0.80261824       35.1807987       
225.28           0.810560462      34.4303053       0.565582998      -54.125546       0.565582998      -54.125546       0.810560462      34.4303053       
231.51           0.818087758      33.7057422       0.555099634      -54.8686046      0.555099634      -54.8686046      0.818087758      33.7057422       
237.74           0.825225238      33.005989        0.544891202      -55.586068       0.544891202      -55.586068       0.825225238      33.005989        
243.97           0.831996453      32.3299708       0.534952059      -56.2790601      0.534952059      -56.2790601      0.831996453      32.3299708       
250.2            0.83842347       31.6766584       0.525276178      -56.9486551      0.525276178      -56.9486551      0.83842347       31.6766584       
256.43           0.844526953      31.0450669       0.515857248      -57.5958789      0.515857248      -57.5958789      0.844526953      31.0450669       
262.66           0.850326242      30.4342555       0.506688748      -58.2217097      0.506688748      -58.2217097      0.850326242      30.4342555       
268.89           0.855839434      29.843326        0.497764026      -58.8270804      0.497764026      -58.8270804      0.855839434      29.843326        
275.12           0.861083454      29.2714213       0.489076351      -59.4128796      0.489076351      -59.4128796      0.861083454      29.2714213       
281.35           0.866074129      28.7177244       0.480618968      -59.9799536      0.480618968      -59.9799536      0.866074129      28.7177244       
287.58           0.870826261      28.1814569       0.472385136      -60.5291077      0.472385136      -60.5291077      0.870826261      28.1814569       
293.81           0.875353692      27.661877        0.464368162      -61.0611085      0.464368162      -61.0611085      0.875353692      27.661877        
300.04           0.879669363      27.1582787       0.456561435      -61.5766852      0.456561435      -61.5766852      0.879669363      27.1582787       
306.27           0.883785382      26.6699896       0.448958441      -62.0765318      0.448958441      -62.0765318      0.883785382      26.6699896       
312.5            0.887713072      26.1963696       0.44155279       -62.5613079      0.44155279       -62.5613079      0.887713072      26.1963696       
318.73           0.891463029      25.7368096       0.434338222      -63.0316412      0.434338222      -63.0316412      0.891463029      25.7368096       
324.96           0.89504517       25.2907297       0.427308627      -63.4881289      0.427308627      -63.4881289      0.89504517       25.2907297       
331.19           0.898468778      24.8575783       0.420458048      -63.9313387      0.420458048      -63.9313387      0.898468778      24.8575783       
337.42           0.901742546      24.4368298       0.413780688      -64.361811       0.413780688      -64.361811       0.901742546      24.4368298       
343.65           0.90487462       24.0279844       0.407270916      -64.7800599      0.407270916      -64.7800599      0.90487462       24.0279844       
349.88           0.907872632      23.6305659       0.400923268      -65.1865745      0.400923268      -65.1865745      0.907872632      23.6305659       
356.11           0.910743738      23.244121        0.394732449      -65.5818204      0.394732449      -65.5818204      0.910743738      23.244121        
362.34           0.913494651      22.868218        0.38869333       -65.9662409      0.38869333       -65.9662409      0.913494651      22.868218        
368.57           0.916131668      22.5024456       0.382800953      -66.3402581      0.382800953      -66.3402581      0.916131668      22.5024456       
374.8            0.918660702      22.146412        0.377050522      -66.704274       0.377050522      -66.704274       0.918660702      22.146412        
381.03           0.921087306      21.7997436       0.371437405      -67.0586716      0.371437405      -67.0586716      0.921087306      21.7997436       
387.26           0.923416697      21.4620846       0.365957131      -67.4038159      0.365957131      -67.4038159      0.923416697      21.4620846       
393.49           0.925653781      21.1330954       0.360605383      -67.7400548      0.360605383      -67.7400548      0.925653781      21.1330954       
399.72           0.927803171      20.8124524       0.355377998      -68.0677201      0.355377998      -68.0677201      0.927803171      20.8124524       
405.95           0.929869207      20.4998465       0.35027096       -68.3871282      0.35027096       -68.3871282      0.929869207      20.4998465       
412.18           0.931855976      20.194983        0.345280399      -68.698581       0.345280399      -68.698581       0.931855976      20.194983        
418.41           0.933767327      19.8975805       0.340402582      -69.0023666      0.340402582      -69.0023666      0.933767327      19.8975805       
424.64           0.935606887      19.6073702       0.335633914      -69.2987603      0.335633914      -69.2987603      0.935606887      19.6073702       
430.87           0.937378076      19.3240954       0.330970931      -69.5880247      0.330970931      -69.5880247      0.937378076      19.3240954       
437.1            0.93908412       19.0475107       0.326410293      -69.8704108      0.326410293      -69.8704108      0.93908412       19.0475107       
443.33           0.940728062      18.7773816       0.321948785      -70.1461585      0.321948785      -70.1461585      0.940728062      18.7773816       
449.56           0.942312778      18.5134839       0.317583308      -70.4154972      0.317583308      -70.4154972      0.942312778      18.5134839       
455.79           0.943840981      18.2556031       0.313310879      -70.6786462      0.313310879      -70.6786462      0.943840981      18.2556031       
462.02           0.945315239      18.003534        0.30912862       -70.9358153      0.30912862       -70.9358153      0.945315239      18.003534        
468.25           0.946737978      17.7570801       0.305033764      -71.1872052      0.305033764      -71.1872052      0.946737978      17.7570801       
474.48           0.948111493      17.5160533       0.30102364       -71.4330082      0.30102364       -71.4330082      0.948111493      17.5160533       
480.71           0.949437957      17.2802735       0.297095678      -71.6734082      0.297095678      -71.6734082      0.949437957      17.2802735       
486.94           0.950719426      17.0495682       0.2932474        -71.9085817      0.2932474        -71.9085817      0.950719426      17.0495682       
493.17           0.95195785       16.8237718       0.28947642       -72.1386976      0.28947642       -72.1386976      0.95195785       16.8237718       
499.4            0.953155076      16.6027257       0.285780435      -72.3639177      0.285780435      -72.3639177      0.953155076      16.6027257       
505.63           0.954312855      16.386278        0.282157229      -72.5843975      0.282157229      -72.5843975      0.954312855      16.386278        
511.86           0.955432849      16.1742825       0.278604664      -72.8002857      0.278604664      -72.8002857      0.955432849      16.1742825       
518.09           0.956516635      15.9665993       0.275120678      -73.0117255      0.275120678      -73.0117255      0.956516635      15.9665993       
524.32           0.95756571       15.7630939       0.271703284      -73.2188538      0.271703284      -73.2188538      0.95756571       15.7630939       
530.55           0.958581495      15.5636373       0.268350566      -73.4218024      0.268350566      -73.4218024      0.958581495      15.5636373       
536.78           0.959565344      15.3681052       0.265060674      -73.6206979      0.265060674      -73.6206979      0.959565344      15.3681052       
543.01           0.960518541      15.1763787       0.261831825      -73.8156616      0.261831825      -73.8156616      0.960518541      15.1763787       
549.24           0.961442308      14.9883431       0.258662299      -74.0068104      0.258662299      -74.0068104      0.961442308      14.9883431       
555.47           0.962337808      14.8038882       0.255550434      -74.1942566      0.255550434      -74.1942566      0.962337808      14.8038882       
561.7            0.963206149      14.6229082       0.252494628      -74.378108       0.252494628      -74.378108       0.963206149      14.6229082       
567.93           0.964048384      14.4453009       0.249493333      -74.5584686      0.249493333      -74.5584686      0.964048384      14.4453009       
574.16           0.964865519      14.2709685       0.246545055      -74.7354381      0.246545055      -74.7354381      0.964865519      14.2709685       
580.39           0.965658511      14.0998163       0.243648351      -74.9091128      0.243648351      -74.9091128      0.965658511      14.0998163       
586.62           0.966428273      13.9317535       0.240801827      -75.0795852      0.240801827      -75.0795852      0.966428273      13.9317535       
592.85           0.967175675      13.7666923       0.238004137      -75.2469444      0.238004137      -75.2469444      0.967175675      13.7666923       
599.08           0.967901549      13.6045485       0.235253978      -75.4112763      0.235253978      -75.4112763      0.967901549      13.6045485       
605.31           0.968606687      13.4452406       0.232550094      -75.5726637      0.232550094      -75.5726637      0.968606687      13.4452406       
611.54           0.969291848      13.2886902       0.229891269      -75.7311862      0.229891269      -75.7311862      0.969291848      13.2886902       
617.77           0.969957754      13.1348216       0.227276327      -75.8869207      0.227276327      -75.8869207      0.969957754      13.1348216       
624              0.970605097      12.9835618       0.224704132      -76.0399414      0.224704132      -76.0399414      0.970605097      12.9835618       
630.23           0.971234539      12.8348405       0.222173584      -76.1903196      0.222173584      -76.1903196      0.971234539      12.8348405       
636.46           0.971846711      12.6885896       0.219683619      -76.3381244      0.219683619      -76.3381244      0.971846711      12.6885896       
642.69           0.972442218      12.5447436       0.217233208      -76.4834224      0.217233208      -76.4834224      0.972442218      12.5447436       
648.92           0.97302164       12.403239        0.214821355      -76.6262777      0.214821355      -76.6262777      0.97302164       12.403239        
655.15           0.97358553       12.2640147       0.212447095      -76.7667524      0.212447095      -76.7667524      0.97358553       12.2640147       
661.38           0.974134418      12.1270114       0.210109495      -76.9049064      0.210109495      -76.9049064      0.974134418      12.1270114       
667.61           0.974668815      11.9921722       0.207807651      -77.0407976      0.207807651      -77.0407976      0.974668815      11.9921722       
673.84           0.975189205      11.8594416       0.205540687      -77.1744818      0.205540687      -77.1744818      0.975189205      11.8594416       
680.07           0.975696058      11.7287663       0.203307754      -77.3060131      0.203307754      -77.3060131      0.975696058      11.7287663       
686.3            0.97618982       11.6000947       0.201108031      -77.4354437      0.201108031      -77.4354437      0.97618982       11.6000947       
692.53           0.97667092       11.4733766       0.198940721      -77.562824       0.198940721      -77.562824       0.97667092       11.4733766       
698.76           0.977139773      11.3485637       0.196805051      -77.688203       0.196805051      -77.688203       0.977139773      11.3485637       
704.99           0.977596772      11.2256093       0.194700273      -77.8116277      0.194700273      -77.8116277      0.977596772      11.2256093       
711.22           0.978042297      11.104468        0.192625661      -77.9331439      0.192625661      -77.9331439      0.978042297      11.104468        
717.45           0.978476715      10.9850959       0.190580511      -78.0527957      0.190580511      -78.0527957      0.978476715      10.9850959       
723.68           0.978900375      10.8674505       0.18856414       -78.170626       0.18856414       -78.170626       0.978900375      10.8674505       
729.91           0.979313613      10.7514906       0.186575884      -78.2866761      0.186575884      -78.2866761      0.979313613      10.7514906       
736.14           0.979716755      10.6371763       0.184615101      -78.4009861      0.184615101      -78.4009861      0.979716755      10.6371763       
742.37           0.98011011       10.524469        0.182681167      -78.5135949      0.182681167      -78.5135949      0.98011011       10.524469        
748.6            0.980493979      10.4133311       0.180773476      -78.6245399      0.180773476      -78.6245399      0.980493979      10.4133311       
754.83           0.98086865       10.3037262       0.178891438      -78.7338576      0.178891438      -78.7338576      0.98086865       10.3037262       
761.06           0.9812344        10.1956192       0.177034483      -78.8415832      0.177034483      -78.8415832      0.9812344        10.1956192       
767.29           0.981591495      10.0889758       0.175202056      -78.9477511      0.175202056      -78.9477511      0.981591495      10.0889758       
773.52           0.981940193      9.98376286       0.173393618      -79.0523941      0.173393618      -79.0523941      0.981940193      9.98376286       
779.75           0.982280742      9.87994813       0.171608644      -79.1555445      0.171608644      -79.1555445      0.982280742      9.87994813       
785.98           0.982613379      9.77750036       0.169846626      -79.2572334      0.169846626      -79.2572334      0.982613379      9.77750036       
792.21           0.982938335      9.67638922       0.168107069      -79.3574908      0.168107069      -79.3574908      0.982938335      9.67638922       
