! Coilcraft 0603CS-R25 Chip Inductor				
! 1 August 2002			
# MHZ S MA R 50
!Freq             MagS11           AngS11           MagS21           AngS21           MagS12           AngS12           MagS22           AngS22
1                0.0165562738     67.1992886       0.993701214      -0.880056748     0.993701214      -0.880056748     0.0165562738     67.1992886       
5.24             0.0806276072     77.2303611       0.985321415      -4.57734777      0.985321415      -4.57734777      0.0806276072     77.2303611       
9.48             0.143634483      75.9424974       0.975117688      -8.21501866      0.975117688      -8.21501866      0.143634483      75.9424974       
13.72            0.204727415      73.4747231       0.962002429      -11.7723363      0.962002429      -11.7723363      0.204727415      73.4747231       
17.96            0.263339406      70.674227        0.946070364      -15.2283301      0.946070364      -15.2283301      0.263339406      70.674227        
22.2             0.319026965      67.7853362       0.927655227      -18.5649793      0.927655227      -18.5649793      0.319026965      67.7853362       
26.44            0.371474629      64.9121503       0.907181038      -21.7681271      0.907181038      -21.7681271      0.371474629      64.9121503       
30.68            0.420492016      62.1083464       0.885099037      -24.8277011      0.885099037      -24.8277011      0.420492016      62.1083464       
34.92            0.466001863      59.4040662       0.861850436      -27.7375417      0.861850436      -27.7375417      0.466001863      59.4040662       
39.16            0.508022299      56.8163683       0.837843008      -30.4949931      0.837843008      -30.4949931      0.508022299      56.8163683       
43.4             0.546646683      54.354173        0.813437522      -33.1003655      0.813437522      -33.1003655      0.546646683      54.354173        
47.64            0.582023634      52.0210046       0.788941554      -35.5563551      0.788941554      -35.5563551      0.582023634      52.0210046       
51.88            0.614338961      49.8167081       0.764608689      -37.8674791      0.764608689      -37.8674791      0.614338961      49.8167081       
56.12            0.643800429      47.7386166       0.740641324      -40.0395647      0.740641324      -40.0395647      0.643800429      47.7386166       
60.36            0.67062563       45.7823836       0.717195624      -42.079311       0.717195624      -42.079311       0.67062563       45.7823836       
64.6             0.695032845      43.9425892       0.694387517      -43.9939292      0.694387517      -43.9939292      0.695032845      43.9425892       
68.84            0.717234527      42.213185        0.672298939      -45.790859       0.672298939      -45.790859       0.717234527      42.213185        
73.08            0.737432939      40.5878173       0.650983824      -47.4775527      0.650983824      -47.4775527      0.737432939      40.5878173       
77.32            0.755817499      39.0600594       0.630473545      -49.0613177      0.630473545      -49.0613177      0.755817499      39.0600594       
81.56            0.772563395      37.6235748       0.610781673      -50.5492059      0.610781673      -50.5492059      0.772563395      37.6235748       
85.8             0.787831121      36.2722275       0.591908021      -51.9479408      0.591908021      -51.9479408      0.787831121      36.2722275       
90.04            0.801766653      35.0001536       0.573842004      -53.263874       0.573842004      -53.263874       0.801766653      35.0001536       
94.28            0.814502037      33.8018044       0.55656538       -54.5029632      0.55656538       -54.5029632      0.814502037      33.8018044       
98.52            0.826156228      32.6719679       0.540054445      -55.6707655      0.540054445      -55.6707655      0.826156228      32.6719679       
102.76           0.836836074      31.6057762       0.524281781      -56.7724431      0.524281781      -56.7724431      0.836836074      31.6057762       
107              0.846637337      30.5987015       0.509217607      -57.8127757      0.509217607      -57.8127757      0.846637337      30.5987015       
111.24           0.855645732      29.6465465       0.494830834      -58.7961784      0.494830834      -58.7961784      0.855645732      29.6465465       
115.48           0.863937911      28.7454288       0.481089856      -59.7267226      0.481089856      -59.7267226      0.863937911      28.7454288       
119.72           0.871582397      27.8917638       0.467963146      -60.6081576      0.467963146      -60.6081576      0.871582397      27.8917638       
123.96           0.878640446      27.0822457       0.455419695      -61.4439341      0.455419695      -61.4439341      0.878640446      27.0822457       
128.2            0.885166836      26.3138278       0.443429321      -62.2372259      0.443429321      -62.2372259      0.885166836      26.3138278       
132.44           0.891210577      25.5837039       0.431962888      -62.9909523      0.431962888      -62.9909523      0.891210577      25.5837039       
136.68           0.896815549      24.8892895       0.420992443      -63.7077982      0.420992443      -63.7077982      0.896815549      24.8892895       
140.92           0.902021081      24.2282036       0.410491302      -64.3902338      0.410491302      -64.3902338      0.902021081      24.2282036       
145.16           0.906862449      23.598253        0.400434094      -65.0405327      0.400434094      -65.0405327      0.906862449      23.598253        
149.4            0.911371339      22.9974157       0.390796768      -65.6607885      0.390796768      -65.6607885      0.911371339      22.9974157       
153.64           0.915576241      22.4238274       0.381556583      -66.2529308      0.381556583      -66.2529308      0.915576241      22.4238274       
157.88           0.919502805      21.8757674       0.372692072      -66.8187386      0.372692072      -66.8187386      0.919502805      21.8757674       
162.12           0.923174152      21.351647        0.364183005      -67.3598538      0.364183005      -67.3598538      0.923174152      21.351647        
166.36           0.926611157      20.8499978       0.356010338      -67.8777932      0.356010338      -67.8777932      0.926611157      20.8499978       
170.6            0.929832685      20.3694617       0.348156159      -68.3739586      0.348156159      -68.3739586      0.929832685      20.3694617       
174.84           0.932855814      19.9087817       0.340603629      -68.8496475      0.340603629      -68.8496475      0.932855814      19.9087817       
179.08           0.935696022      19.466793        0.333336926      -69.3060613      0.333336926      -69.3060613      0.935696022      19.466793        
183.32           0.938367359      19.0424154       0.326341185      -69.7443139      0.326341185      -69.7443139      0.938367359      19.0424154       
187.56           0.940882591      18.6346464       0.319602444      -70.1654388      0.319602444      -70.1654388      0.940882591      18.6346464       
191.8            0.943253339      18.2425545       0.313107587      -70.570396       0.313107587      -70.570396       0.943253339      18.2425545       
196.04           0.945490193      17.8652736       0.306844292      -70.960078       0.306844292      -70.960078       0.945490193      17.8652736       
200.28           0.947602815      17.5019975       0.300800981      -71.3353152      0.300800981      -71.3353152      0.947602815      17.5019975       
204.52           0.949600035      17.1519752       0.294966772      -71.6968813      0.294966772      -71.6968813      0.949600035      17.1519752       
208.76           0.951489931      16.8145062       0.289331432      -72.0454974      0.289331432      -72.0454974      0.951489931      16.8145062       
213              0.953279903      16.488937        0.283885338      -72.3818367      0.283885338      -72.3818367      0.953279903      16.488937        
217.24           0.954976737      16.1746567       0.278619436      -72.7065279      0.278619436      -72.7065279      0.954976737      16.1746567       
221.48           0.956586665      15.8710945       0.273525201      -73.0201586      0.273525201      -73.0201586      0.956586665      15.8710945       
225.72           0.958115419      15.5777159       0.268594606      -73.323279       0.268594606      -73.323279       0.958115419      15.5777159       
229.96           0.959568272      15.2940205       0.263820087      -73.6164041      0.263820087      -73.6164041      0.959568272      15.2940205       
234.2            0.960950087      15.019539        0.259194514      -73.9000169      0.259194514      -73.9000169      0.960950087      15.019539        
238.44           0.962265347      14.7538313       0.25471116       -74.1745703      0.25471116       -74.1745703      0.962265347      14.7538313       
242.68           0.963518195      14.4964838       0.250363678      -74.4404898      0.250363678      -74.4404898      0.963518195      14.4964838       
246.92           0.964712462      14.247108        0.246146075      -74.698175       0.246146075      -74.698175       0.964712462      14.247108        
251.16           0.965851693      14.0053386       0.242052689      -74.9480021      0.242052689      -74.9480021      0.965851693      14.0053386       
255.4            0.966939172      13.7708315       0.238078167      -75.1903249      0.238078167      -75.1903249      0.966939172      13.7708315       
259.64           0.967977947      13.5432626       0.234217447      -75.4254767      0.234217447      -75.4254767      0.967977947      13.5432626       
263.88           0.968970847      13.3223266       0.23046574       -75.6537718      0.23046574       -75.6537718      0.968970847      13.3223266       
268.12           0.9699205        13.1077352       0.22681851       -75.8755068      0.22681851       -75.8755068      0.9699205        13.1077352       
272.36           0.970829354      12.8992163       0.22327146       -76.0909614      0.22327146       -76.0909614      0.970829354      12.8992163       
276.6            0.971699684      12.6965128       0.219820516      -76.3004003      0.219820516      -76.3004003      0.971699684      12.6965128       
280.84           0.972533615      12.4993816       0.216461817      -76.5040735      0.216461817      -76.5040735      0.972533615      12.4993816       
285.08           0.973333124      12.3075927       0.213191697      -76.7022174      0.213191697      -76.7022174      0.973333124      12.3075927       
289.32           0.974100062      12.1209285       0.210006676      -76.895056       0.210006676      -76.895056       0.974100062      12.1209285       
293.56           0.974836154      11.9391827       0.206903449      -77.0828016      0.206903449      -77.0828016      0.974836154      11.9391827       
297.8            0.975543016      11.7621596       0.203878874      -77.2656553      0.203878874      -77.2656553      0.975543016      11.7621596       
302.04           0.976222161      11.5896739       0.200929962      -77.4438078      0.200929962      -77.4438078      0.976222161      11.5896739       
306.28           0.976875004      11.4215495       0.198053873      -77.6174403      0.198053873      -77.6174403      0.976875004      11.4215495       
310.52           0.977502872      11.257619        0.195247901      -77.7867247      0.195247901      -77.7867247      0.977502872      11.257619        
314.76           0.978107012      11.0977237       0.192509468      -77.9518245      0.192509468      -77.9518245      0.978107012      11.0977237       
319              0.978688593      10.9417124       0.189836119      -78.1128951      0.189836119      -78.1128951      0.978688593      10.9417124       
323.24           0.979248714      10.7894414       0.187225514      -78.2700844      0.187225514      -78.2700844      0.979248714      10.7894414       
327.48           0.979788407      10.6407737       0.184675421      -78.4235331      0.184675421      -78.4235331      0.979788407      10.6407737       
331.72           0.980308645      10.495579        0.182183709      -78.5733753      0.182183709      -78.5733753      0.980308645      10.495579        
335.96           0.980810344      10.3537331       0.179748345      -78.7197388      0.179748345      -78.7197388      0.980810344      10.3537331       
340.2            0.981294364      10.2151175       0.177367386      -78.8627454      0.177367386      -78.8627454      0.981294364      10.2151175       
344.44           0.981761521      10.0796193       0.175038977      -79.0025113      0.175038977      -79.0025113      0.981761521      10.0796193       
348.68           0.98221258       9.94713045       0.172761343      -79.1391475      0.172761343      -79.1391475      0.98221258       9.94713045       
352.92           0.982648265      9.81754806       0.170532787      -79.2727597      0.170532787      -79.2727597      0.982648265      9.81754806       
357.16           0.983069262      9.69077369       0.168351687      -79.4034493      0.168351687      -79.4034493      0.983069262      9.69077369       
361.4            0.983476217      9.56671327       0.166216487      -79.5313129      0.166216487      -79.5313129      0.983476217      9.56671327       
365.64           0.98386974       9.44527681       0.1641257        -79.6564431      0.1641257        -79.6564431      0.98386974       9.44527681       
369.88           0.984250412      9.32637825       0.1620779        -79.7789283      0.1620779        -79.7789283      0.984250412      9.32637825       
374.12           0.984618779      9.20993517       0.16007172       -79.8988533      0.16007172       -79.8988533      0.984618779      9.20993517       
378.36           0.984975362      9.09586869       0.158105851      -80.0162991      0.158105851      -80.0162991      0.984975362      9.09586869       
382.6            0.985320652      8.98410319       0.156179035      -80.1313435      0.156179035      -80.1313435      0.985320652      8.98410319       
386.84           0.985655116      8.87456622       0.154290067      -80.2440608      0.154290067      -80.2440608      0.985655116      8.87456622       
391.08           0.985979197      8.7671883        0.15243779       -80.3545226      0.15243779       -80.3545226      0.985979197      8.7671883        
395.32           0.986293316      8.66190278       0.150621091      -80.4627972      0.150621091      -80.4627972      0.986293316      8.66190278       
399.56           0.986597872      8.55864571       0.148838904      -80.5689503      0.148838904      -80.5689503      0.986597872      8.55864571       
403.8            0.986893245      8.45735567       0.147090203      -80.6730452      0.147090203      -80.6730452      0.986893245      8.45735567       
408.04           0.987179796      8.3579737        0.145374         -80.7751422      0.145374         -80.7751422      0.987179796      8.3579737        
412.28           0.987457869      8.26044314       0.143689347      -80.8752996      0.143689347      -80.8752996      0.987457869      8.26044314       
416.52           0.987727791      8.16470952       0.142035332      -80.9735733      0.142035332      -80.9735733      0.987727791      8.16470952       
420.76           0.987989872      8.07072049       0.140411077      -81.0700171      0.140411077      -81.0700171      0.987989872      8.07072049       
425              0.98824441       7.97842568       0.138815737      -81.1646826      0.138815737      -81.1646826      0.98824441       7.97842568       
429.24           0.988491688      7.88777663       0.137248497      -81.2576195      0.137248497      -81.2576195      0.988491688      7.88777663       
433.48           0.988731975      7.7987267        0.135708573      -81.3488758      0.135708573      -81.3488758      0.988731975      7.7987267        
437.72           0.988965528      7.71123097       0.134195209      -81.4384974      0.134195209      -81.4384974      0.988965528      7.71123097       
441.96           0.989192593      7.62524618       0.132707678      -81.5265288      0.132707678      -81.5265288      0.989192593      7.62524618       
446.2            0.989413404      7.54073065       0.131245277      -81.6130126      0.131245277      -81.6130126      0.989413404      7.54073065       
450.44           0.989628185      7.45764421       0.129807328      -81.69799        0.129807328      -81.69799        0.989628185      7.45764421       
454.68           0.98983715       7.37594812       0.128393179      -81.7815008      0.128393179      -81.7815008      0.98983715       7.37594812       
458.92           0.990040504      7.29560503       0.127002198      -81.8635831      0.127002198      -81.8635831      0.990040504      7.29560503       
463.16           0.990238442      7.21657891       0.125633777      -81.9442738      0.125633777      -81.9442738      0.990238442      7.21657891       
467.4            0.990431151      7.13883496       0.124287328      -82.0236086      0.124287328      -82.0236086      0.990431151      7.13883496       
471.64           0.99061881       7.06233961       0.122962283      -82.1016218      0.122962283      -82.1016218      0.99061881       7.06233961       
475.88           0.990801592      6.98706046       0.121658092      -82.1783465      0.121658092      -82.1783465      0.990801592      6.98706046       
480.12           0.990979659      6.91296617       0.120374227      -82.2538148      0.120374227      -82.2538148      0.990979659      6.91296617       
484.36           0.991153169      6.8400265        0.119110175      -82.3280575      0.119110175      -82.3280575      0.991153169      6.8400265        
488.6            0.991322274      6.7682122        0.117865438      -82.4011046      0.117865438      -82.4011046      0.991322274      6.7682122        
492.84           0.991487118      6.69749501       0.116639539      -82.4729848      0.116639539      -82.4729848      0.991487118      6.69749501       
497.08           0.991647839      6.6278476        0.115432014      -82.5437261      0.115432014      -82.5437261      0.991647839      6.6278476        
501.32           0.99180457       6.55924351       0.114242413      -82.6133554      0.114242413      -82.6133554      0.99180457       6.55924351       
505.56           0.99195744       6.49165718       0.113070301      -82.6818988      0.113070301      -82.6818988      0.99195744       6.49165718       
509.8            0.992106571      6.42506385       0.111915259      -82.7493814      0.111915259      -82.7493814      0.992106571      6.42506385       
514.04           0.99225208       6.35943954       0.110776879      -82.8158278      0.110776879      -82.8158278      0.99225208       6.35943954       
518.28           0.992394081      6.29476107       0.109654765      -82.8812614      0.109654765      -82.8812614      0.992394081      6.29476107       
522.52           0.992532682      6.23100594       0.108548536      -82.9457051      0.108548536      -82.9457051      0.992532682      6.23100594       
526.76           0.992667989      6.16815241       0.107457821      -83.009181       0.107457821      -83.009181       0.992667989      6.16815241       
531              0.992800101      6.10617936       0.106382261      -83.0717105      0.106382261      -83.0717105      0.992800101      6.10617936       
535.24           0.992929116      6.04506636       0.105321507      -83.1333144      0.105321507      -83.1333144      0.992929116      6.04506636       
539.48           0.993055125      5.98479358       0.104275221      -83.1940126      0.104275221      -83.1940126      0.993055125      5.98479358       
