! Coilcraft 0603CS-15N Chip Inductor				
! 21 May 2002			
# MHZ S MA R 50
!Freq             MagS11           AngS11           MagS21           AngS21           MagS12           AngS12           MagS22           AngS22
1                0.00120980891    51.0638556       0.999240134      -0.0539589766    0.999240134      -0.0539589766    0.00120980891    51.0638556       
17.21            0.0162973278     82.4141301       0.997979318      -0.927510512     0.997979318      -0.927510512     0.0162973278     82.4141301       
33.42            0.0315024527     83.6961616       0.997032803      -1.79967913      0.997032803      -1.79967913      0.0315024527     83.6961616       
49.63            0.0466826024     83.7375541       0.995989321      -2.67042824      0.995989321      -2.67042824      0.0466826024     83.7375541       
65.84            0.061825438      83.3965938       0.994787919      -3.53952401      0.994787919      -3.53952401      0.061825438      83.3965938       
82.05            0.0769214297     82.8824542       0.993405734      -4.40668443      0.993405734      -4.40668443      0.0769214297     82.8824542       
98.26            0.0919615303     82.2740317       0.991832228      -5.2716085       0.991832228      -5.2716085       0.0919615303     82.2740317       
114.47           0.106936882      81.6085026       0.990062406      -6.13398743      0.990062406      -6.13398743      0.106936882      81.6085026       
130.68           0.121838786      80.9060066       0.988094297      -6.99351034      0.988094297      -6.99351034      0.121838786      80.9060066       
146.89           0.136658721      80.1785685       0.985927807      -7.84986764      0.985927807      -7.84986764      0.136658721      80.1785685       
163.1            0.151388372      79.4339092       0.983564127      -8.70275334      0.983564127      -8.70275334      0.151388372      79.4339092       
179.31           0.166019658      78.6772768       0.98100539       -9.55186674      0.98100539       -9.55186674      0.166019658      78.6772768       
195.52           0.18054476       77.9124071       0.978254466      -10.3969137      0.978254466      -10.3969137      0.18054476       77.9124071       
211.73           0.194956143      77.1420632       0.975314813      -11.2376078      0.975314813      -11.2376078      0.194956143      77.1420632       
227.94           0.209246577      76.3683558       0.972190377      -12.0736711      0.972190377      -12.0736711      0.209246577      76.3683558       
244.15           0.223409153      75.5929426       0.968885519      -12.9048349      0.968885519      -12.9048349      0.223409153      75.5929426       
260.36           0.237437304      74.8171564       0.965404949      -13.7308403      0.965404949      -13.7308403      0.237437304      74.8171564       
276.57           0.251324807      74.0420906       0.961753678      -14.5514392      0.961753678      -14.5514392      0.251324807      74.0420906       
292.78           0.265065804      73.2686579       0.957936974      -15.3663938      0.957936974      -15.3663938      0.265065804      73.2686579       
308.99           0.278654803      72.4976312       0.953960321      -16.1754778      0.953960321      -16.1754778      0.278654803      72.4976312       
325.2            0.292086683      71.7296733       0.949829387      -16.9784765      0.949829387      -16.9784765      0.292086683      71.7296733       
341.41           0.305356702      70.9653581       0.945549992      -17.7751866      0.945549992      -17.7751866      0.305356702      70.9653581       
357.62           0.318460494      70.2051872       0.941128073      -18.5654168      0.941128073      -18.5654168      0.318460494      70.2051872       
373.83           0.331394071      69.4496013       0.936569665      -19.3489878      0.936569665      -19.3489878      0.331394071      69.4496013       
390.04           0.344153819      68.6989899       0.931880867      -20.1257322      0.931880867      -20.1257322      0.344153819      68.6989899       
406.25           0.356736494      67.9536988       0.927067823      -20.8954946      0.927067823      -20.8954946      0.356736494      67.9536988       
422.46           0.369139216      67.2140353       0.922136698      -21.6581316      0.922136698      -21.6581316      0.369139216      67.2140353       
438.67           0.381359466      66.4802732       0.917093656      -22.4135113      0.917093656      -22.4135113      0.381359466      66.4802732       
454.88           0.393395071      65.7526562       0.911944842      -23.1615139      0.911944842      -23.1615139      0.393395071      65.7526562       
471.09           0.405244201      65.0314015       0.906696361      -23.9020307      0.906696361      -23.9020307      0.405244201      65.0314015       
487.3            0.416905354      64.3167017       0.901354266      -24.6349644      0.901354266      -24.6349644      0.416905354      64.3167017       
503.51           0.428377349      63.6087276       0.895924536      -25.3602289      0.895924536      -25.3602289      0.428377349      63.6087276       
519.72           0.43965931       62.9076297       0.890413067      -26.0777484      0.890413067      -26.0777484      0.43965931       62.9076297       
535.93           0.450750657      62.2135398       0.884825659      -26.7874579      0.884825659      -26.7874579      0.450750657      62.2135398       
552.14           0.46165109       61.5265728       0.879168         -27.4893024      0.879168         -27.4893024      0.46165109       61.5265728       
568.35           0.472360579      60.8468273       0.873445661      -28.1832367      0.873445661      -28.1832367      0.472360579      60.8468273       
584.56           0.482879349      60.1743876       0.867664083      -28.8692249      0.867664083      -28.8692249      0.482879349      60.1743876       
600.77           0.493207863      59.5093239       0.861828573      -29.5472404      0.861828573      -29.5472404      0.493207863      59.5093239       
616.98           0.503346813      58.8516936       0.855944293      -30.2172652      0.855944293      -30.2172652      0.503346813      58.8516936       
633.19           0.513297106      58.2015423       0.850016256      -30.8792894      0.850016256      -30.8792894      0.513297106      58.2015423       
649.4            0.523059846      57.5589044       0.844049322      -31.5333114      0.844049322      -31.5333114      0.523059846      57.5589044       
665.61           0.532636324      56.9238039       0.838048193      -32.179337       0.838048193      -32.179337       0.532636324      56.9238039       
681.82           0.542028004      56.2962549       0.832017411      -32.8173789      0.832017411      -32.8173789      0.542028004      56.2962549       
698.03           0.551236509      55.6762629       0.825961356      -33.4474571      0.825961356      -33.4474571      0.551236509      55.6762629       
714.24           0.560263609      55.0638244       0.819884244      -34.0695976      0.819884244      -34.0695976      0.560263609      55.0638244       
730.45           0.569111209      54.4589284       0.813790124      -34.6838326      0.813790124      -34.6838326      0.569111209      54.4589284       
746.66           0.577781337      53.8615566       0.807682884      -35.2901998      0.807682884      -35.2901998      0.577781337      53.8615566       
762.87           0.58627613       53.2716836       0.801566246      -35.8887425      0.801566246      -35.8887425      0.58627613       53.2716836       
779.08           0.594597827      52.6892781       0.795443771      -36.4795087      0.795443771      -36.4795087      0.594597827      52.6892781       
795.29           0.602748756      52.1143026       0.789318859      -37.0625511      0.789318859      -37.0625511      0.602748756      52.1143026       
811.5            0.610731322      51.5467146       0.783194749      -37.6379266      0.783194749      -37.6379266      0.610731322      51.5467146       
827.71           0.618548         50.9864663       0.777074526      -38.2056962      0.777074526      -38.2056962      0.618548         50.9864663       
843.92           0.626201328      50.4335055       0.770961122      -38.7659242      0.770961122      -38.7659242      0.626201328      50.4335055       
860.13           0.633693892      49.8877759       0.764857316      -39.3186787      0.764857316      -39.3186787      0.633693892      49.8877759       
876.34           0.641028322      49.3492173       0.758765744      -39.8640305      0.758765744      -39.8640305      0.641028322      49.3492173       
892.55           0.648207284      48.817766        0.752688895      -40.4020533      0.752688895      -40.4020533      0.648207284      48.817766        
908.76           0.655233472      48.2933552       0.746629121      -40.9328232      0.746629121      -40.9328232      0.655233472      48.2933552       
924.97           0.662109601      47.7759151       0.740588639      -41.4564187      0.740588639      -41.4564187      0.662109601      47.7759151       
941.18           0.668838401      47.2653737       0.734569533      -41.9729202      0.734569533      -41.9729202      0.668838401      47.2653737       
957.39           0.675422612      46.7616564       0.728573761      -42.4824099      0.728573761      -42.4824099      0.675422612      46.7616564       
973.6            0.681864975      46.2646867       0.722603158      -42.9849715      0.722603158      -42.9849715      0.681864975      46.2646867       
989.81           0.688168233      45.7743862       0.716659442      -43.4806902      0.716659442      -43.4806902      0.688168233      45.7743862       
1006.02          0.694335119      45.2906752       0.710744214      -43.9696522      0.710744214      -43.9696522      0.694335119      45.2906752       
1022.23          0.700368358      44.8134723       0.704858967      -44.4519447      0.704858967      -44.4519447      0.700368358      44.8134723       
1038.44          0.706270661      44.3426953       0.699005087      -44.9276557      0.699005087      -44.9276557      0.706270661      44.3426953       
1054.65          0.712044717      43.8782609       0.69318386       -45.3968739      0.69318386       -45.3968739      0.712044717      43.8782609       
1070.86          0.717693199      43.4200849       0.687396476      -45.8596884      0.687396476      -45.8596884      0.717693199      43.4200849       
1087.07          0.723218751      42.9680827       0.681644027      -46.3161888      0.681644027      -46.3161888      0.723218751      42.9680827       
1103.28          0.728623991      42.522169        0.675927523      -46.7664645      0.675927523      -46.7664645      0.728623991      42.522169        
1119.49          0.73391151       42.0822586       0.670247882      -47.2106054      0.670247882      -47.2106054      0.73391151       42.0822586       
1135.7           0.739083865      41.6482656       0.664605947      -47.6487011      0.664605947      -47.6487011      0.739083865      41.6482656       
1151.91          0.744143578      41.2201043       0.65900248       -48.0808412      0.65900248       -48.0808412      0.744143578      41.2201043       
1168.12          0.74909314       40.7976891       0.653438171      -48.5071151      0.653438171      -48.5071151      0.74909314       40.7976891       
1184.33          0.753935002      40.3809345       0.647913639      -48.9276115      0.647913639      -48.9276115      0.753935002      40.3809345       
1200.54          0.758671578      39.9697551       0.642429438      -49.342419       0.642429438      -49.342419       0.758671578      39.9697551       
1216.75          0.763305243      39.5640662       0.636986058      -49.7516257      0.636986058      -49.7516257      0.763305243      39.5640662       
1232.96          0.767838331      39.1637831       0.631583928      -50.1553189      0.631583928      -50.1553189      0.767838331      39.1637831       
1249.17          0.772273137      38.7688218       0.626223423      -50.5535854      0.626223423      -50.5535854      0.772273137      38.7688218       
1265.38          0.776611914      38.379099        0.620904864      -50.9465114      0.620904864      -50.9465114      0.776611914      38.379099        
1281.59          0.780856873      37.9945318       0.615628519      -51.334182       0.615628519      -51.334182       0.780856873      37.9945318       
1297.8           0.785010183      37.6150381       0.61039461       -51.7166817      0.61039461       -51.7166817      0.785010183      37.6150381       
1314.01          0.78907397       37.2405366       0.605203314      -52.0940943      0.605203314      -52.0940943      0.78907397       37.2405366       
1330.22          0.793050319      36.8709466       0.600054765      -52.4665025      0.600054765      -52.4665025      0.793050319      36.8709466       
1346.43          0.796941272      36.5061884       0.594949058      -52.8339879      0.594949058      -52.8339879      0.796941272      36.5061884       
1362.64          0.800748826      36.1461832       0.589886248      -53.1966316      0.589886248      -53.1966316      0.800748826      36.1461832       
1378.85          0.804474941      35.7908528       0.584866357      -53.5545133      0.584866357      -53.5545133      0.804474941      35.7908528       
1395.06          0.80812153       35.4401203       0.579889374      -53.9077118      0.579889374      -53.9077118      0.80812153       35.4401203       
1411.27          0.811690466      35.0939095       0.574955254      -54.2563049      0.574955254      -54.2563049      0.811690466      35.0939095       
1427.48          0.815183583      34.7521453       0.570063927      -54.6003694      0.570063927      -54.6003694      0.815183583      34.7521453       
1443.69          0.818602669      34.4147535       0.565215293      -54.939981       0.565215293      -54.939981       0.818602669      34.4147535       
1459.9           0.821949476      34.0816611       0.560409228      -55.2752141      0.560409228      -55.2752141      0.821949476      34.0816611       
1476.11          0.825225713      33.7527958       0.555645584      -55.6061423      0.555645584      -55.6061423      0.825225713      33.7527958       
1492.32          0.828433051      33.4280866       0.55092419       -55.932838       0.55092419       -55.932838       0.828433051      33.4280866       
1508.53          0.831573121      33.1074636       0.546244857      -56.2553724      0.546244857      -56.2553724      0.831573121      33.1074636       
1524.74          0.834647517      32.7908575       0.541607374      -56.5738157      0.541607374      -56.5738157      0.834647517      32.7908575       
1540.95          0.837657793      32.4782007       0.537011515      -56.8882369      0.537011515      -56.8882369      0.837657793      32.4782007       
1557.16          0.840605468      32.1694261       0.532457038      -57.198704       0.532457038      -57.198704       0.840605468      32.1694261       
1573.37          0.843492022      31.864468        0.527943682      -57.5052839      0.527943682      -57.5052839      0.843492022      31.864468        
1589.58          0.846318902      31.5632615       0.523471178      -57.8080421      0.523471178      -57.8080421      0.846318902      31.5632615       
1605.79          0.849087518      31.2657431       0.519039241      -58.1070435      0.519039241      -58.1070435      0.849087518      31.2657431       
1622             0.851799245      30.9718499       0.514647573      -58.4023514      0.514647573      -58.4023514      0.851799245      30.9718499       
1638.21          0.854455425      30.6815204       0.51029587       -58.6940283      0.51029587       -58.6940283      0.854455425      30.6815204       
1654.42          0.857057366      30.394694        0.505983815      -58.9821356      0.505983815      -58.9821356      0.857057366      30.394694        
1670.63          0.859606345      30.1113112       0.501711083      -59.2667335      0.501711083      -59.2667335      0.859606345      30.1113112       
1686.84          0.862103607      29.8313134       0.497477342      -59.5478812      0.497477342      -59.5478812      0.862103607      29.8313134       
1703.05          0.864550363      29.5546432       0.493282251      -59.825637       0.493282251      -59.825637       0.864550363      29.5546432       
1719.26          0.866947797      29.2812439       0.489125466      -60.1000579      0.489125466      -60.1000579      0.866947797      29.2812439       
1735.47          0.869297062      29.0110602       0.485006634      -60.3712         0.485006634      -60.3712         0.869297062      29.0110602       
1751.68          0.871599281      28.7440374       0.480925399      -60.6391183      0.480925399      -60.6391183      0.871599281      28.7440374       
1767.89          0.87385555       28.4801221       0.476881402      -60.903867       0.476881402      -60.903867       0.87385555       28.4801221       
1784.1           0.876066937      28.2192617       0.472874276      -61.165499       0.472874276      -61.165499       0.876066937      28.2192617       
1800.31          0.878234482      27.9614044       0.468903656      -61.4240665      0.468903656      -61.4240665      0.878234482      27.9614044       
1816.52          0.8803592        27.7064997       0.464969171      -61.6796205      0.464969171      -61.6796205      0.8803592        27.7064997       
1832.73          0.882442078      27.4544978       0.461070449      -61.9322112      0.461070449      -61.9322112      0.882442078      27.4544978       
1848.94          0.88448408       27.2053497       0.457207117      -62.1818879      0.457207117      -62.1818879      0.88448408       27.2053497       
1865.15          0.886486145      26.9590076       0.453378799      -62.4286986      0.453378799      -62.4286986      0.886486145      26.9590076       
1881.36          0.888449188      26.7154243       0.44958512       -62.672691       0.44958512       -62.672691       0.888449188      26.7154243       
1897.57          0.890374099      26.4745537       0.445825704      -62.9139113      0.445825704      -62.9139113      0.890374099      26.4745537       
1913.78          0.892261747      26.2363505       0.442100174      -63.1524052      0.442100174      -63.1524052      0.892261747      26.2363505       
1929.99          0.89411298       26.00077         0.438408155      -63.3882174      0.438408155      -63.3882174      0.89411298       26.00077         
1946.2           0.895928621      25.7677687       0.43474927       -63.6213918      0.43474927       -63.6213918      0.895928621      25.7677687       
1962.41          0.897709475      25.5373038       0.431123147      -63.8519713      0.431123147      -63.8519713      0.897709475      25.5373038       
1978.62          0.899456325      25.3093331       0.42752941       -64.0799981      0.42752941       -64.0799981      0.899456325      25.3093331       
1994.83          0.901169934      25.0838155       0.423967687      -64.3055137      0.423967687      -64.3055137      0.901169934      25.0838155       
2011.04          0.902851046      24.8607104       0.420437609      -64.5285585      0.420437609      -64.5285585      0.902851046      24.8607104       
2027.25          0.904500387      24.6399781       0.416938806      -64.7491723      0.416938806      -64.7491723      0.904500387      24.6399781       
2043.46          0.906118663      24.4215798       0.41347091       -64.9673942      0.41347091       -64.9673942      0.906118663      24.4215798       
2059.67          0.907706563      24.2054771       0.410033558      -65.1832624      0.410033558      -65.1832624      0.907706563      24.2054771       
