! Coilcraft 0603CS-8N2 Chip Inductor				
! 1 August 2002			
# MHZ S MA R 50
!Freq             MagS11           AngS11           MagS21           AngS21           MagS12           AngS12           MagS22           AngS22
1                0.000584176665   59.3095345       0.999701963      -0.0287914182    0.999701963      -0.0287914182    0.000584176665   59.3095346       
21.2             0.0106991368     83.5830436       0.998860819      -0.609881041     0.998860819      -0.609881041     0.0106991368     83.5830436       
41.4             0.0208279424     84.7341134       0.998303922      -1.19042122      0.998303922      -1.19042122      0.0208279424     84.7341134       
61.6             0.0309472432     84.9189121       0.997735443      -1.77046901      0.997735443      -1.77046901      0.0309472432     84.9189121       
81.8             0.041054576      84.7931019       0.997112767      -2.34998919      0.997112767      -2.34998919      0.041054576      84.7931019       
102              0.0511476869     84.5224708       0.996419311      -2.92892334      0.996419311      -2.92892334      0.0511476869     84.5224708       
122.2            0.0612242823     84.1709459       0.995646745      -3.50720286      0.995646745      -3.50720286      0.0612242823     84.1709459       
142.4            0.0712820287     83.7690782       0.994790337      -4.08475386      0.994790337      -4.08475386      0.0712820287     83.7690782       
162.6            0.0813185693     83.3335582       0.993847234      -4.66149938      0.993847234      -4.66149938      0.0813185693     83.3335582       
182.8            0.0913315387     82.8743875       0.992815692      -5.23736074      0.992815692      -5.23736074      0.0913315387     82.8743875       
203              0.101318575      82.3979839       0.991694675      -5.81225832      0.991694675      -5.81225832      0.101318575      82.3979839       
223.2            0.111277327      81.908689        0.990483636      -6.38611209      0.990483636      -6.38611209      0.111277327      81.908689        
243.4            0.121205465      81.4095677       0.989182384      -6.95884202      0.989182384      -6.95884202      0.121205465      81.4095677       
263.6            0.13110068       80.9028601       0.987790996      -7.53036834      0.987790996      -7.53036834      0.13110068       80.9028601       
283.8            0.140960697      80.3902529       0.986309765      -8.10061178      0.986309765      -8.10061178      0.140960697      80.3902529       
304              0.150783272      79.8730485       0.984739157      -8.66949378      0.984739157      -8.66949378      0.150783272      79.8730485       
324.2            0.1605662        79.3522749       0.983079783      -9.23693663      0.983079783      -9.23693663      0.1605662        79.3522749       
344.4            0.170307316      78.8287594       0.981332381      -9.80286358      0.981332381      -9.80286358      0.170307316      78.8287594       
364.6            0.180004503      78.3031794       0.979497795      -10.367199       0.979497795      -10.367199       0.180004503      78.3031794       
384.8            0.189655685      77.7760982       0.977576967      -10.9298686      0.977576967      -10.9298686      0.189655685      77.7760982       
405              0.199258841      77.2479905       0.975570922      -11.490799       0.975570922      -11.490799       0.199258841      77.2479905       
425.2            0.208811997      76.7192617       0.973480764      -12.0499187      0.973480764      -12.0499187      0.208811997      76.7192617       
445.4            0.218313237      76.1902616       0.971307664      -12.6071574      0.971307664      -12.6071574      0.218313237      76.1902616       
465.6            0.227760696      75.6612952       0.969052859      -13.1624462      0.969052859      -13.1624462      0.227760696      75.6612952       
485.8            0.23715257       75.1326309       0.966717641      -13.7157181      0.966717641      -13.7157181      0.23715257       75.1326309       
506              0.246487111      74.604507        0.964303356      -14.2669075      0.964303356      -14.2669075      0.246487111      74.604507        
526.2            0.255762631      74.0771361       0.961811395      -14.8159506      0.961811395      -14.8159506      0.255762631      74.0771361       
546.4            0.264977505      73.5507099       0.959243195      -15.3627853      0.959243195      -15.3627853      0.264977505      73.5507099       
566.6            0.274130167      73.0254016       0.956600231      -15.9073513      0.956600231      -15.9073513      0.274130167      73.0254016       
586.8            0.283219116      72.5013687       0.953884014      -16.44959        0.953884014      -16.44959        0.283219116      72.5013687       
607              0.292242911      71.9787554       0.951096086      -16.9894447      0.951096086      -16.9894447      0.292242911      71.9787554       
627.2            0.301200179      71.4576937       0.948238021      -17.5268607      0.948238021      -17.5268607      0.301200179      71.4576937       
647.4            0.310089607      70.9383054       0.945311414      -18.061785       0.945311414      -18.061785       0.310089607      70.9383054       
667.6            0.318909949      70.4207028       0.942317884      -18.5941665      0.942317884      -18.5941665      0.318909949      70.4207028       
687.8            0.327660022      69.9049899       0.93925907       -19.1239561      0.93925907       -19.1239561      0.327660022      69.9049899       
708              0.336338707      69.3912632       0.936136627      -19.6511065      0.936136627      -19.6511065      0.336338707      69.3912632       
728.2            0.34494495       68.8796126       0.932952222      -20.1755726      0.932952222      -20.1755726      0.34494495       68.8796126       
748.4            0.353477759      68.3701214       0.929707536      -20.6973108      0.929707536      -20.6973108      0.353477759      68.3701214       
768.6            0.361936207      67.8628675       0.926404257      -21.2162798      0.926404257      -21.2162798      0.361936207      67.8628675       
788.8            0.370319429      67.3579235       0.923044077      -21.7324401      0.923044077      -21.7324401      0.370319429      67.3579235       
809              0.378626623      66.8553569       0.919628694      -22.245754       0.919628694      -22.245754       0.378626623      66.8553569       
829.2            0.386857046      66.3552311       0.916159806      -22.7561858      0.916159806      -22.7561858      0.386857046      66.3552311       
849.4            0.395010018      65.8576049       0.912639112      -23.2637018      0.912639112      -23.2637018      0.395010018      65.8576049       
869.6            0.403084918      65.3625333       0.909068305      -23.76827        0.909068305      -23.76827        0.403084918      65.3625333       
889.8            0.411081184      64.8700674       0.905449076      -24.2698603      0.905449076      -24.2698603      0.411081184      64.8700674       
910              0.41899831       64.380255        0.901783106      -24.7684445      0.901783106      -24.7684445      0.41899831       64.380255        
930.2            0.42683585       63.8931404       0.898072071      -25.2639961      0.898072071      -25.2639961      0.42683585       63.8931404       
950.4            0.43459341       63.4087647       0.894317632      -25.7564906      0.894317632      -25.7564906      0.43459341       63.4087647       
970.6            0.442270651      62.9271662       0.890521443      -26.2459051      0.890521443      -26.2459051      0.442270651      62.9271662       
990.8            0.44986729       62.4483801       0.88668514       -26.7322184      0.88668514       -26.7322184      0.44986729       62.4483801       
1011             0.457383091      61.9724389       0.882810347      -27.2154112      0.882810347      -27.2154112      0.457383091      61.9724389       
1031.2           0.464817871      61.4993727       0.878898669      -27.6954657      0.878898669      -27.6954657      0.464817871      61.4993727       
1051.4           0.472171496      61.0292087       0.874951695      -28.1723659      0.874951695      -28.1723659      0.472171496      61.0292087       
1071.6           0.479443878      60.5619721       0.870970995      -28.6460972      0.870970995      -28.6460972      0.479443878      60.5619721       
1091.8           0.486634978      60.0976855       0.866958119      -29.1166468      0.866958119      -29.1166468      0.486634978      60.0976855       
1112             0.493744797      59.6363695       0.862914594      -29.5840033      0.862914594      -29.5840033      0.493744797      59.6363695       
1132.2           0.500773384      59.1780425       0.858841927      -30.0481569      0.858841927      -30.0481569      0.500773384      59.1780425       
1152.4           0.507720826      58.7227209       0.854741602      -30.5090993      0.854741602      -30.5090993      0.507720826      58.7227209       
1172.6           0.514587252      58.2704191       0.850615078      -30.9668234      0.850615078      -30.9668234      0.514587252      58.2704191       
1192.8           0.52137283       57.8211496       0.846463791      -31.4213238      0.846463791      -31.4213238      0.52137283       57.8211496       
1213             0.528077764      57.3749232       0.842289151      -31.8725962      0.842289151      -31.8725962      0.528077764      57.3749232       
1233.2           0.534702295      56.931749        0.838092542      -32.3206379      0.838092542      -32.3206379      0.534702295      56.931749        
1253.4           0.541246697      56.4916343       0.833875323      -32.7654471      0.833875323      -32.7654471      0.541246697      56.4916343       
1273.6           0.547711277      56.0545849       0.829638826      -33.2070236      0.829638826      -33.2070236      0.547711277      56.0545849       
1293.8           0.554096375      55.6206051       0.825384355      -33.6453683      0.825384355      -33.6453683      0.554096375      55.6206051       
1314             0.560402358      55.1896976       0.821113187      -34.0804831      0.821113187      -34.0804831      0.560402358      55.1896976       
1334.2           0.566629625      54.7618638       0.816826573      -34.5123712      0.816826573      -34.5123712      0.566629625      54.7618638       
1354.4           0.572778599      54.3371037       0.812525733      -34.9410368      0.812525733      -34.9410368      0.572778599      54.3371037       
1374.6           0.578849731      53.9154162       0.808211862      -35.3664851      0.808211862      -35.3664851      0.578849731      53.9154162       
1394.8           0.584843494      53.4967986       0.803886125      -35.7887225      0.803886125      -35.7887225      0.584843494      53.4967986       
1415             0.590760387      53.0812473       0.799549661      -36.2077563      0.799549661      -36.2077563      0.590760387      53.0812473       
1435.2           0.596600928      52.6687575       0.795203577      -36.6235944      0.795203577      -36.6235944      0.596600928      52.6687575       
1455.4           0.602365657      52.2593232       0.790848955      -37.0362462      0.790848955      -37.0362462      0.602365657      52.2593232       
1475.6           0.608055133      51.8529376       0.786486848      -37.4457213      0.786486848      -37.4457213      0.608055133      51.8529376       
1495.8           0.613669933      51.4495926       0.782118281      -37.8520307      0.782118281      -37.8520307      0.613669933      51.4495926       
1516             0.61921065       51.0492794       0.77774425       -38.2551858      0.77774425       -38.2551858      0.61921065       51.0492794       
1536.2           0.624677894      50.6519883       0.773365726      -38.655199       0.773365726      -38.655199       0.624677894      50.6519883       
1556.4           0.630072289      50.2577085       0.768983649      -39.0520831      0.768983649      -39.0520831      0.630072289      50.2577085       
1576.6           0.635394473      49.8664286       0.764598935      -39.4458519      0.764598935      -39.4458519      0.635394473      49.8664286       
1596.8           0.640645094      49.4781364       0.760212471      -39.8365196      0.760212471      -39.8365196      0.640645094      49.4781364       
1617             0.645824816      49.092819        0.755825117      -40.2241013      0.755825117      -40.2241013      0.645824816      49.092819        
1637.2           0.650934309      48.7104626       0.751437707      -40.6086125      0.751437707      -40.6086125      0.650934309      48.7104626       
1657.4           0.655974254      48.331053        0.747051051      -40.9900691      0.747051051      -40.9900691      0.655974254      48.331053        
1677.6           0.660945342      47.9545751       0.742665929      -41.3684879      0.742665929      -41.3684879      0.660945342      47.9545751       
1697.8           0.665848269      47.5810135       0.7382831        -41.7438858      0.7382831        -41.7438858      0.665848269      47.5810135       
1718             0.670683741      47.2103521       0.733903296      -42.1162805      0.733903296      -42.1162805      0.670683741      47.2103521       
1738.2           0.675452467      46.8425742       0.729527223      -42.4856899      0.729527223      -42.4856899      0.675452467      46.8425742       
1758.4           0.680155163      46.4776627       0.725155564      -42.8521325      0.725155564      -42.8521325      0.680155163      46.4776627       
1778.6           0.684792548      46.1156001       0.72078898       -43.2156269      0.72078898       -43.2156269      0.684792548      46.1156001       
1798.8           0.689365347      45.7563683       0.716428106      -43.5761923      0.716428106      -43.5761923      0.689365347      45.7563683       
1819             0.693874286      45.399949        0.712073555      -43.9338482      0.712073555      -43.9338482      0.693874286      45.399949        
1839.2           0.698320095      45.0463233       0.707725919      -44.2886144      0.707725919      -44.2886144      0.698320095      45.0463233       
1859.4           0.702703503      44.6954721       0.703385764      -44.6405108      0.703385764      -44.6405108      0.702703503      44.6954721       
1879.6           0.707025243      44.3473759       0.699053639      -44.9895578      0.699053639      -44.9895578      0.707025243      44.3473759       
1899.8           0.711286048      44.002015        0.694730069      -45.335776       0.694730069      -45.335776       0.711286048      44.002015        
1920             0.715486649      43.6593694       0.69041556       -45.6791861      0.69041556       -45.6791861      0.715486649      43.6593694       
1940.2           0.719627779      43.3194186       0.686110596      -46.0198091      0.686110596      -46.0198091      0.719627779      43.3194186       
1960.4           0.723710169      42.9821423       0.681815643      -46.357666       0.681815643      -46.357666       0.723710169      42.9821423       
1980.6           0.727734548      42.6475196       0.677531146      -46.6927783      0.677531146      -46.6927783      0.727734548      42.6475196       
2000.8           0.731701643      42.3155296       0.673257533      -47.0251673      0.673257533      -47.0251673      0.731701643      42.3155296       
2021             0.73561218       41.9861513       0.668995213      -47.3548546      0.668995213      -47.3548546      0.73561218       41.9861513       
2041.2           0.739466881      41.6593633       0.664744577      -47.6818619      0.664744577      -47.6818619      0.739466881      41.6593633       
2061.4           0.743266465      41.3351443       0.660505998      -48.0062109      0.660505998      -48.0062109      0.743266465      41.3351443       
2081.6           0.747011648      41.0134727       0.656279833      -48.3279234      0.656279833      -48.3279234      0.747011648      41.0134727       
2101.8           0.750703142      40.694327        0.652066421      -48.6470213      0.652066421      -48.6470213      0.750703142      40.694327        
2122             0.754341655      40.3776855       0.647866087      -48.9635265      0.647866087      -48.9635265      0.754341655      40.3776855       
2142.2           0.75792789       40.0635264       0.64367914       -49.277461       0.64367914       -49.277461       0.75792789       40.0635264       
2162.4           0.761462546      39.7518279       0.639505871      -49.5888468      0.639505871      -49.5888468      0.761462546      39.7518279       
2182.6           0.764946316      39.4425681       0.63534656       -49.8977057      0.63534656       -49.8977057      0.764946316      39.4425681       
2202.8           0.768379889      39.1357251       0.631201471      -50.2040598      0.631201471      -50.2040598      0.768379889      39.1357251       
2223             0.771763948      38.8312771       0.627070853      -50.5079309      0.627070853      -50.5079309      0.771763948      38.8312771       
2243.2           0.775099171      38.5292021       0.622954943      -50.8093411      0.622954943      -50.8093411      0.775099171      38.5292021       
2263.4           0.778386229      38.2294782       0.618853964      -51.1083121      0.618853964      -51.1083121      0.778386229      38.2294782       
2283.6           0.781625789      37.9320836       0.614768128      -51.4048657      0.614768128      -51.4048657      0.781625789      37.9320836       
2303.8           0.784818509      37.6369964       0.610697632      -51.6990237      0.610697632      -51.6990237      0.784818509      37.6369964       
2324             0.787965043      37.3441947       0.606642662      -51.9908078      0.606642662      -51.9908078      0.787965043      37.3441947       
2344.2           0.791066038      37.0536569       0.602603395      -52.2802396      0.602603395      -52.2802396      0.791066038      37.0536569       
2364.4           0.794122134      36.7653611       0.598579993      -52.5673404      0.598579993      -52.5673404      0.794122134      36.7653611       
2384.6           0.797133966      36.4792859       0.594572609      -52.8521318      0.594572609      -52.8521318      0.797133966      36.4792859       
2404.8           0.80010216       36.1954095       0.590581385      -53.134635       0.590581385      -53.134635       0.80010216       36.1954095       
2425             0.803027336      35.9137105       0.586606455      -53.4148713      0.586606455      -53.4148713      0.803027336      35.9137105       
2445.2           0.805910108      35.6341676       0.582647939      -53.6928616      0.582647939      -53.6928616      0.805910108      35.6341676       
2465.4           0.808751082      35.3567594       0.578705951      -53.9686269      0.578705951      -53.9686269      0.808751082      35.3567594       
2485.6           0.811550858      35.0814646       0.574780594      -54.242188       0.574780594      -54.242188       0.811550858      35.0814646       
2505.8           0.814310027      34.8082623       0.570871964      -54.5135657      0.570871964      -54.5135657      0.814310027      34.8082623       
2526             0.817029175      34.5371314       0.566980147      -54.7827803      0.566980147      -54.7827803      0.817029175      34.5371314       
2546.2           0.819708881      34.2680511       0.563105221      -55.0498523      0.563105221      -55.0498523      0.819708881      34.2680511       
2566.4           0.822349714      34.0010007       0.559247256      -55.3148018      0.559247256      -55.3148018      0.822349714      34.0010007       
