! Coilcraft 0603CS-R12 Chip Inductor				
! 21 May 2002			
# MHZ S MA R 50
!Freq             MagS11           AngS11           MagS21           AngS21           MagS12           AngS12           MagS22           AngS22
1                0.0079615589     69.0427664       0.997180098      -0.427196022     0.997180098      -0.427196022     0.0079615589     69.0427664       
6.73             0.0503984873     79.1033021       0.991708356      -2.86045178      0.991708356      -2.86045178      0.0503984873     79.1033021       
12.46            0.0923780569     78.8255554       0.986270025      -5.27225181      0.986270025      -5.27225181      0.0923780569     78.8255554       
18.19            0.133743601      77.4601879       0.979699484      -7.65792434      0.979699484      -7.65792434      0.133743601      77.4601879       
23.92            0.174322796      75.7334208       0.97183867       -10.0112911      0.97183867       -10.0112911      0.174322796      75.7334208       
29.65            0.213952481      73.8529691       0.962690979      -12.3261873      0.962690979      -12.3261873      0.213952481      73.8529691       
35.38            0.252486575      71.9061203       0.952322155      -14.5968669      0.952322155      -14.5968669      0.252486575      71.9061203       
41.11            0.289799993      69.9381146       0.940829957      -16.8181899      0.940829957      -16.8181899      0.289799993      69.9381146       
46.84            0.325790533      67.9757042       0.928330087      -18.9857203      0.928330087      -18.9857203      0.325790533      67.9757042       
52.57            0.36037937       66.0361118       0.914947734      -21.0957708      0.914947734      -21.0957708      0.36037937       66.0361118       
58.3             0.393510511      64.1310173       0.900811659      -23.1454103      0.900811659      -23.1454103      0.393510511      64.1310173       
64.03            0.425149455      62.2685551       0.886049805      -25.1324435      0.886049805      -25.1324435      0.425149455      62.2685551       
69.76            0.455281299      60.4544173       0.870785984      -27.0553707      0.870785984      -27.0553707      0.455281299      60.4544173       
75.49            0.483908488      58.6925186       0.855137435      -28.9133324      0.855137435      -28.9133324      0.483908488      58.6925186       
81.22            0.511048388      56.9854285       0.839213124      -30.7060446      0.839213124      -30.7060446      0.511048388      56.9854285       
86.95            0.536730817      55.3346733       0.82311265       -32.43373        0.82311265       -32.43373        0.536730817      55.3346733       
92.68            0.560995661      53.7409581       0.806925681      -34.0970474      0.806925681      -34.0970474      0.560995661      53.7409581       
98.41            0.583890651      52.2043385       0.790731792      -35.6970229      0.790731792      -35.6970229      0.583890651      52.2043385       
104.14           0.605469338      50.7243565       0.774600635      -37.2349842      0.774600635      -37.2349842      0.605469338      50.7243565       
109.87           0.625789325      49.3001516       0.758592348      -38.712501       0.758592348      -38.712501       0.625789325      49.3001516       
115.6            0.644910729      47.9305513       0.742758126      -40.1313298      0.742758126      -40.1313298      0.644910729      47.9305513       
121.33           0.662894904      46.6141464       0.727140907      -41.4933664      0.727140907      -41.4933664      0.662894904      46.6141464       
127.06           0.679803381      45.349353        0.711776112      -42.8006032      0.711776112      -42.8006032      0.679803381      45.349353        
132.79           0.695697019      44.1344639       0.696692405      -44.0550935      0.696692405      -44.0550935      0.695697019      44.1344639       
138.52           0.71063535       42.9676908       0.681912447      -45.2589212      0.681912447      -45.2589212      0.71063535       42.9676908       
144.25           0.724676074      41.8471983       0.667453615      -46.4141755      0.667453615      -46.4141755      0.724676074      41.8471983       
149.98           0.737874695      40.7711322       0.653328686      -47.5229303      0.653328686      -47.5229303      0.737874695      40.7711322       
155.71           0.750284271      39.7376412       0.639546462      -48.5872276      0.639546462      -48.5872276      0.750284271      39.7376412       
161.44           0.761955257      38.744895        0.626112344      -49.6090651      0.626112344      -49.6090651      0.761955257      38.744895        
167.17           0.772935422      37.7910974       0.613028847      -50.5903854      0.613028847      -50.5903854      0.772935422      37.7910974       
172.9            0.783269827      36.8744972       0.600296058      -51.5330694      0.600296058      -51.5330694      0.783269827      36.8744972       
178.63           0.793000851      35.9933954       0.587912042      -52.438931       0.587912042      -52.438931       0.793000851      35.9933954       
184.36           0.802168242      35.1461512       0.575873198      -53.3097131      0.575873198      -53.3097131      0.802168242      35.1461512       
190.09           0.810809207      34.3311853       0.564174569      -54.1470865      0.564174569      -54.1470865      0.810809207      34.3311853       
195.82           0.818958513      33.5469821       0.552810108      -54.9526485      0.552810108      -54.9526485      0.818958513      33.5469821       
201.55           0.826648598      32.7920911       0.541772907      -55.7279235      0.541772907      -55.7279235      0.826648598      32.7920911       
207.28           0.833909693      32.0651264       0.531055396      -56.4743636      0.531055396      -56.4743636      0.833909693      32.0651264       
213.01           0.840769945      31.3647668       0.520649511      -57.1933502      0.520649511      -57.1933502      0.840769945      31.3647668       
218.74           0.847255548      30.6897541       0.510546831      -57.886196       0.510546831      -57.886196       0.847255548      30.6897541       
224.47           0.853390855      30.0388917       0.500738699      -58.5541472      0.500738699      -58.5541472      0.853390855      30.0388917       
230.2            0.859198509      29.4110428       0.491216321      -59.198386       0.491216321      -59.198386       0.859198509      29.4110428       
235.93           0.864699553      28.805128        0.481970851      -59.820033       0.481970851      -59.820033       0.864699553      28.805128        
241.66           0.869913541      28.2201234       0.472993454      -60.4201501      0.472993454      -60.4201501      0.869913541      28.2201234       
247.39           0.874858644      27.6550577       0.464275362      -60.9997431      0.464275362      -60.9997431      0.874858644      27.6550577       
253.12           0.879551748      27.1090105       0.455807922      -61.5597646      0.455807922      -61.5597646      0.879551748      27.1090105       
258.85           0.884008548      26.5811092       0.447582631      -62.1011165      0.447582631      -62.1011165      0.884008548      26.5811092       
264.58           0.888243636      26.0705274       0.43959116       -62.6246525      0.43959116       -62.6246525      0.888243636      26.0705274       
270.31           0.892270579      25.5764818       0.431825379      -63.1311809      0.431825379      -63.1311809      0.892270579      25.5764818       
276.04           0.896102001      25.0982304       0.424277375      -63.621467       0.424277375      -63.621467       0.896102001      25.0982304       
281.77           0.899749646      24.6350702       0.41693946       -64.0962355      0.41693946       -64.0962355      0.899749646      24.6350702       
287.5            0.903224448      24.1863351       0.409804179      -64.5561724      0.409804179      -64.5561724      0.903224448      24.1863351       
293.23           0.906536592      23.7513937       0.402864317      -65.0019277      0.402864317      -65.0019277      0.906536592      23.7513937       
298.96           0.909695566      23.3296479       0.396112902      -65.4341171      0.396112902      -65.4341171      0.909695566      23.3296479       
304.69           0.912710218      22.9205302       0.389543201      -65.8533239      0.389543201      -65.8533239      0.912710218      22.9205302       
310.42           0.915588798      22.5235029       0.383148722      -66.2601013      0.383148722      -66.2601013      0.915588798      22.5235029       
316.15           0.918339007      22.1380558       0.376923209      -66.6549734      0.376923209      -66.6549734      0.918339007      22.1380558       
321.88           0.920968036      21.7637049       0.370860639      -67.0384376      0.370860639      -67.0384376      0.920968036      21.7637049       
327.61           0.923482602      21.3999906       0.364955218      -67.4109656      0.364955218      -67.4109656      0.923482602      21.3999906       
333.34           0.925888986      21.046477        0.359201372      -67.7730052      0.359201372      -67.7730052      0.925888986      21.046477        
339.07           0.92819306       20.7027497       0.353593743      -68.1249815      0.353593743      -68.1249815      0.92819306       20.7027497       
344.8            0.930400322      20.3684153       0.348127184      -68.4672982      0.348127184      -68.4672982      0.930400322      20.3684153       
350.53           0.932515919      20.0430997       0.34279675       -68.800339       0.34279675       -68.800339       0.932515919      20.0430997       
356.26           0.934544674      19.7264475       0.337597692      -69.1244684      0.337597692      -69.1244684      0.934544674      19.7264475       
361.99           0.936491108      19.4181203       0.332525448      -69.4400334      0.332525448      -69.4400334      0.936491108      19.4181203       
367.72           0.938359464      19.1177964       0.327575642      -69.7473635      0.327575642      -69.7473635      0.938359464      19.1177964       
373.45           0.940153722      18.8251695       0.322744068      -70.0467727      0.322744068      -70.0467727      0.940153722      18.8251695       
379.18           0.941877621      18.539948        0.318026694      -70.3385599      0.318026694      -70.3385599      0.941877621      18.539948        
384.91           0.943534675      18.261854        0.313419644      -70.6230095      0.313419644      -70.6230095      0.943534675      18.261854        
390.64           0.945128188      17.9906228       0.308919201      -70.9003928      0.308919201      -70.9003928      0.945128188      17.9906228       
396.37           0.946661266      17.7260019       0.304521795      -71.1709681      0.304521795      -71.1709681      0.946661266      17.7260019       
402.1            0.948136837      17.4677507       0.300223999      -71.4349819      0.300223999      -71.4349819      0.948136837      17.4677507       
407.83           0.949557655      17.2156394       0.296022523      -71.6926694      0.296022523      -71.6926694      0.949557655      17.2156394       
413.56           0.950926317      16.9694488       0.291914207      -71.9442548      0.291914207      -71.9442548      0.950926317      16.9694488       
419.29           0.952245272      16.7289695       0.287896017      -72.1899523      0.287896017      -72.1899523      0.952245272      16.7289695       
425.02           0.953516829      16.4940016       0.283965038      -72.4299666      0.283965038      -72.4299666      0.953516829      16.4940016       
430.75           0.95474317       16.2643539       0.28011847       -72.664493       0.28011847       -72.664493       0.95474317       16.2643539       
436.48           0.955926352      16.0398437       0.276353623      -72.8937185      0.276353623      -72.8937185      0.955926352      16.0398437       
442.21           0.957068323      15.8202964       0.272667912      -73.1178215      0.272667912      -73.1178215      0.957068323      15.8202964       
447.94           0.958170923      15.6055447       0.269058853      -73.3369731      0.269058853      -73.3369731      0.958170923      15.6055447       
453.67           0.95923589       15.3954286       0.265524056      -73.5513366      0.265524056      -73.5513366      0.95923589       15.3954286       
459.4            0.960264874      15.189795        0.262061226      -73.7610687      0.262061226      -73.7610687      0.960264874      15.189795        
465.13           0.961259433      14.988497        0.258668153      -73.9663193      0.258668153      -73.9663193      0.961259433      14.988497        
470.86           0.962221044      14.7913942       0.255342713      -74.1672319      0.255342713      -74.1672319      0.962221044      14.7913942       
476.59           0.963151109      14.5983516       0.252082861      -74.3639441      0.252082861      -74.3639441      0.963151109      14.5983516       
482.32           0.964050956      14.4092402       0.24888663       -74.556588       0.24888663       -74.556588       0.964050956      14.4092402       
488.05           0.964921845      14.2239358       0.245752127      -74.74529        0.245752127      -74.74529        0.964921845      14.2239358       
493.78           0.965764971      14.0423196       0.242677529      -74.9301715      0.242677529      -74.9301715      0.965764971      14.0423196       
499.51           0.966581471      13.8642775       0.23966108       -75.111349       0.23966108       -75.111349       0.966581471      13.8642775       
505.24           0.967372424      13.6896996       0.236701089      -75.2889342      0.236701089      -75.2889342      0.967372424      13.6896996       
510.97           0.968138856      13.5184807       0.233795926      -75.4630347      0.233795926      -75.4630347      0.968138856      13.5184807       
516.7            0.968881742      13.3505197       0.230944022      -75.6337536      0.230944022      -75.6337536      0.968881742      13.3505197       
522.43           0.969602011      13.1857191       0.228143864      -75.8011899      0.228143864      -75.8011899      0.969602011      13.1857191       
528.16           0.970300546      13.0239856       0.225393991      -75.9654391      0.225393991      -75.9654391      0.970300546      13.0239856       
533.89           0.970978187      12.8652291       0.222692998      -76.1265926      0.222692998      -76.1265926      0.970978187      12.8652291       
539.62           0.971635737      12.7093629       0.220039527      -76.2847387      0.220039527      -76.2847387      0.971635737      12.7093629       
545.35           0.972273959      12.556304        0.217432269      -76.4399621      0.217432269      -76.4399621      0.972273959      12.556304        
551.08           0.972893581      12.4059719       0.214869959      -76.5923445      0.214869959      -76.5923445      0.972893581      12.4059719       
556.81           0.973495297      12.2582894       0.212351379      -76.7419644      0.212351379      -76.7419644      0.973495297      12.2582894       
562.54           0.97407977       12.1131821       0.20987535       -76.8888975      0.20987535       -76.8888975      0.97407977       12.1131821       
568.27           0.974647633      11.9705784       0.207440735      -77.0332167      0.207440735      -77.0332167      0.974647633      11.9705784       
574              0.97519949       11.8304089       0.205046436      -77.1749921      0.205046436      -77.1749921      0.97519949       11.8304089       
579.73           0.975735916      11.6926072       0.202691392      -77.3142914      0.202691392      -77.3142914      0.975735916      11.6926072       
585.46           0.976257465      11.5571088       0.200374576      -77.45118        0.200374576      -77.45118        0.976257465      11.5571088       
591.19           0.976764663      11.4238517       0.198094997      -77.5857206      0.198094997      -77.5857206      0.976764663      11.4238517       
596.92           0.977258014      11.2927761       0.195851697      -77.7179741      0.195851697      -77.7179741      0.977258014      11.2927761       
602.65           0.977738         11.1638241       0.193643749      -77.8479988      0.193643749      -77.8479988      0.977738         11.1638241       
608.38           0.978205083      11.03694         0.191470256      -77.9758514      0.191470256      -77.9758514      0.978205083      11.03694         
614.11           0.978659706      10.9120699       0.189330351      -78.1015864      0.189330351      -78.1015864      0.978659706      10.9120699       
619.84           0.97910229       10.7891615       0.187223194      -78.2252564      0.187223194      -78.2252564      0.97910229       10.7891615       
625.57           0.979533242      10.6681647       0.185147972      -78.3469123      0.185147972      -78.3469123      0.979533242      10.6681647       
631.3            0.979952951      10.5490308       0.183103901      -78.4666032      0.183103901      -78.4666032      0.979952951      10.5490308       
637.03           0.980361789      10.4317127       0.181090216      -78.5843765      0.181090216      -78.5843765      0.980361789      10.4317127       
642.76           0.980760112      10.3161649       0.179106182      -78.7002781      0.179106182      -78.7002781      0.980760112      10.3161649       
648.49           0.981148265      10.2023435       0.177151083      -78.8143523      0.177151083      -78.8143523      0.981148265      10.2023435       
654.22           0.981526575      10.0902058       0.175224227      -78.926642       0.175224227      -78.926642       0.981526575      10.0902058       
659.95           0.98189536       9.97971057       0.173324943      -79.0371886      0.173324943      -79.0371886      0.98189536       9.97971057       
665.68           0.982254921      9.87081797       0.17145258       -79.1460321      0.17145258       -79.1460321      0.982254921      9.87081797       
671.41           0.98260555       9.76348933       0.169606508      -79.2532114      0.169606508      -79.2532114      0.98260555       9.76348933       
677.14           0.982947526      9.65768723       0.167786115      -79.3587639      0.167786115      -79.3587639      0.982947526      9.65768723       
682.87           0.98328112       9.55337541       0.165990808      -79.4627259      0.165990808      -79.4627259      0.98328112       9.55337541       
688.6            0.983606589      9.45051873       0.164220012      -79.5651325      0.164220012      -79.5651325      0.983606589      9.45051873       
694.33           0.983924182      9.34908314       0.162473168      -79.6660177      0.162473168      -79.6660177      0.983924182      9.34908314       
700.06           0.984234137      9.24903563       0.160749733      -79.7654144      0.160749733      -79.7654144      0.984234137      9.24903563       
705.79           0.984536687      9.15034418       0.159049183      -79.8633545      0.159049183      -79.8633545      0.984536687      9.15034418       
711.52           0.98483205       9.05297774       0.157371007      -79.9598689      0.157371007      -79.9598689      0.98483205       9.05297774       
717.25           0.985120442      8.9569062        0.155714708      -80.0549873      0.155714708      -80.0549873      0.985120442      8.9569062        
722.98           0.985402068      8.86210034       0.154079804      -80.1487389      0.154079804      -80.1487389      0.985402068      8.86210034       
728.71           0.985677124      8.76853178       0.152465828      -80.2411515      0.152465828      -80.2411515      0.985677124      8.76853178       
