! Coilcraft 0603CS-18N Chip Inductor				
! 21 May 2002			
# MHZ S MA R 50
!Freq             MagS11           AngS11           MagS21           AngS21           MagS12           AngS12           MagS22           AngS22
1                0.0014502994     51.1145239       0.999090189      -0.0647410609    0.999090189      -0.0647410609    0.0014502994     51.1145239       
14.46            0.0164471045     81.8887341       0.997812242      -0.935009326     0.997812242      -0.935009326     0.0164471045     81.8887341       
27.92            0.0315904578     83.369267        0.996846256      -1.80387879      0.996846256      -1.80387879      0.0315904578     83.369267        
41.38            0.046711228      83.493112        0.995788661      -2.67132927      0.995788661      -2.67132927      0.046711228      83.493112        
54.84            0.0617957903     83.1993155       0.994577056      -3.53714227      0.994577056      -3.53714227      0.0617957903     83.1993155       
68.3             0.0768344941     82.7167087       0.993187848      -4.40104987      0.993187848      -4.40104987      0.0768344941     82.7167087       
81.76            0.0918184049     82.1314214       0.991610053      -5.26276432      0.991610053      -5.26276432      0.0918184049     82.1314214       
95.22            0.106738846      81.4839396       0.989838365      -6.12198951      0.989838365      -6.12198951      0.106738846      81.4839396       
108.68           0.12158732       80.7961391       0.987870564      -6.9784267       0.987870564      -6.9784267       0.12158732       80.7961391       
122.14           0.136355512      80.0810455       0.985706342      -7.83177795      0.985706342      -7.83177795      0.136355512      80.0810455       
135.6            0.151035309      79.3469978       0.983346696      -8.68174844      0.983346696      -8.68174844      0.151035309      79.3469978       
149.06           0.165618824      78.5996461       0.980793575      -9.52804812      0.980793575      -9.52804812      0.165618824      78.5996461       
162.52           0.180098421      77.8429986       0.978049666      -10.370393       0.978049666      -10.370393       0.180098421      77.8429986       
175.98           0.194466737      77.0800094       0.975118249      -11.2085063      0.975118249      -11.2085063      0.194466737      77.0800094       
189.44           0.208716698      76.3129267       0.972003092      -12.042119       0.972003092      -12.042119       0.208716698      76.3129267       
202.9            0.222841541      75.5435092       0.968708375      -12.870971       0.968708375      -12.870971       0.222841541      75.5435092       
216.36           0.236834825      74.7731655       0.965238628      -13.6948116      0.965238628      -13.6948116      0.236834825      74.7731655       
229.82           0.250690445      74.0030469       0.961598683      -14.5133995      0.961598683      -14.5133995      0.250690445      74.0030469       
243.28           0.26440264       73.2341109       0.957793625      -15.3265041      0.957793625      -15.3265041      0.26440264       73.2341109       
256.74           0.277966001      72.4671654       0.953828761      -16.1339052      0.953828761      -16.1339052      0.277966001      72.4671654       
270.2            0.291375478      71.7029014       0.949709578      -16.9353934      0.949709578      -16.9353934      0.291375478      71.7029014       
283.66           0.304626381      70.9419153       0.945441719      -17.7307707      0.945441719      -17.7307707      0.304626381      70.9419153       
297.12           0.317714385      70.1847269       0.94103095       -18.5198501      0.94103095       -18.5198501      0.317714385      70.1847269       
310.58           0.330635526      69.4317924       0.936483132      -19.302456       0.936483132      -19.302456       0.330635526      69.4317924       
324.04           0.343386202      68.6835143       0.931804199      -20.0784243      0.931804199      -20.0784243      0.343386202      68.6835143       
337.5            0.355963167      67.940249        0.927000135      -20.8476024      0.927000135      -20.8476024      0.355963167      67.940249        
350.96           0.368363529      67.2023136       0.922076947      -21.6098488      0.922076947      -21.6098488      0.368363529      67.2023136       
364.42           0.38058474       66.4699901       0.917040649      -22.3650334      0.917040649      -22.3650334      0.38058474       66.4699901       
377.88           0.392624592      65.7435302       0.911897243      -23.1130375      0.911897243      -23.1130375      0.392624592      65.7435302       
391.34           0.404481206      65.0231576       0.906652698      -23.853753       0.906652698      -23.853753       0.404481206      65.0231576       
404.8            0.416153025      64.3090716       0.901312935      -24.5870828      0.901312935      -24.5870828      0.416153025      64.3090716       
418.26           0.427638801      63.601449        0.895883814      -25.3129403      0.895883814      -25.3129403      0.427638801      63.601449        
431.72           0.438937585      62.9004461       0.890371117      -26.0312494      0.890371117      -26.0312494      0.438937585      62.9004461       
445.18           0.450048715      62.2062004       0.884780535      -26.7419438      0.884780535      -26.7419438      0.450048715      62.2062004       
458.64           0.460971805      61.5188321       0.879117662      -27.4449671      0.879117662      -27.4449671      0.460971805      61.5188321       
472.1            0.47170673       60.8384454       0.873387977      -28.1402722      0.873387977      -28.1402722      0.47170673       60.8384454       
485.56           0.482253618      60.1651295       0.867596841      -28.8278213      0.867596841      -28.8278213      0.482253618      60.1651295       
499.02           0.492612829      59.4989602       0.861749486      -29.5075853      0.861749486      -29.5075853      0.492612829      59.4989602       
512.48           0.502784952      58.8400001       0.855851009      -30.1795434      0.855851009      -30.1795434      0.502784952      58.8400001       
525.94           0.512770781      58.1883          0.849906366      -30.8436831      0.849906366      -30.8436831      0.512770781      58.1883          
539.4            0.522571312      57.5438994       0.843920368      -31.4999995      0.843920368      -31.4999995      0.522571312      57.5438994       
552.86           0.532187724      56.9068276       0.837897673      -32.1484949      0.837897673      -32.1484949      0.532187724      56.9068276       
566.32           0.541621366      56.2771041       0.831842791      -32.7891789      0.831842791      -32.7891789      0.541621366      56.2771041       
579.78           0.550873748      55.6547393       0.82576007       -33.4220675      0.82576007       -33.4220675      0.550873748      55.6547393       
593.24           0.559946527      55.0397351       0.819653707      -34.047183       0.819653707      -34.047183       0.559946527      55.0397351       
606.7            0.568841494      54.4320856       0.813527736      -34.6645538      0.813527736      -34.6645538      0.568841494      54.4320856       
620.16           0.577560564      53.8317777       0.807386037      -35.2742136      0.807386037      -35.2742136      0.577560564      53.8317777       
633.62           0.586105763      53.2387912       0.801232327      -35.8762015      0.801232327      -35.8762015      0.586105763      53.2387912       
647.08           0.594479221      52.6530999       0.795070172      -36.4705614      0.795070172      -36.4705614      0.594479221      52.6530999       
660.54           0.602683156      52.0746714       0.788902977      -37.0573419      0.788902977      -37.0573419      0.602683156      52.0746714       
674              0.610719869      51.5034681       0.782733995      -37.6365955      0.782733995      -37.6365955      0.610719869      51.5034681       
687.46           0.618591733      50.9394475       0.776566328      -38.2083791      0.776566328      -38.2083791      0.618591733      50.9394475       
700.92           0.626301183      50.3825621       0.770402927      -38.7727528      0.770402927      -38.7727528      0.626301183      50.3825621       
714.38           0.633850707      49.8327605       0.764246598      -39.3297802      0.764246598      -39.3297802      0.633850707      49.8327605       
727.84           0.641242842      49.2899874       0.758100004      -39.8795281      0.758100004      -39.8795281      0.641242842      49.2899874       
741.3            0.648480159      48.7541838       0.751965667      -40.4220659      0.751965667      -40.4220659      0.648480159      48.7541838       
754.76           0.655565265      48.2252875       0.745845972      -40.9574656      0.745845972      -40.9574656      0.655565265      48.2252875       
768.22           0.662500789      47.7032335       0.739743173      -41.4858015      0.739743173      -41.4858015      0.662500789      47.7032335       
781.68           0.669289377      47.1879541       0.733659394      -42.0071498      0.733659394      -42.0071498      0.669289377      47.1879541       
795.14           0.67593369       46.6793791       0.727596634      -42.5215888      0.727596634      -42.5215888      0.67593369       46.6793791       
808.6            0.682436395      46.1774364       0.721556773      -43.0291982      0.721556773      -43.0291982      0.682436395      46.1774364       
822.06           0.688800159      45.6820519       0.71554157       -43.5300592      0.71554157       -43.5300592      0.688800159      45.6820519       
835.52           0.695027648      45.1931499       0.709552675      -44.0242542      0.709552675      -44.0242542      0.695027648      45.1931499       
848.98           0.70112152       44.7106532       0.703591628      -44.5118666      0.703591628      -44.5118666      0.70112152       44.7106532       
862.44           0.707084421      44.2344834       0.697659864      -44.9929807      0.697659864      -44.9929807      0.707084421      44.2344834       
875.9            0.712918983      43.764561        0.691758717      -45.4676816      0.691758717      -45.4676816      0.712918983      43.764561        
889.36           0.718627819      43.3008057       0.685889425      -45.9360548      0.685889425      -45.9360548      0.718627819      43.3008057       
902.82           0.72421352       42.8431364       0.680053134      -46.3981863      0.680053134      -46.3981863      0.72421352       42.8431364       
916.28           0.729678656      42.3914716       0.674250901      -46.8541624      0.674250901      -46.8541624      0.729678656      42.3914716       
929.74           0.735025765      41.9457292       0.668483697      -47.3040695      0.668483697      -47.3040695      0.735025765      41.9457292       
943.2            0.740257362      41.5058268       0.662752414      -47.747994       0.662752414      -47.747994       0.740257362      41.5058268       
956.66           0.745375926      41.071682        0.657057864      -48.1860224      0.657057864      -48.1860224      0.745375926      41.071682        
970.12           0.750383907      40.6432123       0.651400788      -48.6182408      0.651400788      -48.6182408      0.750383907      40.6432123       
983.58           0.755283719      40.2203352       0.645781856      -49.0447352      0.645781856      -49.0447352      0.755283719      40.2203352       
997.04           0.76007774       39.8029684       0.640201669      -49.4655913      0.640201669      -49.4655913      0.76007774       39.8029684       
1010.5           0.764768315      39.3910298       0.634660767      -49.8808942      0.634660767      -49.8808942      0.764768315      39.3910298       
1023.96          0.769357745      38.9844377       0.629159629      -50.2907286      0.629159629      -50.2907286      0.769357745      38.9844377       
1037.42          0.773848299      38.5831107       0.623698677      -50.6951786      0.623698677      -50.6951786      0.773848299      38.5831107       
1050.88          0.778242202      38.186968        0.618278277      -51.0943277      0.618278277      -51.0943277      0.778242202      38.186968        
1064.34          0.782541642      37.7959294       0.612898746      -51.4882587      0.612898746      -51.4882587      0.782541642      37.7959294       
1077.8           0.786748765      37.4099151       0.607560351      -51.8770537      0.607560351      -51.8770537      0.786748765      37.4099151       
1091.26          0.790865678      37.028846        0.602263314      -52.2607939      0.602263314      -52.2607939      0.790865678      37.028846        
1104.72          0.794894446      36.6526439       0.597007812      -52.6395598      0.597007812      -52.6395598      0.794894446      36.6526439       
1118.18          0.798837093      36.2812311       0.591793984      -53.013431       0.591793984      -53.013431       0.798837093      36.2812311       
1131.64          0.802695604      35.9145309       0.586621928      -53.3824862      0.586621928      -53.3824862      0.802695604      35.9145309       
1145.1           0.806471923      35.5524672       0.581491706      -53.7468031      0.581491706      -53.7468031      0.806471923      35.5524672       
1158.56          0.81016795       35.194965        0.576403347      -54.1064585      0.576403347      -54.1064585      0.81016795       35.194965        
1172.02          0.813785549      34.8419499       0.571356848      -54.4615284      0.571356848      -54.4615284      0.813785549      34.8419499       
1185.48          0.817326541      34.4933487       0.566352175      -54.8120874      0.566352175      -54.8120874      0.817326541      34.4933487       
1198.94          0.820792708      34.1490889       0.561389267      -55.1582095      0.561389267      -55.1582095      0.820792708      34.1490889       
1212.4           0.824185794      33.809099        0.556468036      -55.4999675      0.556468036      -55.4999675      0.824185794      33.809099        
1225.86          0.827507501      33.4733086       0.55158837       -55.8374332      0.55158837       -55.8374332      0.827507501      33.4733086       
1239.32          0.830759495      33.1416482       0.546750132      -56.1706771      0.546750132      -56.1706771      0.830759495      33.1416482       
1252.78          0.833943403      32.8140491       0.541953168      -56.4997691      0.541953168      -56.4997691      0.833943403      32.8140491       
1266.24          0.837060814      32.4904438       0.5371973        -56.8247778      0.5371973        -56.8247778      0.837060814      32.4904438       
1279.7           0.84011328       32.1707657       0.532482333      -57.1457705      0.532482333      -57.1457705      0.84011328       32.1707657       
1293.16          0.843102319      31.8549493       0.527808056      -57.462814       0.527808056      -57.462814       0.843102319      31.8549493       
1306.62          0.846029409      31.54293         0.52317424       -57.7759734      0.52317424       -57.7759734      0.846029409      31.54293         
1320.08          0.848895997      31.2346443       0.518580643      -58.0853133      0.518580643      -58.0853133      0.848895997      31.2346443       
1333.54          0.851703492      30.9300296       0.514027009      -58.3908968      0.514027009      -58.3908968      0.851703492      30.9300296       
1347             0.854453271      30.6290243       0.509513069      -58.6927863      0.509513069      -58.6927863      0.854453271      30.6290243       
1360.46          0.857146676      30.331568        0.505038544      -58.9910428      0.505038544      -58.9910428      0.857146676      30.331568        
1373.92          0.85978502       30.0376011       0.500603144      -59.2857265      0.500603144      -59.2857265      0.85978502       30.0376011       
1387.38          0.862369579      29.7470649       0.496206568      -59.5768966      0.496206568      -59.5768966      0.862369579      29.7470649       
1400.84          0.864901601      29.459902        0.491848509      -59.864611       0.491848509      -59.864611       0.864901601      29.459902        
1414.3           0.867382303      29.1760557       0.487528651      -60.1489268      0.487528651      -60.1489268      0.867382303      29.1760557       
1427.76          0.86981287       28.8954705       0.483246669      -60.4299         0.483246669      -60.4299         0.86981287       28.8954705       
1441.22          0.872194461      28.6180915       0.479002236      -60.7075856      0.479002236      -60.7075856      0.872194461      28.6180915       
1454.68          0.874528201      28.3438651       0.474795016      -60.9820377      0.474795016      -60.9820377      0.874528201      28.3438651       
1468.14          0.876815193      28.0727386       0.470624669      -61.2533093      0.470624669      -61.2533093      0.876815193      28.0727386       
1481.6           0.879056508      27.80466         0.46649085       -61.5214525      0.46649085       -61.5214525      0.879056508      27.80466         
1495.06          0.881253193      27.5395785       0.462393212      -61.7865184      0.462393212      -61.7865184      0.881253193      27.5395785       
1508.52          0.883406266      27.277444        0.458331403      -62.0485571      0.458331403      -62.0485571      0.883406266      27.277444        
1521.98          0.885516722      27.0182074       0.454305069      -62.3076179      0.454305069      -62.3076179      0.885516722      27.0182074       
1535.44          0.88758553       26.7618204       0.450313854      -62.5637491      0.450313854      -62.5637491      0.88758553       26.7618204       
1548.9           0.889613634      26.5082357       0.4463574        -62.8169981      0.4463574        -62.8169981      0.889613634      26.5082357       
1562.36          0.891601956      26.2574068       0.442435348      -63.0674114      0.442435348      -63.0674114      0.891601956      26.2574068       
1575.82          0.893551392      26.009288        0.438547336      -63.3150346      0.438547336      -63.3150346      0.893551392      26.009288        
1589.28          0.895462819      25.7638346       0.434693004      -63.5599124      0.434693004      -63.5599124      0.895462819      25.7638346       
1602.74          0.897337088      25.5210024       0.430871989      -63.8020888      0.430871989      -63.8020888      0.897337088      25.5210024       
1616.2           0.899175032      25.2807483       0.427083932      -64.0416068      0.427083932      -64.0416068      0.899175032      25.2807483       
1629.66          0.90097746       25.0430299       0.423328471      -64.2785086      0.423328471      -64.2785086      0.90097746       25.0430299       
1643.12          0.902745164      24.8078056       0.419605244      -64.5128356      0.419605244      -64.5128356      0.902745164      24.8078056       
1656.58          0.904478913      24.5750346       0.415913894      -64.7446285      0.415913894      -64.7446285      0.904478913      24.5750346       
1670.04          0.906179457      24.3446768       0.412254061      -64.9739269      0.412254061      -64.9739269      0.906179457      24.3446768       
1683.5           0.90784753       24.1166929       0.408625387      -65.20077        0.408625387      -65.20077        0.90784753       24.1166929       
1696.96          0.909483844      23.8910442       0.405027518      -65.4251959      0.405027518      -65.4251959      0.909483844      23.8910442       
1710.42          0.911089094      23.667693        0.4014601        -65.6472423      0.4014601        -65.6472423      0.911089094      23.667693        
