! Coilcraft 0603CS-1N6 Chip Inductor				
! 21 May 2002			
# MHZ S MA R 50
!Freq             MagS11           AngS11           MagS21           AngS21           MagS12           AngS12           MagS22           AngS22
1                0.000125415773   53.2698719       0.999925001      -0.00575956803   0.999925001      -0.00575956802   0.000125415773   53.2698719       
64.09            0.00646131088    84.9252447       0.999449185      -0.368960465     0.999449185      -0.368960465     0.00646131088    84.9252447       
127.18           0.0127969388     85.9418986       0.999175927      -0.731995394     0.999175927      -0.731995394     0.0127969388     85.9418986       
190.27           0.019129971      86.1913307       0.99891168       -1.09490403      0.99891168       -1.09490403      0.019129971      86.1913307       
253.36           0.0254601857     86.1934684       0.998632934      -1.45769282      0.998632934      -1.45769282      0.0254601857     86.1934684       
316.45           0.0317872814     86.0796836       0.998330556      -1.82036017      0.998330556      -1.82036017      0.0317872814     86.0796836       
379.54           0.0381109076     85.9007314       0.997999873      -2.18290093      0.997999873      -2.18290093      0.0381109076     85.9007314       
442.63           0.0444306844     85.6809065       0.997638133      -2.54530798      0.997638133      -2.54530798      0.0444306844     85.6809065       
505.72           0.0507462134     85.43349         0.997243565      -2.90757298      0.997243565      -2.90757298      0.0507462134     85.43349         
568.81           0.0570570837     85.166437        0.996814964      -3.2696868       0.996814964      -3.2696868       0.0570570837     85.166437        
631.9            0.0633628762     84.8848426       0.996351477      -3.63163974      0.996351477      -3.63163974      0.0633628762     84.8848426       
694.99           0.069663166      84.5921425       0.995852483      -3.99342169      0.995852483      -3.99342169      0.069663166      84.5921425       
758.08           0.0759575244     84.2907503       0.995317526      -4.35502226      0.995317526      -4.35502226      0.0759575244     84.2907503       
821.17           0.0822455198     83.9824187       0.994746266      -4.71643083      0.994746266      -4.71643083      0.0822455198     83.9824187       
884.26           0.0885267193     83.6684563       0.994138451      -5.0776366       0.994138451      -5.0776366       0.0885267193     83.6684563       
947.35           0.0948006891     83.3498634       0.993493898      -5.43862866      0.993493898      -5.43862866      0.0948006891     83.3498634       
1010.44          0.101066995      83.0274203       0.992812479      -5.79939599      0.992812479      -5.79939599      0.101066995      83.0274203       
1073.53          0.107325204      82.7017463       0.992094108      -6.15992751      0.992094108      -6.15992751      0.107325204      82.7017463       
1136.62          0.113574883      82.3733407       0.991338734      -6.5202121       0.991338734      -6.5202121       0.113574883      82.3733407       
1199.71          0.119815601      82.0426113       0.99054634       -6.88023858      0.99054634       -6.88023858      0.119815601      82.0426113       
1262.8           0.126046927      81.709896        0.98971693       -7.2399958       0.98971693       -7.2399958       0.126046927      81.709896        
1325.89          0.132268433      81.3754772       0.988850535      -7.59947257      0.988850535      -7.59947257      0.132268433      81.3754772       
1388.98          0.138479693      81.0395936       0.987947203      -7.95865772      0.987947203      -7.95865772      0.138479693      81.0395936       
1452.07          0.144680283      80.702449        0.987006999      -8.31754009      0.987006999      -8.31754009      0.144680283      80.702449        
1515.16          0.150869783      80.3642186       0.986030006      -8.67610856      0.986030006      -8.67610856      0.150869783      80.3642186       
1578.25          0.157047773      80.0250544       0.98501632       -9.03435204      0.98501632       -9.03435204      0.157047773      80.0250544       
1641.34          0.163213838      79.6850892       0.983966049      -9.39225946      0.983966049      -9.39225946      0.163213838      79.6850892       
1704.43          0.169367566      79.3444397       0.982879315      -9.74981982      0.982879315      -9.74981982      0.169367566      79.3444397       
1767.52          0.175508548      79.0032093       0.981756249      -10.1070222      0.981756249      -10.1070222      0.175508548      79.0032093       
1830.61          0.181636377      78.6614902       0.980596993      -10.4638556      0.980596993      -10.4638556      0.181636377      78.6614902       
1893.7           0.187750652      78.3193646       0.979401701      -10.8203092      0.979401701      -10.8203092      0.187750652      78.3193646       
1956.79          0.193850975      77.9769067       0.978170532      -11.1763723      0.978170532      -11.1763723      0.193850975      77.9769067       
2019.88          0.19993695       77.6341838       0.976903657      -11.5320342      0.976903657      -11.5320342      0.19993695       77.6341838       
2082.97          0.206008189      77.2912568       0.975601253      -11.8872841      0.975601253      -11.8872841      0.206008189      77.2912568       
2146.06          0.212064303      76.9481815       0.974263505      -12.2421117      0.974263505      -12.2421117      0.212064303      76.9481815       
2209.15          0.218104912      76.6050087       0.972890608      -12.5965063      0.972890608      -12.5965063      0.218104912      76.6050087       
2272.24          0.224129638      76.2617857       0.971482761      -12.9504576      0.971482761      -12.9504576      0.224129638      76.2617857       
2335.33          0.230138107      75.9185557       0.97004017       -13.3039553      0.97004017       -13.3039553      0.230138107      75.9185557       
2398.42          0.23612995       75.575359        0.968563049      -13.6569892      0.968563049      -13.6569892      0.23612995       75.575359        
2461.51          0.242104805      75.232233        0.967051618      -14.0095492      0.967051618      -14.0095492      0.242104805      75.232233        
2524.6           0.248062311      74.8892128       0.9655061        -14.3616251      0.9655061        -14.3616251      0.248062311      74.8892128       
2587.69          0.254002114      74.5463308       0.963926729      -14.7132072      0.963926729      -14.7132072      0.254002114      74.5463308       
2650.78          0.259923864      74.2036178       0.962313739      -15.0642856      0.962313739      -15.0642856      0.259923864      74.2036178       
2713.87          0.265827218      73.8611027       0.960667373      -15.4148505      0.960667373      -15.4148505      0.265827218      73.8611027       
2776.96          0.271711836      73.5188126       0.958987878      -15.7648924      0.958987878      -15.7648924      0.271711836      73.5188126       
2840.05          0.277577383      73.1767733       0.957275505      -16.1144016      0.957275505      -16.1144016      0.277577383      73.1767733       
2903.14          0.283423532      72.8350091       0.955530511      -16.4633689      0.955530511      -16.4633689      0.283423532      72.8350091       
2966.23          0.289249957      72.4935431       0.953753156      -16.8117849      0.953753156      -16.8117849      0.289249957      72.4935431       
3029.32          0.295056341      72.1523973       0.951943707      -17.1596404      0.951943707      -17.1596404      0.295056341      72.1523973       
3092.41          0.30084237       71.8115927       0.950102432      -17.5069264      0.950102432      -17.5069264      0.30084237       71.8115927       
3155.5           0.306607738      71.4711493       0.948229604      -17.8536339      0.948229604      -17.8536339      0.306607738      71.4711493       
3218.59          0.312352142      71.1310862       0.946325502      -18.199754       0.946325502      -18.199754       0.312352142      71.1310862       
3281.68          0.318075286      70.7914216       0.944390405      -18.5452781      0.944390405      -18.5452781      0.318075286      70.7914216       
3344.77          0.323776879      70.4521731       0.942424599      -18.8901975      0.942424599      -18.8901975      0.323776879      70.4521731       
3407.86          0.329456635      70.1133576       0.94042837       -19.2345038      0.94042837       -19.2345038      0.329456635      70.1133576       
3470.95          0.335114276      69.774991        0.938402011      -19.5781886      0.938402011      -19.5781886      0.335114276      69.774991        
3534.04          0.340749527      69.4370891       0.936345815      -19.9212436      0.936345815      -19.9212436      0.340749527      69.4370891       
3597.13          0.346362121      69.0996668       0.934260079      -20.2636608      0.934260079      -20.2636608      0.346362121      69.0996668       
3660.22          0.351951794      68.7627384       0.932145102      -20.6054322      0.932145102      -20.6054322      0.351951794      68.7627384       
3723.31          0.35751829       68.4263179       0.930001188      -20.9465499      0.930001188      -20.9465499      0.35751829       68.4263179       
3786.4           0.363061359      68.0904186       0.927828641      -21.2870061      0.927828641      -21.2870061      0.363061359      68.0904186       
3849.49          0.368580755      67.7550536       0.925627768      -21.6267932      0.925627768      -21.6267932      0.368580755      67.7550536       
3912.58          0.374076239      67.4202353       0.923398879      -21.9659039      0.923398879      -21.9659039      0.374076239      67.4202353       
3975.67          0.379547578      67.0859759       0.921142285      -22.3043306      0.921142285      -22.3043306      0.379547578      67.0859759       
4038.76          0.384994543      66.752287        0.9188583        -22.6420662      0.9188583        -22.6420662      0.384994543      66.752287        
4101.85          0.390416914      66.41918         0.916547239      -22.9791036      0.916547239      -22.9791036      0.390416914      66.41918         
4164.94          0.395814475      66.0866658       0.91420942       -23.3154358      0.91420942       -23.3154358      0.395814475      66.0866658       
4228.03          0.401187014      65.754755        0.91184516       -23.651056       0.91184516       -23.651056       0.401187014      65.754755        
4291.12          0.406534328      65.423458        0.90945478       -23.9859575      0.90945478       -23.9859575      0.406534328      65.423458        
4354.21          0.411856218      65.0927847       0.907038601      -24.3201336      0.907038601      -24.3201336      0.411856218      65.0927847       
4417.3           0.417152492      64.7627448       0.904596946      -24.6535779      0.904596946      -24.6535779      0.417152492      64.7627448       
4480.39          0.422422962      64.4333476       0.902130139      -24.9862841      0.902130139      -24.9862841      0.422422962      64.4333476       
4543.48          0.427667448      64.1046022       0.899638504      -25.3182461      0.899638504      -25.3182461      0.427667448      64.1046022       
4606.57          0.432885774      63.7765175       0.897122367      -25.6494577      0.897122367      -25.6494577      0.432885774      63.7765175       
4669.66          0.438077769      63.4491019       0.894582055      -25.979913       0.894582055      -25.979913       0.438077769      63.4491019       
4732.75          0.443243271      63.1223638       0.892017893      -26.3096062      0.892017893      -26.3096062      0.443243271      63.1223638       
4795.84          0.448382121      62.7963111       0.88943021       -26.6385316      0.88943021       -26.6385316      0.448382121      62.7963111       
4858.93          0.453494165      62.4709517       0.886819334      -26.9666837      0.886819334      -26.9666837      0.453494165      62.4709517       
4922.02          0.458579258      62.1462931       0.884185593      -27.2940571      0.884185593      -27.2940571      0.458579258      62.1462931       
4985.11          0.463637256      61.8223427       0.881529315      -27.6206464      0.881529315      -27.6206464      0.463637256      61.8223427       
5048.2           0.468668025      61.4991075       0.878850829      -27.9464466      0.878850829      -27.9464466      0.468668025      61.4991075       
5111.29          0.473671434      61.1765945       0.876150463      -28.2714525      0.876150463      -28.2714525      0.473671434      61.1765945       
5174.38          0.478647357      60.8548102       0.873428546      -28.5956593      0.873428546      -28.5956593      0.478647357      60.8548102       
5237.47          0.483595675      60.5337611       0.870685406      -28.9190622      0.870685406      -28.9190622      0.483595675      60.5337611       
5300.56          0.488516274      60.2134536       0.867921372      -29.2416566      0.867921372      -29.2416566      0.488516274      60.2134536       
5363.65          0.493409045      59.8938936       0.86513677       -29.5634378      0.86513677       -29.5634378      0.493409045      59.8938936       
5426.74          0.498273884      59.575087        0.862331929      -29.8844015      0.862331929      -29.8844015      0.498273884      59.575087        
5489.83          0.503110693      59.2570396       0.859507174      -30.2045434      0.859507174      -30.2045434      0.503110693      59.2570396       
5552.92          0.507919378      58.9397567       0.856662832      -30.5238593      0.856662832      -30.5238593      0.507919378      58.9397567       
5616.01          0.512699852      58.6232437       0.853799229      -30.8423452      0.853799229      -30.8423452      0.512699852      58.6232437       
5679.1           0.517452032      58.3075058       0.850916688      -31.1599972      0.850916688      -31.1599972      0.517452032      58.3075058       
5742.19          0.522175839      57.9925478       0.848015533      -31.4768115      0.848015533      -31.4768115      0.522175839      57.9925478       
5805.28          0.526871201      57.6783746       0.845096088      -31.7927843      0.845096088      -31.7927843      0.526871201      57.6783746       
5868.37          0.531538049      57.3649908       0.842158674      -32.1079122      0.842158674      -32.1079122      0.531538049      57.3649908       
5931.46          0.536176321      57.0524008       0.83920361       -32.4221917      0.83920361       -32.4221917      0.536176321      57.0524008       
5994.55          0.540785959      56.740609        0.836231218      -32.7356194      0.836231218      -32.7356194      0.540785959      56.740609        
6057.64          0.545366907      56.4296194       0.833241815      -33.0481921      0.833241815      -33.0481921      0.545366907      56.4296194       
6120.73          0.549919119      56.1194361       0.830235717      -33.3599068      0.830235717      -33.3599068      0.549919119      56.1194361       
6183.82          0.554442549      55.8100629       0.827213241      -33.6707604      0.827213241      -33.6707604      0.554442549      55.8100629       
6246.91          0.558937157      55.5015034       0.8241747        -33.9807501      0.8241747        -33.9807501      0.558937157      55.5015034       
6310             0.56340291       55.1937612       0.821120407      -34.2898731      0.821120407      -34.2898731      0.56340291       55.1937612       
6373.09          0.567839775      54.8868397       0.818050672      -34.5981268      0.818050672      -34.5981268      0.567839774      54.8868397       
6436.18          0.572247726      54.580742        0.814965806      -34.9055085      0.814965806      -34.9055085      0.572247726      54.580742        
6499.27          0.576626742      54.2754714       0.811866116      -35.2120159      0.811866116      -35.2120159      0.576626742      54.2754714       
6562.36          0.580976804      53.9710308       0.808751907      -35.5176466      0.808751907      -35.5176466      0.580976804      53.9710308       
6625.45          0.5852979        53.667423        0.805623485      -35.8223985      0.805623485      -35.8223985      0.5852979        53.667423        
6688.54          0.589590019      53.3646507       0.80248115       -36.1262692      0.80248115       -36.1262692      0.589590019      53.3646507       
6751.63          0.593853156      53.0627165       0.799325205      -36.429257       0.799325205      -36.429257       0.593853156      53.0627165       
6814.72          0.598087311      52.7616228       0.796155946      -36.7313597      0.796155946      -36.7313597      0.598087311      52.7616228       
6877.81          0.602292484      52.461372        0.792973671      -37.0325757      0.792973671      -37.0325757      0.602292484      52.461372        
6940.9           0.606468683      52.1619662       0.789778674      -37.3329031      0.789778674      -37.3329031      0.606468683      52.1619662       
7003.99          0.610615918      51.8634076       0.786571248      -37.6323403      0.786571248      -37.6323403      0.610615918      51.8634076       
7067.08          0.614734203      51.565698        0.783351683      -37.9308859      0.783351683      -37.9308859      0.614734203      51.565698        
7130.17          0.618823555      51.2688394       0.780120267      -38.2285383      0.780120267      -38.2285383      0.618823555      51.2688394       
7193.26          0.622883995      50.9728333       0.776877286      -38.5252962      0.776877286      -38.5252962      0.622883995      50.9728333       
7256.35          0.626915548      50.6776816       0.773623024      -38.8211585      0.773623024      -38.8211585      0.626915548      50.6776816       
7319.44          0.630918243      50.3833856       0.770357763      -39.1161238      0.770357763      -39.1161238      0.630918243      50.3833856       
7382.53          0.63489211       50.0899467       0.767081782      -39.4101911      0.767081782      -39.4101911      0.63489211       50.0899467       
7445.62          0.638837184      49.7973663       0.763795357      -39.7033595      0.763795357      -39.7033595      0.638837184      49.7973663       
7508.71          0.642753504      49.5056455       0.760498764      -39.995628       0.760498764      -39.995628       0.642753504      49.5056455       
7571.8           0.646641111      49.2147854       0.757192275      -40.2869959      0.757192275      -40.2869959      0.646641111      49.2147854       
7634.89          0.650500049      48.924787        0.753876159      -40.5774623      0.753876159      -40.5774623      0.650500049      48.924787        
7697.98          0.654330366      48.6356511       0.750550685      -40.8670267      0.750550685      -40.8670267      0.654330366      48.6356511       
7761.07          0.658132111      48.3473785       0.747216117      -41.1556884      0.747216117      -41.1556884      0.658132111      48.3473785       
7824.16          0.661905339      48.0599699       0.743872718      -41.443447       0.743872718      -41.443447       0.661905339      48.0599699       
7887.25          0.665650106      47.773426        0.740520748      -41.7303021      0.740520748      -41.7303021      0.665650106      47.773426        
7950.34          0.66936647       47.4877472       0.737160465      -42.0162532      0.737160465      -42.0162532      0.66936647       47.4877472       
8013.43          0.673054494      47.2029338       0.733792124      -42.3013002      0.733792124      -42.3013002      0.673054494      47.2029338       
