! Coilcraft 0603CS-24N Chip Inductor				
! 21 May 2002			
# MHZ S MA R 50
!Freq             MagS11           AngS11           MagS21           AngS21           MagS12           AngS12           MagS22           AngS22
1                0.00175607158    58.9996395       0.999096681      -0.0863219908    0.999096681      -0.0863219908    0.00175607158    58.9996395       
12.97            0.019635972      82.4307944       0.997603392      -1.1180053       0.997603392      -1.1180053       0.019635972      82.4307944       
24.94            0.0375867556     83.4247397       0.996395895      -2.14763835      0.996395895      -2.14763835      0.0375867556     83.4247397       
36.91            0.0554936292     83.2717197       0.995025714      -3.17506336      0.995025714      -3.17506336      0.0554936292     83.2717197       
48.88            0.073339084      82.7581043       0.993422654      -4.19985881      0.993422654      -4.19985881      0.073339084      82.7581043       
60.85            0.0911079785     82.0801432       0.991561156      -5.22153959      0.991561156      -5.22153959      0.0911079785     82.0801432       
72.82            0.108785644      81.3128593       0.98943043       -6.23959802      0.98943043       -6.23959802      0.108785644      81.3128593       
84.79            0.126357724      80.4919832       0.987026504      -7.25352022      0.987026504      -7.25352022      0.126357724      80.4919832       
96.76            0.143810213      79.6370696       0.984349239      -8.26279467      0.984349239      -8.26279467      0.143810213      79.6370696       
108.73           0.161129525      78.7599201       0.981400951      -9.26691754      0.981400951      -9.26691754      0.161129525      78.7599201       
120.7            0.178302562      77.8682016       0.978185692      -10.2653965      0.978185692      -10.2653965      0.178302562      77.8682016       
132.67           0.195316768      76.9671924       0.97470882       -11.2577535      0.97470882       -11.2577535      0.195316768      76.9671924       
144.64           0.212160183      76.0607009       0.970976724      -12.2435269      0.970976724      -12.2435269      0.212160183      76.0607009       
156.61           0.228821482      75.1515834       0.966996622      -13.2222736      0.966996622      -13.2222736      0.228821482      75.1515834       
168.58           0.24529001       74.2420527       0.962776421      -14.1935699      0.962776421      -14.1935699      0.24529001       74.2420527       
180.55           0.261555812      73.3338691       0.958324592      -15.1570132      0.958324592      -15.1570132      0.261555812      73.3338691       
192.52           0.277609647      72.4284648       0.953650074      -16.1122228      0.953650074      -16.1122228      0.277609647      72.4284648       
204.49           0.29344301       71.5270261       0.948762183      -17.0588404      0.948762183      -17.0588404      0.29344301       71.5270261       
216.46           0.309048132      70.6305505       0.943670537      -17.996531       0.943670537      -17.996531       0.309048132      70.6305505       
228.43           0.32441799       69.7398865       0.938384988      -18.924983       0.938384988      -18.924983       0.32441799       69.7398865       
240.4            0.339546297      68.8557623       0.932915551      -19.8439081      0.932915551      -19.8439081      0.339546297      68.8557623       
252.37           0.354427501      67.9788073       0.927272351      -20.7530422      0.927272351      -20.7530422      0.354427501      67.9788073       
264.34           0.369056769      67.1095673       0.921465563      -21.6521444      0.921465563      -21.6521444      0.369056769      67.1095673       
276.31           0.383429972      66.2485176       0.915505368      -22.5409972      0.915505368      -22.5409972      0.383429972      66.2485176       
288.28           0.397543664      65.3960717       0.909401901      -23.419406       0.909401901      -23.419406       0.397543664      65.3960717       
300.25           0.411395065      64.5525891       0.903165212      -24.287199       0.903165212      -24.287199       0.411395065      64.5525891       
312.22           0.42498203       63.7183817       0.896805228      -25.144226       0.896805228      -25.144226       0.42498203       63.7183817       
324.19           0.438303025      62.8937182       0.890331716      -25.9903585      0.890331716      -25.9903585      0.438303025      62.8937182       
336.16           0.451357098      62.0788289       0.883754257      -26.8254885      0.883754257      -26.8254885      0.451357098      62.0788289       
348.13           0.464143849      61.2739091       0.877082214      -27.6495279      0.877082214      -27.6495279      0.464143849      61.2739091       
360.1            0.476663395      60.4791219       0.870324712      -28.4624078      0.870324712      -28.4624078      0.476663395      60.4791219       
372.07           0.488916346      59.6946015       0.863490616      -29.2640777      0.863490616      -29.2640777      0.488916346      59.6946015       
384.04           0.500903763      58.9204552       0.856588516      -30.0545042      0.856588516      -30.0545042      0.500903763      58.9204552       
396.01           0.512627135      58.1567655       0.849626707      -30.8336709      0.849626707      -30.8336709      0.512627135      58.1567655       
407.98           0.524088341      57.4035925       0.842613188      -31.6015766      0.842613188      -31.6015766      0.524088341      57.4035925       
419.95           0.53528962       56.6609756       0.835555642      -32.3582353      0.835555642      -32.3582353      0.53528962       56.6609756       
431.92           0.546233541      55.9289347       0.828461439      -33.1036745      0.828461439      -33.1036745      0.546233541      55.9289347       
443.89           0.556922972      55.2074724       0.821337625      -33.8379348      0.821337625      -33.8379348      0.556922972      55.2074724       
455.86           0.567361051      54.4965751       0.814190926      -34.561069       0.814190926      -34.561069       0.567361051      54.4965751       
467.83           0.577551158      53.7962143       0.807027743      -35.2731409      0.807027743      -35.2731409      0.577551158      53.7962143       
479.8            0.587496887      53.1063479       0.799854157      -35.9742247      0.799854157      -35.9742247      0.587496887      53.1063479       
491.77           0.597202022      52.4269217       0.79267593       -36.6644044      0.79267593       -36.6644044      0.597202022      52.4269217       
503.74           0.606670513      51.7578698       0.785498511      -37.3437723      0.785498511      -37.3437723      0.606670513      51.7578698       
515.71           0.615906449      51.0991166       0.778327039      -38.0124291      0.778327039      -38.0124291      0.615906449      51.0991166       
527.68           0.624914043      50.4505767       0.771166353      -38.6704826      0.771166353      -38.6704826      0.624914043      50.4505767       
539.65           0.633697604      49.8121567       0.764020996      -39.318047       0.764020996      -39.318047       0.633697604      49.8121567       
551.62           0.642261524      49.1837556       0.756895228      -39.9552426      0.756895228      -39.9552426      0.642261524      49.1837556       
563.59           0.650610257      48.5652656       0.749793026      -40.5821947      0.749793026      -40.5821947      0.650610257      48.5652656       
575.56           0.658748303      47.9565731       0.742718104      -41.1990334      0.742718104      -41.1990334      0.658748303      47.9565731       
587.53           0.666680196      47.3575592       0.735673914      -41.8058927      0.735673914      -41.8058927      0.666680196      47.3575592       
599.5            0.674410484      46.7681003       0.728663658      -42.4029102      0.728663658      -42.4029102      0.674410484      46.7681003       
611.47           0.681943724      46.188069        0.7216903        -42.9902264      0.7216903        -42.9902264      0.681943724      46.188069        
623.44           0.689284462      45.6173343       0.714756576      -43.5679844      0.714756576      -43.5679844      0.689284462      45.6173343       
635.41           0.69643723       45.0557624       0.707865         -44.1363292      0.707865         -44.1363292      0.69643723       45.0557624       
647.38           0.70340653       44.503217        0.701017878      -44.6954077      0.701017878      -44.6954077      0.70340653       44.503217        
659.35           0.710196833      43.9595599       0.694217317      -45.2453678      0.694217317      -45.2453678      0.710196833      43.9595599       
671.32           0.716812563      43.4246514       0.687465234      -45.7863586      0.687465234      -45.7863586      0.716812563      43.4246514       
683.29           0.723258095      42.8983504       0.680763366      -46.3185294      0.680763366      -46.3185294      0.723258095      42.8983504       
695.26           0.72953775       42.3805153       0.674113279      -46.84203        0.674113279      -46.84203        0.72953775       42.3805153       
707.23           0.735655786      41.8710039       0.66751638       -47.3570103      0.66751638       -47.3570103      0.735655786      41.8710039       
719.2            0.741616396      41.3696736       0.66097392       -47.8636195      0.66097392       -47.8636195      0.741616396      41.3696736       
731.17           0.747423704      40.8763821       0.654487009      -48.3620068      0.654487009      -48.3620068      0.747423704      40.8763821       
743.14           0.75308176       40.3909875       0.648056621      -48.8523203      0.648056621      -48.8523203      0.75308176       40.3909875       
755.11           0.758594538      39.9133482       0.641683601      -49.3347073      0.641683601      -49.3347073      0.758594538      39.9133482       
767.08           0.763965935      39.4433236       0.635368677      -49.8093139      0.635368677      -49.8093139      0.763965935      39.4433236       
779.05           0.769199768      38.9807737       0.629112463      -50.2762853      0.629112463      -50.2762853      0.769199768      38.9807737       
791.02           0.774299771      38.52556         0.622915469      -50.7357648      0.622915469      -50.7357648      0.774299771      38.52556         
802.99           0.779269599      38.077545        0.616778106      -51.1878944      0.616778106      -51.1878944      0.779269599      38.077545        
814.96           0.78411282       37.6365927       0.610700693      -51.6328146      0.610700693      -51.6328146      0.78411282       37.6365927       
826.93           0.788832921      37.2025684       0.604683465      -52.070664       0.604683465      -52.070664       0.788832921      37.2025684       
838.9            0.793433304      36.7753392       0.598726577      -52.5015793      0.598726577      -52.5015793      0.793433304      36.7753392       
850.87           0.797917288      36.3547738       0.592830108      -52.9256955      0.592830108      -52.9256955      0.797917288      36.3547738       
862.84           0.802288108      35.9407427       0.586994072      -53.3431453      0.586994072      -53.3431453      0.802288108      35.9407427       
874.81           0.806548919      35.5331183       0.581218416      -53.7540598      0.581218416      -53.7540598      0.806548919      35.5331183       
886.78           0.810702791      35.1317747       0.57550303       -54.1585678      0.57550303       -54.1585678      0.810702791      35.1317747       
898.75           0.814752714      34.7365881       0.56984775       -54.5567958      0.56984775       -54.5567958      0.814752714      34.7365881       
910.72           0.818701599      34.3474367       0.56425236       -54.9488686      0.56425236       -54.9488686      0.818701599      34.3474367       
922.69           0.822552275      33.9642005       0.5587166        -55.3349084      0.5587166        -55.3349084      0.822552275      33.9642005       
934.66           0.826307498      33.5867619       0.553240166      -55.7150355      0.553240166      -55.7150355      0.826307498      33.5867619       
946.63           0.829969943      33.2150051       0.547822718      -56.0893679      0.547822718      -56.0893679      0.829969943      33.2150051       
958.6            0.833542212      32.8488163       0.542463878      -56.4580215      0.542463878      -56.4580215      0.833542212      32.8488163       
970.57           0.837026835      32.488084        0.537163237      -56.8211097      0.537163237      -56.8211097      0.837026835      32.488084        
982.54           0.840426268      32.1326987       0.531920356      -57.1787441      0.531920356      -57.1787441      0.840426268      32.1326987       
994.51           0.843742896      31.782553        0.526734771      -57.5310339      0.526734771      -57.5310339      0.843742896      31.782553        
1006.48          0.846979036      31.4375414       0.521605993      -57.8780862      0.521605993      -57.8780862      0.846979036      31.4375414       
1018.45          0.850136938      31.0975607       0.516533513      -58.2200057      0.516533513      -58.2200057      0.850136938      31.0975607       
1030.42          0.853218785      30.7625097       0.5115168        -58.5568953      0.5115168        -58.5568953      0.853218785      30.7625097       
1042.39          0.856226698      30.432289        0.506555308      -58.8888557      0.506555308      -58.8888557      0.856226698      30.432289        
1054.36          0.859162733      30.1068017       0.501648477      -59.2159852      0.501648477      -59.2159852      0.859162733      30.1068017       
1066.33          0.862028887      29.7859523       0.496795732      -59.5383803      0.496795732      -59.5383803      0.862028887      29.7859523       
1078.3           0.864827095      29.4696478       0.491996487      -59.8561354      0.491996487      -59.8561354      0.864827095      29.4696478       
1090.27          0.867559238      29.1577969       0.487250146      -60.1693429      0.487250146      -60.1693429      0.867559238      29.1577969       
1102.24          0.870227138      28.8503102       0.482556105      -60.4780932      0.482556105      -60.4780932      0.870227138      28.8503102       
1114.21          0.872832563      28.5471004       0.477913753      -60.7824745      0.477913753      -60.7824745      0.872832563      28.5471004       
1126.18          0.875377228      28.2480817       0.473322472      -61.0825733      0.473322472      -61.0825733      0.875377228      28.2480817       
1138.15          0.877862797      27.9531706       0.468781642      -61.3784743      0.468781642      -61.3784743      0.877862797      27.9531706       
1150.12          0.880290883      27.6622851       0.464290638      -61.6702599      0.464290638      -61.6702599      0.880290883      27.6622851       
1162.09          0.882663052      27.375345        0.459848831      -61.9580112      0.459848831      -61.9580112      0.882663052      27.375345        
1174.06          0.884980821      27.092272        0.455455594      -62.2418071      0.455455594      -62.2418071      0.884980821      27.092272        
1186.03          0.887245661      26.8129895       0.451110297      -62.5217247      0.451110297      -62.5217247      0.887245661      26.8129895       
1198             0.889459         26.5374225       0.446812311      -62.7978397      0.446812311      -62.7978397      0.889459         26.5374225       
1209.97          0.891622222      26.2654976       0.442561007      -63.0702259      0.442561007      -63.0702259      0.891622222      26.2654976       
1221.94          0.893736671      25.9971432       0.438355759      -63.3389552      0.438355759      -63.3389552      0.893736671      25.9971432       
1233.91          0.895803647      25.7322891       0.434195942      -63.6040983      0.434195942      -63.6040983      0.895803647      25.7322891       
1245.88          0.897824414      25.4708669       0.430080934      -63.865724       0.430080934      -63.865724       0.897824414      25.4708669       
1257.85          0.899800196      25.2128095       0.426010117      -64.1238996      0.426010117      -64.1238996      0.899800196      25.2128095       
1269.82          0.901732182      24.9580514       0.421982877      -64.3786908      0.421982877      -64.3786908      0.901732182      24.9580514       
1281.79          0.903621523      24.7065286       0.417998602      -64.6301619      0.417998602      -64.6301619      0.903621523      24.7065286       
1293.76          0.905469337      24.4581784       0.414056687      -64.8783757      0.414056687      -64.8783757      0.905469337      24.4581784       
1305.73          0.907276709      24.2129396       0.410156531      -65.1233935      0.410156531      -65.1233935      0.907276709      24.2129396       
1317.7           0.909044689      23.9707524       0.406297537      -65.3652752      0.406297537      -65.3652752      0.909044689      23.9707524       
1329.67          0.910774297      23.7315583       0.402479116      -65.6040793      0.402479116      -65.6040793      0.910774297      23.7315583       
1341.64          0.912466524      23.4953001       0.398700684      -65.8398631      0.398700684      -65.8398631      0.912466524      23.4953001       
1353.61          0.91412233       23.2619219       0.394961661      -66.0726824      0.394961661      -66.0726824      0.91412233       23.2619219       
1365.58          0.915742646      23.031369        0.391261475      -66.3025918      0.391261475      -66.3025918      0.915742646      23.031369        
1377.55          0.917328377      22.803588        0.387599561      -66.5296446      0.387599561      -66.5296446      0.917328377      22.803588        
1389.52          0.9188804        22.5785267       0.383975358      -66.7538929      0.383975358      -66.7538929      0.9188804        22.5785267       
1401.49          0.920399565      22.3561339       0.380388314      -66.9753875      0.380388314      -66.9753875      0.920399565      22.3561339       
1413.46          0.921886701      22.1363598       0.376837884      -67.1941782      0.376837884      -67.1941782      0.921886701      22.1363598       
1425.43          0.923342607      21.9191555       0.373323527      -67.4103136      0.373323527      -67.4103136      0.923342607      21.9191555       
1437.4           0.924768064      21.7044733       0.369844711      -67.623841       0.369844711      -67.623841       0.924768064      21.7044733       
1449.37          0.926163827      21.4922666       0.366400912      -67.8348068      0.366400912      -67.8348068      0.926163827      21.4922666       
1461.34          0.927530629      21.2824897       0.362991611      -68.0432563      0.362991611      -68.0432563      0.927530629      21.2824897       
1473.31          0.928869183      21.075098        0.359616297      -68.2492336      0.359616297      -68.2492336      0.928869183      21.075098        
1485.28          0.930180181      20.8700479       0.356274466      -68.452782       0.356274466      -68.452782       0.930180181      20.8700479       
1497.25          0.931464294      20.6672967       0.35296562       -68.6539437      0.35296562       -68.6539437      0.931464294      20.6672967       
1509.22          0.932722175      20.4668026       0.349689271      -68.8527599      0.349689271      -68.8527599      0.932722175      20.4668026       
1521.19          0.933954458      20.268525        0.346444935      -69.0492709      0.346444935      -69.0492709      0.933954458      20.268525        
