! Coilcraft 0603CS-12N Chip Inductor				
! 21 May 2002			
# MHZ S MA R 50
!Freq             MagS11           AngS11           MagS21           AngS21           MagS12           AngS12           MagS22           AngS22
1                0.00087766474    59.1267552       0.999549919      -0.0431805615    0.999549919      -0.0431805615    0.00087766474    59.1267552       
17.71            0.013413541      82.9255526       0.998436743      -0.763905143     0.998436743      -0.763905143     0.013413541      82.9255526       
34.42            0.0259695749     84.0931682       0.997661918      -1.48368125      0.997661918      -1.48368125      0.0259695749     84.0931682       
51.13            0.0385079825     84.2079613       0.996850321      -2.202559        0.996850321      -2.202559        0.0385079825     84.2079613       
67.84            0.0510236625     83.9842429       0.99594611       -2.92043989      0.99594611       -2.92043989      0.0510236625     83.9842429       
84.55            0.0635119427     83.6030396       0.99492776       -3.63718813      0.99492776       -3.63718813      0.0635119427     83.6030396       
101.26           0.0759681265     83.1342099       0.993784725      -4.35265204      0.993784725      -4.35265204      0.0759681265     83.1342099       
117.97           0.0883874877     82.6111722       0.992511306      -5.06667215      0.992511306      -5.06667215      0.0883874877     82.6111722       
134.68           0.1007653        82.0522123       0.991104375      -5.77908514      0.991104375      -5.77908514      0.1007653        82.0522123       
151.39           0.113096867      81.4683154       0.989562344      -6.48972604      0.989562344      -6.48972604      0.113096867      81.4683154       
168.1            0.125377538      80.8665552       0.987884642      -7.19842978      0.987884642      -7.19842978      0.125377538      80.8665552       
184.81           0.137602737      80.2517394       0.986071416      -7.90503208      0.986071416      -7.90503208      0.137602737      80.2517394       
201.52           0.149767968      79.6272817       0.984123347      -8.60937029      0.984123347      -8.60937029      0.149767968      79.6272817       
218.23           0.161868833      78.9956952       0.982041539      -9.31128396      0.982041539      -9.31128396      0.161868833      78.9956952       
234.94           0.173901042      78.3588875       0.979827435      -10.0106153      0.979827435      -10.0106153      0.173901042      78.3588875       
251.65           0.185860425      77.7183454       0.977482764      -10.7072096      0.977482764      -10.7072096      0.185860425      77.7183454       
268.36           0.197742935      77.075254        0.975009493      -11.4009155      0.975009493      -11.4009155      0.197742935      77.075254        
285.07           0.209544662      76.4305776       0.9724098        -12.0915855      0.9724098        -12.0915855      0.209544662      76.4305776       
301.78           0.221261835      75.7851144       0.969686043      -12.7790759      0.969686043      -12.7790759      0.221261835      75.7851144       
318.49           0.23289083       75.1395355       0.966840743      -13.4632474      0.966840743      -13.4632474      0.23289083       75.1395355       
335.2            0.244428173      74.4944126       0.963876557      -14.1439649      0.963876557      -14.1439649      0.244428173      74.4944126       
351.91           0.255870546      73.850239        0.960796271      -14.8210978      0.960796271      -14.8210978      0.255870546      73.850239        
368.62           0.267214789      73.2074444       0.957602777      -15.4945205      0.957602777      -15.4945205      0.267214789      73.2074444       
385.33           0.278457904      72.5664067       0.954299064      -16.164112       0.954299064      -16.164112       0.278457904      72.5664067       
402.04           0.289597057      71.9274608       0.950888204      -16.8297561      0.950888204      -16.8297561      0.289597057      71.9274608       
418.75           0.300629576      71.2909052       0.947373341      -17.4913419      0.947373341      -17.4913419      0.300629576      71.2909052       
435.46           0.311552957      70.6570081       0.94375768       -18.1487634      0.94375768       -18.1487634      0.311552957      70.6570081       
452.17           0.32236486       70.026011        0.940044475      -18.8019197      0.940044475      -18.8019197      0.32236486       70.026011        
468.88           0.333063113      69.3981323       0.936237023      -19.4507152      0.936237023      -19.4507152      0.333063113      69.3981323       
485.59           0.343645707      68.7735705       0.932338649      -20.0950593      0.932338649      -20.0950593      0.343645707      68.7735705       
502.3            0.354110795      68.1525058       0.928352704      -20.7348665      0.928352704      -20.7348665      0.354110795      68.1525058       
519.01           0.364456693      67.5351027       0.924282553      -21.3700567      0.924282553      -21.3700567      0.364456693      67.5351027       
535.72           0.374681878      66.921511        0.920131565      -22.0005548      0.920131565      -22.0005548      0.374681878      66.921511        
552.43           0.384784981      66.3118676       0.915903111      -22.6262906      0.915903111      -22.6262906      0.384784981      66.3118676       
569.14           0.394764788      65.7062972       0.911600553      -23.2471991      0.911600553      -23.2471991      0.394764788      65.7062972       
585.85           0.404620236      65.1049135       0.907227239      -23.8632204      0.907227239      -23.8632204      0.404620236      65.1049135       
602.56           0.41435041       64.5078202       0.902786495      -24.4742992      0.902786495      -24.4742992      0.41435041       64.5078202       
619.27           0.423954535      63.9151113       0.898281623      -25.0803851      0.898281623      -25.0803851      0.423954535      63.9151113       
635.98           0.433431979      63.3268722       0.89371589       -25.6814326      0.89371589       -25.6814326      0.433431979      63.3268722       
652.69           0.442782244      62.7431797       0.889092528      -26.2774007      0.889092528      -26.2774007      0.442782244      62.7431797       
669.4            0.45200496       62.1641034       0.884414729      -26.8682528      0.884414729      -26.8682528      0.45200496       62.1641034       
686.11           0.461099888      61.5897051       0.879685635      -27.4539569      0.879685635      -27.4539569      0.461099888      61.5897051       
702.82           0.470066906      61.0200402       0.874908342      -28.0344852      0.874908342      -28.0344852      0.470066906      61.0200402       
719.53           0.478906011      60.4551573       0.870085891      -28.6098142      0.870085891      -28.6098142      0.478906011      60.4551573       
736.24           0.48761731       59.8950992       0.865221267      -29.1799243      0.865221267      -29.1799243      0.48761731       59.8950992       
752.95           0.49620102       59.3399027       0.860317396      -29.7448         0.860317396      -29.7448         0.49620102       59.3399027       
769.66           0.504657457      58.7895993       0.855377141      -30.3044294      0.855377141      -30.3044294      0.504657457      58.7895993       
786.37           0.512987034      58.2442152       0.850403301      -30.8588044      0.850403301      -30.8588044      0.512987034      58.2442152       
803.08           0.521190259      57.7037718       0.845398611      -31.4079205      0.845398611      -31.4079205      0.521190259      57.7037718       
819.79           0.529267725      57.168286        0.840365735      -31.9517764      0.840365735      -31.9517764      0.529267725      57.168286        
836.5            0.537220107      56.6377699       0.83530727       -32.4903744      0.83530727       -32.4903744      0.537220107      56.6377699       
853.21           0.54504816       56.112232        0.830225742      -33.0237195      0.830225742      -33.0237195      0.54504816       56.112232        
869.92           0.552752711      55.5916763       0.825123606      -33.5518201      0.825123606      -33.5518201      0.552752711      55.5916763       
886.63           0.560334655      55.0761036       0.820003245      -34.0746872      0.820003245      -34.0746872      0.560334655      55.0761036       
903.34           0.56779495       54.5655108       0.814866971      -34.5923347      0.814866971      -34.5923347      0.56779495       54.5655108       
920.05           0.575134615      54.0598916       0.809717021      -35.1047791      0.809717021      -35.1047791      0.575134615      54.0598916       
936.76           0.582354725      53.5592367       0.804555561      -35.6120393      0.804555561      -35.6120393      0.582354725      53.5592367       
953.47           0.589456404      53.0635337       0.799384687      -36.1141365      0.799384687      -36.1141365      0.589456404      53.0635337       
970.18           0.596440824      52.5727675       0.794206418      -36.6110944      0.794206418      -36.6110944      0.596440824      52.5727675       
986.89           0.603309199      52.0869202       0.789022705      -37.1029384      0.789022705      -37.1029384      0.603309199      52.0869202       
1003.6           0.610062785      51.6059716       0.783835427      -37.5896962      0.783835427      -37.5896962      0.610062785      51.6059716       
1020.31          0.616702871      51.1298993       0.778646393      -38.0713973      0.778646393      -38.0713973      0.616702871      51.1298993       
1037.02          0.623230779      50.6586785       0.773457343      -38.5480729      0.773457343      -38.5480729      0.623230779      50.6586785       
1053.73          0.629647859      50.1922824       0.768269947      -39.0197558      0.768269947      -39.0197558      0.629647859      50.1922824       
1070.44          0.635955489      49.7306825       0.763085809      -39.4864805      0.763085809      -39.4864805      0.635955489      49.7306825       
1087.15          0.642155068      49.2738485       0.757906467      -39.9482828      0.757906467      -39.9482828      0.642155068      49.2738485       
1103.86          0.648248013      48.8217482       0.752733392      -40.4051997      0.752733392      -40.4051997      0.648248013      48.8217482       
1120.57          0.654235761      48.3743483       0.747567995      -40.8572698      0.747567995      -40.8572698      0.654235761      48.3743483       
1137.28          0.66011976       47.9316137       0.74241162       -41.3045326      0.74241162       -41.3045326      0.66011976       47.9316137       
1153.99          0.665901471      47.4935082       0.737265553      -41.7470285      0.737265553      -41.7470285      0.665901471      47.4935082       
1170.7           0.671582365      47.0599945       0.73213102       -42.1847992      0.73213102       -42.1847992      0.671582365      47.0599945       
1187.41          0.677163918      46.6310341       0.727009187      -42.617887       0.727009187      -42.617887       0.677163918      46.6310341       
1204.12          0.682647613      46.2065874       0.721901166      -43.0463352      0.721901166      -43.0463352      0.682647613      46.2065874       
1220.83          0.688034933      45.7866141       0.716808013      -43.4701875      0.716808013      -43.4701875      0.688034933      45.7866141       
1237.54          0.693327364      45.3710729       0.711730728      -43.8894886      0.711730728      -43.8894886      0.693327364      45.3710729       
1254.25          0.69852639       44.9599219       0.706670261      -44.3042836      0.706670261      -44.3042836      0.69852639       44.9599219       
1270.96          0.703633493      44.5531185       0.701627513      -44.7146181      0.701627513      -44.7146181      0.703633493      44.5531185       
1287.67          0.708650151      44.1506194       0.696603332      -45.120538       0.696603332      -45.120538       0.708650151      44.1506194       
1304.38          0.713577836      43.7523809       0.691598521      -45.5220899      0.691598521      -45.5220899      0.713577836      43.7523809       
1321.09          0.718418012      43.358359        0.686613837      -45.9193205      0.686613837      -45.9193205      0.718418012      43.358359        
1337.8           0.723172137      42.968509        0.681649992      -46.3122766      0.681649992      -46.3122766      0.723172137      42.968509        
1354.51          0.727841658      42.582786        0.676707654      -46.7010056      0.676707654      -46.7010056      0.727841658      42.582786        
1371.22          0.732428012      42.2011449       0.671787452      -47.0855548      0.671787452      -47.0855548      0.732428012      42.2011449       
1387.93          0.736932625      41.8235404       0.666889972      -47.4659715      0.666889972      -47.4659715      0.736932625      41.8235404       
1404.64          0.74135691       41.449927        0.662015763      -47.8423033      0.662015763      -47.8423033      0.74135691       41.449927        
1421.35          0.745702267      41.0802589       0.657165337      -48.2145978      0.657165337      -48.2145978      0.745702267      41.0802589       
1438.06          0.749970082      40.7144906       0.652339169      -48.5829024      0.652339169      -48.5829024      0.749970082      40.7144906       
1454.77          0.754161728      40.3525762       0.647537701      -48.9472645      0.647537701      -48.9472645      0.754161728      40.3525762       
1471.48          0.758278559      39.9944701       0.642761341      -49.3077315      0.642761341      -49.3077315      0.758278559      39.9944701       
1488.19          0.762321917      39.6401267       0.638010464      -49.6643506      0.638010464      -49.6643506      0.762321917      39.6401267       
1504.9           0.766293127      39.2895002       0.633285417      -50.0171689      0.633285417      -50.0171689      0.766293127      39.2895002       
1521.61          0.770193495      38.9425453       0.628586516      -50.3662331      0.628586516      -50.3662331      0.770193495      38.9425453       
1538.32          0.774024313      38.5992167       0.623914049      -50.71159        0.623914049      -50.71159        0.774024313      38.5992167       
1555.03          0.777786853      38.2594692       0.619268277      -51.0532859      0.619268277      -51.0532859      0.777786853      38.2594692       
1571.74          0.781482371      37.923258        0.614649436      -51.3913669      0.614649436      -51.3913669      0.781482371      37.923258        
1588.45          0.785112105      37.5905382       0.610057736      -51.7258789      0.610057736      -51.7258789      0.785112105      37.5905382       
1605.16          0.788677273      37.2612656       0.605493364      -52.0568674      0.605493364      -52.0568674      0.788677273      37.2612656       
1621.87          0.792179077      36.9353958       0.600956486      -52.3843775      0.600956486      -52.3843775      0.792179077      36.9353958       
1638.58          0.795618699      36.6128851       0.596447244      -52.7084541      0.596447244      -52.7084541      0.795618699      36.6128851       
1655.29          0.798997304      36.2936899       0.591965761      -53.0291417      0.591965761      -53.0291417      0.798997304      36.2936899       
1672             0.802316037      35.977767        0.587512139      -53.3464844      0.587512139      -53.3464844      0.802316037      35.977767        
1688.71          0.805576024      35.6650735       0.583086462      -53.6605258      0.583086462      -53.6605258      0.805576024      35.6650735       
1705.42          0.808778374      35.3555669       0.578688798      -53.9713092      0.578688798      -53.9713092      0.808778374      35.3555669       
1722.13          0.811924176      35.049205        0.574319195      -54.2788776      0.574319195      -54.2788776      0.811924176      35.049205        
1738.84          0.815014501      34.7459461       0.569977686      -54.5832733      0.569977686      -54.5832733      0.815014501      34.7459461       
1755.55          0.818050403      34.4457488       0.565664291      -54.8845385      0.565664291      -54.8845385      0.818050403      34.4457488       
1772.26          0.821032913      34.1485721       0.561379011      -55.1827145      0.561379011      -55.1827145      0.821032913      34.1485721       
1788.97          0.82396305       33.8543756       0.557121836      -55.4778427      0.557121836      -55.4778427      0.82396305       33.8543756       
1805.68          0.826841809      33.5631191       0.552892744      -55.7699635      0.552892744      -55.7699635      0.826841809      33.5631191       
1822.39          0.829670171      33.2747629       0.548691698      -56.0591173      0.548691698      -56.0591173      0.829670171      33.2747629       
1839.1           0.832449097      32.9892678       0.544518651      -56.3453436      0.544518651      -56.3453436      0.832449097      32.9892678       
1855.81          0.835179532      32.7065949       0.540373543      -56.6286819      0.540373543      -56.6286819      0.835179532      32.7065949       
1872.52          0.8378624        32.4267058       0.536256306      -56.9091708      0.536256306      -56.9091708      0.8378624        32.4267058       
1889.23          0.840498611      32.1495627       0.53216686       -57.1868486      0.53216686       -57.1868486      0.840498611      32.1495627       
1905.94          0.843089058      31.875128        0.528105117      -57.4617532      0.528105117      -57.4617532      0.843089058      31.875128        
1922.65          0.845634614      31.6033647       0.524070979      -57.7339219      0.524070979      -57.7339219      0.845634614      31.6033647       
1939.36          0.848136137      31.3342363       0.520064341      -58.0033915      0.520064341      -58.0033915      0.848136137      31.3342363       
1956.07          0.850594469      31.0677066       0.51608509       -58.2701984      0.51608509       -58.2701984      0.850594469      31.0677066       
1972.78          0.853010436      30.8037401       0.512133105      -58.5343785      0.512133105      -58.5343785      0.853010436      30.8037401       
1989.49          0.855384845      30.5423013       0.508208258      -58.7959672      0.508208258      -58.7959672      0.855384845      30.5423013       
2006.2           0.85771849       30.2833558       0.504310414      -59.0549993      0.504310414      -59.0549993      0.85771849       30.2833558       
2022.91          0.860012148      30.026869        0.500439435      -59.3115093      0.500439435      -59.3115093      0.860012148      30.026869        
2039.62          0.862266582      29.7728073       0.496595175      -59.5655312      0.496595175      -59.5655312      0.862266582      29.7728073       
2056.33          0.864482538      29.5211372       0.492777481      -59.8170985      0.492777481      -59.8170985      0.864482538      29.5211372       
2073.04          0.866660748      29.2718258       0.4889862        -60.066244       0.4889862        -60.066244       0.866660748      29.2718258       
2089.75          0.86880193       29.0248407       0.48522117       -60.3130004      0.48522117       -60.3130004      0.86880193       29.0248407       
2106.46          0.870906786      28.7801497       0.481482227      -60.5573997      0.481482227      -60.5573997      0.870906786      28.7801497       
2123.17          0.872976005      28.5377213       0.477769203      -60.7994734      0.477769203      -60.7994734      0.872976005      28.5377213       
