! Coilcraft 0603CS-9N5 Chip Inductor				
! 21 May 2002			
# MHZ S MA R 50
!Freq             MagS11           AngS11           MagS21           AngS21           MagS12           AngS12           MagS22           AngS22
1                0.000721599369   55.7431394       0.999593987      -0.0341861167    0.999593987      -0.0341861167    0.000721599369   55.7431395       
24.19            0.0144996356     82.9848211       0.998332856      -0.8259542       0.998332856      -0.8259542       0.0144996356     82.9848211       
47.38            0.0282915194     84.0410599       0.997459874      -1.61654589      0.997459874      -1.61654589      0.0282915194     84.0410599       
70.57            0.0420599316     84.0664028       0.996530521      -2.4059976       0.996530521      -2.4059976       0.0420599316     84.0664028       
93.76            0.0557985037     83.7614531       0.995483014      -3.19416106      0.995483014      -3.19416106      0.0557985037     83.7614531       
116.95           0.0695010092     83.3031035       0.99429392       -3.98084316      0.99429392       -3.98084316      0.0695010092     83.3031035       
140.14           0.0831611304     82.7596032       0.992952028      -4.76583233      0.992952028      -4.76583233      0.0831611304     82.7596032       
163.33           0.0967725129     82.1636336       0.991451533      -5.5489084       0.991451533      -5.5489084       0.0967725129     82.1636336       
186.52           0.110328822      81.5331106       0.989789519      -6.32984753      0.989789519      -6.32984753      0.110328822      81.5331106       
209.71           0.123823787      80.8788253       0.987964828      -7.10842501      0.987964828      -7.10842501      0.123823787      80.8788253       
232.9            0.137251232      80.2077504       0.985977466      -7.88441716      0.985977466      -7.88441716      0.137251232      80.2077504       
256.09           0.150605107      79.524645        0.983828285      -8.65760263      0.983828285      -8.65760263      0.150605107      79.524645        
279.28           0.163879505      78.8329053       0.981518769      -9.42776341      0.981518769      -9.42776341      0.163879505      78.8329053       
302.47           0.177068685      78.1350459       0.97905091       -10.1946856      0.97905091       -10.1946856      0.177068685      78.1350459       
325.66           0.190167084      77.4329874       0.976427112      -10.9581602      0.976427112      -10.9581602      0.190167084      77.4329874       
348.85           0.203169335      76.7282369       0.973650127      -11.7179833      0.973650127      -11.7179833      0.203169335      76.7282369       
372.04           0.216070273      76.0220045       0.970723001      -12.4739571      0.970723001      -12.4739571      0.216070273      76.0220045       
395.23           0.228864952      75.3152813       0.967649035      -13.2258899      0.967649035      -13.2258899      0.228864952      75.3152813       
418.42           0.241548648      74.6088936       0.964431752      -13.9735964      0.964431752      -13.9735964      0.241548648      74.6088936       
441.61           0.25411687       73.9035404       0.961074863      -14.7168984      0.961074863      -14.7168984      0.25411687       73.9035404       
464.8            0.266565361      73.1998208       0.95758225       -15.4556245      0.95758225       -15.4556245      0.266565361      73.1998208       
487.99           0.278890109      72.4982542       0.953957933      -16.189611       0.953957933      -16.189611       0.278890109      72.4982542       
511.18           0.291087343      71.799295        0.950206058      -16.9187012      0.950206058      -16.9187012      0.291087343      71.799295        
534.37           0.303153544      71.103344        0.946330874      -17.6427464      0.946330874      -17.6427464      0.303153544      71.103344        
557.56           0.315085436      70.4107568       0.942336713      -18.3616054      0.942336713      -18.3616054      0.315085436      70.4107568       
580.75           0.326879992      69.7218508       0.938227977      -19.0751447      0.938227977      -19.0751447      0.326879992      69.7218508       
603.94           0.338534435      69.0369107       0.934009121      -19.7832387      0.934009121      -19.7832387      0.338534435      69.0369107       
627.13           0.350046229      68.3561922       0.929684635      -20.4857697      0.929684635      -20.4857697      0.350046229      68.3561922       
650.32           0.361413083      67.6799258       0.925259036      -21.1826276      0.925259036      -21.1826276      0.361413083      67.6799258       
673.51           0.372632943      67.0083196       0.92073685       -21.8737101      0.92073685       -21.8737101      0.372632943      67.0083196       
696.7            0.383703991      66.3415614       0.916122601      -22.5589226      0.916122601      -22.5589226      0.383703991      66.3415614       
719.89           0.394624636      65.6798208       0.9114208        -23.2381781      0.9114208        -23.2381781      0.394624636      65.6798208       
743.08           0.405393515      65.0232508       0.906635934      -23.911397       0.906635934      -23.911397       0.405393515      65.0232508       
766.27           0.416009479      64.3719889       0.901772457      -24.5785072      0.901772457      -24.5785072      0.416009479      64.3719889       
789.46           0.426471593      63.7261589       0.896834776      -25.2394437      0.896834776      -25.2394437      0.426471593      63.7261589       
812.65           0.436779127      63.0858715       0.891827248      -25.8941486      0.891827248      -25.8941486      0.436779127      63.0858715       
835.84           0.446931546      62.4512251       0.886754171      -26.5425709      0.886754171      -26.5425709      0.446931546      62.4512251       
859.03           0.456928506      61.822307        0.881619772      -27.1846663      0.881619772      -27.1846663      0.456928506      61.822307        
882.22           0.466769848      61.199194        0.876428208      -27.8203968      0.876428208      -27.8203968      0.466769848      61.199194        
905.41           0.476455582      60.5819529       0.871183554      -28.4497312      0.871183554      -28.4497312      0.476455582      60.5819529       
928.6            0.485985888      59.9706415       0.865889799      -29.0726439      0.865889799      -29.0726439      0.485985888      59.9706415       
951.79           0.495361104      59.3653086       0.860550844      -29.6891156      0.860550844      -29.6891156      0.495361104      59.3653086       
974.98           0.504581716      58.765995        0.855170495      -30.2991324      0.855170495      -30.2991324      0.504581716      58.765995        
998.17           0.513648353      58.1727337       0.849752462      -30.902686       0.849752462      -30.902686       0.513648353      58.1727337       
1021.36          0.522561777      57.5855507       0.844300353      -31.4997733      0.844300353      -31.4997733      0.522561777      57.5855507       
1044.55          0.531322877      57.0044649       0.838817675      -32.0903962      0.838817675      -32.0903962      0.531322877      57.0044649       
1067.74          0.539932658      56.4294889       0.833307829      -32.6745613      0.833307829      -32.6745613      0.539932658      56.4294889       
1090.93          0.548392236      55.8606293       0.827774109      -33.2522801      0.827774109      -33.2522801      0.548392236      55.8606293       
1114.12          0.556702828      55.2978871       0.822219704      -33.823568       0.822219704      -33.823568       0.556702828      55.2978871       
1137.31          0.564865748      54.7412579       0.816647693      -34.3884447      0.816647693      -34.3884447      0.564865748      54.7412579       
1160.5           0.572882394      54.1907322       0.811061048      -34.946934       0.811061048      -34.946934       0.572882394      54.1907322       
1183.69          0.580754248      53.646296        0.805462632      -35.499063       0.805462632      -35.499063       0.580754248      53.646296        
1206.88          0.588482863      53.1079309       0.7998552        -36.0448625      0.7998552        -36.0448625      0.588482863      53.1079309       
1230.07          0.59606986       52.5756142       0.794241401      -36.5843665      0.794241401      -36.5843665      0.59606986       52.5756142       
1253.26          0.603516921      52.0493197       0.788623776      -37.1176122      0.788623776      -37.1176122      0.603516921      52.0493197       
1276.45          0.610825782      51.5290173       0.783004761      -37.6446394      0.783004761      -37.6446394      0.610825782      51.5290173       
1299.64          0.617998227      51.0146739       0.777386691      -38.1654909      0.777386691      -38.1654909      0.617998227      51.0146739       
1322.83          0.625036084      50.5062531       0.771771795      -38.6802116      0.771771795      -38.6802116      0.625036084      50.5062531       
1346.02          0.631941219      50.0037157       0.766162204      -39.188849       0.766162204      -39.188849       0.631941219      50.0037157       
1369.21          0.638715529      49.5070199       0.76055995       -39.6914526      0.76055995       -39.6914526      0.638715529      49.5070199       
1392.4           0.64536094       49.0161214       0.754966968      -40.188074       0.754966968      -40.188074       0.64536094       49.0161214       
1415.59          0.651879402      48.5309738       0.749385099      -40.6787664      0.749385099      -40.6787664      0.651879402      48.5309738       
1438.78          0.658272882      48.0515285       0.743816093      -41.1635848      0.743816093      -41.1635848      0.658272882      48.0515285       
1461.97          0.664543364      47.5777352       0.738261608      -41.6425855      0.738261608      -41.6425855      0.664543364      47.5777352       
1485.16          0.67069284       47.1095418       0.732723218      -42.1158264      0.732723218      -42.1158264      0.67069284       47.1095418       
1508.35          0.676723314      46.6468945       0.727202408      -42.5833665      0.727202408      -42.5833665      0.676723314      46.6468945       
1531.54          0.682636789      46.1897386       0.721700583      -43.0452658      0.721700583      -43.0452658      0.682636789      46.1897386       
1554.73          0.688435274      45.7380176       0.71621907       -43.5015854      0.71621907       -43.5015854      0.688435274      45.7380176       
1577.92          0.694120771      45.2916742       0.710759115      -43.9523872      0.710759115      -43.9523872      0.694120771      45.2916742       
1601.11          0.699695282      44.8506502       0.705321891      -44.3977336      0.705321891      -44.3977336      0.699695282      44.8506502       
1624.3           0.705160798      44.4148863       0.6999085        -44.837688       0.6999085        -44.837688       0.705160798      44.4148863       
1647.49          0.710519303      43.9843228       0.694519972      -45.2723141      0.694519972      -45.2723141      0.710519303      43.9843228       
1670.68          0.715772769      43.5588989       0.689157271      -45.7016761      0.689157271      -45.7016761      0.715772769      43.5588989       
1693.87          0.720923152      43.1385538       0.683821297      -46.1258383      0.683821297      -46.1258383      0.720923152      43.1385538       
1717.06          0.725972397      42.723226        0.678512886      -46.5448655      0.678512886      -46.5448655      0.725972397      42.723226        
1740.25          0.730922426      42.3128537       0.673232816      -46.9588226      0.673232816      -46.9588226      0.730922426      42.3128537       
1763.44          0.735775149      41.9073748       0.667981807      -47.3677747      0.667981807      -47.3677747      0.735775149      41.9073748       
1786.63          0.74053245       41.5067271       0.662760524      -47.7717865      0.662760524      -47.7717865      0.74053245       41.5067271       
1809.82          0.745196196      41.1108485       0.657569578      -48.1709232      0.657569578      -48.1709232      0.745196196      41.1108485       
1833.01          0.74976823       40.7196764       0.652409532      -48.5652495      0.652409532      -48.5652495      0.74976823       40.7196764       
1856.2           0.754250372      40.3331488       0.647280898      -48.9548301      0.647280898      -48.9548301      0.754250372      40.3331488       
1879.39          0.758644418      39.9512034       0.642184143      -49.3397293      0.642184143      -49.3397293      0.758644418      39.9512034       
1902.58          0.762952138      39.5737783       0.63711969       -49.7200114      0.63711969       -49.7200114      0.762952138      39.5737783       
1925.77          0.767175279      39.2008116       0.632087919      -50.0957402      0.632087919      -50.0957402      0.767175279      39.2008116       
1948.96          0.77131556       38.832242        0.627089172      -50.4669791      0.627089172      -50.4669791      0.77131556       38.832242        
1972.15          0.775374673      38.468008        0.62212375       -50.8337912      0.62212375       -50.8337912      0.775374673      38.468008        
1995.34          0.779354285      38.1080491       0.617191918      -51.196239       0.617191918      -51.196239       0.779354285      38.1080491       
2018.53          0.783256034      37.7523045       0.612293909      -51.5543848      0.612293909      -51.5543848      0.783256034      37.7523045       
2041.72          0.787081532      37.4007145       0.60742992       -51.9082901      0.60742992       -51.9082901      0.787081532      37.4007145       
2064.91          0.79083236       37.0532193       0.602600117      -52.2580161      0.602600117      -52.2580161      0.79083236       37.0532193       
2088.1           0.794510077      36.7097599       0.597804639      -52.6036232      0.597804639      -52.6036232      0.794510077      36.7097599       
2111.29          0.798116208      36.3702777       0.593043593      -52.9451714      0.593043593      -52.9451714      0.798116208      36.3702777       
2134.48          0.801652253      36.0347147       0.588317062      -53.28272        0.588317062      -53.28272        0.801652253      36.0347147       
2157.67          0.805119685      35.7030134       0.583625104      -53.6163278      0.583625104      -53.6163278      0.805119685      35.7030134       
2180.86          0.808519947      35.375117        0.57896775       -53.9460527      0.57896775       -53.9460527      0.808519947      35.375117        
2204.05          0.811854456      35.0509691       0.574345012      -54.2719521      0.574345012      -54.2719521      0.811854456      35.0509691       
2227.24          0.8151246        34.7305142       0.569756879      -54.5940829      0.569756879      -54.5940829      0.8151246        34.7305142       
2250.43          0.818331741      34.413697        0.565203321      -54.912501       0.565203321      -54.912501       0.818331741      34.413697        
2273.62          0.821477213      34.1004633       0.560684286      -55.2272618      0.560684286      -55.2272618      0.821477213      34.1004633       
2296.81          0.824562323      33.7907594       0.556199708      -55.5384199      0.556199708      -55.5384199      0.824562323      33.7907594       
2320             0.827588352      33.484532        0.551749503      -55.8460293      0.551749503      -55.8460293      0.827588352      33.484532        
2343.19          0.830556554      33.1817288       0.547333571      -56.1501432      0.547333571      -56.1501432      0.830556554      33.1817288       
2366.38          0.833468157      32.8822981       0.542951796      -56.4508141      0.542951796      -56.4508141      0.833468157      32.8822981       
2389.57          0.836324364      32.5861888       0.53860405       -56.7480937      0.53860405       -56.7480937      0.836324364      32.5861888       
2412.76          0.839126352      32.2933504       0.534290192      -57.0420331      0.534290192      -57.0420331      0.839126352      32.2933504       
2435.95          0.841875272      32.0037334       0.530010069      -57.3326827      0.530010069      -57.3326827      0.841875272      32.0037334       
2459.14          0.844572252      31.7172887       0.525763515      -57.6200921      0.525763515      -57.6200921      0.844572252      31.7172887       
2482.33          0.847218395      31.433968        0.521550354      -57.90431        0.521550354      -57.90431        0.847218395      31.433968        
2505.52          0.84981478       31.1537237       0.517370403      -58.1853847      0.517370403      -58.1853847      0.84981478       31.1537237       
2528.71          0.852362462      30.8765088       0.513223467      -58.4633635      0.513223467      -58.4633635      0.852362462      30.8765088       
2551.9           0.854862474      30.6022772       0.509109343      -58.7382932      0.509109343      -58.7382932      0.854862474      30.6022772       
2575.09          0.857315825      30.3309831       0.505027822      -59.0102197      0.505027822      -59.0102197      0.857315825      30.3309831       
2598.28          0.859723502      30.0625819       0.500978685      -59.2791884      0.500978685      -59.2791884      0.859723502      30.0625819       
2621.47          0.862086472      29.7970292       0.49696171       -59.5452437      0.49696171       -59.5452437      0.862086472      29.7970292       
2644.66          0.864405676      29.5342815       0.492976665      -59.8084294      0.492976665      -59.8084294      0.864405676      29.5342815       
2667.85          0.866682039      29.274296        0.489023317      -60.0687889      0.489023317      -60.0687889      0.866682039      29.274296        
2691.04          0.868916462      29.0170305       0.485101423      -60.3263644      0.485101423      -60.3263644      0.868916462      29.0170305       
2714.23          0.871109827      28.7624435       0.481210739      -60.5811978      0.481210739      -60.5811978      0.871109827      28.7624435       
2737.42          0.873262994      28.510494        0.477351016      -60.8333301      0.477351016      -60.8333301      0.873262994      28.510494        
2760.61          0.875376807      28.261142        0.473522001      -61.0828017      0.473522001      -61.0828017      0.875376807      28.261142        
2783.8           0.877452089      28.0143477       0.469723439      -61.3296524      0.469723439      -61.3296524      0.877452089      28.0143477       
2806.99          0.879489643      27.7700724       0.465955069      -61.5739213      0.465955069      -61.5739213      0.879489643      27.7700724       
2830.18          0.881490256      27.5282775       0.462216631      -61.8156467      0.462216631      -61.8156467      0.881490256      27.5282775       
2853.37          0.883454695      27.2889255       0.45850786       -62.0548665      0.45850786       -62.0548665      0.883454695      27.2889255       
2876.56          0.885383713      27.0519793       0.454828491      -62.2916177      0.454828491      -62.2916177      0.885383713      27.0519793       
2899.75          0.887278041      26.8174025       0.451178256      -62.5259369      0.451178256      -62.5259369      0.887278041      26.8174025       
2922.94          0.889138396      26.585159        0.447556888      -62.7578599      0.447556888      -62.7578599      0.889138396      26.585159        
2946.13          0.890965479      26.3552138       0.443964115      -62.987422       0.443964115      -62.987422       0.890965479      26.3552138       
