! Coilcraft 0603CS-82N Chip Inductor				
! 21 May 2002			
# MHZ S MA R 50
!Freq             MagS11           AngS11           MagS21           AngS21           MagS12           AngS12           MagS22           AngS22
1                0.00537237802    70.7332093       0.998240174      -0.291088133     0.998240174      -0.291088133     0.00537237802    70.7332093       
8.23             0.0419248426     81.0302487       0.994326122      -2.38697042      0.994326122      -2.38697042      0.0419248426     81.0302487       
15.46            0.0782051122     80.7441182       0.990433446      -4.46973075      0.990433446      -4.46973075      0.0782051122     80.7441182       
22.69            0.114101875      79.5203791       0.985653194      -6.53624615      0.985653194      -6.53624615      0.114101875      79.5203791       
29.92            0.149498785      77.9876242       0.979857962      -8.5823632       0.979857962      -8.5823632       0.149498785      77.9876242       
37.15            0.184283016      76.3204128       0.973035104      -10.6038591      0.973035104      -10.6038591      0.184283016      76.3204128       
44.38            0.218349804      74.5908691       0.96521567       -12.5966865      0.96521567       -12.5966865      0.218349804      74.5908691       
51.61            0.251604947      72.8359808       0.95645373       -14.5570903      0.95645373       -14.5570903      0.251604947      72.8359808       
58.84            0.283966282      71.0775457       0.946817321      -16.4816744      0.946817321      -16.4816744      0.283966282      71.0775457       
66.07            0.315364489      69.3296806       0.936383257      -18.3674421      0.936383257      -18.3674421      0.315364489      69.3296806       
73.3             0.345743366      67.6021297       0.925233554      -20.2118166      0.925233554      -20.2118166      0.345743366      67.6021297       
80.53            0.375059669      65.9018984       0.913452718      -22.0126476      0.913452718      -22.0126476      0.375059669      65.9018984       
87.76            0.403282602      64.234137        0.90112558       -23.7682056      0.90112558       -23.7682056      0.403282602      64.234137        
94.99            0.430393045      62.6026582       0.888335554      -25.4771668      0.888335554      -25.4771668      0.430393045      62.6026582       
102.22           0.456382574      61.0102622       0.875163255      -27.138591       0.875163255      -27.138591       0.456382574      61.0102622       
109.45           0.481252364      59.4589546       0.861685431      -28.7518939      0.861685431      -28.7518939      0.481252364      59.4589546       
116.68           0.505012016      57.9501025       0.847974174      -30.3168161      0.847974174      -30.3168161      0.505012016      57.9501025       
123.91           0.52767837       56.4845509       0.834096381      -31.83339        0.834096381      -31.83339        0.52767837       56.4845509       
131.14           0.549274345      55.0627151       0.820113428      -33.3019056      0.820113428      -33.3019056      0.549274345      55.0627151       
138.37           0.569827828      53.6846552       0.806081029      -34.7228773      0.806081029      -34.7228773      0.569827828      53.6846552       
145.6            0.58937065       52.3501383       0.792049241      -36.0970111      0.792049241      -36.0970111      0.58937065       52.3501383       
152.83           0.60793765       51.058691        0.778062587      -37.4251738      0.778062587      -37.4251738      0.60793765       51.058691        
160.06           0.625565838      49.8096444       0.764160274      -38.7083649      0.764160274      -38.7083649      0.625565838      49.8096444       
167.29           0.642293669      48.6021727       0.750376471      -39.9476902      0.750376471      -39.9476902      0.642293669      48.6021727       
174.52           0.658160406      47.4353261       0.73674064       -41.144338       0.73674064       -41.144338       0.658160406      47.4353261       
181.75           0.673205597      46.3080596       0.723277885      -42.2995589      0.723277885      -42.2995589      0.673205597      46.3080596       
188.98           0.687468619      45.2192566       0.710009322      -43.4146464      0.710009322      -43.4146464      0.687468619      45.2192566       
196.21           0.700988325      44.1677502       0.696952445      -44.4909217      0.696952445      -44.4909217      0.700988325      44.1677502       
203.44           0.713802749      43.1523406       0.684121483      -45.5297196      0.684121483      -45.5297196      0.713802749      43.1523406       
210.67           0.725948882      42.1718092       0.67152775       -46.5323767      0.67152775       -46.5323767      0.725948882      42.1718092       
217.9            0.737462498      41.2249318       0.659179969      -47.5002222      0.659179969      -47.5002222      0.737462498      41.2249318       
225.13           0.748378034      40.3104877       0.647084581      -48.4345689      0.647084581      -48.4345689      0.748378034      40.3104877       
232.36           0.758728501      39.427269        0.635246021      -49.3367076      0.635246021      -49.3367076      0.758728501      39.427269        
239.59           0.76854544       38.5740863       0.623666985      -50.207901       0.623666985      -50.207901       0.76854544       38.5740863       
246.82           0.777858888      37.7497747       0.612348659      -51.0493802      0.612348659      -51.0493802      0.777858888      37.7497747       
254.05           0.786697387      36.9531976       0.601290933      -51.862341       0.601290933      -51.862341       0.786697387      36.9531976       
261.28           0.795087991      36.18325         0.590492593      -52.6479421      0.590492593      -52.6479421      0.795087991      36.18325         
268.51           0.803056299      35.4388604       0.579951489      -53.4073031      0.579951489      -53.4073031      0.803056299      35.4388604       
275.74           0.810626495      34.7189932       0.569664685      -54.1415039      0.569664685      -54.1415039      0.810626495      34.7189932       
282.97           0.817821392      34.0226486       0.559628593      -54.8515839      0.559628593      -54.8515839      0.817821392      34.0226486       
290.2            0.824662492      33.3488642       0.549839092      -55.5385422      0.549839092      -55.5385422      0.824662492      33.3488642       
297.43           0.831170033      32.6967144       0.540291624      -56.2033376      0.540291624      -56.2033376      0.831170033      32.6967144       
304.66           0.837363056      32.0653104       0.53098129       -56.8468893      0.53098129       -56.8468893      0.837363056      32.0653104       
311.89           0.843259459      31.4537999       0.521902923      -57.4700776      0.521902923      -57.4700776      0.843259459      31.4537999       
319.12           0.848876061      30.861366        0.51305116       -58.0737452      0.51305116       -58.0737452      0.848876061      30.861366        
326.35           0.854228659      30.2872269       0.504420491      -58.6586974      0.504420491      -58.6586974      0.854228659      30.2872269       
333.58           0.859332084      29.7306346       0.496005317      -59.2257043      0.496005317      -59.2257043      0.859332084      29.7306346       
340.81           0.86420026       29.1908739       0.487799989      -59.7755011      0.487799989      -59.7755011      0.86420026       29.1908739       
348.04           0.868846258      28.6672615       0.47979884       -60.30879        0.47979884       -60.30879        0.868846258      28.6672615       
355.27           0.873282344      28.1591445       0.471996223      -60.8262412      0.471996223      -60.8262412      0.873282344      28.1591445       
362.5            0.877520032      27.6658994       0.464386529      -61.3284941      0.464386529      -61.3284941      0.877520032      27.6658994       
369.73           0.881570129      27.186931        0.456964211      -61.8161591      0.456964211      -61.8161591      0.881570129      27.186931        
376.96           0.885442783      26.7216714       0.449723802      -62.2898182      0.449723802      -62.2898182      0.885442783      26.7216714       
384.19           0.889147518      26.2695781       0.442659929      -62.7500266      0.442659929      -62.7500266      0.889147518      26.2695781       
391.42           0.892693281      25.8301337       0.435767321      -63.197314       0.435767321      -63.197314       0.892693281      25.8301337       
398.65           0.896088475      25.4028443       0.429040824      -63.6321856      0.429040824      -63.6321856      0.896088475      25.4028443       
405.88           0.899340995      24.9872387       0.422475401      -64.0551233      0.422475401      -64.0551233      0.899340995      24.9872387       
413.11           0.902458261      24.5828669       0.416066142      -64.4665869      0.416066142      -64.4665869      0.902458261      24.5828669       
420.34           0.905447249      24.1892997       0.409808268      -64.8670151      0.409808268      -64.8670151      0.905447249      24.1892997       
427.57           0.90831452       23.8061273       0.403697128      -65.2568265      0.403697128      -65.2568265      0.90831452       23.8061273       
434.8            0.911066244      23.4329583       0.397728207      -65.6364206      0.397728207      -65.6364206      0.911066244      23.4329583       
442.03           0.913708231      23.0694191       0.391897122      -66.0061786      0.391897122      -66.0061786      0.913708231      23.0694191       
449.26           0.916245948      22.7151529       0.386199621      -66.3664648      0.386199621      -66.3664648      0.916245948      22.7151529       
456.49           0.918684546      22.3698189       0.380631586      -66.7176268      0.380631586      -66.7176268      0.918684546      22.3698189       
463.72           0.921028876      22.0330914       0.37518903       -67.0599967      0.37518903       -67.0599967      0.921028876      22.0330914       
470.95           0.923283513      21.7046593       0.36986809       -67.3938917      0.36986809       -67.3938917      0.923283513      21.7046593       
478.18           0.925452769      21.3842251       0.364665034      -67.7196152      0.364665034      -67.7196152      0.925452769      21.3842251       
485.41           0.927540714      21.0715044       0.359576248      -68.0374568      0.359576248      -68.0374568      0.927540714      21.0715044       
492.64           0.929551188      20.7662253       0.354598243      -68.3476936      0.354598243      -68.3476936      0.929551188      20.7662253       
499.87           0.931487815      20.4681275       0.349727644      -68.6505908      0.349727644      -68.6505908      0.931487815      20.4681275       
507.1            0.933354022      20.1769622       0.344961193      -68.9464018      0.344961193      -68.9464018      0.933354022      20.1769622       
514.33           0.935153044      19.892491        0.340295739      -69.2353692      0.340295739      -69.2353692      0.935153044      19.892491        
521.56           0.936887942      19.6144859       0.335728242      -69.5177252      0.335728242      -69.5177252      0.936887942      19.6144859       
528.79           0.938561609      19.3427284       0.331255767      -69.7936922      0.331255767      -69.7936922      0.938561609      19.3427284       
536.02           0.940176784      19.0770092       0.326875476      -70.0634832      0.326875476      -70.0634832      0.940176784      19.0770092       
543.25           0.94173606       18.8171278       0.322584634      -70.327302       0.322584634      -70.327302       0.94173606       18.8171278       
550.48           0.94324189       18.5628921       0.318380596      -70.5853443      0.318380596      -70.5853443      0.94324189       18.5628921       
557.71           0.944696603      18.3141177       0.314260811      -70.8377975      0.314260811      -70.8377975      0.944696603      18.3141177       
564.94           0.946102401      18.070628        0.310222817      -71.0848412      0.310222817      -71.0848412      0.946102401      18.070628        
572.17           0.947461378      17.8322533       0.306264234      -71.3266479      0.306264234      -71.3266479      0.947461378      17.8322533       
579.4            0.948775515      17.5988309       0.302382767      -71.5633829      0.302382767      -71.5633829      0.948775515      17.5988309       
586.63           0.950046697      17.3702048       0.298576198      -71.7952049      0.298576198      -71.7952049      0.950046697      17.3702048       
593.86           0.95127671       17.1462248       0.294842388      -72.0222663      0.294842388      -72.0222663      0.95127671       17.1462248       
601.09           0.952467252      16.926747        0.29117927       -72.2447136      0.29117927       -72.2447136      0.952467252      16.926747        
608.32           0.953619937      16.711633        0.287584846      -72.4626871      0.287584846      -72.4626871      0.953619937      16.711633        
615.55           0.9547363        16.5007498       0.28405719       -72.676322       0.28405719       -72.676322       0.9547363        16.5007498       
622.78           0.955817799      16.2939694       0.280594439      -72.8857482      0.280594439      -72.8857482      0.955817799      16.2939694       
630.01           0.956865822      16.0911689       0.277194795      -73.0910904      0.277194795      -73.0910904      0.956865822      16.0911689       
637.24           0.957881691      15.8922301       0.273856519      -73.2924687      0.273856519      -73.2924687      0.957881691      15.8922301       
644.47           0.958866663      15.6970391       0.270577933      -73.4899986      0.270577933      -73.4899986      0.958866663      15.6970391       
651.7            0.959821938      15.5054864       0.267357412      -73.6837911      0.267357412      -73.6837911      0.959821938      15.5054864       
658.93           0.960748657      15.3174665       0.26419339       -73.8739532      0.26419339       -73.8739532      0.960748657      15.3174665       
666.16           0.961647909      15.132878        0.261084349      -74.0605879      0.261084349      -74.0605879      0.961647909      15.132878        
673.39           0.962520732      14.9516228       0.258028823      -74.2437944      0.258028823      -74.2437944      0.962520732      14.9516228       
680.62           0.963368118      14.7736069       0.255025396      -74.4236682      0.255025396      -74.4236682      0.963368118      14.7736069       
687.85           0.964191011      14.5987393       0.252072696      -74.6003012      0.252072696      -74.6003012      0.964191011      14.5987393       
695.08           0.964990315      14.4269325       0.249169397      -74.7737823      0.249169397      -74.7737823      0.964990315      14.4269325       
702.31           0.965766891      14.2581019       0.246314217      -74.944197       0.246314217      -74.944197       0.965766891      14.2581019       
709.54           0.966521564      14.0921661       0.243505914      -75.1116277      0.243505914      -75.1116277      0.966521564      14.0921661       
716.77           0.967255119      13.9290466       0.240743287      -75.276154       0.240743287      -75.276154       0.967255119      13.9290466       
724              0.967968312      13.7686673       0.238025174      -75.4378526      0.238025174      -75.4378526      0.967968312      13.7686673       
731.23           0.96866186       13.6109551       0.235350449      -75.5967977      0.235350449      -75.5967977      0.96866186       13.6109551       
738.46           0.969336454      13.4558392       0.232718022      -75.7530606      0.232718022      -75.7530606      0.969336454      13.4558392       
745.69           0.969992752      13.3032514       0.230126839      -75.9067105      0.230126839      -75.9067105      0.969992752      13.3032514       
752.92           0.970631386      13.1531255       0.227575876      -76.057814       0.227575876      -76.057814       0.970631386      13.1531255       
760.15           0.97125296       13.0053979       0.225064145      -76.2064355      0.225064145      -76.2064355      0.97125296       13.0053979       
767.38           0.971858053      12.8600069       0.222590685      -76.3526372      0.222590685      -76.3526372      0.971858053      12.8600069       
774.61           0.972447221      12.7168929       0.220154567      -76.4964792      0.220154567      -76.4964792      0.972447221      12.7168929       
781.84           0.973020996      12.5759982       0.217754889      -76.6380197      0.217754889      -76.6380197      0.973020996      12.5759982       
789.07           0.973579888      12.4372671       0.215390779      -76.7773149      0.215390779      -76.7773149      0.973579888      12.4372671       
796.3            0.974124387      12.3006456       0.213061389      -76.914419       0.213061389      -76.914419       0.974124387      12.3006456       
803.53           0.974654961      12.1660815       0.210765898      -77.0493847      0.210765898      -77.0493847      0.974654961      12.1660815       
810.76           0.975172063      12.0335243       0.208503509      -77.1822628      0.208503509      -77.1822628      0.975172063      12.0335243       
817.99           0.975676125      11.9029251       0.20627345       -77.3131024      0.20627345       -77.3131024      0.975676125      11.9029251       
825.22           0.976167563      11.7742364       0.20407497       -77.4419513      0.20407497       -77.4419513      0.976167563      11.7742364       
832.45           0.976646777      11.6474124       0.201907342      -77.5688555      0.201907342      -77.5688555      0.976646777      11.6474124       
839.68           0.977114149      11.5224086       0.19976986       -77.6938596      0.19976986       -77.6938596      0.977114149      11.5224086       
846.91           0.97757005       11.3991819       0.197661838      -77.8170068      0.197661838      -77.8170068      0.97757005       11.3991819       
854.14           0.978014833      11.2776904       0.195582611      -77.938339       0.195582611      -77.938339       0.978014833      11.2776904       
861.37           0.978448841      11.1578939       0.193531531      -78.0578968      0.193531531      -78.0578968      0.978448841      11.1578939       
868.6            0.978872402      11.0397528       0.191507972      -78.1757193      0.191507972      -78.1757193      0.978872402      11.0397528       
875.83           0.97928583       10.9232292       0.189511322      -78.2918448      0.189511322      -78.2918448      0.97928583       10.9232292       
883.06           0.979689432      10.8082861       0.187540991      -78.40631        0.187540991      -78.40631        0.979689432      10.8082861       
890.29           0.980083499      10.6948877       0.185596401      -78.5191508      0.185596401      -78.5191508      0.980083499      10.6948877       
897.52           0.980468313      10.5829991       0.183676993      -78.6304018      0.183676993      -78.6304018      0.980468313      10.5829991       
904.75           0.980844146      10.4725866       0.181782224      -78.7400967      0.181782224      -78.7400967      0.980844146      10.4725866       
911.98           0.981211261      10.3636174       0.179911564      -78.8482679      0.179911564      -78.8482679      0.981211261      10.3636174       
919.21           0.981569908      10.2560596       0.178064499      -78.9549473      0.178064499      -78.9549473      0.981569908      10.2560596       
