! Coilcraft 0603CS-R33 Chip Inductor				
! 21 May 2002			
# MHZ S MA R 50
!Freq             MagS11           AngS11           MagS21           AngS21           MagS12           AngS12           MagS22           AngS22
1                0.0244875945     54.664068        0.9860395        -1.16084589      0.9860395        -1.16084589      0.0244875945     54.664068        
4.49             0.0924220303     71.4314298       0.974515371      -5.15796673      0.974515371      -5.15796673      0.0924220303     71.4314298       
7.98             0.159781271      71.5539218       0.96146587       -9.07033367      0.96146587       -9.07033367      0.159781271      71.5539218       
11.47            0.224760652      69.6041042       0.945440093      -12.8751397      0.945440093      -12.8751397      0.224760652      69.6041042       
14.96            0.286632667      67.0331902       0.926537314      -16.5490723      0.926537314      -16.5490723      0.286632667      67.0331902       
18.45            0.344903033      64.2551151       0.905168822      -20.0728312      0.905168822      -20.0728312      0.344903033      64.2551151       
21.94            0.399262083      61.440377        0.881848828      -23.4322517      0.881848828      -23.4322517      0.399262083      61.440377        
25.43            0.449563283      58.6732695       0.857108708      -26.6184         0.857108708      -26.6184         0.449563283      58.6732695       
28.92            0.495797552      55.9991231       0.831450351      -29.6271415      0.831450351      -29.6271415      0.495797552      55.9991231       
32.41            0.538063936      53.4425766       0.805320285      -32.4584322      0.805320285      -32.4584322      0.538063936      53.4425766       
35.9             0.576540191      51.0160747       0.779097576      -35.1155033      0.779097576      -35.1155033      0.576540191      51.0160747       
39.39            0.611456157      48.72443         0.753091143      -37.6040516      0.753091143      -37.6040516      0.611456157      48.72443         
42.88            0.643071488      46.5675494       0.727543156      -39.9315057      0.727543156      -39.9315057      0.643071488      46.5675494       
46.37            0.671658224      44.5421868       0.702635913      -42.1064028      0.702635913      -42.1064028      0.671658224      44.5421868       
49.86            0.697487993      42.6431206       0.678500297      -44.1378864      0.678500297      -44.1378864      0.697487993      42.6431206       
53.35            0.720823176      40.8639635       0.655224538      -46.03532        0.655224538      -46.03532        0.720823176      40.8639635       
56.84            0.741911284      39.1977202       0.632862478      -47.8080013      0.632862478      -47.8080013      0.741911284      39.1977202       
60.33            0.760981773      37.6371723       0.611440942      -49.4649613      0.611440942      -49.4649613      0.760981773      37.6371723       
63.82            0.778244626      36.1751369       0.590966034      -51.0148315      0.590966034      -51.0148315      0.778244626      36.1751369       
67.31            0.793890164      34.8046374       0.571428367      -52.4657617      0.571428367      -52.4657617      0.793890164      34.8046374       
70.8             0.808089651      33.5190095       0.552807298      -53.8253769      0.552807298      -53.8253769      0.808089651      33.5190095       
74.29            0.820996392      32.3119641       0.535074283      -55.100762       0.535074283      -55.100762       0.820996392      32.3119641       
77.78            0.832747095      31.1776173       0.518195507      -56.2984663      0.518195507      -56.2984663      0.832747095      31.1776173       
81.27            0.843463349      30.1104994       0.502133894      -57.4245199      0.502133894      -57.4245199      0.843463349      30.1104994       
84.76            0.853253106      29.1055502       0.486850633      -58.4844596      0.486850633      -58.4844596      0.853253106      29.1055502       
88.25            0.862212116      28.158104        0.472306313      -59.4833588      0.472306313      -59.4833588      0.862212116      28.158104        
91.74            0.870425271      27.2638696       0.45846175       -60.4258598      0.45846175       -60.4258598      0.870425271      27.2638696       
95.23            0.877967836      26.4189065       0.445278574      -61.3162073      0.445278574      -61.3162073      0.877967836      26.4189065       
98.72            0.88490657       25.6196011       0.432719639      -62.15828        0.432719639      -62.15828        0.88490657       25.6196011       
102.21           0.891300729      24.8626408       0.420749294      -62.9556226      0.420749294      -62.9556226      0.891300729      24.8626408       
105.7            0.897202954      24.1449901       0.409333542      -63.7114748      0.409333542      -63.7114748      0.897202954      24.1449901       
109.19           0.902660065      23.4638677       0.398440133      -64.4287986      0.398440133      -64.4287986      0.902660065      23.4638677       
112.68           0.907713753      22.8167239       0.388038594      -65.1103037      0.388038594      -65.1103037      0.907713753      22.8167239       
116.17           0.912401194      22.2012205       0.378100215      -65.758471       0.378100215      -65.758471       0.912401194      22.2012205       
119.66           0.916755587      21.6152124       0.368598015      -66.3755733      0.368598015      -66.3755733      0.916755587      21.6152124       
123.15           0.920806618      21.0567295       0.35950668       -66.963695       0.35950668       -66.963695       0.920806618      21.0567295       
126.64           0.92458088       20.5239617       0.350802494      -67.5247494      0.350802494      -67.5247494      0.92458088       20.5239617       
130.13           0.928102227      20.0152437       0.342463259      -68.0604945      0.342463259      -68.0604945      0.928102227      20.0152437       
133.62           0.931392091      19.5290427       0.334468211      -68.5725476      0.334468211      -68.5725476      0.931392091      19.5290427       
137.11           0.934469761      19.063946        0.326797936      -69.0623975      0.326797936      -69.0623975      0.934469761      19.063946        
140.6            0.93735262       18.6186505       0.31943429       -69.5314171      0.31943429       -69.5314171      0.93735262       18.6186505       
144.09           0.940056363      18.1919528       0.31236031       -69.980873       0.31236031       -69.980873       0.940056363      18.1919528       
147.58           0.942595181      17.7827404       0.305560144      -70.4119356      0.305560144      -70.4119356      0.942595181      17.7827404       
151.07           0.944981924      17.3899842       0.299018969      -70.8256873      0.299018969      -70.8256873      0.944981924      17.3899842       
154.56           0.947228245      17.0127307       0.292722924      -71.2231304      0.292722924      -71.2231304      0.947228245      17.0127307       
158.05           0.949344732      16.6500955       0.286659044      -71.6051939      0.286659044      -71.6051939      0.949344732      16.6500955       
161.54           0.951341014      16.3012581       0.280815192      -71.9727398      0.280815192      -71.9727398      0.951341014      16.3012581       
165.03           0.953225862      15.9654557       0.275180007      -72.326569       0.275180007      -72.326569       0.953225862      15.9654557       
168.52           0.955007281      15.641979        0.269742845      -72.6674262      0.269742845      -72.6674262      0.955007281      15.641979        
172.01           0.95669258       15.3301673       0.264493728      -72.9960046      0.264493728      -72.9960046      0.95669258       15.3301673       
175.5            0.958288447      15.029405        0.259423302      -73.3129502      0.259423302      -73.3129502      0.958288447      15.029405        
178.99           0.959801011      14.7391178       0.254522786      -73.6188655      0.254522786      -73.6188655      0.959801011      14.7391178       
182.48           0.961235888      14.4587691       0.249783937      -73.9143133      0.249783937      -73.9143133      0.961235888      14.4587691       
185.97           0.962598241      14.1878576       0.245199008      -74.1998193      0.245199008      -74.1998193      0.962598241      14.1878576       
189.46           0.963892814      13.9259141       0.240760719      -74.4758755      0.240760719      -74.4758755      0.963892814      13.9259141       
192.95           0.965123977      13.6724993       0.236462219      -74.7429426      0.236462219      -74.7429426      0.965123977      13.6724993       
196.44           0.966295758      13.4272013       0.232297059      -75.0014521      0.232297059      -75.0014521      0.966295758      13.4272013       
199.93           0.967411872      13.1896338       0.228259166      -75.2518091      0.228259166      -75.2518091      0.967411872      13.1896338       
203.42           0.968475754      12.9594339       0.224342815      -75.4943939      0.224342815      -75.4943939      0.968475754      12.9594339       
206.91           0.96949058       12.7362609       0.220542605      -75.7295638      0.220542605      -75.7295638      0.96949058       12.7362609       
210.4            0.970459292      12.5197939       0.216853442      -75.9576548      0.216853442      -75.9576548      0.970459292      12.5197939       
213.89           0.971384614      12.3097311       0.213270511      -76.1789831      0.213270511      -76.1789831      0.971384614      12.3097311       
217.38           0.972269077      12.1057883       0.209789267      -76.3938468      0.209789267      -76.3938468      0.972269077      12.1057883       
220.87           0.97311503       11.9076972       0.206405407      -76.6025268      0.206405407      -76.6025268      0.97311503       11.9076972       
224.36           0.973924657      11.715205        0.203114866      -76.8052881      0.203114866      -76.8052881      0.973924657      11.715205        
227.85           0.974699993      11.5280728       0.19991379       -77.0023808      0.19991379       -77.0023808      0.974699993      11.5280728       
231.34           0.97544293       11.3460749       0.196798531      -77.1940415      0.196798531      -77.1940415      0.97544293       11.3460749       
234.83           0.976155234      11.168998        0.19376563       -77.3804937      0.19376563       -77.3804937      0.976155234      11.168998        
238.32           0.976838555      10.99664         0.190811808      -77.5619489      0.190811808      -77.5619489      0.976838555      10.99664         
241.81           0.977494429      10.8288099       0.187933953      -77.7386074      0.187933953      -77.7386074      0.977494429      10.8288099       
245.3            0.978124298      10.6653263       0.185129108      -77.910659       0.185129108      -77.910659       0.978124298      10.6653263       
248.79           0.978729508      10.5060176       0.182394467      -78.0782835      0.182394467      -78.0782835      0.978729508      10.5060176       
252.28           0.979311319      10.3507207       0.17972736       -78.2416518      0.17972736       -78.2416518      0.979311319      10.3507207       
255.77           0.979870913      10.199281        0.177125248      -78.4009257      0.177125248      -78.4009257      0.979870913      10.199281        
259.26           0.980409399      10.0515515       0.174585717      -78.5562593      0.174585717      -78.5562593      0.980409399      10.0515515       
262.75           0.980927818      9.90739238       0.172106466      -78.7077988      0.172106466      -78.7077988      0.980927818      9.90739238       
266.24           0.981427146      9.76667089       0.169685304      -78.8556834      0.169685304      -78.8556834      0.981427146      9.76667089       
269.73           0.981908302      9.62926056       0.167320144      -79.0000453      0.167320144      -79.0000453      0.981908302      9.62926056       
273.22           0.982372151      9.49504099       0.165008994      -79.1410108      0.165008994      -79.1410108      0.982372151      9.49504099       
276.71           0.982819506      9.3638975        0.162749955      -79.2786998      0.162749955      -79.2786998      0.982819506      9.3638975        
280.2            0.983251134      9.23572077       0.160541213      -79.4132267      0.160541213      -79.4132267      0.983251134      9.23572077       
283.69           0.983667758      9.11040652       0.158381036      -79.5447007      0.158381036      -79.5447007      0.983667758      9.11040652       
287.18           0.984070059      8.98785527       0.156267772      -79.6732259      0.156267772      -79.6732259      0.984070059      8.98785527       
290.67           0.984458681      8.86797204       0.154199837      -79.7989017      0.154199837      -79.7989017      0.984458681      8.86797204       
294.16           0.984834232      8.7506661        0.15217572       -79.9218229      0.15217572       -79.9218229      0.984834232      8.7506661        
297.65           0.985197285      8.63585076       0.150193975      -80.0420804      0.150193975      -80.0420804      0.985197285      8.63585076       
301.14           0.985548384      8.52344312       0.148253215      -80.1597608      0.148253215      -80.1597608      0.985548384      8.52344312       
304.63           0.985888043      8.41336389       0.146352116      -80.2749469      0.146352116      -80.2749469      0.985888043      8.41336389       
308.12           0.98621675       8.3055372        0.144489408      -80.3877182      0.144489408      -80.3877182      0.98621675       8.3055372        
311.61           0.986534964      8.19989039       0.142663871      -80.4981505      0.142663871      -80.4981505      0.986534964      8.19989039       
315.1            0.986843123      8.09635387       0.140874341      -80.6063166      0.140874341      -80.6063166      0.986843123      8.09635387       
318.59           0.987141642      7.99486097       0.139119696      -80.7122861      0.139119696      -80.7122861      0.987141642      7.99486097       
322.08           0.987430914      7.89534775       0.137398863      -80.8161259      0.137398863      -80.8161259      0.987430914      7.89534775       
325.57           0.987711312      7.7977529        0.135710811      -80.9178999      0.135710811      -80.9178999      0.987711312      7.7977529        
329.06           0.987983191      7.7020176        0.134054549      -81.0176695      0.134054549      -81.0176695      0.987983191      7.7020176        
332.55           0.988246888      7.60808538       0.132429127      -81.1154937      0.132429127      -81.1154937      0.988246888      7.60808538       
336.04           0.988502725      7.51590202       0.13083363       -81.2114291      0.13083363       -81.2114291      0.988502725      7.51590202       
339.53           0.988751005      7.42541543       0.129267179      -81.3055298      0.129267179      -81.3055298      0.988751005      7.42541543       
343.02           0.988992019      7.33657556       0.127728931      -81.3978482      0.127728931      -81.3978482      0.988992019      7.33657556       
346.51           0.989226045      7.24933429       0.12621807       -81.4884343      0.12621807       -81.4884343      0.989226045      7.24933429       
350              0.989453344      7.16364535       0.124733816      -81.5773363      0.124733816      -81.5773363      0.989453344      7.16364535       
353.49           0.989674169      7.0794642        0.123275415      -81.6646006      0.123275415      -81.6646006      0.989674169      7.0794642        
356.98           0.989888759      6.99674802       0.121842142      -81.7502718      0.121842142      -81.7502718      0.989888759      6.99674802       
360.47           0.990097341      6.91545554       0.120433298      -81.8343926      0.120433298      -81.8343926      0.990097341      6.91545554       
363.96           0.990300135      6.83554704       0.119048209      -81.9170045      0.119048209      -81.9170045      0.990300135      6.83554704       
367.45           0.990497348      6.75698426       0.117686227      -81.998147       0.117686227      -81.998147       0.990497348      6.75698426       
370.94           0.990689179      6.6797303        0.116346725      -82.0778586      0.116346725      -82.0778586      0.990689179      6.6797303        
374.43           0.990875818      6.60374962       0.115029101      -82.1561761      0.115029101      -82.1561761      0.990875818      6.60374962       
377.92           0.991057446      6.52900793       0.113732771      -82.233135       0.113732771      -82.233135       0.991057446      6.52900793       
381.41           0.991234238      6.45547215       0.112457173      -82.3087695      0.112457173      -82.3087695      0.991234238      6.45547215       
384.9            0.99140636       6.38311036       0.111201765      -82.3831127      0.111201765      -82.3831127      0.99140636       6.38311036       
388.39           0.99157397       6.31189177       0.109966023      -82.4561964      0.109966023      -82.4561964      0.99157397       6.31189177       
391.88           0.991737222      6.24178662       0.10874944       -82.5280512      0.10874944       -82.5280512      0.991737222      6.24178662       
395.37           0.99189626       6.1727662        0.107551527      -82.5987069      0.107551527      -82.5987069      0.99189626       6.1727662        
398.86           0.992051225      6.10480274       0.106371811      -82.668192       0.106371811      -82.668192       0.992051225      6.10480274       
402.35           0.992202251      6.03786944       0.105209835      -82.7365342      0.105209835      -82.7365342      0.992202251      6.03786944       
405.84           0.992349466      5.97194036       0.104065157      -82.80376        0.104065157      -82.80376        0.992349466      5.97194036       
409.33           0.992492993      5.90699045       0.10293735       -82.8698951      0.10293735       -82.8698951      0.992492993      5.90699045       
412.82           0.992632951      5.84299545       0.101825999      -82.9349646      0.101825999      -82.9349646      0.992632951      5.84299545       
416.31           0.992769454      5.77993192       0.100730705      -82.9989922      0.100730705      -82.9989922      0.992769454      5.77993192       
419.8            0.992902609      5.71777716       0.0996510787     -83.0620013      0.0996510787     -83.0620013      0.992902609      5.71777716       
423.29           0.993032523      5.6565092        0.0985867458     -83.1240143      0.0985867458     -83.1240143      0.993032523      5.6565092        
426.78           0.993159295      5.59610677       0.0975373426     -83.1850528      0.0975373426     -83.1850528      0.993159295      5.59610677       
430.27           0.993283022      5.53654927       0.0965025168     -83.2451377      0.0965025168     -83.2451377      0.993283022      5.53654927       
433.76           0.993403797      5.47781676       0.0954819272     -83.3042894      0.0954819272     -83.3042894      0.993403797      5.47781676       
437.25           0.99352171       5.4198899        0.0944752429     -83.3625274      0.0944752429     -83.3625274      0.99352171       5.4198899        
440.74           0.993636846      5.36274996       0.0934821433     -83.4198706      0.0934821433     -83.4198706      0.993636846      5.36274996       
444.23           0.993749288      5.30637877       0.0925023173     -83.4763374      0.0925023173     -83.4763374      0.993749288      5.30637877       
