! Coilcraft 0603CS-56N Chip Inductor				
! 21 May 2002			
# MHZ S MA R 50
!Freq             MagS11           AngS11           MagS21           AngS21           MagS12           AngS12           MagS22           AngS22
1                0.00373936407    69.8081432       0.99871547       -0.201341479     0.99871547       -0.201341479     0.00373936407    69.8081432       
8.98             0.0316748508     81.6321609       0.995883607      -1.80323412      0.995883607      -1.80323412      0.0316748508     81.6321609       
16.96            0.0594830533     81.8505311       0.993314693      -3.39840978      0.993314693      -3.39840978      0.0594830533     81.8505311       
24.94            0.0871107658     81.1070791       0.990280603      -4.98576864      0.990280603      -4.98576864      0.0871107658     81.1070791       
32.92            0.114505838      80.0415267       0.986664886      -6.56353367      0.986664886      -6.56353367      0.114505838      80.0415267       
40.9             0.141615701      78.8280102       0.982434513      -8.12979961      0.982434513      -8.12979961      0.141615701      78.8280102       
48.88            0.168389293      77.5369249       0.977586128      -9.68266016      0.977586128      -9.68266016      0.168389293      77.5369249       
56.86            0.194778149      76.2034523       0.972131221      -11.2202641      0.972131221      -11.2202641      0.194778149      76.2034523       
64.84            0.220737101      74.8477715       0.966090244      -12.7408479      0.966090244      -12.7408479      0.220737101      74.8477715       
72.82            0.246224764      73.4826479       0.959489667      -14.2427567      0.959489667      -14.2427567      0.246224764      73.4826479       
80.8             0.271203872      72.1167652       0.952360209      -15.7244595      0.952360209      -15.7244595      0.271203872      72.1167652       
88.78            0.295641481      70.7563611       0.944735624      -17.1845586      0.944735624      -17.1845586      0.295641481      70.7563611       
96.76            0.319509083      69.4061003       0.936651769      -18.6217965      0.936651769      -18.6217965      0.319509083      69.4061003       
104.74           0.342782613      68.0695744       0.928145851      -20.0350591      0.928145851      -20.0350591      0.342782613      68.0695744       
112.72           0.365442398      66.7496037       0.919255796      -21.4233764      0.919255796      -21.4233764      0.365442398      66.7496037       
120.7            0.387473019      65.4484287       0.910019708      -22.7859211      0.910019708      -22.7859211      0.387473019      65.4484287       
128.68           0.408863133      64.1678379       0.900475404      -24.1220054      0.900475404      -24.1220054      0.408863133      64.1678379       
136.66           0.429605247      62.9092559       0.89066002       -25.4310764      0.89066002       -25.4310764      0.429605247      62.9092559       
144.64           0.449695453      61.6738077       0.880609683      -26.7127094      0.880609683      -26.7127094      0.449695453      61.6738077       
152.62           0.469133147      60.4623666       0.870359236      -27.9666016      0.870359236      -27.9666016      0.469133147      60.4623666       
160.6            0.487920729      59.2755913       0.859942021      -29.1925634      0.859942021      -29.1925634      0.487920729      59.2755913       
168.58           0.506063297      58.1139564       0.849389716      -30.390511       0.849389716      -30.390511       0.506063297      58.1139564       
176.56           0.523568344      56.9777768       0.838732205      -31.5604572      0.838732205      -31.5604572      0.523568344      56.9777768       
184.54           0.540445456      55.8672294       0.827997508      -32.7025027      0.827997508      -32.7025027      0.540445456      55.8672294       
192.52           0.556706024      54.7823707       0.817211723      -33.8168278      0.817211723      -33.8168278      0.556706024      54.7823707       
200.5            0.572362969      53.7231528       0.806399023      -34.9036836      0.806399023      -34.9036836      0.572362969      53.7231528       
208.48           0.587430485      52.6894377       0.795581662      -35.9633839      0.795581662      -35.9633839      0.587430485      52.6894377       
216.46           0.601923798      51.6810094       0.784780011      -36.9962974      0.784780011      -36.9962974      0.601923798      51.6810094       
224.44           0.61585895       50.6975856       0.774012611      -38.0028402      0.774012611      -38.0028402      0.61585895       50.6975856       
232.42           0.629252596      49.7388268       0.763296239      -38.9834688      0.763296239      -38.9834688      0.629252596      49.7388268       
240.4            0.642121829      48.8043461       0.752645986      -39.9386738      0.752645986      -39.9386738      0.642121829      48.8043461       
248.38           0.654484017      47.8937166       0.74207534       -40.8689736      0.74207534       -40.8689736      0.654484017      47.8937166       
256.36           0.666356666      47.0064788       0.731596282      -41.7749096      0.731596282      -41.7749096      0.666356666      47.0064788       
264.34           0.677757294      46.1421468       0.721219374      -42.6570403      0.721219374      -42.6570403      0.677757294      46.1421468       
272.32           0.688703329      45.3002141       0.710953858      -43.5159378      0.710953858      -43.5159378      0.688703329      45.3002141       
280.3            0.699212018      44.4801584       0.700807749      -44.352183       0.700807749      -44.352183       0.699212018      44.4801584       
288.28           0.709300347      43.681446        0.690787928      -45.1663625      0.690787928      -45.1663625      0.709300347      43.681446        
296.26           0.718984984      42.9035359       0.680900234      -45.9590653      0.680900234      -45.9590653      0.718984984      42.9035359       
304.24           0.728282223      42.145883        0.67114955       -46.73088        0.67114955       -46.73088        0.728282223      42.145883        
312.22           0.737207943      41.4079409       0.661539886      -47.4823924      0.661539886      -47.4823924      0.737207943      41.4079409       
320.2            0.745777579      40.6891647       0.652074459      -48.2141835      0.652074459      -48.2141835      0.745777579      40.6891647       
328.18           0.754006093      39.989013        0.642755768      -48.9268276      0.642755768      -48.9268276      0.754006093      39.989013        
336.16           0.761907961      39.3069501       0.633585663      -49.6208906      0.633585663      -49.6208906      0.761907961      39.3069501       
344.14           0.769497158      38.6424468       0.624565411      -50.2969293      0.624565411      -50.2969293      0.769497158      38.6424468       
352.12           0.776787155      37.9949826       0.615695758      -50.9554896      0.615695758      -50.9554896      0.776787155      37.9949826       
360.1            0.783790915      37.3640461       0.606976982      -51.5971063      0.606976982      -51.5971063      0.783790915      37.3640461       
368.08           0.790520897      36.7491365       0.598408946      -52.2223019      0.598408946      -52.2223019      0.790520897      36.7491365       
376.06           0.79698906       36.1497637       0.589991148      -52.8315865      0.589991148      -52.8315865      0.79698906       36.1497637       
384.04           0.803206871      35.5654491       0.581722761      -53.425457       0.581722761      -53.425457       0.803206871      35.5654491       
392.02           0.809185312      34.9957264       0.573602677      -54.004397       0.573602677      -54.004397       0.809185312      34.9957264       
400              0.814934899      34.4401413       0.565629538      -54.5688768      0.565629538      -54.5688768      0.814934899      34.4401413       
407.98           0.820465685      33.8982518       0.557801774      -55.1193531      0.557801774      -55.1193531      0.820465685      33.8982518       
415.96           0.825787282      33.3696287       0.550117629      -55.6562688      0.550117629      -55.6562688      0.825787282      33.3696287       
423.94           0.83090887       32.8538553       0.54257519       -56.1800536      0.54257519       -56.1800536      0.83090887       32.8538553       
431.92           0.835839214      32.3505274       0.535172413      -56.6911236      0.535172413      -56.6911236      0.835839214      32.3505274       
439.9            0.84058668       31.8592533       0.527907139      -57.1898818      0.527907139      -57.1898818      0.84058668       31.8592533       
447.88           0.845159249      31.3796536       0.52077712       -57.676718       0.52077712       -57.676718       0.845159249      31.3796536       
455.86           0.849564532      30.9113611       0.513780035      -58.1520093      0.513780035      -58.1520093      0.849564532      30.9113611       
463.84           0.853809788      30.4540204       0.506913502      -58.6161203      0.506913502      -58.6161203      0.853809788      30.4540204       
471.82           0.857901935      30.0072879       0.500175096      -59.0694032      0.500175096      -59.0694032      0.857901935      30.0072879       
479.8            0.861847568      29.5708314       0.493562361      -59.5121984      0.493562361      -59.5121984      0.861847568      29.5708314       
487.78           0.865652972      29.1443299       0.487072819      -59.9448344      0.487072819      -59.9448344      0.865652972      29.1443299       
495.76           0.869324137      28.7274732       0.480703982      -60.3676287      0.480703982      -60.3676287      0.869324137      28.7274732       
503.74           0.87286677       28.3199618       0.474453359      -60.7808875      0.474453359      -60.7808875      0.87286677       28.3199618       
511.72           0.87628631       27.9215064       0.468318464      -61.1849064      0.468318464      -61.1849064      0.87628631       27.9215064       
519.7            0.879587938      27.5318278       0.462296823      -61.5799708      0.462296823      -61.5799708      0.879587938      27.5318278       
527.68           0.882776594      27.1506563       0.456385979      -61.9663558      0.456385979      -61.9663558      0.882776594      27.1506563       
535.66           0.885856982      26.7777319       0.450583497      -62.344327       0.450583497      -62.344327       0.885856982      26.7777319       
543.64           0.888833587      26.4128032       0.444886969      -62.7141407      0.444886969      -62.7141407      0.888833587      26.4128032       
551.62           0.891710685      26.055628        0.439294019      -63.076044       0.439294019      -63.076044       0.891710685      26.055628        
559.6            0.89449235       25.7059723       0.4338023        -63.4302752      0.4338023        -63.4302752      0.89449235       25.7059723       
567.58           0.897182467      25.3636105       0.428409506      -63.7770644      0.428409506      -63.7770644      0.897182467      25.3636105       
575.56           0.899784739      25.0283247       0.423113366      -64.1166334      0.423113366      -64.1166334      0.899784739      25.0283247       
583.54           0.902302698      24.6999048       0.417911649      -64.4491962      0.417911649      -64.4491962      0.902302698      24.6999048       
591.52           0.904739714      24.3781479       0.412802168      -64.7749592      0.412802168      -64.7749592      0.904739714      24.3781479       
599.5            0.907098999      24.0628583       0.407782774      -65.0941218      0.407782774      -65.0941218      0.907098999      24.0628583       
607.48           0.909383621      23.7538471       0.402851365      -65.406876       0.402851365      -65.406876       0.909383621      23.7538471       
615.46           0.911596504      23.4509318       0.398005882      -65.7134074      0.398005882      -65.7134074      0.911596504      23.4509318       
623.44           0.913740443      23.1539364       0.39324431       -66.0138947      0.39324431       -66.0138947      0.913740443      23.1539364       
631.42           0.915818102      22.8626911       0.388564678      -66.3085109      0.388564678      -66.3085109      0.915818102      22.8626911       
639.4            0.91783203       22.5770318       0.38396506       -66.5974224      0.38396506       -66.5974224      0.91783203       22.5770318       
647.38           0.919784656      22.2968001       0.379443574      -66.8807904      0.379443574      -66.8807904      0.919784656      22.2968001       
655.36           0.921678305      22.0218429       0.374998384      -67.15877        0.374998384      -67.15877        0.921678305      22.0218429       
663.34           0.923515197      21.7520126       0.370627694      -67.4315112      0.370627694      -67.4315112      0.923515197      21.7520126       
671.32           0.925297452      21.4871665       0.366329756      -67.699159       0.366329756      -67.699159       0.925297452      21.4871665       
679.3            0.927027101      21.2271668       0.362102862      -67.9618531      0.362102862      -67.9618531      0.927027101      21.2271668       
687.28           0.928706081      20.9718801       0.357945347      -68.2197287      0.357945347      -68.2197287      0.928706081      20.9718801       
695.26           0.930336248      20.721178        0.353855587      -68.4729163      0.353855587      -68.4729163      0.930336248      20.721178        
703.24           0.931919377      20.4749358       0.349832         -68.7215419      0.349832         -68.7215419      0.931919377      20.4749358       
711.22           0.933457167      20.2330336       0.345873043      -68.9657275      0.345873043      -68.9657275      0.933457167      20.2330336       
719.2            0.934951242      19.9953549       0.341977215      -69.2055908      0.341977215      -69.2055908      0.934951242      19.9953549       
727.18           0.93640316       19.7617875       0.33814305       -69.4412456      0.33814305       -69.4412456      0.93640316       19.7617875       
735.16           0.93781441       19.5322226       0.334369124      -69.672802       0.334369124      -69.672802       0.93781441       19.5322226       
743.14           0.939186421      19.3065551       0.330654045      -69.9003665      0.330654045      -69.9003665      0.939186421      19.3065551       
751.12           0.94052056       19.0846835       0.326996463      -70.1240418      0.326996463      -70.1240418      0.94052056       19.0846835       
759.1            0.941818138      18.8665092       0.323395059      -70.3439277      0.323395059      -70.3439277      0.941818138      18.8665092       
767.08           0.943080412      18.6519371       0.31984855       -70.5601203      0.31984855       -70.5601203      0.943080412      18.6519371       
775.06           0.944308588      18.4408751       0.316355687      -70.7727129      0.316355687      -70.7727129      0.944308588      18.4408751       
783.04           0.94550382       18.2332339       0.312915255      -70.9817956      0.312915255      -70.9817956      0.94550382       18.2332339       
791.02           0.946667217      18.0289272       0.309526068      -71.1874556      0.309526068      -71.1874556      0.946667217      18.0289272       
799              0.947799844      17.8278714       0.306186973      -71.3897775      0.306186973      -71.3897775      0.947799844      17.8278714       
806.98           0.948902721      17.6299855       0.302896849      -71.588843       0.302896849      -71.588843       0.948902721      17.6299855       
814.96           0.949976829      17.435191        0.299654602      -71.7847313      0.299654602      -71.7847313      0.949976829      17.435191        
822.94           0.95102311       17.243412        0.296459168      -71.9775192      0.296459168      -71.9775192      0.95102311       17.243412        
830.92           0.952042468      17.0545747       0.29330951       -72.1672808      0.29330951       -72.1672808      0.952042468      17.0545747       
838.9            0.953035771      16.8686079       0.290204622      -72.3540882      0.290204622      -72.3540882      0.953035771      16.8686079       
846.88           0.954003855      16.6854423       0.287143519      -72.5380112      0.287143519      -72.5380112      0.954003855      16.6854423       
854.86           0.954947523      16.5050108       0.284125247      -72.7191173      0.284125247      -72.7191173      0.954947523      16.5050108       
862.84           0.955867545      16.3272483       0.281148873      -72.8974719      0.281148873      -72.8974719      0.955867545      16.3272483       
870.82           0.956764664      16.1520919       0.27821349       -73.0731387      0.27821349       -73.0731387      0.956764664      16.1520919       
878.8            0.957639595      15.9794802       0.275318217      -73.2461792      0.275318217      -73.2461792      0.957639595      15.9794802       
886.78           0.958493024      15.809354        0.272462193      -73.4166531      0.272462193      -73.4166531      0.958493024      15.809354        
894.76           0.959325612      15.6416555       0.269644579      -73.5846183      0.269644579      -73.5846183      0.959325612      15.6416555       
902.74           0.960137996      15.4763289       0.266864561      -73.7501309      0.266864561      -73.7501309      0.960137996      15.4763289       
910.72           0.960930788      15.3133199       0.264121344      -73.9132455      0.264121344      -73.9132455      0.960930788      15.3133199       
918.7            0.961704578      15.1525758       0.261414153      -74.0740149      0.261414153      -74.0740149      0.961704578      15.1525758       
926.68           0.962459936      14.9940455       0.258742235      -74.2324904      0.258742235      -74.2324904      0.962459936      14.9940455       
934.66           0.963197408      14.8376792       0.256104854      -74.3887218      0.256104854      -74.3887218      0.963197408      14.8376792       
942.64           0.963917523      14.6834287       0.253501296      -74.5427575      0.253501296      -74.5427575      0.963917523      14.6834287       
950.62           0.964620789      14.531247        0.250930861      -74.6946444      0.250930861      -74.6946444      0.964620789      14.531247        
958.6            0.965307697      14.3810887       0.248392871      -74.844428       0.248392871      -74.844428       0.965307697      14.3810887       
966.58           0.965978721      14.2329094       0.245886663      -74.9921525      0.245886663      -74.9921525      0.965978721      14.2329094       
974.56           0.966634316      14.0866661       0.243411591      -75.137861       0.243411591      -75.137861       0.966634316      14.0866661       
982.54           0.967274923      13.942317        0.240967026      -75.2815952      0.240967026      -75.2815952      0.967274923      13.942317        
990.52           0.967900968      13.7998214       0.238552354      -75.4233956      0.238552354      -75.4233956      0.967900968      13.7998214       
998.5            0.968512859      13.6591397       0.236166976      -75.5633015      0.236166976      -75.5633015      0.968512859      13.6591397       
1006.48          0.969110993      13.5202335       0.23381031       -75.7013514      0.23381031       -75.7013514      0.969110993      13.5202335       
1014.46          0.969695753      13.3830653       0.231481787      -75.8375823      0.231481787      -75.8375823      0.969695753      13.3830653       
