! Coilcraft 0603CS-5N6 Chip Inductor				
! 03 April 2003
# MHZ S MA R 50
!Freq             MagS11           AngS11           MagS21           AngS21           MagS12           AngS12           MagS22           AngS22
1                0.000976560896   21.0785318       0.999088694      -0.0201416316    0.999088694      -0.0201416316    0.000976560684   21.0785388       
27.43            0.00976691305    80.0445126       0.998357664      -0.552091876     0.998357664      -0.552091876     0.00976691395    80.0445154       
53.86            0.0190100971     83.0749211       0.997886235      -1.08360727      0.997886235      -1.08360727      0.019010099      83.0749227       
80.29            0.0282640441     83.9292713       0.997406822      -1.6147295       0.997406822      -1.6147295       0.0282640468     83.9292725       
106.72           0.0375138871     84.1617612       0.996882716      -2.14542639      0.996882716      -2.14542639      0.0375138908     84.1617622       
133.15           0.0467547833     84.1242749       0.996299671      -2.67564752      0.996299671      -2.67564752      0.0467547879     84.1242757       
159.58           0.0559837622     83.943329        0.995650519      -3.20533447      0.995650519      -3.20533447      0.0559837678     83.9433298       
186.01           0.0651984164     83.6763494       0.994931169      -3.73442462      0.994931169      -3.73442462      0.0651984229     83.67635         
212.44           0.0743965581     83.3534481       0.99413913       -4.26285296      0.99413913       -4.26285296      0.0743965655     83.3534487       
238.87           0.0835761036     82.992063        0.993272851      -4.79055307      0.993272851      -4.79055307      0.0835761119     82.9920635       
265.3            0.0927350287     82.6030558       0.992331382      -5.3174578       0.992331382      -5.3174578       0.0927350379     82.6030563       
291.73           0.10187135       82.193583        0.991314184      -5.8434996       0.991314184      -5.8434996       0.10187136       82.1935835       
318.16           0.110983117      81.7685753       0.990221015      -6.36861093      0.990221015      -6.36861093      0.110983128      81.7685758       
344.59           0.120068409      81.3315565       0.989051859      -6.89272437      0.989051859      -6.89272437      0.120068421      81.331557        
371.02           0.129125335      80.8851235       0.987806876      -7.41577289      0.987806876      -7.41577289      0.129125348      80.8851239       
397.45           0.138152035      80.4312405       0.986486371      -7.93768994      0.986486371      -7.93768994      0.138152048      80.4312409       
423.88           0.147146678      79.9714276       0.98509077       -8.45840962      0.98509077       -8.45840962      0.147146692      79.971428        
450.31           0.156107467      79.5068845       0.9836206        -8.97786674      0.9836206        -8.97786674      0.156107483      79.5068849       
476.74           0.16503264       79.0385749       0.982076478      -9.49599692      0.982076478      -9.49599692      0.165032656      79.0385752       
503.17           0.173920468      78.5672851       0.980459099      -10.0127367      0.980459099      -10.0127367      0.173920486      78.5672854       
529.6            0.182769263      78.0936661       0.978769228      -10.5280236      0.978769228      -10.5280236      0.182769281      78.0936664       
556.03           0.191577371      77.6182634       0.977007693      -11.0417962      0.977007693      -11.0417962      0.191577391      77.6182638       
582.46           0.200343183      77.14154         0.975175379      -11.5539941      0.975175379      -11.5539941      0.200343203      77.1415403       
608.89           0.209065128      76.6638925       0.973273225      -12.0645581      0.973273225      -12.0645581      0.209065149      76.6638928       
635.32           0.217741679      76.1856642       0.971302214      -12.5734303      0.971302214      -12.5734303      0.2177417        76.1856645       
661.75           0.226371351      75.707155        0.969263376      -13.0805538      0.969263376      -13.0805538      0.226371374      75.7071552       
688.18           0.234952706      75.2286288       0.967157779      -13.5858733      0.967157779      -13.5858733      0.23495273       75.228629        
714.61           0.24348435       74.7503196       0.964986529      -14.0893346      0.964986529      -14.0893346      0.243484375      74.7503199       
741.04           0.251964937      74.2724364       0.962750764      -14.590885       0.962750764      -14.590885       0.251964962      74.2724367       
767.47           0.260393165      73.7951668       0.960451655      -15.090473       0.960451655      -15.090473       0.260393191      73.7951671       
793.9            0.268767783      73.3186803       0.958090401      -15.5880488      0.958090401      -15.5880488      0.26876781       73.3186805       
820.33           0.277087586      72.8431306       0.955668223      -16.0835637      0.955668223      -16.0835637      0.277087613      72.8431309       
846.76           0.285351417      72.3686581       0.953186371      -16.5769708      0.953186371      -16.5769708      0.285351446      72.3686583       
873.19           0.293558171      71.895391        0.95064611       -17.0682244      0.95064611       -17.0682244      0.293558201      71.8953912       
899.62           0.30170679       71.4234471       0.948048728      -17.5572804      0.948048728      -17.5572804      0.30170682       71.4234474       
926.05           0.309796263      70.9529352       0.945395527      -18.0440963      0.945395527      -18.0440963      0.309796294      70.9529354       
952.48           0.317825632      70.4839556       0.942687823      -18.528631       0.942687823      -18.528631       0.317825663      70.4839558       
978.91           0.325793985      70.0166011       0.939926945      -19.010845       0.939926945      -19.010845       0.325794018      70.0166013       
1005.34          0.333700462      69.5509581       0.937114232      -19.4907001      0.937114232      -19.4907001      0.333700496      69.5509584       
1031.77          0.34154425       69.0871068       0.934251033      -19.9681599      0.934251033      -19.9681599      0.341544284      69.087107        
1058.2           0.349324583      68.6251217       0.9313387        -20.4431894      0.9313387        -20.4431894      0.349324618      68.625122        
1084.63          0.357040746      68.1650725       0.928378593      -20.9157552      0.928378593      -20.9157552      0.357040782      68.1650727       
1111.06          0.36469207       67.7070241       0.925372074      -21.3858253      0.925372074      -21.3858253      0.364692107      67.7070243       
1137.49          0.372277934      67.251037        0.922320506      -21.8533693      0.922320506      -21.8533693      0.372277972      67.2510372       
1163.92          0.379797763      66.7971678       0.919225251      -22.3183582      0.919225251      -22.3183582      0.379797801      66.797168        
1190.35          0.387251028      66.3454692       0.916087672      -22.7807646      0.916087672      -22.7807646      0.387251067      66.3454694       
1216.78          0.394637246      65.8959907       0.912909127      -23.2405626      0.912909127      -23.2405626      0.394637285      65.8959909       
1243.21          0.401955977      65.4487782       0.909690968      -23.6977277      0.909690968      -23.6977277      0.401956017      65.4487784       
1269.64          0.409206827      65.0038747       0.906434546      -24.1522367      0.906434546      -24.1522367      0.409206868      65.0038749       
1296.07          0.416389444      64.5613201       0.903141199      -24.6040683      0.903141199      -24.6040683      0.416389485      64.5613203       
1322.5           0.423503518      64.1211517       0.89981226       -25.053202       0.89981226       -25.053202       0.42350356       64.1211519       
1348.93          0.430548781      63.6834042       0.896449053      -25.4996192      0.896449053      -25.4996192      0.430548824      63.6834044       
1375.36          0.437525004      63.2481096       0.89305289       -25.9433025      0.89305289       -25.9433025      0.437525048      63.2481098       
1401.79          0.444432         62.8152977       0.88962507       -26.3842357      0.88962507       -26.3842357      0.444432044      62.8152979       
1428.22          0.451269618      62.3849961       0.886166884      -26.8224041      0.886166884      -26.8224041      0.451269663      62.3849963       
1454.65          0.458037745      61.9572299       0.882679604      -27.2577943      0.882679604      -27.2577943      0.458037791      61.9572301       
1481.08          0.464736306      61.5320227       0.879164491      -27.6903943      0.879164491      -27.6903943      0.464736352      61.5320228       
1507.51          0.471365259      61.1093955       0.87562279       -28.1201929      0.87562279       -28.1201929      0.471365307      61.1093957       
1533.94          0.4779246        60.6893679       0.87205573       -28.5471807      0.87205573       -28.5471807      0.477924648      60.6893681       
1560.37          0.484414354      60.2719575       0.868464524      -28.9713492      0.868464524      -28.9713492      0.484414402      60.2719576       
1586.8           0.490834581      59.85718         0.864850366      -29.3926911      0.864850366      -29.3926911      0.49083463       59.8571802       
1613.23          0.497185372      59.4450499       0.861214433      -29.8112002      0.861214433      -29.8112002      0.497185422      59.44505         
1639.66          0.503466848      59.0355795       0.857557886      -30.2268717      0.857557886      -30.2268717      0.503466898      59.0355797       
1666.09          0.509679158      58.6287801       0.853881862      -30.6397015      0.853881862      -30.6397015      0.509679209      58.6287802       
1692.52          0.515822481      58.2246611       0.850187484      -31.0496868      0.850187484      -31.0496868      0.515822532      58.2246613       
1718.95          0.521897021      57.8232309       0.846475851      -31.4568258      0.846475851      -31.4568258      0.521897073      57.823231        
1745.38          0.527903009      57.4244961       0.842748045      -31.8611177      0.842748045      -31.8611177      0.527903061      57.4244963       
1771.81          0.5338407        57.0284623       0.839005126      -32.2625627      0.839005126      -32.2625627      0.533840753      57.0284625       
1798.24          0.539710375      56.6351338       0.835248133      -32.6611619      0.835248133      -32.6611619      0.539710429      56.635134        
1824.67          0.545512334      56.2445136       0.831478086      -33.0569174      0.831478086      -33.0569174      0.545512389      56.2445138       
1851.1           0.551246903      55.8566036       0.827695981      -33.449832       0.827695981      -33.449832       0.551246958      55.8566038       
1877.53          0.556914425      55.4714046       0.823902795      -33.8399096      0.823902795      -33.8399096      0.556914481      55.4714047       
1903.96          0.562515265      55.0889162       0.820099484      -34.2271548      0.820099484      -34.2271548      0.562515321      55.0889164       
1930.39          0.568049806      54.7091373       0.81628698       -34.6115731      0.81628698       -34.6115731      0.568049863      54.7091374       
1956.82          0.573518449      54.3320654       0.812466197      -34.9931705      0.812466197      -34.9931705      0.573518506      54.3320656       
1983.25          0.578921611      53.9576974       0.808638024      -35.3719542      0.808638024      -35.3719542      0.578921669      53.9576975       
2009.68          0.584259727      53.5860291       0.804803331      -35.7479317      0.804803331      -35.7479317      0.584259786      53.5860293       
2036.11          0.589533245      53.2170555       0.800962966      -36.1211115      0.800962966      -36.1211115      0.589533304      53.2170557       
2062.54          0.594742628      52.8507709       0.797117755      -36.4915025      0.797117755      -36.4915025      0.594742687      52.8507711       
2088.97          0.599888352      52.4871686       0.793268502      -36.8591144      0.793268502      -36.8591144      0.599888412      52.4871688       
2115.4           0.604970906      52.1262412       0.789415992      -37.2239575      0.789415992      -37.2239575      0.604970966      52.1262414       
2141.83          0.609990789      51.7679807       0.785560988      -37.5860427      0.785560988      -37.5860427      0.60999085       51.7679809       
2168.26          0.614948514      51.4123784       0.781704231      -37.9453814      0.781704231      -37.9453814      0.614948576      51.4123785       
2194.69          0.619844601      51.0594247       0.777846443      -38.3019855      0.777846443      -38.3019855      0.619844663      51.0594248       
2221.12          0.624679581      50.7091096       0.773988325      -38.6558675      0.773988325      -38.6558675      0.624679644      50.7091097       
2247.55          0.629453993      50.3614225       0.770130556      -39.0070405      0.770130556      -39.0070405      0.629454056      50.3614227       
2273.98          0.634168383      50.0163523       0.766273797      -39.3555178      0.766273797      -39.3555178      0.634168447      50.0163524       
2300.41          0.638823306      49.673887        0.762418689      -39.7013132      0.762418689      -39.7013132      0.63882337       49.6738872       
2326.84          0.643419323      49.3340146       0.758565853      -40.0444411      0.758565853      -40.0444411      0.643419387      49.3340148       
2353.27          0.647956999      48.9967223       0.754715889      -40.3849161      0.754715889      -40.3849161      0.647957064      48.9967225       
2379.7           0.652436908      48.6619969       0.750869381      -40.7227533      0.750869381      -40.7227533      0.652436973      48.6619971       
2406.13          0.656859624      48.3298247       0.747026893      -41.0579681      0.747026893      -41.0579681      0.65685969       48.3298249       
2432.56          0.661225729      48.0001919       0.743188969      -41.3905763      0.743188969      -41.3905763      0.661225795      48.000192        
2458.99          0.665535807      47.6730838       0.739356136      -41.7205938      0.739356136      -41.7205938      0.665535874      47.673084        
2485.42          0.669790445      47.3484858       0.735528905      -42.0480371      0.735528905      -42.0480371      0.669790512      47.348486        
2511.85          0.673990233      47.0263828       0.731707766      -42.3729227      0.731707766      -42.3729227      0.6739903        47.026383        
2538.28          0.678135762      46.7067594       0.727893194      -42.6952675      0.727893194      -42.6952675      0.67813583       46.7067595       
2564.71          0.682227625      46.3895998       0.724085647      -43.0150887      0.724085647      -43.0150887      0.682227693      46.3895999       
2591.14          0.686266417      46.074888        0.720285566      -43.3324036      0.720285566      -43.3324036      0.686266486      46.0748881       
2617.57          0.690252733      45.7626078       0.716493374      -43.6472298      0.716493374      -43.6472298      0.690252802      45.7626079       
2644             0.694187168      45.4527426       0.712709482      -43.9595849      0.712709482      -43.9595849      0.694187238      45.4527428       
2670.43          0.698070318      45.1452759       0.708934282      -44.269487       0.708934282      -44.269487       0.698070387      45.145276        
2696.86          0.701902776      44.8401905       0.705168152      -44.5769539      0.705168152      -44.5769539      0.701902846      44.8401907       
2723.29          0.705685136      44.5374696       0.701411455      -44.8820041      0.701411455      -44.8820041      0.705685207      44.5374697       
2749.72          0.709417992      44.2370956       0.69766454       -45.1846558      0.69766454       -45.1846558      0.709418063      44.2370958       
2776.15          0.713101934      43.9390513       0.693927741      -45.4849275      0.693927741      -45.4849275      0.713102006      43.9390514       
2802.58          0.716737552      43.643319        0.690201377      -45.7828377      0.690201377      -45.7828377      0.716737624      43.6433192       
2829.01          0.720325432      43.3498811       0.686485757      -46.0784052      0.686485757      -46.0784052      0.720325504      43.3498812       
2855.44          0.72386616       43.0587196       0.682781172      -46.3716485      0.682781172      -46.3716485      0.723866232      43.0587197       
2881.87          0.727360318      42.7698167       0.679087904      -46.6625867      0.679087904      -46.6625867      0.72736039       42.7698169       
2908.3           0.730808484      42.4831545       0.67540622       -46.9512384      0.67540622       -46.9512384      0.730808557      42.4831546       
2934.73          0.734211236      42.1987147       0.671736376      -47.2376226      0.671736376      -47.2376226      0.734211309      42.1987148       
2961.16          0.737569145      41.9164792       0.668078616      -47.5217583      0.668078616      -47.5217583      0.737569219      41.9164794       
2987.59          0.740882782      41.6364299       0.664433171      -47.8036644      0.664433171      -47.8036644      0.740882856      41.6364301       
3014.02          0.744152712      41.3585485       0.660800263      -48.0833598      0.660800263      -48.0833598      0.744152786      41.3585487       
3040.45          0.747379496      41.0828167       0.6571801        -48.3608636      0.6571801        -48.3608636      0.747379571      41.0828169       
3066.88          0.750563693      40.8092163       0.653572881      -48.6361948      0.653572881      -48.6361948      0.750563768      40.8092164       
3093.31          0.753705856      40.5377288       0.649978795      -48.9093723      0.649978795      -48.9093723      0.753705931      40.537729        
3119.74          0.756806533      40.2683361       0.646398021      -49.180415       0.646398021      -49.180415       0.756806609      40.2683362       
3146.17          0.75986627       40.0010197       0.642830726      -49.4493419      0.642830726      -49.4493419      0.759866346      40.0010199       
3172.6           0.762885607      39.7357615       0.63927707       -49.7161719      0.63927707       -49.7161719      0.762885683      39.7357616       
3199.03          0.765865079      39.472543        0.635737201      -49.9809238      0.635737201      -49.9809238      0.765865155      39.4725431       
3225.46          0.768805216      39.2113461       0.632211261      -50.2436164      0.632211261      -50.2436164      0.768805293      39.2113463       
3251.89          0.771706544      38.9521526       0.628699381      -50.5042685      0.628699381      -50.5042685      0.771706621      38.9521527       
3278.32          0.774569583      38.6949442       0.625201685      -50.7628987      0.625201685      -50.7628987      0.774569661      38.6949444       
3304.75          0.777394849      38.4397029       0.621718288      -51.0195256      0.621718288      -51.0195256      0.777394927      38.4397031       
3331.18          0.780182853      38.1864106       0.618249296      -51.2741678      0.618249296      -51.2741678      0.780182931      38.1864107       
3357.61          0.782934099      37.9350493       0.61479481       -51.5268438      0.61479481       -51.5268438      0.782934177      37.9350494       
