! Coilcraft 0603CS-6N8 Chip Inductor				
! 21 May 2002			
# MHZ S MA R 50
!Freq             MagS11           AngS11           MagS21           AngS21           MagS12           AngS12           MagS22           AngS22
1                0.000489443198   60.7536263       0.999760966      -0.0244741494    0.999760966      -0.0244741494    0.000489443198   60.7536263       
27.18            0.0116461483     84.24058         0.9988985        -0.664653771     0.9988985        -0.664653771     0.0116461483     84.24058         
53.36            0.022805424      85.1050767       0.998312664      -1.30420205      0.998312664      -1.30420205      0.022805424      85.1050767       
79.54            0.033952146      85.1330329       0.997693129      -1.94315483      0.997693129      -1.94315483      0.033952146      85.1330329       
105.72           0.0450833164     84.891473        0.996997412      -2.58144495      0.996997412      -2.58144495      0.0450833164     84.891473        
131.9            0.0561958422     84.5240835       0.996209181      -3.21898005      0.996209181      -3.21898005      0.0561958422     84.5240835       
158.08           0.0672865269     84.0864168       0.995320369      -3.85565689      0.995320369      -3.85565689      0.0672865269     84.0864168       
184.26           0.0783521186     83.6050944       0.994326529      -4.49136678      0.994326529      -4.49136678      0.0783521186     83.6050944       
210.44           0.0893893441     83.0947026       0.99322512       -5.12599814      0.99322512       -5.12599814      0.0893893441     83.0947026       
236.62           0.100394932      82.5640119       0.992014732      -5.75943795      0.992014732      -5.75943795      0.100394932      82.5640119       
262.8            0.111365629      82.0186717       0.990694697      -6.39157269      0.990694697      -6.39157269      0.111365629      82.0186717       
288.98           0.122298212      81.4625218       0.989264863      -7.02228898      0.989264863      -7.02228898      0.122298212      81.4625218       
315.16           0.1331895        80.8982868       0.987725463      -7.65147405      0.987725463      -7.65147405      0.1331895        80.8982868       
341.34           0.144036358      80.3279709       0.986077029      -8.27901612      0.986077029      -8.27901612      0.144036358      80.3279709       
367.52           0.15483571       79.7530933       0.984320333      -8.90480466      0.984320333      -8.90480466      0.15483571       79.7530933       
393.7            0.165584539      79.1748365       0.98245635       -9.52873067      0.98245635       -9.52873067      0.165584539      79.1748365       
419.88           0.176279899      78.5941417       0.980486223      -10.1506869      0.980486223      -10.1506869      0.176279899      78.5941417       
446.06           0.186918912      78.0117734       0.978411246      -10.770568       0.978411246      -10.770568       0.186918912      78.0117734       
472.24           0.197498781      77.4283635       0.976232841      -11.3882706      0.976232841      -11.3882706      0.197498781      77.4283635       
498.42           0.208016785      76.8444429       0.973952547      -12.0036938      0.973952547      -12.0036938      0.208016785      76.8444429       
524.6            0.218470291      76.2604634       0.971572007      -12.6167388      0.971572007      -12.6167388      0.218470291      76.2604634       
550.78           0.22885675       75.6768148       0.969092958      -13.2273094      0.969092958      -13.2273094      0.22885675       75.6768148       
576.96           0.239173703      75.0938369       0.966517218      -13.8353119      0.966517218      -13.8353119      0.239173703      75.0938369       
603.14           0.249418785      74.5118287       0.963846684      -14.4406553      0.963846684      -14.4406553      0.249418785      74.5118287       
629.32           0.259589723      73.9310558       0.96108332       -15.0432514      0.96108332       -15.0432514      0.259589723      73.9310558       
655.5            0.269684339      73.3517558       0.958229153      -15.6430145      0.958229153      -15.6430145      0.269684339      73.3517558       
681.68           0.279700555      72.7741428       0.955286262      -16.2398622      0.955286262      -16.2398622      0.279700555      72.7741428       
707.86           0.289636389      72.1984104       0.952256776      -16.8337147      0.952256776      -16.8337147      0.289636389      72.1984104       
734.04           0.299489958      71.6247352       0.949142869      -17.4244953      0.949142869      -17.4244953      0.299489958      71.6247352       
760.22           0.30925948       71.0532784       0.945946749      -18.0121302      0.945946749      -18.0121302      0.30925948       71.0532784       
786.4            0.31894327       70.4841876       0.942670658      -18.5965488      0.942670658      -18.5965488      0.31894327       70.4841876       
812.58           0.328539745      69.9175991       0.939316866      -19.1776833      0.939316866      -19.1776833      0.328539745      69.9175991       
838.76           0.338047421      69.353638        0.935887663      -19.7554692      0.935887663      -19.7554692      0.338047421      69.353638        
864.94           0.347464913      68.7924203       0.932385359      -20.3298448      0.932385359      -20.3298448      0.347464913      68.7924203       
891.12           0.356790933      68.2340528       0.928812274      -20.9007517      0.928812274      -20.9007517      0.356790933      68.2340528       
917.3            0.366024293      67.6786347       0.925170739      -21.4681344      0.925170739      -21.4681344      0.366024293      67.6786347       
943.48           0.3751639        67.1262578       0.921463091      -22.0319404      0.921463091      -22.0319404      0.3751639        67.1262578       
969.66           0.384208754      66.577007        0.917691665      -22.5921205      0.917691665      -22.5921205      0.384208754      66.577007        
995.84           0.393157952      66.0309608       0.913858794      -23.1486282      0.913858794      -23.1486282      0.393157952      66.0309608       
1022.02          0.402010681      65.488192        0.909966807      -23.70142        0.909966807      -23.70142        0.402010681      65.488192        
1048.2           0.410766219      64.9487679       0.906018019      -24.2504555      0.906018019      -24.2504555      0.410766219      64.9487679       
1074.38          0.419423932      64.4127503       0.902014736      -24.7956971      0.902014736      -24.7956971      0.419423932      64.4127503       
1100.56          0.427983272      63.8801963       0.897959245      -25.3371099      0.897959245      -25.3371099      0.427983272      63.8801963       
1126.74          0.436443775      63.3511583       0.893853816      -25.8746621      0.893853816      -25.8746621      0.436443775      63.3511583       
1152.92          0.444805062      62.8256842       0.889700697      -26.4083245      0.889700697      -26.4083245      0.444805062      62.8256842       
1179.1           0.453066829      62.303818        0.885502112      -26.9380705      0.885502112      -26.9380705      0.453066829      62.303818        
1205.28          0.461228853      61.7855992       0.881260258      -27.4638764      0.881260258      -27.4638764      0.461228853      61.7855992       
1231.46          0.469290984      61.271064        0.876977305      -27.9857209      0.876977305      -27.9857209      0.469290984      61.271064        
1257.64          0.477253145      60.7602447       0.872655391      -28.5035853      0.872655391      -28.5035853      0.477253145      60.7602447       
1283.82          0.48511533       60.25317         0.868296622      -29.0174533      0.868296622      -29.0174533      0.48511533       60.25317         
1310             0.492877598      59.7498657       0.86390307       -29.5273112      0.86390307       -29.5273112      0.492877598      59.7498657       
1336.18          0.500540076      59.250354        0.859476773      -30.0331474      0.859476773      -30.0331474      0.500540076      59.250354        
1362.36          0.50810295       58.7546544       0.855019729      -30.5349527      0.855019729      -30.5349527      0.50810295       58.7546544       
1388.54          0.515566469      58.2627833       0.850533901      -31.0327201      0.850533901      -31.0327201      0.515566469      58.2627833       
1414.72          0.522930935      57.7747543       0.846021211      -31.5264447      0.846021211      -31.5264447      0.522930935      57.7747543       
1440.9           0.530196708      57.2905786       0.84148354       -32.0161237      0.84148354       -32.0161237      0.530196708      57.2905786       
1467.08          0.537364199      56.8102646       0.83692273       -32.5017563      0.83692273       -32.5017563      0.537364199      56.8102646       
1493.26          0.544433867      56.3338184       0.832340579      -32.9833437      0.832340579      -32.9833437      0.544433867      56.3338184       
1519.44          0.55140622       55.8612437       0.827738845      -33.4608887      0.827738845      -33.4608887      0.55140622       55.8612437       
1545.62          0.558281808      55.3925422       0.823119242      -33.9343963      0.823119242      -33.9343963      0.558281808      55.3925422       
1571.8           0.565061225      54.9277132       0.818483439      -34.4038728      0.818483439      -34.4038728      0.565061225      54.9277132       
1597.98          0.571745104      54.4667542       0.813833066      -34.8693264      0.813833066      -34.8693264      0.571745104      54.4667542       
1624.16          0.578334114      54.0096606       0.809169704      -35.330767       0.809169704      -35.330767       0.578334114      54.0096606       
1650.34          0.584828962      53.5564262       0.804494894      -35.7882056      0.804494894      -35.7882056      0.584828962      53.5564262       
1676.52          0.591230384      53.1070429       0.799810131      -36.2416551      0.799810131      -36.2416551      0.591230384      53.1070429       
1702.7           0.597539149      52.661501        0.795116869      -36.6911294      0.795116869      -36.6911294      0.597539149      52.661501        
1728.88          0.603756053      52.2197892       0.790416516      -37.1366441      0.790416516      -37.1366441      0.603756053      52.2197892       
1755.06          0.609881919      51.7818947       0.785710438      -37.5782157      0.785710438      -37.5782157      0.609881919      51.7818947       
1781.24          0.615917595      51.3478033       0.780999958      -38.0158621      0.780999958      -38.0158621      0.615917595      51.3478033       
1807.42          0.62186395       50.9174996       0.776286355      -38.4496024      0.776286355      -38.4496024      0.62186395       50.9174996       
1833.6           0.627721873      50.4909666       0.771570868      -38.8794566      0.771570868      -38.8794566      0.627721873      50.4909666       
1859.78          0.633492274      50.0681865       0.766854693      -39.3054457      0.766854693      -39.3054457      0.633492274      50.0681865       
1885.96          0.639176078      49.6491401       0.762138985      -39.7275917      0.762138985      -39.7275917      0.639176078      49.6491401       
1912.14          0.644774226      49.2338073       0.757424858      -40.1459178      0.757424858      -40.1459178      0.644774226      49.2338073       
1938.32          0.650287673      48.8221668       0.752713387      -40.5604475      0.752713387      -40.5604475      0.650287673      48.8221668       
1964.5           0.655717384      48.4141967       0.748005608      -40.9712055      0.748005608      -40.9712055      0.655717384      48.4141967       
1990.68          0.661064337      48.0098738       0.743302515      -41.3782171      0.743302515      -41.3782171      0.661064337      48.0098738       
2016.86          0.666329518      47.6091744       0.738605068      -41.7815083      0.738605068      -41.7815083      0.666329518      47.6091744       
2043.04          0.671513922      47.212074        0.733914188      -42.1811058      0.733914188      -42.1811058      0.671513922      47.212074        
2069.22          0.676618547      46.8185472       0.729230758      -42.5770368      0.729230758      -42.5770368      0.676618547      46.8185472       
2095.4           0.681644401      46.4285681       0.724555628      -42.9693292      0.724555628      -42.9693292      0.681644401      46.4285681       
2121.58          0.686592492      46.0421103       0.719889611      -43.3580112      0.719889611      -43.3580112      0.686592492      46.0421103       
2147.76          0.691463834      45.6591466       0.715233485      -43.7431117      0.715233485      -43.7431117      0.691463834      45.6591466       
2173.94          0.696259441      45.2796493       0.710587997      -44.1246599      0.710587997      -44.1246599      0.696259441      45.2796493       
2200.12          0.700980327      44.9035904       0.705953859      -44.5026853      0.705953859      -44.5026853      0.700980327      44.9035904       
2226.3           0.705627509      44.5309414       0.701331754      -44.877218       0.701331754      -44.877218       0.705627509      44.5309414       
2252.48          0.710202001      44.1616733       0.696722329      -45.2482882      0.696722329      -45.2482882      0.710202001      44.1616733       
2278.66          0.714704814      43.7957568       0.692126207      -45.6159265      0.692126207      -45.6159265      0.714704814      43.7957568       
2304.84          0.719136958      43.4331625       0.687543976      -45.9801636      0.687543976      -45.9801636      0.719136958      43.4331625       
2331.02          0.72349944       43.0738603       0.682976198      -46.3410306      0.682976198      -46.3410306      0.72349944       43.0738603       
2357.2           0.727793261      42.7178203       0.678423407      -46.6985587      0.678423407      -46.6985587      0.727793261      42.7178203       
2383.38          0.732019419      42.365012        0.673886111      -47.0527791      0.673886111      -47.0527791      0.732019419      42.365012        
2409.56          0.736178906      42.015405        0.669364788      -47.4037235      0.669364788      -47.4037235      0.736178906      42.015405        
2435.74          0.740272707      41.6689685       0.664859895      -47.7514233      0.664859895      -47.7514233      0.740272707      41.6689685       
2461.92          0.744301802      41.3256718       0.660371862      -48.0959103      0.660371862      -48.0959103      0.744301802      41.3256718       
2488.1           0.748267163      40.985484        0.655901094      -48.437216       0.655901094      -48.437216       0.748267163      40.985484        
2514.28          0.752169754      40.648374        0.651447975      -48.7753723      0.651447975      -48.7753723      0.752169754      40.648374        
2540.46          0.756010533      40.314311        0.647012867      -49.1104109      0.647012867      -49.1104109      0.756010533      40.314311        
2566.64          0.759790448      39.9832637       0.642596106      -49.4423635      0.642596106      -49.4423635      0.759790448      39.9832637       
2592.82          0.763510439      39.6552012       0.638198013      -49.7712618      0.638198013      -49.7712618      0.763510439      39.6552012       
2619             0.767171436      39.3300924       0.633818884      -50.0971374      0.633818884      -50.0971374      0.767171436      39.3300924       
2645.18          0.770774361      39.0079062       0.629458998      -50.4200219      0.629458998      -50.4200219      0.770774361      39.0079062       
2671.36          0.774320126      38.6886117       0.625118614      -50.7399466      0.625118614      -50.7399466      0.774320126      38.6886117       
2697.54          0.777809633      38.372178        0.620797972      -51.0569431      0.620797972      -51.0569431      0.777809633      38.372178        
2723.72          0.781243773      38.0585743       0.616497296      -51.3710425      0.616497296      -51.3710425      0.781243773      38.0585743       
2749.9           0.784623429      37.7477698       0.612216793      -51.6822759      0.612216793      -51.6822759      0.784623429      37.7477698       
2776.08          0.787949471      37.439734        0.607956653      -51.9906743      0.607956653      -51.9906743      0.787949471      37.439734        
2802.26          0.791222761      37.1344363       0.603717049      -52.2962685      0.603717049      -52.2962685      0.791222761      37.1344363       
2828.44          0.794444148      36.8318464       0.599498141      -52.5990891      0.599498141      -52.5990891      0.794444148      36.8318464       
2854.62          0.797614472      36.5319342       0.595300074      -52.8991665      0.595300074      -52.8991665      0.797614472      36.5319342       
2880.8           0.80073456       36.2346696       0.591122978      -53.1965311      0.591122978      -53.1965311      0.80073456       36.2346696       
2906.98          0.803805229      35.9400227       0.586966971      -53.4912127      0.586966971      -53.4912127      0.803805229      35.9400227       
2933.16          0.806827286      35.6479639       0.582832156      -53.7832414      0.582832156      -53.7832414      0.806827286      35.6479639       
2959.34          0.809801527      35.3584638       0.578718625      -54.0726466      0.578718625      -54.0726466      0.809801527      35.3584638       
2985.52          0.812728733      35.071493        0.574626458      -54.3594578      0.574626458      -54.3594578      0.812728733      35.071493        
3011.7           0.815609679      34.7870224       0.570555724      -54.643704       0.570555724      -54.643704       0.815609679      34.7870224       
3037.88          0.818445126      34.5050233       0.566506479      -54.9254143      0.566506479      -54.9254143      0.818445126      34.5050233       
3064.06          0.821235824      34.225467        0.562478772      -55.2046172      0.562478772      -55.2046172      0.821235824      34.225467        
3090.24          0.823982513      33.9483251       0.558472638      -55.4813412      0.558472638      -55.4813412      0.823982513      33.9483251       
3116.42          0.826685919      33.6735695       0.554488106      -55.7556144      0.554488106      -55.7556144      0.826685919      33.6735695       
3142.6           0.829346762      33.4011722       0.550525193      -56.0274646      0.550525193      -56.0274646      0.829346762      33.4011722       
3168.78          0.831965746      33.1311055       0.546583908      -56.2969195      0.546583908      -56.2969195      0.831965746      33.1311055       
3194.96          0.834543566      32.8633421       0.542664253      -56.5640065      0.542664253      -56.5640065      0.834543566      32.8633421       
3221.14          0.837080907      32.5978547       0.53876622       -56.8287525      0.53876622       -56.8287525      0.837080907      32.5978547       
3247.32          0.839578442      32.3346164       0.534889794      -57.0911844      0.534889794      -57.0911844      0.839578442      32.3346164       
3273.5           0.842036833      32.0736006       0.531034954      -57.3513286      0.531034954      -57.3513286      0.842036833      32.0736006       
3299.68          0.844456733      31.8147808       0.52720167       -57.6092115      0.52720167       -57.6092115      0.844456733      31.8147808       
3325.86          0.846838782      31.558131        0.523389906      -57.8648588      0.523389906      -57.8648588      0.846838782      31.558131        
