! Coilcraft 0603CS-36N Chip Inductor				
! 21 May 2002			
# MHZ S MA R 50
!Freq             MagS11           AngS11           MagS21           AngS21           MagS12           AngS12           MagS22           AngS22
1                0.00238700024    69.7458407       0.999176165      -0.128414238     0.999176165      -0.128414238     0.00238700024    69.7458407       
11.47            0.0257800693     82.8801518       0.997132879      -1.47007513      0.997132879      -1.47007513      0.0257800693     82.8801518       
21.94            0.0491083096     83.1451069       0.995333591      -2.80780631      0.995333591      -2.80780631      0.0491083096     83.1451069       
32.41            0.0723322383     82.5441532       0.993206918      -4.14100215      0.993206918      -4.14100215      0.0723322383     82.5441532       
42.88            0.0954206094     81.6574613       0.990664314      -5.46862127      0.990664314      -5.46862127      0.0954206094     81.6574613       
53.35            0.118341692      80.6388244       0.9876773        -6.78952965      0.9876773        -6.78952965      0.118341692      80.6388244       
63.82            0.141064161      79.5494177       0.984238068      -8.10257501      0.984238068      -8.10257501      0.141064161      79.5494177       
74.29            0.163557648      78.4193888       0.980348856      -9.40661854      0.980348856      -9.40661854      0.163557648      78.4193888       
84.76            0.185793115      77.2657972       0.97601787       -10.7005528      0.97601787       -10.7005528      0.185793115      77.2657972       
95.23            0.207743124      76.0992982       0.971257338      -11.9833134      0.971257338      -11.9833134      0.207743124      76.0992982       
105.7            0.229382034      74.9270616       0.966082409      -13.2538879      0.966082409      -13.2538879      0.229382034      74.9270616       
116.17           0.250686163      73.7541994       0.960510441      -14.5113217      0.960510441      -14.5113217      0.250686163      73.7541994       
126.64           0.271633889      72.5845249       0.954560491      -15.7547231      0.954560491      -15.7547231      0.271633889      72.5845249       
137.11           0.292205729      71.4209847       0.948252913      -16.983267       0.948252913      -16.983267       0.292205729      71.4209847       
147.58           0.312384378      70.2659173       0.941609026      -18.1961966      0.941609026      -18.1961966      0.312384378      70.2659173       
158.05           0.33215472       69.1212164       0.934650823      -19.3928255      0.934650823      -19.3928255      0.33215472       69.1212164       
168.52           0.351503808      67.988437        0.927400722      -20.5725378      0.927400722      -20.5725378      0.351503808      67.988437        
178.99           0.370420828      66.8688675       0.919881341      -21.7347883      0.919881341      -21.7347883      0.370420828      66.8688675       
189.46           0.388897038      65.7635803       0.912115295      -22.8791011      0.912115295      -22.8791011      0.388897038      65.7635803       
199.93           0.406925685      64.6734684       0.90412502       -24.0050688      0.90412502       -24.0050688      0.406925685      64.6734684       
210.4            0.424501918      63.5992728       0.895932617      -25.1123496      0.895932617      -25.1123496      0.424501918      63.5992728       
220.87           0.441622677      62.5416032       0.887559717      -26.2006658      0.887559717      -26.2006658      0.441622677      62.5416032       
231.34           0.458286584      61.5009552       0.879027363      -27.2698004      0.879027363      -27.2698004      0.458286584      61.5009552       
241.81           0.474493822      60.4777234       0.870355914      -28.3195943      0.870355914      -28.3195943      0.474493822      60.4777234       
252.28           0.49024601       59.4722134       0.861564962      -29.3499432      0.861564962      -29.3499432      0.49024601       59.4722134       
262.75           0.50554608       58.4846509       0.85267327       -30.3607936      0.85267327       -30.3607936      0.50554608       58.4846509       
273.22           0.520398151      57.5151904       0.843698722      -31.35214        0.843698722      -31.35214        0.520398151      57.5151904       
283.69           0.534807404      56.5639229       0.834658288      -32.3240209      0.834658288      -32.3240209      0.534807404      56.5639229       
294.16           0.548779967      55.6308825       0.825567999      -33.2765155      0.825567999      -33.2765155      0.548779967      55.6308825       
304.63           0.562322794      54.7160522       0.816442941      -34.2097399      0.816442941      -34.2097399      0.562322794      54.7160522       
315.1            0.575443558      53.8193698       0.807297246      -35.1238439      0.807297246      -35.1238439      0.575443558      53.8193698       
325.57           0.588150547      52.9407326       0.798144105      -36.0190078      0.798144105      -36.0190078      0.588150547      52.9407326       
336.04           0.600452564      52.0800024       0.788995779      -36.895439       0.788995779      -36.895439       0.600452564      52.0800024       
346.51           0.612358838      51.2370091       0.779863619      -37.7533688      0.779863619      -37.7533688      0.612358838      51.2370091       
356.98           0.62387894       50.4115555       0.770758095      -38.59305        0.770758095      -38.59305        0.62387894       50.4115555       
367.45           0.635022703      49.6034199       0.761688822      -39.4147535      0.761688822      -39.4147535      0.635022703      49.6034199       
377.92           0.645800154      48.8123601       0.752664596      -40.2187664      0.752664596      -40.2187664      0.645800154      48.8123601       
388.39           0.656221452      48.038116        0.743693427      -41.0053892      0.743693427      -41.0053892      0.656221452      48.038116        
398.86           0.666296824      47.2804125       0.734782578      -41.7749335      0.734782578      -41.7749335      0.666296824      47.2804125       
409.33           0.676036523      46.5389618       0.725938603      -42.5277204      0.725938603      -42.5277204      0.676036523      46.5389618       
419.8            0.685450773      45.8134661       0.717167387      -43.2640782      0.717167387      -43.2640782      0.685450773      45.8134661       
430.27           0.694549738      45.1036191       0.70847418       -43.9843408      0.70847418       -43.9843408      0.694549738      45.1036191       
440.74           0.703343481      44.4091081       0.699863642      -44.6888461      0.699863642      -44.6888461      0.703343481      44.4091081       
451.21           0.711841937      43.7296158       0.69133988       -45.3779347      0.69133988       -45.3779347      0.711841937      43.7296158       
461.68           0.720054885      43.0648217       0.682906481      -46.0519486      0.682906481      -46.0519486      0.720054885      43.0648217       
472.15           0.727991929      42.4144033       0.67456655       -46.7112297      0.67456655       -46.7112297      0.727991929      42.4144033       
482.62           0.735662477      41.7780376       0.666322749      -47.3561194      0.666322749      -47.3561194      0.735662477      41.7780376       
493.09           0.743075729      41.1554017       0.658177324      -47.986957       0.658177324      -47.986957       0.743075729      41.1554017       
503.56           0.750240661      40.5461742       0.650132141      -48.6040795      0.650132141      -48.6040795      0.750240661      40.5461742       
514.03           0.75716602       39.950036        0.642188714      -49.2078203      0.642188714      -49.2078203      0.75716602       39.950036        
524.5            0.763860315      39.3666706       0.634348235      -49.7985093      0.634348235      -49.7985093      0.763860315      39.3666706       
534.97           0.770331811      38.7957652       0.6266116        -50.3764715      0.6266116        -50.3764715      0.770331811      38.7957652       
545.44           0.776588527      38.2370109       0.618979438      -50.9420275      0.618979438      -50.9420275      0.776588527      38.2370109       
555.91           0.782638236      37.6901032       0.61145213       -51.4954921      0.61145213       -51.4954921      0.782638236      37.6901032       
566.38           0.788488462      37.1547429       0.604029833      -52.0371748      0.604029833      -52.0371748      0.788488462      37.1547429       
576.85           0.794146483      36.6306356       0.596712503      -52.5673792      0.596712503      -52.5673792      0.794146483      36.6306356       
587.32           0.799619333      36.1174925       0.589499914      -53.0864027      0.589499914      -53.0864027      0.799619333      36.1174925       
597.79           0.804913802      35.6150307       0.582391674      -53.5945365      0.582391674      -53.5945365      0.804913802      35.6150307       
608.26           0.810036447      35.1229729       0.575387243      -54.0920653      0.575387243      -54.0920653      0.810036447      35.1229729       
618.73           0.814993588      34.641048        0.568485948      -54.5792675      0.568485948      -54.5792675      0.814993588      34.641048        
629.2            0.819791318      34.168991        0.561687001      -55.0564146      0.561687001      -55.0564146      0.819791318      34.168991        
639.67           0.824435506      33.706543        0.554989506      -55.5237719      0.554989506      -55.5237719      0.824435506      33.706543        
650.14           0.828931806      33.2534513       0.548392477      -55.9815979      0.548392477      -55.9815979      0.828931806      33.2534513       
660.61           0.833285657      32.8094695       0.541894846      -56.4301446      0.541894846      -56.4301446      0.833285657      32.8094695       
671.08           0.837502296      32.3743572       0.535495474      -56.8696574      0.535495474      -56.8696574      0.837502296      32.3743572       
681.55           0.841586757      31.9478805       0.529193161      -57.3003752      0.529193161      -57.3003752      0.841586757      31.9478805       
692.02           0.845543883      31.5298114       0.522986654      -57.7225308      0.522986654      -57.7225308      0.845543883      31.5298114       
702.49           0.84937833       31.1199278       0.516874656      -58.1363502      0.516874656      -58.1363502      0.84937833       31.1199278       
712.96           0.853094573      30.7180139       0.51085583       -58.5420536      0.51085583       -58.5420536      0.853094573      30.7180139       
723.43           0.856696913      30.3238595       0.504928812      -58.9398548      0.504928812      -58.9398548      0.856696913      30.3238595       
733.9            0.860189482      29.9372605       0.49909221       -59.3299618      0.49909221       -59.3299618      0.860189482      29.9372605       
744.37           0.863576251      29.5580181       0.493344613      -59.7125764      0.493344613      -59.7125764      0.863576251      29.5580181       
754.84           0.866861034      29.1859395       0.487684596      -60.087895       0.487684596      -60.087895       0.866861034      29.1859395       
765.31           0.870047495      28.820837        0.482110722      -60.4561081      0.482110722      -60.4561081      0.870047495      28.820837        
775.78           0.873139153      28.4625285       0.47662155       -60.8174008      0.47662155       -60.8174008      0.873139153      28.4625285       
786.25           0.87613939       28.1108368       0.471215634      -61.1719527      0.471215634      -61.1719527      0.87613939       28.1108368       
796.72           0.879051451      27.7655902       0.465891531      -61.5199384      0.465891531      -61.5199384      0.879051451      27.7655902       
807.19           0.881878455      27.4266218       0.460647799      -61.8615271      0.460647799      -61.8615271      0.881878455      27.4266218       
817.66           0.884623397      27.0937693       0.455483004      -62.1968831      0.455483004      -62.1968831      0.884623397      27.0937693       
828.13           0.887289154      26.7668755       0.450395718      -62.5261659      0.450395718      -62.5261659      0.887289154      26.7668755       
838.6            0.88987849       26.4457876       0.445384526      -62.8495303      0.445384526      -62.8495303      0.88987849       26.4457876       
849.07           0.892394059      26.1303574       0.440448023      -63.1671264      0.440448023      -63.1671264      0.892394059      26.1303574       
859.54           0.894838411      25.8204408       0.435584819      -63.4791001      0.435584819      -63.4791001      0.894838411      25.8204408       
870.01           0.897213996      25.5158981       0.430793538      -63.7855926      0.430793538      -63.7855926      0.897213996      25.5158981       
880.48           0.899523168      25.2165937       0.426072821      -64.0867412      0.426072821      -64.0867412      0.899523168      25.2165937       
890.95           0.901768188      24.922396        0.421421326      -64.3826789      0.421421326      -64.3826789      0.901768188      24.922396        
901.42           0.90395123       24.6331771       0.41683773       -64.673535       0.41683773       -64.673535       0.90395123       24.6331771       
911.89           0.906074383      24.3488131       0.412320729      -64.9594347      0.412320729      -64.9594347      0.906074383      24.3488131       
922.36           0.908139655      24.0691835       0.407869037      -65.2404996      0.407869037      -65.2404996      0.908139655      24.0691835       
932.83           0.910148975      23.7941715       0.403481391      -65.5168478      0.403481391      -65.5168478      0.910148975      23.7941715       
943.3            0.9121042        23.5236637       0.399156544      -65.7885937      0.399156544      -65.7885937      0.9121042        23.5236637       
953.77           0.914007112      23.2575499       0.394893276      -66.0558485      0.394893276      -66.0558485      0.914007112      23.2575499       
964.24           0.915859429      22.9957231       0.390690383      -66.3187198      0.390690383      -66.3187198      0.915859429      22.9957231       
974.71           0.917662801      22.7380797       0.386546684      -66.5773125      0.386546684      -66.5773125      0.917662801      22.7380797       
985.18           0.919418815      22.4845188       0.382461022      -66.8317279      0.382461022      -66.8317279      0.919418815      22.4845188       
995.65           0.921128998      22.2349426       0.378432258      -67.0820647      0.378432258      -67.0820647      0.921128998      22.2349426       
1006.12          0.92279482       21.989256        0.374459275      -67.3284186      0.374459275      -67.3284186      0.92279482       21.989256        
1016.59          0.924417695      21.7473667       0.37054098       -67.5708825      0.37054098       -67.5708825      0.924417695      21.7473667       
1027.06          0.925998985      21.5091852       0.366676299      -67.8095464      0.366676299      -67.8095464      0.925998985      21.5091852       
1037.53          0.92754          21.2746243       0.36286418       -68.044498       0.36286418       -68.044498       0.92754          21.2746243       
1048             0.929042003      21.0435995       0.359103592      -68.2758222      0.359103592      -68.2758222      0.929042003      21.0435995       
1058.47          0.930506208      20.8160287       0.355393526      -68.5036015      0.355393526      -68.5036015      0.930506208      20.8160287       
1068.94          0.931933785      20.591832        0.351732991      -68.7279161      0.351732991      -68.7279161      0.931933785      20.591832        
1079.41          0.933325863      20.3709318       0.34812102       -68.9488439      0.34812102       -68.9488439      0.933325863      20.3709318       
1089.88          0.934683527      20.1532529       0.344556663      -69.1664604      0.344556663      -69.1664604      0.934683527      20.1532529       
1100.35          0.936007825      19.9387219       0.341038992      -69.380839       0.341038992      -69.380839       0.936007825      19.9387219       
1110.82          0.937299765      19.7272677       0.337567098      -69.5920511      0.337567098      -69.5920511      0.937299765      19.7272677       
1121.29          0.93856032       19.518821        0.334140091      -69.800166       0.334140091      -69.800166       0.93856032       19.518821        
1131.76          0.939790428      19.3133146       0.3307571        -70.005251       0.3307571        -70.005251       0.939790428      19.3133146       
1142.23          0.940990993      19.1106831       0.327417275      -70.2073715      0.327417275      -70.2073715      0.940990993      19.1106831       
1152.7           0.942162887      18.9108628       0.32411978       -70.4065911      0.32411978       -70.4065911      0.942162887      18.9108628       
1163.17          0.943306952      18.7137919       0.320863801      -70.6029717      0.320863801      -70.6029717      0.943306952      18.7137919       
1173.64          0.944424         18.5194103       0.317648541      -70.7965731      0.317648541      -70.7965731      0.944424         18.5194103       
1184.11          0.945514813      18.3276593       0.314473218      -70.9874539      0.314473218      -70.9874539      0.945514813      18.3276593       
1194.58          0.946580149      18.1384821       0.311337069      -71.1756708      0.311337069      -71.1756708      0.946580149      18.1384821       
1205.05          0.947620736      17.9518234       0.308239349      -71.3612789      0.308239349      -71.3612789      0.947620736      17.9518234       
1215.52          0.94863728       17.767629        0.305179326      -71.5443318      0.305179326      -71.5443318      0.94863728       17.767629        
1225.99          0.949630461      17.5858467       0.302156288      -71.7248818      0.302156288      -71.7248818      0.949630461      17.5858467       
1236.46          0.950600937      17.4064254       0.299169535      -71.9029796      0.299169535      -71.9029796      0.950600937      17.4064254       
1246.93          0.951549342      17.2293153       0.296218384      -72.0786744      0.296218384      -72.0786744      0.951549342      17.2293153       
1257.4           0.95247629       17.0544682       0.293302168      -72.2520143      0.293302168      -72.2520143      0.95247629       17.0544682       
1267.87          0.953382374      16.8818367       0.290420234      -72.4230458      0.290420234      -72.4230458      0.953382374      16.8818367       
1278.34          0.954268167      16.7113752       0.287571942      -72.5918145      0.287571942      -72.5918145      0.954268167      16.7113752       
1288.81          0.955134222      16.5430389       0.284756668      -72.7583645      0.284756668      -72.7583645      0.955134222      16.5430389       
1299.28          0.955981076      16.3767843       0.281973802      -72.9227387      0.281973802      -72.9227387      0.955981076      16.3767843       
1309.75          0.956809247      16.212569        0.279222745      -73.0849789      0.279222745      -73.0849789      0.956809247      16.212569        
1320.22          0.957619234      16.0503518       0.276502913      -73.2451259      0.276502913      -73.2451259      0.957619234      16.0503518       
1330.69          0.958411524      15.8900923       0.273813736      -73.4032191      0.273813736      -73.4032191      0.958411524      15.8900923       
