! Coilcraft 0603CS-8N7 Chip Inductor				
! 21 May 2002			
# MHZ S MA R 50
!Freq             MagS11           AngS11           MagS21           AngS21           MagS12           AngS12           MagS22           AngS22
1                0.000648858438   57.3381286       0.999649973      -0.0313090393    0.999649973      -0.0313090393    0.000648858438   57.3381286       
18.95            0.0104104479     83.0462799       0.998793093      -0.592813254     0.998793093      -0.592813254     0.0104104479     83.0462799       
36.9             0.020196637      84.4014212       0.998232041      -1.15377977      0.998232041      -1.15377977      0.020196637      84.4014212       
54.85            0.029974508      84.6834309       0.997669125      -1.71427532      0.997669125      -1.71427532      0.029974508      84.6834309       
72.8             0.039741475      84.6217555       0.997060392      -2.2742754       0.997060392      -2.2742754       0.039741475      84.6217555       
90.75            0.0494954648     84.4002224       0.99638866       -2.8337323       0.99638866       -2.8337323       0.0494954648     84.4002224       
108.7            0.0592344266     84.0895217       0.995645244      -3.39258811      0.995645244      -3.39258811      0.0592344266     84.0895217       
126.65           0.068956288      83.7233595       0.994825169      -3.95077947      0.994825169      -3.95077947      0.068956288      83.7233595       
144.6            0.0786589582     83.3201112       0.993925389      -4.50823987      0.993925389      -4.50823987      0.0786589582     83.3201112       
162.55           0.088340338      82.8907667       0.992943991      -5.06490095      0.992943991      -5.06490095      0.088340338      82.8907667       
180.5            0.0979983286     82.442363        0.991879787      -5.62069327      0.991879787      -5.62069327      0.0979983286     82.442363        
198.45           0.107630839      81.9796509       0.990732081      -6.17554679      0.990732081      -6.17554679      0.107630839      81.9796509       
216.4            0.117235792      81.5059756       0.989500536      -6.72939133      0.989500536      -6.72939133      0.117235792      81.5059756       
234.35           0.126811129      81.0237765       0.988185082      -7.28215676      0.988185082      -7.28215676      0.126811129      81.0237765       
252.3            0.136354816      80.5348847       0.986785861      -7.83377327      0.986785861      -7.83377327      0.136354816      80.5348847       
270.25           0.145864843      80.0407099       0.985303186      -8.38417153      0.985303186      -8.38417153      0.145864843      80.0407099       
288.2            0.155339235      79.542361        0.98373751       -8.93328283      0.98373751       -8.93328283      0.155339235      79.542361        
306.15           0.164776045      79.0407272       0.982089409      -9.48103923      0.982089409      -9.48103923      0.164776045      79.0407272       
324.1            0.174173367      78.5365337       0.980359559      -10.0273736      0.980359559      -10.0273736      0.174173367      78.5365337       
342.05           0.183529331      78.0303811       0.978548731      -10.5722199      0.978548731      -10.5722199      0.183529331      78.0303811       
360              0.192842106      77.5227736       0.976657774      -11.1155129      0.976657774      -11.1155129      0.192842106      77.5227736       
377.95           0.202109906      77.0141397       0.974687613      -11.6571887      0.974687613      -11.6571887      0.202109906      77.0141397       
395.9            0.21133099       76.5048475       0.972639234      -12.1971844      0.972639234      -12.1971844      0.21133099       76.5048475       
413.85           0.220503659      75.9952167       0.970513686      -12.7354385      0.970513686      -12.7354385      0.220503659      75.9952167       
431.8            0.229626267      75.4855274       0.96831207       -13.2718907      0.96831207       -13.2718907      0.229626267      75.4855274       
449.75           0.238697212      74.976027        0.966035539      -13.8064821      0.966035539      -13.8064821      0.238697212      74.976027        
467.7            0.247714944      74.4669359       0.963685288      -14.3391551      0.963685288      -14.3391551      0.247714944      74.4669359       
485.65           0.256677964      73.9584513       0.961262555      -14.8698536      0.961262555      -14.8698536      0.256677964      73.9584513       
503.6            0.265584825      73.4507513       0.958768615      -15.3985229      0.958768615      -15.3985229      0.265584825      73.4507513       
521.55           0.274434131      72.9439972       0.956204779      -15.9251099      0.956204779      -15.9251099      0.274434131      72.9439972       
539.5            0.283224543      72.438336        0.953572386      -16.449563       0.953572386      -16.449563       0.283224543      72.438336        
557.45           0.291954772      71.9339024       0.950872807      -16.971832       0.950872807      -16.971832       0.291954772      71.9339024       
575.4            0.300623584      71.4308198       0.948107435      -17.4918686      0.948107435      -17.4918686      0.300623584      71.4308198       
593.35           0.309229802      70.9292021       0.945277686      -18.0096257      0.945277686      -18.0096257      0.309229802      70.9292021       
611.3            0.317772301      70.4291548       0.942384999      -18.525058       0.942384999      -18.525058       0.317772301      70.4291548       
629.25           0.326250013      69.9307754       0.939430826      -19.0381218      0.939430826      -19.0381218      0.326250013      69.9307754       
647.2            0.334661922      69.4341546       0.936416637      -19.5487751      0.936416637      -19.5487751      0.334661922      69.4341546       
665.15           0.343007069      68.9393767       0.933343915      -20.0569774      0.933343915      -20.0569774      0.343007069      68.9393767       
683.1            0.351284548      68.4465204       0.930214151      -20.5626899      0.930214151      -20.5626899      0.351284548      68.4465204       
701.05           0.35949351       67.955659        0.927028846      -21.0658754      0.927028846      -21.0658754      0.35949351       67.955659        
719              0.367633156      67.4668611       0.923789508      -21.5664984      0.923789508      -21.5664984      0.367633156      67.4668611       
736.95           0.375702742      66.9801908       0.920497647      -22.0645249      0.920497647      -22.0645249      0.375702742      66.9801908       
754.9            0.383701577      66.4957078       0.917154778      -22.5599226      0.917154778      -22.5599226      0.383701577      66.4957078       
772.85           0.391629022      66.0134682       0.913762415      -23.0526608      0.913762415      -23.0526608      0.391629022      66.0134682       
790.8            0.39948449       65.5335243       0.910322069      -23.5427105      0.910322069      -23.5427105      0.39948449       65.5335243       
808.75           0.407267443      65.0559251       0.906835252      -24.030044       0.906835252      -24.030044       0.407267443      65.0559251       
826.7            0.414977394      64.5807161       0.903303468      -24.5146356      0.903303468      -24.5146356      0.414977394      64.5807161       
844.65           0.422613906      64.1079401       0.899728217      -24.9964608      0.899728217      -24.9964608      0.422613906      64.1079401       
862.6            0.430176587      63.6376368       0.896110989      -25.4754967      0.896110989      -25.4754967      0.430176587      63.6376368       
880.55           0.437665097      63.1698431       0.892453268      -25.9517221      0.892453268      -25.9517221      0.437665097      63.1698431       
898.5            0.445079137      62.7045935       0.888756525      -26.425117       0.888756525      -26.425117       0.445079137      62.7045935       
916.45           0.452418457      62.2419199       0.88502222       -26.8956632      0.88502222       -26.8956632      0.452418457      62.2419199       
934.4            0.459682848      61.7818516       0.881251801      -27.3633438      0.881251801      -27.3633438      0.459682848      61.7818516       
952.35           0.466872148      61.3244161       0.877446702      -27.8281431      0.877446702      -27.8281431      0.466872148      61.3244161       
970.3            0.473986232      60.8696383       0.87360834       -28.2900473      0.87360834       -28.2900473      0.473986232      60.8696383       
988.25           0.481025019      60.4175412       0.869738119      -28.7490434      0.869738119      -28.7490434      0.481025019      60.4175412       
1006.2           0.487988466      59.9681458       0.865837423      -29.2051203      0.865837423      -29.2051203      0.487988466      59.9681458       
1024.15          0.494876569      59.5214711       0.86190762       -29.6582677      0.86190762       -29.6582677      0.494876569      59.5214711       
1042.1           0.501689361      59.0775343       0.857950059      -30.1084771      0.857950059      -30.1084771      0.501689361      59.0775343       
1060.05          0.50842691       58.6363508       0.85396607       -30.5557407      0.85396607       -30.5557407      0.50842691       58.6363508       
1078             0.515089321      58.1979344       0.849956963      -31.0000524      0.849956963      -31.0000524      0.515089321      58.1979344       
1095.95          0.521676729      57.7622972       0.845924025      -31.4414071      0.845924025      -31.4414071      0.521676729      57.7622972       
1113.9           0.528189305      57.3294496       0.841868526      -31.8798008      0.841868526      -31.8798008      0.528189305      57.3294496       
1131.85          0.534627248      56.8994007       0.83779171       -32.3152307      0.83779171       -32.3152307      0.534627248      56.8994007       
1149.8           0.540990787      56.4721581       0.833694801      -32.7476952      0.833694801      -32.7476952      0.540990787      56.4721581       
1167.75          0.547280183      56.0477278       0.829579002      -33.1771936      0.829579002      -33.1771936      0.547280183      56.0477278       
1185.7           0.55349572       55.6261148       0.825445489      -33.6037263      0.825445489      -33.6037263      0.55349572       55.6261148       
1203.65          0.559637712      55.2073225       0.821295418      -34.0272947      0.821295418      -34.0272947      0.559637712      55.2073225       
1221.6           0.565706494      54.7913531       0.817129922      -34.4479013      0.817129922      -34.4479013      0.565706494      54.7913531       
1239.55          0.57170243       54.3782079       0.812950107      -34.8655494      0.812950107      -34.8655494      0.57170243       54.3782079       
1257.5           0.577625901      53.9678866       0.808757057      -35.2802431      0.808757057      -35.2802431      0.577625901      53.9678866       
1275.45          0.583477316      53.5603882       0.804551834      -35.6919878      0.804551834      -35.6919878      0.583477316      53.5603882       
1293.4           0.589257098      53.1557105       0.800335472      -36.1007892      0.800335472      -36.1007892      0.589257098      53.1557105       
1311.35          0.594965695      52.7538503       0.796108984      -36.5066542      0.796108984      -36.5066542      0.594965695      52.7538503       
1329.3           0.60060357       52.3548033       0.791873358      -36.9095904      0.791873358      -36.9095904      0.60060357       52.3548033       
1347.25          0.606171204      51.9585644       0.787629557      -37.309606       0.787629557      -37.309606       0.606171204      51.9585644       
1365.2           0.611669097      51.5651277       0.783378522      -37.7067102      0.783378522      -37.7067102      0.611669097      51.5651277       
1383.15          0.617097759      51.1744863       0.779121167      -38.1009127      0.779121167      -38.1009127      0.617097759      51.1744863       
1401.1           0.62245772       50.7866326       0.774858386      -38.492224       0.774858386      -38.492224       0.62245772       50.7866326       
1419.05          0.627749521      50.4015581       0.770591045      -38.880655       0.770591045      -38.880655       0.627749521      50.4015581       
1437             0.632973714      50.0192536       0.766319991      -39.2662174      0.766319991      -39.2662174      0.632973714      50.0192536       
1454.95          0.638130864      49.6397093       0.762046044      -39.6489236      0.762046044      -39.6489236      0.638130864      49.6397093       
1472.9           0.643221549      49.2629147       0.757770002      -40.0287862      0.757770002      -40.0287862      0.643221549      49.2629147       
1490.85          0.648246354      48.8888586       0.75349264       -40.4058187      0.75349264       -40.4058187      0.648246354      48.8888586       
1508.8           0.653205873      48.5175291       0.749214712      -40.7800349      0.749214712      -40.7800349      0.653205873      48.5175291       
1526.75          0.658100711      48.148914        0.744936948      -41.1514491      0.744936948      -41.1514491      0.658100711      48.148914        
1544.7           0.662931477      47.7830003       0.740660055      -41.520076       0.740660055      -41.520076       0.662931477      47.7830003       
1562.65          0.667698791      47.4197747       0.73638472       -41.885931       0.73638472       -41.885931       0.667698791      47.4197747       
1580.6           0.672403275      47.0592231       0.732111607      -42.2490295      0.732111607      -42.2490295      0.672403275      47.0592231       
1598.55          0.677045559      46.7013312       0.72784136       -42.6093876      0.72784136       -42.6093876      0.677045559      46.7013312       
1616.5           0.681626277      46.3460843       0.723574602      -42.9670216      0.723574602      -42.9670216      0.681626277      46.3460843       
1634.45          0.686146067      45.9934671       0.719311935      -43.3219483      0.719311935      -43.3219483      0.686146067      45.9934671       
1652.4           0.690605572      45.643464        0.71505394       -43.6741846      0.71505394       -43.6741846      0.690605572      45.643464        
1670.35          0.695005435      45.2960591       0.710801179      -44.0237478      0.710801179      -44.0237478      0.695005435      45.2960591       
1688.3           0.699346304      44.951236        0.706554196      -44.3706555      0.706554196      -44.3706555      0.699346304      44.951236        
1706.25          0.703628829      44.6089781       0.702313513      -44.7149255      0.702313513      -44.7149255      0.703628829      44.6089781       
1724.2           0.707853658      44.2692686       0.698079635      -45.056576       0.698079635      -45.056576       0.707853658      44.2692686       
1742.15          0.712021444      43.9320901       0.693853048      -45.3956251      0.693853048      -45.3956251      0.712021444      43.9320901       
1760.1           0.716132838      43.5974254       0.689634221      -45.7320915      0.689634221      -45.7320915      0.716132838      43.5974254       
1778.05          0.720188492      43.2652567       0.685423604      -46.0659937      0.685423604      -46.0659937      0.720188492      43.2652567       
1796             0.724189056      42.935566        0.681221631      -46.3973507      0.681221631      -46.3973507      0.724189056      42.935566        
1813.95          0.728135181      42.6083355       0.677028718      -46.7261814      0.677028718      -46.7261814      0.728135181      42.6083355       
1831.9           0.732027516      42.2835466       0.672845265      -47.0525049      0.672845265      -47.0525049      0.732027516      42.2835466       
1849.85          0.735866707      41.9611811       0.668671656      -47.3763406      0.668671656      -47.3763406      0.735866707      41.9611811       
1867.8           0.7396534        41.6412203       0.66450826       -47.6977077      0.66450826       -47.6977077      0.7396534        41.6412203       
1885.75          0.743388239      41.3236456       0.660355429      -48.0166258      0.660355429      -48.0166258      0.743388239      41.3236456       
1903.7           0.747071862      41.008438        0.656213501      -48.3331144      0.656213501      -48.3331144      0.747071862      41.008438        
1921.65          0.750704908      40.6955787       0.652082799      -48.647193       0.652082799      -48.647193       0.750704908      40.6955787       
1939.6           0.754288011      40.3850486       0.647963633      -48.9588814      0.647963633      -48.9588814      0.754288011      40.3850486       
1957.55          0.757821801      40.0768286       0.643856298      -49.2681992      0.643856298      -49.2681992      0.757821801      40.0768286       
1975.5           0.761306905      39.7708995       0.639761075      -49.5751662      0.639761075      -49.5751662      0.761306905      39.7708995       
1993.45          0.764743947      39.4672422       0.635678233      -49.8798021      0.635678233      -49.8798021      0.764743947      39.4672422       
2011.4           0.768133545      39.1658373       0.631608027      -50.1821267      0.631608027      -50.1821267      0.768133545      39.1658373       
2029.35          0.771476314      38.8666655       0.627550701      -50.4821598      0.627550701      -50.4821598      0.771476314      38.8666655       
2047.3           0.774772865      38.5697076       0.623506486      -50.7799211      0.623506486      -50.7799211      0.774772865      38.5697076       
2065.25          0.778023802      38.2749442       0.619475602      -51.0754304      0.619475602      -51.0754304      0.778023802      38.2749442       
2083.2           0.781229725      37.9823559       0.615458256      -51.3687073      0.615458256      -51.3687073      0.781229725      37.9823559       
2101.15          0.784391231      37.6919236       0.611454645      -51.6597716      0.611454645      -51.6597716      0.784391231      37.6919236       
2119.1           0.78750891       37.4036278       0.607464956      -51.9486428      0.607464956      -51.9486428      0.78750891       37.4036278       
2137.05          0.790583347      37.1174493       0.603489364      -52.2353406      0.603489364      -52.2353406      0.790583347      37.1174493       
2155             0.793615121      36.8333689       0.599528034      -52.5198844      0.599528034      -52.5198844      0.793615121      36.8333689       
2172.95          0.796604807      36.5513673       0.595581123      -52.8022937      0.595581123      -52.8022937      0.796604807      36.5513673       
2190.9           0.799552972      36.2714255       0.591648777      -53.0825879      0.591648777      -53.0825879      0.799552972      36.2714255       
2208.85          0.802460181      35.9935243       0.587731131      -53.3607863      0.587731131      -53.3607863      0.802460181      35.9935243       
2226.8           0.805326991      35.7176447       0.583828316      -53.6369081      0.583828316      -53.6369081      0.805326991      35.7176447       
2244.75          0.808153951      35.4437677       0.579940448      -53.9109724      0.579940448      -53.9109724      0.808153951      35.4437677       
2262.7           0.810941609      35.1718745       0.576067641      -54.1829982      0.576067641      -54.1829982      0.810941609      35.1718745       
2280.65          0.813690504      34.9019463       0.572209996      -54.4530046      0.572209996      -54.4530046      0.813690504      34.9019463       
