! Coilcraft 0603CS-68N Chip Inductor				
! 21 May 2002			
# MHZ S MA R 50
!Freq             MagS11           AngS11           MagS21           AngS21           MagS12           AngS12           MagS22           AngS22
1                0.00447903719    69.5457532       0.998443578      -0.240825341     0.998443578      -0.240825341     0.00447903719    69.5457532       
7.98             0.0336948228     80.964098        0.995264574      -1.91604167      0.995264574      -1.91604167      0.0336948228     80.964098        
14.96            0.0627566287     81.2372647       0.992379625      -3.58334404      0.992379625      -3.58334404      0.0627566287     81.2372647       
21.94            0.0916081606     80.4907183       0.989001197      -5.24151487      0.989001197      -5.24151487      0.0916081606     80.4907183       
28.92            0.120190746      79.3992414       0.984999587      -6.88855718      0.984999587      -6.88855718      0.120190746      79.3992414       
35.9             0.148445277      78.148957        0.980338807      -8.52232859      0.980338807      -8.52232859      0.148445277      78.148957        
42.88            0.1763146        76.8156061       0.975016496      -10.1406915      0.975016496      -10.1406915      0.1763146        76.8156061       
49.86            0.203744813      75.4372037       0.969047146      -11.7415799      0.969047146      -11.7415799      0.203744813      75.4372037       
56.84            0.230686104      74.0356177       0.962455395      -13.3230377      0.962455395      -13.3230377      0.230686104      74.0356177       
63.82            0.257093299      72.6247048       0.955272617      -14.8832433      0.955272617      -14.8832433      0.257093299      72.6247048       
70.8             0.28292623       71.2138935       0.94753486       -16.4205267      0.94753486       -16.4205267      0.28292623       71.2138935       
77.78            0.308149943      69.809947        0.939281408      -17.9333802      0.939281408      -17.9333802      0.308149943      69.809947        
84.76            0.33273478       68.4179079       0.930553679      -19.4204646      0.930553679      -19.4204646      0.33273478       68.4179079       
91.74            0.356656343      67.0416386       0.921394339      -20.880612       0.921394339      -20.880612       0.356656343      67.0416386       
98.72            0.379895375      65.6841501       0.911846557      -22.3128253      0.911846557      -22.3128253      0.379895375      65.6841501       
105.7            0.402437552      64.3478109       0.901953379      -23.7162749      0.901953379      -23.7162749      0.402437552      64.3478109       
112.68           0.424273216      63.0344877       0.8917572        -25.0902934      0.8917572        -25.0902934      0.424273216      63.0344877       
119.66           0.445397066      61.7456428       0.88129932       -26.4343682      0.88129932       -26.4343682      0.445397066      61.7456428       
126.64           0.465807806      60.4824061       0.870619591      -27.7481335      0.870619591      -27.7481335      0.465807806      60.4824061       
133.62           0.485507776      59.2456284       0.859756124      -29.0313602      0.859756124      -29.0313602      0.485507776      59.2456284       
140.6            0.504502573      58.0359244       0.848745074      -30.2839458      0.848745074      -30.2839458      0.504502573      58.0359244       
147.58           0.522800668      56.853707        0.837620482      -31.5059036      0.837620482      -31.5059036      0.522800668      56.853707        
154.56           0.540413037      55.6992154       0.826414168      -32.6973523      0.826414168      -32.6973523      0.540413037      55.6992154       
161.54           0.557352795      54.5725399       0.815155675      -33.8585046      0.815155675      -33.8585046      0.557352795      54.5725399       
168.52           0.57363486       53.4736427       0.803872255      -34.9896569      0.803872255      -34.9896569      0.57363486       53.4736427       
175.5            0.58927563       52.4023757       0.792588881      -36.0911793      0.792588881      -36.0911793      0.58927563       52.4023757       
182.48           0.60429269       51.3584972       0.781328299      -37.1635056      0.781328299      -37.1635056      0.60429269       51.3584972       
189.46           0.618704546      50.3416857       0.770111092      -38.2071242      0.770111092      -38.2071242      0.618704546      50.3416857       
196.44           0.632530378      49.3515525       0.75895577       -39.2225697      0.75895577       -39.2225697      0.632530378      49.3515525       
203.42           0.645789824      48.3876529       0.747878864      -40.210415       0.747878864      -40.210415       0.645789824      48.3876529       
210.4            0.658502795      47.4494962       0.736895042      -41.1712639      0.736895042      -41.1712639      0.658502795      47.4494962       
217.38           0.670689302      46.5365545       0.726017217      -42.1057447      0.726017217      -42.1057447      0.670689302      46.5365545       
224.36           0.682369316      45.6482701       0.715256668      -43.0145043      0.715256668      -43.0145043      0.682369316      45.6482701       
231.34           0.693562643      44.7840628       0.704623156      -43.8982026      0.704623156      -43.8982026      0.693562643      44.7840628       
238.32           0.704288824      43.9433354       0.694125046      -44.7575081      0.694125046      -44.7575081      0.704288824      43.9433354       
245.3            0.714567046      43.1254794       0.683769413      -45.5930938      0.683769413      -45.5930938      0.714567046      43.1254794       
252.28           0.724416071      42.3298792       0.673562159      -46.4056332      0.673562159      -46.4056332      0.724416071      42.3298792       
259.26           0.733854185      41.5559161       0.663508118      -47.1957974      0.663508118      -47.1957974      0.733854185      41.5559161       
266.24           0.74289915       40.8029718       0.653611151      -47.9642521      0.653611151      -47.9642521      0.74289915       40.8029718       
273.22           0.751568173      40.0704311       0.643874247      -48.7116558      0.643874247      -48.7116558      0.751568173      40.0704311       
280.2            0.759877882      39.3576848       0.634299608      -49.4386573      0.634299608      -49.4386573      0.759877882      39.3576848       
287.18           0.767844311      38.6641311       0.624888729      -50.1458944      0.624888729      -50.1458944      0.767844311      38.6641311       
294.16           0.775482891      37.9891778       0.615642479      -50.8339921      0.615642479      -50.8339921      0.775482891      37.9891778       
301.14           0.782808449      37.3322435       0.606561169      -51.5035622      0.606561169      -51.5035622      0.782808449      37.3322435       
308.12           0.789835209      36.6927588       0.597644617      -52.1552019      0.597644617      -52.1552019      0.789835209      36.6927588       
315.1            0.796576799      36.0701674       0.588892207      -52.7894933      0.588892207      -52.7894933      0.796576799      36.0701674       
322.08           0.803046258      35.4639264       0.58030294       -53.4070028      0.58030294       -53.4070028      0.803046258      35.4639264       
329.06           0.809256054      34.8735071       0.571875491      -54.008281       0.571875491      -54.008281       0.809256054      34.8735071       
336.04           0.815218094      34.2983953       0.563608245      -54.5938623      0.563608245      -54.5938623      0.815218094      34.2983953       
343.02           0.820943742      33.7380916       0.555499342      -55.1642651      0.555499342      -55.1642651      0.820943742      33.7380916       
350              0.826443835      33.1921115       0.547546711      -55.7199911      0.547546711      -55.7199911      0.826443835      33.1921115       
356.98           0.831728704      32.6599853       0.539748105      -56.2615265      0.539748105      -56.2615265      0.831728704      32.6599853       
363.96           0.836808187      32.1412581       0.532101126      -56.789341       0.532101126      -56.789341       0.836808187      32.1412581       
370.94           0.841691656      31.6354899       0.524603259      -57.303889       0.524603259      -57.303889       0.841691656      31.6354899       
377.92           0.846388029      31.142255        0.517251884      -57.8056091      0.517251884      -57.8056091      0.846388029      31.142255        
384.9            0.850905796      30.6611421       0.510044308      -58.2949249      0.510044308      -58.2949249      0.850905796      30.6611421       
391.88           0.855253029      30.1917539       0.502977775      -58.7722453      0.502977775      -58.7722453      0.855253029      30.1917539       
398.86           0.859437409      29.733707        0.496049488      -59.2379646      0.496049488      -59.2379646      0.859437409      29.733707        
405.84           0.863466241      29.286631        0.489256621      -59.692463       0.489256621      -59.692463       0.863466241      29.286631        
412.82           0.867346469      28.850169        0.482596329      -60.1361071      0.482596329      -60.1361071      0.867346469      28.850169        
419.8            0.871084699      28.4239764       0.476065765      -60.5692502      0.476065765      -60.5692502      0.871084699      28.4239764       
426.78           0.874687209      28.0077213       0.469662084      -60.9922329      0.469662084      -60.9922329      0.874687209      28.0077213       
433.76           0.87815997       27.6010833       0.463382457      -61.4053831      0.463382457      -61.4053831      0.87815997       27.6010833       
440.74           0.88150866       27.2037541       0.457224072      -61.8090169      0.457224072      -61.8090169      0.88150866       27.2037541       
447.72           0.884738675      26.8154361       0.451184144      -62.2034386      0.451184144      -62.2034386      0.884738675      26.8154361       
454.7            0.887855151      26.4358427       0.445259921      -62.5889414      0.445259921      -62.5889414      0.887855151      26.4358427       
461.68           0.890862968      26.064698        0.439448688      -62.9658076      0.439448688      -62.9658076      0.890862968      26.064698        
468.66           0.893766773      25.7017357       0.433747767      -63.3343091      0.433747767      -63.3343091      0.893766773      25.7017357       
475.64           0.896570981      25.3466996       0.428154527      -63.6947079      0.428154527      -63.6947079      0.896570981      25.3466996       
482.62           0.899279796      24.9993428       0.42266638       -64.0472562      0.42266638       -64.0472562      0.899279796      24.9993428       
489.6            0.901897219      24.6594271       0.417280789      -64.3921968      0.417280789      -64.3921968      0.901897219      24.6594271       
496.58           0.904427056      24.3267235       0.411995264      -64.7297638      0.411995264      -64.7297638      0.904427056      24.3267235       
503.56           0.906872933      24.0010109       0.406807369      -65.0601825      0.406807369      -65.0601825      0.906872932      24.0010109       
510.54           0.909238298      23.6820764       0.401714717      -65.38367        0.401714717      -65.38367        0.909238298      23.6820764       
517.52           0.91152644       23.369715        0.396714977      -65.7004355      0.396714977      -65.7004355      0.91152644       23.369715        
524.5            0.913740488      23.0637288       0.391805868      -66.0106804      0.391805868      -66.0106804      0.913740488      23.0637288       
531.48           0.915883426      22.7639274       0.386985164      -66.314599       0.386985164      -66.314599       0.915883426      22.7639274       
538.46           0.917958096      22.4701268       0.382250692      -66.6123783      0.382250692      -66.6123783      0.917958096      22.4701268       
545.44           0.919967209      22.1821501       0.377600331      -66.9041987      0.377600331      -66.9041987      0.919967209      22.1821501       
552.42           0.921913347      21.8998265       0.373032015      -67.1902341      0.373032015      -67.1902341      0.921913347      21.8998265       
559.4            0.923798976      21.6229912       0.368543727      -67.4706521      0.368543727      -67.4706521      0.923798976      21.6229912       
566.38           0.925626446      21.3514853       0.364133503      -67.7456142      0.364133503      -67.7456142      0.925626446      21.3514853       
573.36           0.927398001      21.0851557       0.35979943       -68.0152764      0.35979943       -68.0152764      0.927398001      21.0851557       
580.34           0.929115782      20.8238545       0.355539644      -68.2797889      0.355539644      -68.2797889      0.929115782      20.8238545       
587.32           0.930781832      20.567439        0.351352331      -68.5392967      0.351352331      -68.5392967      0.930781832      20.567439        
594.3            0.932398106      20.3157715       0.347235725      -68.7939398      0.347235725      -68.7939398      0.932398106      20.3157715       
601.28           0.933966466      20.0687193       0.343188107      -69.0438532      0.343188107      -69.0438532      0.933966466      20.0687193       
608.26           0.935488697      19.8261538       0.339207804      -69.2891672      0.339207804      -69.2891672      0.935488697      19.8261538       
615.24           0.936966499      19.5879513       0.335293188      -69.5300076      0.335293188      -69.5300076      0.936966499      19.5879513       
622.22           0.938401503      19.3539922       0.331442677      -69.7664957      0.331442677      -69.7664957      0.938401503      19.3539922       
629.2            0.939795266      19.1241608       0.327654731      -69.998749       0.327654731      -69.998749       0.939795266      19.1241608       
636.18           0.941149276      18.8983455       0.323927852      -70.2268806      0.323927852      -70.2268806      0.941149276      18.8983455       
643.16           0.942464959      18.6764384       0.320260582      -70.451          0.320260582      -70.451          0.942464959      18.6764384       
650.14           0.94374368       18.4583353       0.316651506      -70.6712129      0.316651506      -70.6712129      0.94374368       18.4583353       
657.12           0.944986744      18.2439353       0.313099246      -70.8876214      0.313099246      -70.8876214      0.944986744      18.2439353       
664.1            0.946195403      18.0331411       0.309602461      -71.1003243      0.309602461      -71.1003243      0.946195403      18.0331411       
671.08           0.947370853      17.8258583       0.306159849      -71.3094171      0.306159849      -71.3094171      0.947370853      17.8258583       
678.06           0.948514244      17.6219959       0.302770144      -71.5149919      0.302770144      -71.5149919      0.948514244      17.6219959       
685.04           0.949626674      17.4214656       0.299432112      -71.7171381      0.299432112      -71.7171381      0.949626674      17.4214656       
692.02           0.9507092        17.2241822       0.296144558      -71.915942       0.296144558      -71.915942       0.9507092        17.2241822       
699              0.951762831      17.0300632       0.292906315      -72.111487       0.292906315      -72.111487       0.951762831      17.0300632       
705.98           0.952788539      16.8390285       0.28971625       -72.303854       0.28971625       -72.303854       0.952788539      16.8390285       
712.96           0.953787254      16.651001        0.286573263      -72.4931212      0.286573263      -72.4931212      0.953787254      16.651001        
719.94           0.954759869      16.4659056       0.283476282      -72.6793641      0.283476282      -72.6793641      0.954759869      16.4659056       
726.92           0.955707242      16.2836698       0.280424264      -72.8626561      0.280424264      -72.8626561      0.955707242      16.2836698       
733.9            0.956630197      16.1042234       0.277416196      -73.0430682      0.277416196      -73.0430682      0.956630197      16.1042234       
740.88           0.957529523      15.9274983       0.274451093      -73.2206689      0.274451093      -73.2206689      0.957529523      15.9274983       
747.86           0.958405981      15.7534286       0.271527995      -73.3955248      0.271527995      -73.3955248      0.958405981      15.7534286       
754.84           0.959260301      15.5819502       0.26864597       -73.5677004      0.26864597       -73.5677004      0.959260301      15.5819502       
761.82           0.960093185      15.4130012       0.265804109      -73.7372581      0.265804109      -73.7372581      0.960093185      15.4130012       
768.8            0.960905307      15.2465216       0.26300153       -73.9042584      0.26300153       -73.9042584      0.960905307      15.2465216       
775.78           0.961697317      15.0824531       0.260237374      -74.0687599      0.260237374      -74.0687599      0.961697317      15.0824531       
782.76           0.962469837      14.9207391       0.257510804      -74.2308195      0.257510804      -74.2308195      0.962469837      14.9207391       
789.74           0.96322347       14.7613248       0.254821006      -74.3904923      0.254821006      -74.3904923      0.96322347       14.7613248       
796.72           0.963958793      14.6041571       0.252167189      -74.5478318      0.252167189      -74.5478318      0.963958793      14.6041571       
803.7            0.964676362      14.4491843       0.249548582      -74.7028897      0.249548582      -74.7028897      0.964676362      14.4491843       
810.68           0.965376713      14.2963564       0.246964433      -74.8557163      0.246964433      -74.8557163      0.965376713      14.2963564       
817.66           0.966060362      14.1456246       0.244414013      -75.0063605      0.244414013      -75.0063605      0.966060362      14.1456246       
824.64           0.966727807      13.9969418       0.24189661       -75.1548694      0.24189661       -75.1548694      0.966727807      13.9969418       
831.62           0.967379525      13.850262        0.23941153       -75.3012891      0.23941153       -75.3012891      0.967379525      13.850262        
838.6            0.968015979      13.7055408       0.236958101      -75.445664       0.236958101      -75.445664       0.968015979      13.7055408       
845.58           0.968637613      13.5627349       0.234535664      -75.5880374      0.234535664      -75.5880374      0.968637613      13.5627349       
852.56           0.969244857      13.4218023       0.232143579      -75.7284513      0.232143579      -75.7284513      0.969244857      13.4218023       
859.54           0.969838124      13.282702        0.229781224      -75.8669464      0.229781224      -75.8669464      0.969838124      13.282702        
866.52           0.970417814      13.1453944       0.22744799       -76.0035623      0.22744799       -76.0035623      0.970417814      13.1453944       
873.5            0.970984311      13.0098408       0.225143285      -76.1383375      0.225143285      -76.1383375      0.970984311      13.0098408       
880.48           0.971537988      12.8760038       0.222866534      -76.2713093      0.222866534      -76.2713093      0.971537988      12.8760038       
887.46           0.972079203      12.7438468       0.220617174      -76.4025139      0.220617174      -76.4025139      0.972079203      12.7438468       
