! Coilcraft 0603CS-27N Chip Inductor				
! 21 May 2002			
# MHZ S MA R 50
!Freq             MagS11           AngS11           MagS21           AngS21           MagS12           AngS12           MagS22           AngS22
1                0.00190715065    62.6191101       0.99912433       -0.0971149358    0.99912433       -0.0971149358    0.00190715065    62.6191101       
14.21            0.0241662741     82.7780281       0.997250192      -1.37756106      0.997250192      -1.37756106      0.0241662741     82.7780281       
27.42            0.0464326539     83.2739614       0.995630159      -2.65463083      0.995630159      -2.65463083      0.0464326539     83.2739614       
40.63            0.0686127962     82.7795453       0.993710313      -3.92780973      0.993710313      -3.92780973      0.0686127962     82.7795453       
53.84            0.0906772125     81.9709166       0.991408868      -5.19619242      0.991408868      -5.19619242      0.0906772125     81.9709166       
67.05            0.112597592      81.0195662       0.988699089      -6.45879016      0.988699089      -6.45879016      0.112597592      81.0195662       
80.26            0.134346232      79.9920022       0.985572939      -7.71459542      0.985572939      -7.71459542      0.134346232      79.9920022       
93.47            0.155896272      78.9203939       0.982031385      -8.96260893      0.982031385      -8.96260893      0.155896272      78.9203939       
106.68           0.17722193       77.8226638       0.978080712      -10.2018549      0.978080712      -10.2018549      0.17722193       77.8226638       
119.89           0.198298715      76.7098536       0.973730776      -11.4313908      0.973730776      -11.4313908      0.198298715      76.7098536       
133.1            0.219103582      75.5893022       0.968994037      -12.6503152      0.968994037      -12.6503152      0.219103582      75.5893022       
146.31           0.239615064      74.4661861       0.963884942      -13.8577725      0.963884942      -13.8577725      0.239615064      74.4661861       
159.52           0.259813368      73.3443315       0.958419488      -15.0529578      0.958419488      -15.0529578      0.259813368      73.3443315       
172.73           0.279680448      72.2266736       0.952614882      -16.2351194      0.952614882      -16.2351194      0.279680448      72.2266736       
185.94           0.299200046      71.1155308       0.946489261      -17.4035618      0.946489261      -17.4035618      0.299200046      71.1155308       
199.15           0.318357719      70.0127751       0.940061457      -18.5576468      0.940061457      -18.5576468      0.318357719      70.0127751       
212.36           0.337140833      68.9199435       0.933350779      -19.6967945      0.933350779      -19.6967945      0.337140833      68.9199435       
225.57           0.355538549      67.8383127       0.926376828      -20.8204835      0.926376828      -20.8204835      0.355538549      67.8383127       
238.78           0.373541785      66.7689507       0.919159325      -21.9282507      0.919159325      -21.9282507      0.373541785      66.7689507       
251.99           0.391143163      65.7127545       0.911717961      -23.0196904      0.911717961      -23.0196904      0.391143163      65.7127545       
265.2            0.408336949      64.6704765       0.904072256      -24.0944529      0.904072256      -24.0944529      0.408336949      64.6704765       
278.41           0.425118976      63.6427465       0.896241444      -25.1522433      0.896241444      -25.1522433      0.425118976      63.6427465       
291.62           0.441486562      62.6300869       0.888244361      -26.1928192      0.888244361      -26.1928192      0.441486562      62.6300869       
304.83           0.457438419      61.6329262       0.880099361      -27.2159888      0.880099361      -27.2159888      0.457438419      61.6329262       
318.04           0.472974561      60.6516099       0.871824231      -28.2216082      0.871824231      -28.2216082      0.472974561      60.6516099       
331.25           0.488096202      59.686409        0.863436132      -29.2095792      0.863436132      -29.2095792      0.488096202      59.686409        
344.46           0.502805664      58.7375278       0.854951543      -30.1798462      0.854951543      -30.1798462      0.502805664      58.7375278       
357.67           0.517106272      57.8051112       0.846386223      -31.1323939      0.846386223      -31.1323939      0.517106272      57.8051112       
370.88           0.53100226       56.8892502       0.83775518       -32.0672442      0.83775518       -32.0672442      0.53100226       56.8892502       
384.09           0.544498673      55.9899873       0.829072647      -32.9844534      0.829072647      -32.9844534      0.544498673      55.9899873       
397.3            0.557601279      55.1073217       0.820352076      -33.8841096      0.820352076      -33.8841096      0.557601279      55.1073217       
410.51           0.570316474      54.2412135       0.811606129      -34.7663299      0.811606129      -34.7663299      0.570316474      54.2412135       
423.72           0.582651204      53.3915878       0.802846683      -35.6312578      0.802846683      -35.6312578      0.582651204      53.3915878       
436.93           0.594612881      52.5583387       0.794084837      -36.4790604      0.794084837      -36.4790604      0.594612881      52.5583387       
450.14           0.606209309      51.7413324       0.785330928      -37.3099262      0.785330928      -37.3099262      0.606209309      51.7413324       
463.35           0.617448617      50.9404106       0.776594548      -38.1240626      0.776594548      -38.1240626      0.617448617      50.9404106       
476.56           0.628339192      50.1553936       0.767884564      -38.9216938      0.767884564      -38.9216938      0.628339192      50.1553936       
489.77           0.63888962       49.3860826       0.759209144      -39.7030585      0.759209144      -39.7030585      0.63888962       49.3860826       
502.98           0.649108635      48.6322624       0.750575785      -40.4684081      0.750575785      -40.4684081      0.649108635      48.6322624       
516.19           0.659005065      47.8937041       0.741991338      -41.2180046      0.741991338      -41.2180046      0.659005065      47.8937041       
529.4            0.668587792      47.1701663       0.733462042      -41.9521193      0.733462042      -41.9521193      0.668587792      47.1701663       
542.61           0.677865711      46.4613979       0.72499355       -42.6710306      0.72499355       -42.6710306      0.677865711      46.4613979       
555.82           0.686847693      45.7671394       0.716590963      -43.3750232      0.716590963      -43.3750232      0.686847693      45.7671394       
569.03           0.695542556      45.0871246       0.708258858      -44.0643861      0.708258858      -44.0643861      0.695542556      45.0871246       
582.24           0.703959037      44.421082        0.700001322      -44.739412       0.700001322      -44.739412       0.703959037      44.421082        
595.45           0.712105766      43.7687362       0.691821978      -45.4003955      0.691821978      -45.4003955      0.712105766      43.7687362       
608.66           0.71999125       43.1298092       0.68372402       -46.0476327      0.68372402       -46.0476327      0.71999125       43.1298092       
621.87           0.72762385       42.5040211       0.675710234      -46.6814199      0.675710234      -46.6814199      0.72762385       42.5040211       
635.08           0.73501177       41.8910915       0.667783034      -47.3020527      0.667783034      -47.3020527      0.73501177       41.8910915       
648.29           0.742163044      41.29074         0.65994448       -47.9098258      0.65994448       -47.9098258      0.742163044      41.29074         
661.5            0.749085524      40.7026872       0.652196313      -48.5050316      0.652196313      -48.5050316      0.749085524      40.7026872       
674.71           0.755786874      40.1266552       0.64453997       -49.0879603      0.64453997       -49.0879603      0.755786874      40.1266552       
687.92           0.762274563      39.5623683       0.636976614      -49.6588987      0.636976614      -49.6588987      0.762274563      39.5623683       
701.13           0.768555861      39.0095535       0.629507152      -50.2181306      0.629507152      -50.2181306      0.768555861      39.0095535       
714.34           0.774637835      38.4679409       0.622132258      -50.7659354      0.622132258      -50.7659354      0.774637835      38.4679409       
727.55           0.780527348      37.9372644       0.614852391      -51.3025888      0.614852391      -51.3025888      0.780527348      37.9372644       
740.76           0.786231059      37.4172614       0.607667814      -51.8283617      0.607667814      -51.8283617      0.786231059      37.4172614       
753.97           0.791755421      36.9076737       0.600578613      -52.3435204      0.600578613      -52.3435204      0.791755421      36.9076737       
767.18           0.797106683      36.4082475       0.593584709      -52.8483262      0.593584709      -52.8483262      0.797106683      36.4082475       
780.39           0.802290894      35.9187336       0.586685876      -53.3430354      0.586685876      -53.3430354      0.802290894      35.9187336       
793.6            0.807313904      35.4388874       0.579881757      -53.8278991      0.579881757      -53.8278991      0.807313904      35.4388874       
806.81           0.812181366      34.9684694       0.573171873      -54.303163       0.573171873      -54.303163       0.812181366      34.9684694       
820.02           0.81689874       34.507245        0.566555635      -54.7690676      0.566555635      -54.7690676      0.81689874       34.507245        
833.23           0.8214713        34.0549847       0.560032359      -55.2258477      0.560032359      -55.2258477      0.8214713        34.0549847       
846.44           0.825904134      33.6114642       0.553601276      -55.673733       0.553601276      -55.673733       0.825904134      33.6114642       
859.65           0.830202149      33.176464        0.547261538      -56.1129476      0.547261538      -56.1129476      0.830202149      33.176464        
872.86           0.834370079      32.7497702       0.541012229      -56.5437102      0.541012229      -56.5437102      0.834370079      32.7497702       
886.07           0.838412486      32.3311737       0.534852375      -56.966234       0.534852375      -56.966234       0.838412486      32.3311737       
899.28           0.842333767      31.9204706       0.528780949      -57.380727       0.528780949      -57.380727       0.842333767      31.9204706       
912.49           0.846138158      31.5174621       0.522796878      -57.7873918      0.522796878      -57.7873918      0.846138158      31.5174621       
925.7            0.849829739      31.1219544       0.516899051      -58.1864258      0.516899051      -58.1864258      0.849829739      31.1219544       
938.91           0.85341244       30.7337587       0.511086324      -58.5780213      0.511086324      -58.5780213      0.85341244       30.7337587       
952.12           0.856890043      30.352691        0.505357526      -58.9623654      0.505357526      -58.9623654      0.856890043      30.352691        
965.33           0.860266192      29.9785722       0.499711462      -59.3396403      0.499711462      -59.3396403      0.860266192      29.9785722       
978.54           0.863544392      29.6112279       0.494146919      -59.7100233      0.494146919      -59.7100233      0.863544392      29.6112279       
991.75           0.866728019      29.2504883       0.488662672      -60.0736867      0.488662672      -60.0736867      0.866728019      29.2504883       
1004.96          0.869820319      28.8961884       0.483257481      -60.4307983      0.483257481      -60.4307983      0.869820319      28.8961884       
1018.17          0.87282442       28.5481674       0.477930103      -60.7815212      0.477930103      -60.7815212      0.87282442       28.5481674       
1031.38          0.875743329      28.206269        0.472679288      -61.126014       0.472679288      -61.126014       0.875743329      28.206269        
1044.59          0.87857994       27.8703412       0.467503786      -61.4644309      0.467503786      -61.4644309      0.87857994       27.8703412       
1057.8           0.881337039      27.5402361       0.462402348      -61.7969217      0.462402348      -61.7969217      0.881337039      27.5402361       
1071.01          0.884017306      27.21581         0.457373727      -62.1236322      0.457373727      -62.1236322      0.884017306      27.21581         
1084.22          0.886623321      26.896923        0.452416684      -62.4447039      0.452416684      -62.4447039      0.886623321      26.896923        
1097.43          0.889157564      26.5834393       0.447529983      -62.7602745      0.447529983      -62.7602745      0.889157564      26.5834393       
1110.64          0.891622426      26.2752268       0.442712399      -63.0704777      0.442712399      -63.0704777      0.891622426      26.2752268       
1123.85          0.894020204      25.9721571       0.437962717      -63.3754434      0.437962717      -63.3754434      0.894020204      25.9721571       
1137.06          0.89635311       25.6741053       0.433279733      -63.6752979      0.433279733      -63.6752979      0.89635311       25.6741053       
1150.27          0.898623276      25.3809501       0.428662256      -63.9701638      0.428662256      -63.9701638      0.898623276      25.3809501       
1163.48          0.900832749      25.0925736       0.424109106      -64.2601605      0.424109106      -64.2601605      0.900832749      25.0925736       
1176.69          0.902983503      24.8088611       0.419619119      -64.5454036      0.419619119      -64.5454036      0.902983503      24.8088611       
1189.9           0.905077438      24.5297012       0.415191146      -64.8260058      0.415191146      -64.8260058      0.905077438      24.5297012       
1203.11          0.907116383      24.2549856       0.410824054      -65.1020764      0.410824054      -65.1020764      0.907116383      24.2549856       
1216.32          0.909102099      23.9846091       0.406516723      -65.3737216      0.406516723      -65.3737216      0.909102099      23.9846091       
1229.53          0.911036283      23.7184693       0.402268053      -65.6410448      0.402268053      -65.6410448      0.911036283      23.7184693       
1242.74          0.912920567      23.4564667       0.398076959      -65.9041461      0.398076959      -65.9041461      0.912920567      23.4564667       
1255.95          0.914756525      23.1985048       0.393942374      -66.1631232      0.393942374      -66.1631232      0.914756525      23.1985048       
1269.16          0.916545674      22.9444894       0.389863248      -66.4180708      0.389863248      -66.4180708      0.916545674      22.9444894       
1282.37          0.918289474      22.6943292       0.385838547      -66.6690808      0.385838547      -66.6690808      0.918289474      22.6943292       
1295.58          0.919989331      22.4479353       0.381867258      -66.9162429      0.381867258      -66.9162429      0.919989331      22.4479353       
1308.79          0.921646604      22.2052214       0.377948382      -67.1596439      0.377948382      -67.1596439      0.921646604      22.2052214       
1322             0.923262598      21.9661035       0.374080941      -67.3993685      0.374080941      -67.3993685      0.923262598      21.9661035       
1335.21          0.924838575      21.7304999       0.370263973      -67.6354986      0.370263973      -67.6354986      0.924838575      21.7304999       
1348.42          0.926375749      21.4983312       0.366496533      -67.8681143      0.366496533      -67.8681143      0.926375749      21.4983312       
1361.63          0.927875291      21.2695201       0.362777696      -68.0972932      0.362777696      -68.0972932      0.927875291      21.2695201       
1374.84          0.929338333      21.0439915       0.359106553      -68.3231107      0.359106553      -68.3231107      0.929338333      21.0439915       
1388.05          0.930765964      20.8216723       0.355482211      -68.5456403      0.355482211      -68.5456403      0.930765964      20.8216723       
1401.26          0.932159235      20.6024915       0.351903798      -68.7649532      0.351903798      -68.7649532      0.932159235      20.6024915       
1414.47          0.933519162      20.3863797       0.348370455      -68.981119       0.348370455      -68.981119       0.933519162      20.3863797       
1427.68          0.934846722      20.1732699       0.344881343      -69.1942051      0.344881343      -69.1942051      0.934846722      20.1732699       
1440.89          0.936142861      19.9630963       0.341435638      -69.4042771      0.341435638      -69.4042771      0.936142861      19.9630963       
1454.1           0.937408491      19.7557955       0.338032533      -69.6113989      0.338032533      -69.6113989      0.937408491      19.7557955       
1467.31          0.938644493      19.5513052       0.334671237      -69.8156325      0.334671237      -69.8156325      0.938644493      19.5513052       
1480.52          0.939851717      19.3495652       0.331350975      -70.0170384      0.331350975      -70.0170384      0.939851717      19.3495652       
1493.73          0.941030984      19.1505166       0.328070988      -70.2156754      0.328070988      -70.2156754      0.941030984      19.1505166       
1506.94          0.942183087      18.9541024       0.324830534      -70.4116005      0.324830534      -70.4116005      0.942183087      18.9541024       
1520.15          0.943308793      18.7602667       0.321628882      -70.6048696      0.321628882      -70.6048696      0.943308793      18.7602667       
1533.36          0.944408841      18.5689554       0.318465322      -70.7955366      0.318465322      -70.7955366      0.944408841      18.5689554       
1546.57          0.945483948      18.3801155       0.315339153      -70.9836543      0.315339153      -70.9836543      0.945483948      18.3801155       
1559.78          0.946534805      18.1936958       0.312249692      -71.169274       0.312249692      -71.169274       0.946534805      18.1936958       
1572.99          0.947562081      18.0096461       0.30919627       -71.3524455      0.30919627       -71.3524455      0.947562081      18.0096461       
1586.2           0.948566421      17.8279175       0.30617823       -71.5332175      0.30617823       -71.5332175      0.948566421      17.8279175       
1599.41          0.949548452      17.6484626       0.303194931      -71.7116372      0.303194931      -71.7116372      0.949548452      17.6484626       
1612.62          0.950508776      17.471235        0.300245744      -71.8877507      0.300245744      -71.8877507      0.950508776      17.471235        
1625.83          0.951447979      17.2961895       0.297330054      -72.0616028      0.297330054      -72.0616028      0.951447979      17.2961895       
1639.04          0.952366627      17.1232822       0.294447258      -72.2332372      0.294447258      -72.2332372      0.952366627      17.1232822       
1652.25          0.953265267      16.9524702       0.291596767      -72.4026963      0.291596767      -72.4026963      0.953265267      16.9524702       
1665.46          0.954144429      16.7837116       0.288778003      -72.5700216      0.288778003      -72.5700216      0.954144429      16.7837116       
1678.67          0.955004625      16.6169658       0.2859904        -72.7352533      0.2859904        -72.7352533      0.955004625      16.6169658       
