! Coilcraft 0603CS-R11 Chip Inductor				
! 21 May 2002			
# MHZ S MA R 50
!Freq             MagS11           AngS11           MagS21           AngS21           MagS12           AngS12           MagS22           AngS22
1                0.00733098509    68.3099936       0.997313844      -0.391349082     0.997313844      -0.391349082     0.00733098509    68.3099936       
6.98             0.047913827      79.080244        0.992039675      -2.71820207      0.992039675      -2.71820207      0.047913827      79.080244        
12.96            0.0880869901     78.9593425       0.986925037      -5.02566848      0.986925037      -5.02566848      0.0880869901     78.9593425       
18.94            0.127716026      77.7176604       0.980802489      -7.30986344      0.980802489      -7.30986344      0.127716026      77.7176604       
24.92            0.166649952      76.1015919       0.97350563       -9.56541999      0.97350563       -9.56541999      0.166649952      76.1015919       
30.9             0.204744088      74.3231936       0.965024376      -11.78691        0.965024376      -11.78691        0.204744088      74.3231936       
36.88            0.241867168      72.4710295       0.955408161      -13.9692141      0.955408161      -13.9692141      0.241867168      72.4710295       
42.86            0.277904902      70.5907313       0.944736956      -16.1076925      0.944736956      -16.1076925      0.277904902      70.5907313       
48.84            0.31276182       68.7091636       0.933108212      -18.1982764      0.933108212      -18.1982764      0.31276182       68.7091636       
54.82            0.346361962      66.8435964       0.920629227      -20.2375142      0.920629227      -20.2375142      0.346361962      66.8435964       
60.8             0.378648697      65.0057772       0.907411888      -22.2225871      0.907411888      -22.2225871      0.378648697      65.0057772       
66.78            0.409583882      63.2039598       0.893568768      -24.1513003      0.893568768      -24.1513003      0.409583882      63.2039598       
72.76            0.439146515      61.4440169       0.879210141      -26.0220573      0.879210141      -26.0220573      0.439146515      61.4440169       
78.74            0.467331051      59.7301012       0.86444172       -27.8338204      0.86444172       -27.8338204      0.467331051      59.7301012       
84.72            0.494145528      58.0650701       0.849363003      -29.5860629      0.849363003      -29.5860629      0.494145528      58.0650701       
90.7             0.519609593      56.4507756       0.834066139      -31.2787155      0.834066139      -31.2787155      0.519609593      56.4507756       
96.68            0.543752552      54.8882759       0.818635231      -32.9121102      0.818635231      -32.9121102      0.543752552      54.8882759       
102.66           0.566611505      53.3779957       0.803146004      -34.4869245      0.803146004      -34.4869245      0.566611505      53.3779957       
108.64           0.588229612      51.9198531       0.787665769      -36.0041269      0.787665769      -36.0041269      0.588229612      51.9198531       
114.62           0.608654527      50.513362        0.772253607      -37.464926       0.772253607      -37.464926       0.608654527      50.513362        
120.6            0.62793703       49.1577164       0.756960734      -38.8707229      0.756960734      -38.8707229      0.62793703       49.1577164       
126.58           0.646129828      47.8518608       0.741830974      -40.2230689      0.741830974      -40.2230689      0.646129828      47.8518608       
132.56           0.663286565      46.5945478       0.726901315      -41.5236274      0.726901315      -41.5236274      0.663286565      46.5945478       
138.54           0.679460982      45.3843878       0.712202501      -42.7741409      0.712202501      -42.7741409      0.679460982      45.3843878       
144.52           0.694706255      44.2198888       0.697759641      -43.9764022      0.697759641      -43.9764022      0.694706255      44.2198888       
150.5            0.709074463      43.0994903       0.683592807      -45.1322306      0.683592807      -45.1322306      0.709074463      43.0994903       
156.48           0.722616181      42.0215911       0.669717619      -46.2434509      0.669717619      -46.2434509      0.722616181      42.0215911       
162.46           0.735380183      40.9845717       0.656145785      -47.3118772      0.656145785      -47.3118772      0.735380183      40.9845717       
168.44           0.747413227      39.9868125       0.642885611      -48.3392992      0.642885611      -48.3392992      0.747413227      39.9868125       
174.42           0.758759919      39.0267088       0.629942467      -49.3274711      0.629942467      -49.3274711      0.758759919      39.0267088       
180.4            0.769462633      38.102682        0.617319209      -50.2781035      0.617319209      -50.2781035      0.769462633      38.102682        
186.38           0.779561486      37.2131886       0.605016555      -51.1928568      0.605016555      -51.1928568      0.779561486      37.2131886       
192.36           0.789094338      36.3567271       0.593033426      -52.0733368      0.593033426      -52.0733368      0.789094338      36.3567271       
198.34           0.798096839      35.5318429       0.58136724       -52.921091       0.58136724       -52.921091       0.798096839      35.5318429       
204.32           0.80660248       34.7371317       0.570014175      -53.7376074      0.570014175      -53.7376074      0.80660248       34.7371317       
210.3            0.814642672      33.9712417       0.558969398      -54.5243125      0.558969398      -54.5243125      0.814642672      33.9712417       
216.28           0.822246834      33.232875        0.548227264      -55.2825721      0.548227264      -55.2825721      0.822246834      33.232875        
222.26           0.829442483      32.5207881       0.537781483      -56.013691       0.537781483      -56.013691       0.829442483      32.5207881       
228.24           0.836255337      31.8337915       0.52762527       -56.7189142      0.52762527       -56.7189142      0.836255337      31.8337915       
234.22           0.842709408      31.1707492       0.517751467      -57.3994282      0.517751467      -57.3994282      0.842709408      31.1707492       
240.2            0.848827109      30.5305776       0.508152657      -58.0563629      0.508152657      -58.0563629      0.848827109      30.5305776       
246.18           0.854629345      29.9122441       0.498821243      -58.6907928      0.498821243      -58.6907928      0.854629345      29.9122441       
252.16           0.86013561       29.3147657       0.489749533      -59.3037398      0.489749533      -59.3037398      0.86013561       29.3147657       
258.14           0.865364084      28.737207        0.480929799      -59.8961746      0.480929799      -59.8961746      0.865364084      28.737207        
264.12           0.87033171       28.1786785       0.472354331      -60.4690192      0.472354331      -60.4690192      0.87033171       28.1786785       
270.1            0.875054287      27.6383349       0.464015479      -61.0231492      0.464015479      -61.0231492      0.875054287      27.6383349       
276.08           0.879546544      27.1153729       0.455905686      -61.5593954      0.455905686      -61.5593954      0.879546544      27.1153729       
282.06           0.883822216      26.6090294       0.448017524      -62.0785465      0.448017524      -62.0785465      0.883822216      26.6090294       
288.04           0.887894111      26.1185797       0.440343708      -62.5813512      0.440343708      -62.5813512      0.887894111      26.1185797       
294.02           0.891774179      25.6433354       0.432877118      -63.0685197      0.432877118      -63.0685197      0.891774179      25.6433354       
300              0.89547357       25.182643        0.425610812      -63.5407261      0.425610812      -63.5407261      0.89547357       25.182643        
305.98           0.899002693      24.7358816       0.418538034      -63.9986103      0.418538034      -63.9986103      0.899002693      24.7358816       
311.96           0.902371268      24.3024617       0.411652225      -64.4427797      0.411652225      -64.4427797      0.902371268      24.3024617       
317.94           0.905588374      23.8818231       0.404947022      -64.8738107      0.404947022      -64.8738107      0.905588374      23.8818231       
323.92           0.908662498      23.4734339       0.398416265      -65.2922509      0.398416265      -65.2922509      0.908662498      23.4734339       
329.9            0.911601574      23.0767885       0.392053994      -65.6986203      0.392053994      -65.6986203      0.911601574      23.0767885       
335.88           0.914413023      22.6914065       0.38585445       -66.0934129      0.38585445       -66.0934129      0.914413023      22.6914065       
341.86           0.917103792      22.3168311       0.379812075      -66.4770981      0.379812075      -66.4770981      0.917103792      22.3168311       
347.84           0.919680384      21.952628        0.373921504      -66.8501221      0.373921504      -66.8501221      0.919680384      21.952628        
353.82           0.922148891      21.5983842       0.368177566      -67.212909       0.368177566      -67.212909       0.922148891      21.5983842       
359.8            0.924515026      21.2537067       0.362575279      -67.5658625      0.362575279      -67.5658625      0.924515026      21.2537067       
365.78           0.926784142      20.9182215       0.357109842      -67.9093663      0.357109842      -67.9093663      0.926784142      20.9182215       
371.76           0.928961265      20.5915725       0.351776633      -68.2437857      0.351776633      -68.2437857      0.928961265      20.5915725       
377.74           0.931051111      20.2734208       0.346571206      -68.5694687      0.346571206      -68.5694687      0.931051111      20.2734208       
383.72           0.933058111      19.9634434       0.341489279      -68.8867463      0.341489279      -68.8867463      0.933058111      19.9634434       
389.7            0.934986429      19.6613324       0.336526735      -69.1959342      0.336526735      -69.1959342      0.934986429      19.6613324       
395.68           0.93683998       19.3667946       0.331679613      -69.4973332      0.331679613      -69.4973332      0.93683998       19.3667946       
401.66           0.938622447      19.07955         0.326944103      -69.7912299      0.326944103      -69.7912299      0.938622447      19.07955         
407.64           0.940337296      18.7993319       0.32231654       -70.077898       0.32231654       -70.077898       0.940337296      18.7993319       
413.62           0.941987792      18.5258854       0.317793401      -70.3575982      0.317793401      -70.3575982      0.941987792      18.5258854       
419.6            0.943577013      18.2589676       0.313371297      -70.6305796      0.313371297      -70.6305796      0.943577013      18.2589676       
425.58           0.945107859      17.9983461       0.309046969      -70.8970801      0.309046969      -70.8970801      0.945107859      17.9983461       
431.56           0.946583065      17.7437991       0.304817283      -71.1573267      0.304817283      -71.1573267      0.946583065      17.7437991       
437.54           0.948005213      17.4951148       0.300679225      -71.4115365      0.300679225      -71.4115365      0.948005213      17.4951148       
443.52           0.949376742      17.2520903       0.296629894      -71.6599169      0.296629894      -71.6599169      0.949376742      17.2520903       
449.5            0.950699955      17.0145318       0.292666502      -71.9026662      0.292666502      -71.9026662      0.950699955      17.0145318       
455.48           0.951977029      16.7822539       0.288786366      -72.1399742      0.288786366      -72.1399742      0.951977029      16.7822539       
461.46           0.953210023      16.5550792       0.284986903      -72.3720224      0.284986903      -72.3720224      0.953210023      16.5550792       
467.44           0.954400885      16.3328377       0.28126563       -72.5989847      0.28126563       -72.5989847      0.954400885      16.3328377       
473.42           0.95555146       16.1153666       0.277620155      -72.8210275      0.277620155      -72.8210275      0.95555146       16.1153666       
479.4            0.956663493      15.9025101       0.274048176      -73.0383102      0.274048176      -73.0383102      0.956663493      15.9025101       
485.38           0.95773864       15.6941186       0.270547478      -73.2509855      0.270547478      -73.2509855      0.95773864       15.6941186       
491.36           0.95877847       15.4900489       0.267115926      -73.4591999      0.267115926      -73.4591999      0.95877847       15.4900489       
497.34           0.959784471      15.2901636       0.263751467      -73.6630939      0.263751467      -73.6630939      0.959784471      15.2901636       
503.32           0.960758054      15.0943308       0.260452119      -73.8628022      0.260452119      -73.8628022      0.960758054      15.0943308       
509.3            0.961700561      14.902424        0.257215977      -74.058454       0.257215977      -74.058454       0.961700561      14.902424        
515.28           0.962613264      14.7143217       0.254041203      -74.2501734      0.254041203      -74.2501734      0.962613264      14.7143217       
521.26           0.963497373      14.5299071       0.250926025      -74.4380795      0.250926025      -74.4380795      0.963497373      14.5299071       
527.24           0.964354038      14.3490683       0.247868735      -74.6222869      0.247868735      -74.6222869      0.964354038      14.3490683       
533.22           0.965184353      14.1716974       0.244867688      -74.8029055      0.244867688      -74.8029055      0.965184353      14.1716974       
539.2            0.965989358      13.9976909       0.241921295      -74.9800409      0.241921295      -74.9800409      0.965989358      13.9976909       
545.18           0.966770043      13.8269491       0.239028026      -75.1537948      0.239028026      -75.1537948      0.966770043      13.8269491       
551.16           0.967527353      13.6593764       0.236186401      -75.324265       0.236186401      -75.324265       0.967527353      13.6593764       
557.14           0.968262185      13.4948804       0.233394996      -75.4915453      0.233394996      -75.4915453      0.968262185      13.4948804       
563.12           0.968975396      13.3333724       0.230652433      -75.6557264      0.230652433      -75.6557264      0.968975396      13.3333724       
569.1            0.969667801      13.1747669       0.227957384      -75.8168953      0.227957384      -75.8168953      0.969667801      13.1747669       
575.08           0.970340181      13.0189818       0.225308566      -75.9751358      0.225308566      -75.9751358      0.970340181      13.0189818       
581.06           0.970993278      12.8659376       0.222704739      -76.1305288      0.222704739      -76.1305288      0.970993278      12.8659376       
587.04           0.971627801      12.7155579       0.220144706      -76.283152       0.220144706      -76.283152       0.971627801      12.7155579       
593.02           0.972244427      12.5677691       0.217627309      -76.4330805      0.217627309      -76.4330805      0.972244427      12.5677691       
599              0.972843804      12.4225002       0.215151431      -76.5803866      0.215151431      -76.5803866      0.972843804      12.4225002       
604.98           0.97342655       12.2796825       0.212715991      -76.7251399      0.212715991      -76.7251399      0.97342655       12.2796825       
610.96           0.973993256      12.13925         0.210319944      -76.8674077      0.210319944      -76.8674077      0.973993256      12.13925         
616.94           0.974544487      12.0011389       0.207962278      -77.0072548      0.207962278      -77.0072548      0.974544487      12.0011389       
622.92           0.975080784      11.8652875       0.205642016      -77.1447439      0.205642016      -77.1447439      0.975080784      11.8652875       
628.9            0.975602666      11.7316365       0.203358213      -77.2799354      0.203358213      -77.2799354      0.975602666      11.7316365       
634.88           0.976110626      11.6001283       0.201109952      -77.4128876      0.201109952      -77.4128876      0.976110626      11.6001283       
640.86           0.97660514       11.4707074       0.198896348      -77.5436567      0.198896348      -77.5436567      0.97660514       11.4707074       
646.84           0.977086663      11.3433202       0.196716544      -77.6722973      0.196716544      -77.6722973      0.977086663      11.3433202       
652.82           0.977555629      11.2179148       0.194569707      -77.7988619      0.194569707      -77.7988619      0.977555629      11.2179148       
658.8            0.978012458      11.0944411       0.192455034      -77.9234013      0.192455034      -77.9234013      0.978012458      11.0944411       
664.78           0.978457549      10.9728506       0.190371746      -78.0459646      0.190371746      -78.0459646      0.978457549      10.9728506       
670.76           0.978891286      10.8530963       0.188319088      -78.1665993      0.188319088      -78.1665993      0.978891286      10.8530963       
676.74           0.979314039      10.7351329       0.186296327      -78.2853513      0.186296327      -78.2853513      0.979314039      10.7351329       
682.72           0.97972616       10.6189165       0.184302755      -78.4022649      0.184302755      -78.4022649      0.97972616       10.6189165       
688.7            0.980127991      10.5044044       0.182337684      -78.5173832      0.182337684      -78.5173832      0.980127991      10.5044044       
694.68           0.980519857      10.3915556       0.180400447      -78.6307477      0.180400447      -78.6307477      0.980519857      10.3915556       
700.66           0.980902071      10.2803301       0.178490397      -78.7423986      0.178490397      -78.7423986      0.980902071      10.2803301       
706.64           0.981274936      10.1706893       0.176606906      -78.8523749      0.176606906      -78.8523749      0.981274936      10.1706893       
712.62           0.981638741      10.0625958       0.174749367      -78.9607142      0.174749367      -78.9607142      0.981638741      10.0625958       
718.6            0.981993764      9.95601315       0.172917189      -79.0674532      0.172917189      -79.0674532      0.981993764      9.95601315       
724.58           0.982340274      9.85090627       0.171109798      -79.1726271      0.171109798      -79.1726271      0.982340274      9.85090627       
730.56           0.982678528      9.74724103       0.169326637      -79.2762702      0.169326637      -79.2762702      0.982678528      9.74724103       
736.54           0.983008774      9.64498434       0.167567166      -79.3784156      0.167567166      -79.3784156      0.983008774      9.64498434       
742.52           0.983331251      9.5441041        0.16583086       -79.4790956      0.16583086       -79.4790956      0.983331251      9.5441041        
748.5            0.98364619       9.44456917       0.16411721       -79.5783412      0.16411721       -79.5783412      0.98364619       9.44456917       
754.48           0.983953811      9.34634932       0.162425719      -79.6761828      0.162425719      -79.6761828      0.983953811      9.34634932       
760.46           0.984254328      9.24941522       0.160755907      -79.7726495      0.160755907      -79.7726495      0.984254328      9.24941522       
