! Coilcraft 0603CS-4N3 Chip Inductor				
! 21 May 2002			
# MHZ S MA R 50
!Freq             MagS11           AngS11           MagS21           AngS21           MagS12           AngS12           MagS22           AngS22
1                0.000314459449   59.1935664       0.999838989      -0.0154775078    0.999838989      -0.0154775078    0.000314459449   59.1935664       
33.17            0.00898869925    84.4842367       0.999176069      -0.513059482     0.999176069      -0.513059482     0.00898869925    84.4842367       
65.34            0.0176654793     85.459896        0.998756918      -1.01028959      0.998756918      -1.01028959      0.0176654793     85.459896        
97.51            0.0263360253     85.6164336       0.99833246       -1.50721589      0.99833246       -1.50721589      0.0263360253     85.6164336       
129.68           0.034999166      85.5088379       0.997869581      -2.00382364      0.997869581      -2.00382364      0.034999166      85.5088379       
161.85           0.04365366       85.2776279       0.997355421      -2.50008264      0.997355421      -2.50008264      0.04365366       85.2776279       
194.02           0.0522981922     84.9771059       0.996783472      -2.99595588      0.996783472      -2.99595588      0.0522981922     84.9771059       
226.19           0.0609314022     84.6332696       0.99614998       -3.49140269      0.99614998       -3.49140269      0.0609314022     84.6332696       
258.36           0.0695519027     84.2603386       0.995452611      -3.98638025      0.995452611      -3.98638025      0.0695519027     84.2603386       
290.53           0.0781582914     83.8668394       0.994689865      -4.48084439      0.994689865      -4.48084439      0.0781582914     83.8668394       
322.7            0.0867491596     83.4582427       0.993860766      -4.97475012      0.993860766      -4.97475012      0.0867491596     83.4582427       
354.87           0.0953230972     83.0382472       0.992964696      -5.46805196      0.992964696      -5.46805196      0.0953230972     83.0382472       
387.04           0.103878698      82.6094601       0.992001292      -5.96070412      0.992001292      -5.96070412      0.103878698      82.6094601       
419.21           0.112414562      82.1737832       0.990970383      -6.45266076      0.990970383      -6.45266076      0.112414562      82.1737832       
451.38           0.120929299      81.7326448       0.989871946      -6.94387604      0.989871946      -6.94387604      0.120929299      81.7326448       
483.55           0.129421531      81.2871437       0.988706077      -7.43430429      0.988706077      -7.43430429      0.129421531      81.2871437       
515.72           0.137889895      80.8381439       0.987472971      -7.92390006      0.987472971      -7.92390006      0.137889895      80.8381439       
547.89           0.14633304       80.3863377       0.986172903      -8.41261818      0.986172903      -8.41261818      0.14633304       80.3863377       
580.06           0.154749637      79.9322889       0.984806224      -8.90041388      0.984806224      -8.90041388      0.154749637      79.9322889       
612.23           0.163138374      79.4764639       0.983373345      -9.38724279      0.983373345      -9.38724279      0.163138374      79.4764639       
644.4            0.171497957      79.0192533       0.981874731      -9.87306102      0.981874731      -9.87306102      0.171497957      79.0192533       
676.57           0.179827116      78.560989        0.980310901      -10.3578252      0.980310901      -10.3578252      0.179827116      78.560989        
708.74           0.188124603      78.1019553       0.978682415      -10.8414925      0.978682415      -10.8414925      0.188124603      78.1019553       
740.91           0.196389192      77.6423991       0.976989877      -11.3240206      0.976989877      -11.3240206      0.196389192      77.6423991       
773.08           0.204619684      77.1825361       0.975233928      -11.805368       0.975233928      -11.805368       0.204619684      77.1825361       
805.25           0.212814902      76.7225567       0.973415244      -12.2854937      0.973415244      -12.2854937      0.212814902      76.7225567       
837.42           0.220973698      76.2626304       0.971534533      -12.7643575      0.971534533      -12.7643575      0.220973698      76.2626304       
869.59           0.229094948      75.8029089       0.969592533      -13.2419197      0.969592533      -13.2419197      0.229094948      75.8029089       
901.76           0.237177559      75.3435289       0.967590012      -13.7181414      0.967590012      -13.7181414      0.237177559      75.3435289       
933.93           0.245220463      74.8846145       0.965527761      -14.1929848      0.965527761      -14.1929848      0.245220463      74.8846145       
966.1            0.253222622      74.4262789       0.963406598      -14.6664123      0.963406598      -14.6664123      0.253222622      74.4262789       
998.27           0.261183027      73.9686257       0.96122736       -15.1383875      0.96122736       -15.1383875      0.261183027      73.9686257       
1030.44          0.269100698      73.5117503       0.958990909      -15.6088747      0.958990909      -15.6088747      0.269100698      73.5117503       
1062.61          0.276974686      73.0557409       0.956698123      -16.0778389      0.956698123      -16.0778389      0.276974686      73.0557409       
1094.78          0.284804072      72.6006793       0.954349901      -16.5452462      0.954349901      -16.5452462      0.284804072      72.6006793       
1126.95          0.292587968      72.1466416       0.951947155      -17.0110632      0.951947155      -17.0110632      0.292587968      72.1466416       
1159.12          0.300325515      71.6936988       0.949490815      -17.4752578      0.949490815      -17.4752578      0.300325515      71.6936988       
1191.29          0.308015888      71.2419173       0.946981823      -17.9377983      0.946981823      -17.9377983      0.308015888      71.2419173       
1223.46          0.315658291      70.7913595       0.944421136      -18.3986542      0.944421136      -18.3986542      0.315658291      70.7913595       
1255.63          0.32325196       70.3420837       0.941809719      -18.8577957      0.941809719      -18.8577957      0.32325196       70.3420837       
1287.8           0.330796162      69.8941452       0.939148549      -19.3151941      0.939148549      -19.3151941      0.330796162      69.8941452       
1319.97          0.338290196      69.4475957       0.936438614      -19.7708214      0.936438614      -19.7708214      0.338290196      69.4475957       
1352.14          0.345733392      69.0024842       0.933680906      -20.2246506      0.933680906      -20.2246506      0.345733392      69.0024842       
1384.31          0.353125111      68.558857        0.930876426      -20.6766554      0.930876426      -20.6766554      0.353125111      68.558857        
1416.48          0.360464746      68.1167578       0.928026181      -21.1268108      0.928026181      -21.1268108      0.360464746      68.1167578       
1448.65          0.36775172       67.6762279       0.925131181      -21.5750923      0.925131181      -21.5750923      0.36775172       67.6762279       
1480.82          0.374985488      67.2373064       0.922192442      -22.0214766      0.922192442      -22.0214766      0.374985488      67.2373064       
1512.99          0.382165533      66.8000303       0.919210981      -22.465941       0.919210981      -22.465941       0.382165533      66.8000303       
1545.16          0.389291373      66.3644348       0.916187817      -22.9084639      0.916187817      -22.9084639      0.389291373      66.3644348       
1577.33          0.396362551      65.9305529       0.91312397       -23.3490247      0.91312397       -23.3490247      0.396362551      65.9305529       
1609.5           0.403378643      65.4984161       0.910020461      -23.7876034      0.910020461      -23.7876034      0.403378643      65.4984161       
1641.67          0.410339253      65.068054        0.90687831       -24.224181       0.90687831       -24.224181       0.410339253      65.068054        
1673.84          0.417244015      64.6394947       0.903698533      -24.6587394      0.903698533      -24.6587394      0.417244015      64.6394947       
1706.01          0.424092591      64.2127648       0.900482145      -25.0912615      0.900482145      -25.0912615      0.424092591      64.2127648       
1738.18          0.430884671      63.7878892       0.89723016       -25.5217307      0.89723016       -25.5217307      0.430884671      63.7878892       
1770.35          0.437619973      63.3648916       0.893943584      -25.9501316      0.893943584      -25.9501316      0.437619973      63.3648916       
1802.52          0.444298243      62.9437943       0.890623421      -26.3764496      0.890623421      -26.3764496      0.444298243      62.9437943       
1834.69          0.450919253      62.524618        0.887270668      -26.8006707      0.887270668      -26.8006707      0.450919253      62.524618        
1866.86          0.457482802      62.1073826       0.883886318      -27.2227819      0.883886318      -27.2227819      0.457482802      62.1073826       
1899.03          0.463988715      61.6921065       0.880471356      -27.642771       0.880471356      -27.642771       0.463988715      61.6921065       
1931.2           0.470436841      61.2788068       0.877026759      -28.0606266      0.877026759      -28.0606266      0.470436841      61.2788068       
1963.37          0.476827054      60.8674996       0.873553498      -28.476338       0.873553498      -28.476338       0.476827054      60.8674996       
1995.54          0.483159254      60.4582001       0.870052535      -28.8898954      0.870052535      -28.8898954      0.483159254      60.4582001       
2027.71          0.489433364      60.050922        0.866524822      -29.3012898      0.866524822      -29.3012898      0.489433364      60.050922        
2059.88          0.495649329      59.6456783       0.862971303      -29.7105128      0.862971303      -29.7105128      0.495649329      59.6456783       
2092.05          0.501807117      59.2424809       0.859392912      -30.1175567      0.859392912      -30.1175567      0.501807117      59.2424809       
2124.22          0.507906718      58.8413406       0.855790573      -30.5224148      0.855790573      -30.5224148      0.507906718      58.8413406       
2156.39          0.513948144      58.4422675       0.852165199      -30.9250808      0.852165199      -30.9250808      0.513948144      58.4422675       
2188.56          0.519931427      58.0452706       0.848517692      -31.3255492      0.848517692      -31.3255492      0.519931427      58.0452706       
2220.73          0.52585662       57.6503581       0.844848942      -31.7238154      0.844848942      -31.7238154      0.52585662       57.6503581       
2252.9           0.531723794      57.2575372       0.84115983       -32.1198751      0.84115983       -32.1198751      0.531723794      57.2575372       
2285.07          0.537533041      56.8668146       0.837451222      -32.513725       0.837451222      -32.513725       0.537533041      56.8668146       
2317.24          0.543284469      56.4781959       0.833723973      -32.9053621      0.833723973      -32.9053621      0.543284469      56.4781959       
2349.41          0.548978206      56.0916859       0.829978927      -33.2947844      0.829978927      -33.2947844      0.548978206      56.0916859       
2381.58          0.554614396      55.7072889       0.826216912      -33.6819901      0.826216912      -33.6819901      0.554614396      55.7072889       
2413.75          0.5601932        55.3250083       0.822438747      -34.0669782      0.822438747      -34.0669782      0.5601932        55.3250083       
2445.92          0.565714795      54.9448467       0.818645236      -34.4497484      0.818645236      -34.4497484      0.565714795      54.9448467       
2478.09          0.571179373      54.5668062       0.814837168      -34.8303008      0.814837168      -34.8303008      0.571179373      54.5668062       
2510.26          0.576587141      54.1908883       0.811015322      -35.2086361      0.811015322      -35.2086361      0.576587141      54.1908883       
2542.43          0.581938321      53.8170935       0.807180462      -35.5847554      0.807180462      -35.5847554      0.581938321      53.8170935       
2574.6           0.587233148      53.445422        0.803333338      -35.9586606      0.803333338      -35.9586606      0.587233148      53.445422        
2606.77          0.592471869      53.0758733       0.799474687      -36.3303537      0.799474687      -36.3303537      0.592471869      53.0758733       
2638.94          0.597654746      52.7084464       0.795605232      -36.6998376      0.795605232      -36.6998376      0.597654746      52.7084464       
2671.11          0.602782051      52.3431395       0.791725683      -37.0671155      0.791725683      -37.0671155      0.602782051      52.3431395       
2703.28          0.607854069      51.9799506       0.787836735      -37.4321909      0.787836735      -37.4321909      0.607854069      51.9799506       
2735.45          0.612871095      51.6188768       0.783939069      -37.795068       0.783939069      -37.795068       0.612871095      51.6188768       
2767.62          0.617833435      51.2599151       0.780033353      -38.1557513      0.780033353      -38.1557513      0.617833435      51.2599151       
2799.79          0.622741405      50.9030616       0.776120242      -38.5142457      0.776120242      -38.5142457      0.622741405      50.9030616       
2831.96          0.627595328      50.5483124       0.772200376      -38.8705566      0.772200376      -38.8705566      0.627595328      50.5483124       
2864.13          0.632395541      50.1956626       0.76827438       -39.2246896      0.76827438       -39.2246896      0.632395541      50.1956626       
2896.3           0.637142384      49.8451074       0.764342868      -39.5766508      0.764342868      -39.5766508      0.637142384      49.8451074       
2928.47          0.641836209      49.4966412       0.760406439      -39.9264467      0.760406439      -39.9264467      0.641836209      49.4966412       
2960.64          0.646477374      49.1502582       0.756465678      -40.2740841      0.756465678      -40.2740841      0.646477374      49.1502582       
2992.81          0.651066244      48.8059521       0.752521158      -40.6195701      0.752521158      -40.6195701      0.651066244      48.8059521       
3024.98          0.655603191      48.4637164       0.748573436      -40.9629121      0.748573436      -40.9629121      0.655603191      48.4637164       
3057.15          0.660088592      48.1235439       0.744623059      -41.3041178      0.744623059      -41.3041178      0.660088592      48.1235439       
3089.32          0.664522832      47.7854275       0.740670558      -41.6431953      0.740670558      -41.6431953      0.664522832      47.7854275       
3121.49          0.6689063        47.4493595       0.736716452      -41.9801529      0.736716452      -41.9801529      0.6689063        47.4493595       
3153.66          0.673239391      47.1153319       0.732761247      -42.3149991      0.732761247      -42.3149991      0.673239391      47.1153319       
3185.83          0.677522502      46.7833365       0.728805436      -42.6477429      0.728805436      -42.6477429      0.677522502      46.7833365       
3218             0.681756039      46.4533648       0.724849501      -42.9783931      0.724849501      -42.9783931      0.681756039      46.4533648       
3250.17          0.685940407      46.1254079       0.720893908      -43.3069593      0.720893908      -43.3069593      0.685940407      46.1254079       
3282.34          0.690076017      45.7994568       0.716939114      -43.6334508      0.716939114      -43.6334508      0.690076017      45.7994568       
3314.51          0.694163284      45.4755021       0.712985562      -43.9578774      0.712985562      -43.9578774      0.694163284      45.4755021       
3346.68          0.698202624      45.1535344       0.709033683      -44.280249       0.709033683      -44.280249       0.698202624      45.1535344       
3378.85          0.702194456      44.8335439       0.705083896      -44.6005758      0.705083896      -44.6005758      0.702194456      44.8335439       
3411.02          0.706139203      44.5155205       0.70113661       -44.9188681      0.70113661       -44.9188681      0.706139203      44.5155205       
3443.19          0.710037288      44.1994541       0.697192219      -45.2351363      0.697192219      -45.2351363      0.710037288      44.1994541       
3475.36          0.713889135      43.8853344       0.69325111       -45.5493909      0.69325111       -45.5493909      0.713889135      43.8853344       
3507.53          0.717695173      43.5731507       0.689313654      -45.8616429      0.689313654      -45.8616429      0.717695173      43.5731507       
3539.7           0.721455829      43.2628924       0.685380215      -46.1719031      0.685380215      -46.1719031      0.721455829      43.2628924       
3571.87          0.725171531      42.9545486       0.681451144      -46.4801826      0.681451144      -46.4801826      0.725171531      42.9545486       
3604.04          0.72884271       42.6481082       0.677526781      -46.7864924      0.677526781      -46.7864924      0.72884271       42.6481082       
3636.21          0.732469795      42.3435602       0.673607458      -47.0908438      0.673607458      -47.0908438      0.732469795      42.3435602       
3668.38          0.736053216      42.0408932       0.669693493      -47.3932483      0.669693493      -47.3932483      0.736053216      42.0408932       
3700.55          0.739593403      41.7400957       0.665785198      -47.6937173      0.665785198      -47.6937173      0.739593403      41.7400957       
3732.72          0.743090785      41.4411563       0.661882871      -47.9922623      0.661882871      -47.9922623      0.743090785      41.4411563       
3764.89          0.746545794      41.1440634       0.657986803      -48.288895       0.657986803      -48.288895       0.746545794      41.1440634       
3797.06          0.749958856      40.8488051       0.654097275      -48.583627       0.654097275      -48.583627       0.749958856      40.8488051       
3829.23          0.7533304        40.5553697       0.650214557      -48.8764701      0.650214557      -48.8764701      0.7533304        40.5553697       
3861.4           0.756660853      40.2637453       0.646338913      -49.1674363      0.646338913      -49.1674363      0.756660853      40.2637453       
3893.57          0.759950641      39.9739199       0.642470593      -49.4565372      0.642470593      -49.4565372      0.759950641      39.9739199       
3925.74          0.763200188      39.6858814       0.638609844      -49.7437849      0.638609844      -49.7437849      0.763200188      39.6858814       
3957.91          0.766409917      39.3996178       0.6347569        -50.0291912      0.6347569        -50.0291912      0.766409917      39.3996178       
3990.08          0.76958025       39.1151168       0.630911989      -50.3127682      0.630911989      -50.3127682      0.76958025       39.1151168       
4022.25          0.772711605      38.8323664       0.627075329      -50.594528       0.627075329      -50.594528       0.772711605      38.8323664       
4054.42          0.775804402      38.5513541       0.623247131      -50.8744824      0.623247131      -50.8744824      0.775804402      38.5513541       
4086.59          0.778859055      38.2720679       0.619427597      -51.1526436      0.619427597      -51.1526436      0.778859055      38.2720679       
