! Coilcraft 0603CS-11N Chip Inductor				
! 21 May 2002			
# MHZ S MA R 50
!Freq             MagS11           AngS11           MagS21           AngS21           MagS12           AngS12           MagS22           AngS22
1                0.000807383114   58.795338        0.999581936      -0.0395834485    0.999581936      -0.0395834485    0.000807383114   58.795338        
20.45            0.0141848065     83.4045772       0.998470199      -0.808614676     0.998470199      -0.808614676     0.0141848065     83.4045772       
39.9             0.0275823474     84.3802071       0.997676646      -1.57661788      0.997676646      -1.57661788      0.0275823474     84.3802071       
59.35            0.0409592694     84.3791047       0.996821991      -2.34360869      0.996821991      -2.34360869      0.0409592694     84.3791047       
78.8             0.0543094056     84.0662108       0.995851693      -3.10944605      0.995851693      -3.10944605      0.0543094056     84.0662108       
98.25            0.0676269387     83.6088654       0.99474499       -3.8739504       0.99474499       -3.8739504       0.0676269387     83.6088654       
117.7            0.0809060193     83.0714689       0.993491926      -4.63692622      0.993491926      -4.63692622      0.0809060193     83.0714689       
137.15           0.094140781      82.4847974       0.992087336      -5.39817059      0.992087336      -5.39817059      0.094140781      82.4847974       
156.6            0.10732538       81.8656944       0.99052862       -6.15747735      0.99052862       -6.15747735      0.10732538       81.8656944       
176.05           0.120454031      81.2242902       0.988814737      -6.91463959      0.988814737      -6.91463959      0.120454031      81.2242902       
195.5            0.133521032      80.567122        0.986945689      -7.66945122      0.986945689      -7.66945122      0.133521032      80.567122        
214.95           0.146520787      79.898647        0.984922224      -8.42170817      0.984922224      -8.42170817      0.146520787      79.898647        
234.4            0.159447829      79.2220423       0.982745662      -9.17120919      0.982745662      -9.17120919      0.159447829      79.2220423       
253.85           0.17229683       78.5396583       0.980417776      -9.9177566       0.980417776      -9.9177566       0.17229683       78.5396583       
273.3            0.18506262       77.8532891       0.977940711      -10.6611569      0.977940711      -10.6611569      0.18506262       77.8532891       
292.75           0.197740197      77.1643416       0.975316924      -11.401221       0.975316924      -11.401221       0.197740197      77.1643416       
312.2            0.210324738      76.4739447       0.97254914       -12.1377651      0.97254914       -12.1377651      0.210324738      76.4739447       
331.65           0.222811605      75.7830233       0.969640319      -12.8706107      0.969640319      -12.8706107      0.222811605      75.7830233       
351.1            0.23519636       75.0923482       0.96659362       -13.5995848      0.96659362       -13.5995848      0.23519636       75.0923482       
370.55           0.247474764      74.4025719       0.963412383      -14.3245205      0.963412383      -14.3245205      0.247474764      74.4025719       
390              0.259642788      73.7142538       0.9601001        -15.0452572      0.9601001        -15.0452572      0.259642788      73.7142538       
409.45           0.271696614      73.0278795       0.9566604        -15.7616405      0.9566604        -15.7616405      0.271696614      73.0278795       
428.9            0.28363264       72.3438741       0.953097028      -16.4735225      0.953097028      -16.4735225      0.28363264       72.3438741       
448.35           0.295447483      71.6626131       0.94941383       -17.1807622      0.94941383       -17.1807622      0.295447483      71.6626131       
467.8            0.307137977      70.9844305       0.945614735      -17.883225       0.945614735      -17.883225       0.307137977      70.9844305       
487.25           0.31870118       70.309625        0.941703743      -18.5807836      0.941703743      -18.5807836      0.31870118       70.309625        
506.7            0.330134368      69.6384648       0.93768491       -19.2733171      0.93768491       -19.2733171      0.330134368      69.6384648       
526.15           0.341435034      68.971192        0.933562333      -19.9607118      0.933562333      -19.9607118      0.341435034      68.971192        
545.6            0.352600891      68.3080252       0.929340139      -20.642861       0.929340139      -20.642861       0.352600891      68.3080252       
565.05           0.363629865      67.6491625       0.925022475      -21.3196645      0.925022475      -21.3196645      0.363629865      67.6491625       
584.5            0.374520094      66.9947835       0.920613496      -21.9910294      0.920613496      -21.9910294      0.374520094      66.9947835       
603.95           0.385269924      66.345051        0.916117351      -22.6568692      0.916117351      -22.6568692      0.385269924      66.345051        
623.4            0.395877904      65.7001126       0.911538178      -23.3171045      0.911538178      -23.3171045      0.395877904      65.7001126       
642.85           0.406342781      65.060102        0.906880092      -23.9716621      0.906880092      -23.9716621      0.406342781      65.060102        
662.3            0.416663498      64.4251398       0.902147179      -24.6204756      0.902147179      -24.6204756      0.416663498      64.4251398       
681.75           0.426839183      63.795335        0.897343485      -25.2634849      0.897343485      -25.2634849      0.426839183      63.795335        
701.2            0.436869148      63.1707853       0.892473008      -25.9006361      0.892473008      -25.9006361      0.436869148      63.1707853       
720.65           0.44675288       62.551578        0.887539697      -26.5318816      0.887539697      -26.5318816      0.44675288       62.551578        
740.1            0.456490035      61.9377908       0.882547439      -27.1571796      0.882547439      -27.1571796      0.456490035      61.9377908       
759.55           0.466080433      61.3294923       0.877500057      -27.7764941      0.877500057      -27.7764941      0.466080433      61.3294923       
779              0.47552405       60.7267426       0.872401302      -28.3897947      0.872401302      -28.3897947      0.47552405       60.7267426       
798.45           0.484821009      60.1295937       0.867254854      -28.9970565      0.867254854      -28.9970565      0.484821009      60.1295937       
817.9            0.493971577      59.5380899       0.862064312      -29.59826        0.862064312      -29.59826        0.493971577      59.5380899       
837.35           0.502976157      58.9522685       0.856833192      -30.1933904      0.856833192      -30.1933904      0.502976157      58.9522685       
856.8            0.511835277      58.37216         0.851564925      -30.7824383      0.851564925      -30.7824383      0.511835277      58.37216         
876.25           0.520549589      57.7977886       0.846262855      -31.3653986      0.846262855      -31.3653986      0.520549589      57.7977886       
895.7            0.529119857      57.2291723       0.840930233      -31.9422708      0.840930233      -31.9422708      0.529119857      57.2291723       
915.15           0.537546954      56.6663235       0.835570221      -32.5130589      0.835570221      -32.5130589      0.537546954      56.6663235       
934.6            0.545831853      56.1092494       0.830185883      -33.0777708      0.830185883      -33.0777708      0.545831853      56.1092494       
954.05           0.553975621      55.557952        0.824780192      -33.6364183      0.824780192      -33.6364183      0.553975621      55.557952        
973.5            0.56197941       55.0124284       0.819356023      -34.1890173      0.819356023      -34.1890173      0.56197941       55.0124284       
992.95           0.569844457      54.4726716       0.813916155      -34.7355868      0.813916155      -34.7355868      0.569844457      54.4726716       
1012.4           0.577572072      53.93867         0.808463273      -35.2761494      0.808463273      -35.2761494      0.577572072      53.93867         
1031.85          0.585163633      53.4104084       0.802999964      -35.8107308      0.802999964      -35.8107308      0.585163633      53.4104084       
1051.3           0.592620581      52.8878675       0.797528719      -36.3393599      0.797528719      -36.3393599      0.592620581      52.8878675       
1070.75          0.599944417      52.3710248       0.792051935      -36.8620682      0.792051935      -36.8620682      0.599944417      52.3710248       
1090.2           0.607136691      51.8598545       0.786571915      -37.3788898      0.786571915      -37.3788898      0.607136691      51.8598545       
1109.65          0.614199001      51.3543278       0.78109087       -37.8898616      0.78109087       -37.8898616      0.614199001      51.3543278       
1129.1           0.621132988      50.8544129       0.775610916      -38.3950224      0.775610916      -38.3950224      0.621132988      50.8544129       
1148.55          0.627940329      50.3600756       0.770134082      -38.8944135      0.770134082      -38.8944135      0.627940329      50.3600756       
1168             0.634622734      49.8712789       0.764662307      -39.3880782      0.764662307      -39.3880782      0.634622734      49.8712789       
1187.45          0.64118194       49.3879841       0.759197441      -39.8760613      0.759197441      -39.8760613      0.64118194       49.3879841       
1206.9           0.64761971       48.9101498       0.753741251      -40.3584097      0.753741251      -40.3584097      0.64761971       48.9101498       
1226.35          0.653937827      48.4377331       0.748295421      -40.8351717      0.748295421      -40.8351717      0.653937827      48.4377331       
1245.8           0.660138088      47.9706892       0.74286155       -41.3063972      0.74286155       -41.3063972      0.660138088      47.9706892       
1265.25          0.666222307      47.5089716       0.73744116       -41.7721371      0.73744116       -41.7721371      0.666222307      47.5089716       
1284.7           0.672192305      47.0525324       0.732035696      -42.2324438      0.732035696      -42.2324438      0.672192305      47.0525324       
1304.15          0.678049911      46.6013225       0.726646526      -42.6873706      0.726646526      -42.6873706      0.678049911      46.6013225       
1323.6           0.683796957      46.1552913       0.721274945      -43.1369718      0.721274945      -43.1369718      0.683796957      46.1552913       
1343.05          0.689435277      45.7143874       0.715922178      -43.5813027      0.715922178      -43.5813027      0.689435277      45.7143874       
1362.5           0.694966702      45.2785582       0.710589379      -44.0204191      0.710589379      -44.0204191      0.694966702      45.2785582       
1381.95          0.700393062      44.8477504       0.705277638      -44.4543776      0.705277638      -44.4543776      0.700393062      44.8477504       
1401.4           0.705716178      44.4219099       0.699987979      -44.8832354      0.699987979      -44.8832354      0.705716178      44.4219099       
1420.85          0.710937865      44.000982        0.694721363      -45.30705        0.694721363      -45.30705        0.710937865      44.000982        
1440.3           0.716059927      43.5849113       0.689478693      -45.7258795      0.689478693      -45.7258795      0.716059927      43.5849113       
1459.75          0.721084158      43.173642        0.68426081       -46.1397821      0.68426081       -46.1397821      0.721084158      43.173642        
1479.2           0.726012335      42.7671181       0.679068505      -46.5488165      0.679068505      -46.5488165      0.726012335      42.7671181       
1498.65          0.730846225      42.365283        0.673902509      -46.9530412      0.673902509      -46.9530412      0.730846225      42.365283        
1518.1           0.735587577      41.96808         0.668763506      -47.3525152      0.668763506      -47.3525152      0.735587577      41.96808         
1537.55          0.740238121      41.5754523       0.663652128      -47.7472972      0.663652128      -47.7472972      0.740238121      41.5754523       
1557             0.744799572      41.1873429       0.65856896       -48.1374461      0.65856896       -48.1374461      0.744799572      41.1873429       
1576.45          0.749273623      40.8036948       0.653514539      -48.5230206      0.653514539      -48.5230206      0.749273623      40.8036948       
1595.9           0.753661948      40.4244511       0.648489363      -48.9040793      0.648489363      -48.9040793      0.753661948      40.4244511       
1615.35          0.7579662        40.0495549       0.643493883      -49.2806806      0.643493883      -49.2806806      0.7579662        40.0495549       
1634.8           0.762188011      39.6789493       0.638528512      -49.6528828      0.638528512      -49.6528828      0.762188011      39.6789493       
1654.25          0.766328988      39.3125778       0.633593625      -50.0207437      0.633593625      -50.0207437      0.766328988      39.3125778       
1673.7           0.770390719      38.950384        0.628689559      -50.3843211      0.628689559      -50.3843211      0.770390719      38.950384        
1693.15          0.774374766      38.5923118       0.623816616      -50.7436722      0.623816616      -50.7436722      0.774374766      38.5923118       
1712.6           0.778282668      38.2383054       0.618975066      -51.0988539      0.618975066      -51.0988539      0.778282668      38.2383054       
1732.05          0.78211594       37.8883093       0.614165146      -51.4499228      0.614165146      -51.4499228      0.78211594       37.8883093       
1751.5           0.785876074      37.5422682       0.609387063      -51.7969348      0.609387063      -51.7969348      0.785876074      37.5422682       
1770.95          0.789564535      37.2001275       0.604640994      -52.1399457      0.604640994      -52.1399457      0.789564535      37.2001275       
1790.4           0.793182766      36.8618329       0.599927089      -52.4790106      0.599927089      -52.4790106      0.793182766      36.8618329       
1809.85          0.796732184      36.5273304       0.595245473      -52.814184       0.595245473      -52.814184       0.796732184      36.5273304       
1829.3           0.800214181      36.1965666       0.590596245      -53.1455202      0.590596245      -53.1455202      0.800214181      36.1965666       
1848.75          0.803630126      35.8694885       0.585979481      -53.4730726      0.585979481      -53.4730726      0.803630126      35.8694885       
1868.2           0.80698136       35.5460438       0.581395234      -53.7968942      0.581395234      -53.7968942      0.80698136       35.5460438       
1887.65          0.810269204      35.2261804       0.576843536      -54.1170376      0.576843536      -54.1170376      0.810269204      35.2261804       
1907.1           0.813494949      34.9098471       0.572324401      -54.4335544      0.572324401      -54.4335544      0.813494949      34.9098471       
1926.55          0.816659867      34.5969929       0.56783782       -54.7464959      0.56783782       -54.7464959      0.816659867      34.5969929       
1946             0.819765201      34.2875677       0.563383769      -55.0559128      0.563383769      -55.0559128      0.819765201      34.2875677       
1965.45          0.822812174      33.9815215       0.558962207      -55.3618551      0.558962207      -55.3618551      0.822812174      33.9815215       
1984.9           0.825801982      33.6788054       0.554573077      -55.6643721      0.554573077      -55.6643721      0.825801982      33.6788054       
2004.35          0.828735799      33.3793708       0.550216305      -55.9635126      0.550216305      -55.9635126      0.828735799      33.3793708       
2023.8           0.831614776      33.0831697       0.545891806      -56.2593247      0.545891806      -56.2593247      0.831614776      33.0831697       
2043.25          0.834440038      32.7901547       0.54159948       -56.5518559      0.54159948       -56.5518559      0.834440038      32.7901547       
2062.7           0.837212691      32.5002792       0.537339213      -56.8411529      0.537339213      -56.8411529      0.837212691      32.5002792       
2082.15          0.839933815      32.2134969       0.533110884      -57.127262       0.533110884      -57.127262       0.839933815      32.2134969       
2101.6           0.842604471      31.9297624       0.528914355      -57.4102286      0.528914355      -57.4102286      0.842604471      31.9297624       
2121.05          0.845225695      31.6490307       0.524749483      -57.6900977      0.524749483      -57.6900977      0.845225695      31.6490307       
2140.5           0.847798503      31.3712574       0.520616112      -57.9669135      0.520616112      -57.9669135      0.847798503      31.3712574       
2159.95          0.850323889      31.0963989       0.516514079      -58.2407196      0.516514079      -58.2407196      0.850323889      31.0963989       
2179.4           0.852802827      30.8244122       0.512443212      -58.5115588      0.512443212      -58.5115588      0.852802827      30.8244122       
2198.85          0.855236269      30.5552546       0.508403331      -58.7794734      0.508403331      -58.7794734      0.855236269      30.5552546       
2218.3           0.857625148      30.2888844       0.504394249      -59.0445052      0.504394249      -59.0445052      0.857625148      30.2888844       
2237.75          0.859970376      30.0252602       0.500415773      -59.306695       0.500415773      -59.306695       0.859970376      30.0252602       
2257.2           0.862272846      29.7643414       0.496467704      -59.5660832      0.496467704      -59.5660832      0.862272846      29.7643414       
2276.65          0.864533431      29.506088        0.492549835      -59.8227096      0.492549835      -59.8227096      0.864533431      29.506088        
2296.1           0.866752985      29.2504605       0.488661957      -60.0766133      0.488661957      -60.0766133      0.866752985      29.2504605       
2315.55          0.868932345      28.99742         0.484803854      -60.3278326      0.484803854      -60.3278326      0.868932345      28.99742         
2335             0.871072329      28.7469283       0.480975307      -60.5764055      0.480975307      -60.5764055      0.871072329      28.7469283       
2354.45          0.873173735      28.4989475       0.477176093      -60.8223691      0.477176093      -60.8223691      0.873173735      28.4989475       
2373.9           0.875237347      28.2534407       0.473405984      -61.0657602      0.473405984      -61.0657602      0.875237347      28.2534407       
2393.35          0.87726393       28.0103713       0.469664751      -61.3066146      0.469664751      -61.3066146      0.87726393       28.0103713       
2412.8           0.879254231      27.7697032       0.465952159      -61.5449678      0.465952159      -61.5449678      0.879254231      27.7697032       
2432.25          0.881208983      27.5314011       0.462267975      -61.7808547      0.462267975      -61.7808547      0.881208983      27.5314011       
2451.7           0.883128901      27.2954302       0.458611959      -62.0143094      0.458611959      -62.0143094      0.883128901      27.2954302       
2471.15          0.885014685      27.061756        0.454983871      -62.2453656      0.454983871      -62.2453656      0.885014685      27.061756        
