! Coilcraft 0603CS-16N Chip Inductor				
! 21 May 2002			
# MHZ S MA R 50
!Freq             MagS11           AngS11           MagS21           AngS21           MagS12           AngS12           MagS22           AngS22
1                0.00133488136    48.7450988       0.99912027       -0.0575493388    0.99912027       -0.0575493388    0.00133488136    48.7450988       
16.46            0.0166367799     82.020012        0.997826391      -0.946086227     0.997826391      -0.946086227     0.0166367799     82.020012        
31.92            0.0320980561     83.4513402       0.996849493      -1.83317096      0.996849493      -1.83317096      0.0320980561     83.4513402       
47.38            0.0475348939     83.5385793       0.995771543      -2.71876043      0.995771543      -2.71876043      0.0475348939     83.5385793       
62.84            0.0629329772     83.214858        0.99453001       -3.60260627      0.99453001       -3.60260627      0.0629329772     83.214858        
78.3             0.078281935      82.7059799       0.993101476      -4.48440999      0.993101476      -4.48440999      0.078281935      82.7059799       
93.76            0.0935721104     82.0966889       0.991475201      -5.36385341      0.991475201      -5.36385341      0.0935721104     82.0966889       
109.22           0.108794118      81.4267644       0.989646164      -6.24061047      0.989646164      -6.24061047      0.108794118      81.4267644       
124.68           0.123938774      80.7176891       0.987612467      -7.11435319      0.987612467      -7.11435319      0.123938774      80.7176891       
140.14           0.138997104      79.9822567       0.985374157      -7.98475529      0.985374157      -7.98475529      0.138997104      79.9822567       
155.6            0.153960367      79.2286634       0.982932615      -8.8514946       0.982932615      -8.8514946       0.153960367      79.2286634       
171.06           0.168820082      78.4624696       0.980290206      -9.71425484      0.980290206      -9.71425484      0.168820082      78.4624696       
186.52           0.183568057      77.6876262       0.977450059      -10.572727       0.977450059      -10.572727       0.183568057      77.6876262       
201.98           0.198196413      76.9070508       0.974415916      -11.4266106      0.974415916      -11.4266106      0.198196413      76.9070508       
217.44           0.212697603      76.122969        0.971192031      -12.2756144      0.971192031      -12.2756144      0.212697603      76.122969        
232.9            0.22706443       75.3371259       0.967783087      -13.1194574      0.967783087      -13.1194574      0.22706443       75.3371259       
248.36           0.241290068      74.5509226       0.964194129      -13.9578691      0.964194129      -13.9578691      0.241290068      74.5509226       
263.82           0.255368067      73.7655071       0.960430515      -14.7905908      0.960430515      -14.7905908      0.255368067      73.7655071       
279.28           0.26929237       72.981836        0.956497866      -15.6173753      0.956497866      -15.6173753      0.26929237       72.981836        
294.74           0.283057314      72.2007183       0.952402025      -16.4379875      0.952402025      -16.4379875      0.283057314      72.2007183       
310.2            0.296657642      71.4228466       0.94814902       -17.2522049      0.94814902       -17.2522049      0.296657642      71.4228466       
325.66           0.310088498      70.6488196       0.943745032      -18.0598175      0.943745032      -18.0598175      0.310088498      70.6488196       
341.12           0.323345436      69.8791592       0.939196357      -18.8606284      0.939196357      -18.8606284      0.323345436      69.8791592       
356.58           0.336424412      69.1143236       0.934509385      -19.6544533      0.934509385      -19.6544533      0.336424412      69.1143236       
372.04           0.349321783      68.3547166       0.929690564      -20.4411208      0.929690564      -20.4411208      0.349321783      68.3547166       
387.5            0.362034302      67.6006957       0.924746381      -21.2204725      0.924746381      -21.2204725      0.362034302      67.6006957       
402.96           0.37455911       66.8525777       0.919683332      -21.9923627      0.919683332      -21.9923627      0.37455911       66.8525777       
418.42           0.38689373       66.1106443       0.914507907      -22.7566584      0.914507907      -22.7566584      0.38689373       66.1106443       
433.88           0.399036054      65.3751454       0.90922656       -23.5132389      0.90922656       -23.5132389      0.399036054      65.3751454       
449.34           0.410984337      64.6463024       0.903845697      -24.2619958      0.903845697      -24.2619958      0.410984337      64.6463024       
464.8            0.422737178      63.9243115       0.898371658      -25.0028328      0.898371658      -25.0028328      0.422737178      63.9243115       
480.26           0.434293517      63.2093454       0.892810693      -25.7356652      0.892810693      -25.7356652      0.434293517      63.2093454       
495.72           0.445652613      62.5015555       0.88716896       -26.4604195      0.88716896       -26.4604195      0.445652613      62.5015555       
511.18           0.456814033      61.8010738       0.8814525        -27.1770337      0.8814525        -27.1770337      0.456814033      61.8010738       
526.64           0.46777764       61.108014        0.875667232      -27.8854559      0.875667232      -27.8854559      0.46777764       61.108014        
542.1            0.478543574      60.4224734       0.86981894       -28.5856448      0.86981894       -28.5856448      0.478543574      60.4224734       
557.56           0.489112242      59.7445337       0.863913265      -29.2775691      0.863913265      -29.2775691      0.489112242      59.7445337       
573.02           0.499484298      59.0742621       0.857955696      -29.9612067      0.857955696      -29.9612067      0.499484298      59.0742621       
588.48           0.509660629      58.4117125       0.851951566      -30.6365448      0.851951566      -30.6365448      0.509660629      58.4117125       
603.94           0.519642344      57.7569264       0.845906041      -31.3035792      0.845906041      -31.3035792      0.519642344      57.7569264       
619.4            0.529430754      57.1099338       0.839824121      -31.9623139      0.839824121      -31.9623139      0.529430754      57.1099338       
634.86           0.539027358      56.4707535       0.833710634      -32.6127608      0.833710634      -32.6127608      0.539027358      56.4707535       
650.32           0.548433833      55.8393948       0.827570234      -33.2549392      0.827570234      -33.2549392      0.548433833      55.8393948       
665.78           0.557652014      55.2158571       0.8214074        -33.8888752      0.8214074        -33.8888752      0.557652014      55.2158571       
681.24           0.566683886      54.6001315       0.815226432      -34.5146018      0.815226432      -34.5146018      0.566683886      54.6001315       
696.7            0.575531567      53.9922009       0.809031456      -35.1321578      0.809031456      -35.1321578      0.575531567      53.9922009       
712.16           0.584197294      53.3920406       0.802826421      -35.7415881      0.802826421      -35.7415881      0.584197294      53.3920406       
727.62           0.592683416      52.7996192       0.796615101      -36.3429428      0.796615101      -36.3429428      0.592683416      52.7996192       
743.08           0.600992379      52.2148986       0.790401096      -36.936277       0.790401096      -36.936277       0.600992379      52.2148986       
758.54           0.609126713      51.6378352       0.784187838      -37.5216505      0.784187838      -37.5216505      0.609126713      51.6378352       
774              0.617089026      51.0683795       0.777978588      -38.0991273      0.777978588      -38.0991273      0.617089026      51.0683795       
789.46           0.62488199       50.5064773       0.771776444      -38.6687755      0.771776444      -38.6687755      0.62488199       50.5064773       
804.92           0.632508332      49.9520699       0.765584341      -39.2306666      0.765584341      -39.2306666      0.632508332      49.9520699       
820.38           0.639970827      49.4050942       0.759405057      -39.7848755      0.759405057      -39.7848755      0.639970827      49.4050942       
835.84           0.647272288      48.8654835       0.753241216      -40.33148        0.753241216      -40.33148        0.647272288      48.8654835       
851.3            0.654415559      48.3331675       0.747095294      -40.8705608      0.747095294      -40.8705608      0.654415559      48.3331675       
866.76           0.661403504      47.808073        0.740969619      -41.4022008      0.740969619      -41.4022008      0.661403504      47.808073        
882.22           0.668239005      47.290124        0.734866379      -41.9264851      0.734866379      -41.9264851      0.668239005      47.290124        
897.68           0.674924953      46.7792419       0.728787628      -42.4435007      0.728787628      -42.4435007      0.674924953      46.7792419       
913.14           0.681464242      46.2753461       0.722735286      -42.9533363      0.722735286      -42.9533363      0.681464242      46.2753461       
928.6            0.687859765      45.7783538       0.716711147      -43.4560819      0.716711147      -43.4560819      0.687859765      45.7783538       
944.06           0.694114406      45.2881809       0.710716883      -43.951829       0.710716883      -43.951829       0.694114406      45.2881809       
959.52           0.700231038      44.8047416       0.704754049      -44.4406697      0.704754049      -44.4406697      0.700231038      44.8047416       
974.98           0.706212518      44.327949        0.698824085      -44.9226974      0.698824085      -44.9226974      0.706212518      44.327949        
990.44           0.712061683      43.8577151       0.692928328      -45.3980057      0.692928328      -45.3980057      0.712061683      43.8577151       
1005.9           0.717781344      43.3939511       0.687068005      -45.866689       0.687068005      -45.866689       0.717781344      43.3939511       
1021.36          0.723374288      42.9365677       0.681244249      -46.3288419      0.681244249      -46.3288419      0.723374288      42.9365677       
1036.82          0.728843272      42.485475        0.675458097      -46.7845593      0.675458097      -46.7845593      0.728843272      42.485475        
1052.28          0.734191018      42.0405827       0.669710496      -47.2339359      0.669710496      -47.2339359      0.734191018      42.0405827       
1067.74          0.739420218      41.6018006       0.664002305      -47.6770665      0.664002305      -47.6770665      0.739420218      41.6018006       
1083.2           0.744533522      41.1690381       0.658334303      -48.1140457      0.658334303      -48.1140457      0.744533522      41.1690381       
1098.66          0.749533546      40.7422049       0.652707193      -48.5449679      0.652707193      -48.5449679      0.749533546      40.7422049       
1114.12          0.754422864      40.3212109       0.647121601      -48.9699268      0.647121601      -48.9699268      0.754422864      40.3212109       
1129.58          0.759204009      39.9059663       0.641578084      -49.3890159      0.641578084      -49.3890159      0.759204009      39.9059663       
1145.04          0.763879472      39.4963815       0.636077133      -49.8023279      0.636077133      -49.8023279      0.763879472      39.4963815       
1160.5           0.7684517        39.0923676       0.630619176      -50.2099551      0.630619176      -50.2099551      0.7684517        39.0923676       
1175.96          0.772923097      38.6938362       0.625204581      -50.6119888      0.625204581      -50.6119888      0.772923097      38.6938362       
1191.42          0.777296022      38.3006995       0.619833661      -51.0085197      0.619833661      -51.0085197      0.777296022      38.3006995       
1206.88          0.781572789      37.9128704       0.614506674      -51.3996376      0.614506674      -51.3996376      0.781572789      37.9128704       
1222.34          0.785755666      37.5302626       0.60922383       -51.7854313      0.60922383       -51.7854313      0.785755666      37.5302626       
1237.8           0.789846875      37.1527906       0.603985292      -52.165989       0.603985292      -52.165989       0.789846875      37.1527906       
1253.26          0.793848594      36.7803698       0.598791175      -52.5413974      0.598791175      -52.5413974      0.793848594      36.7803698       
1268.72          0.797762955      36.4129164       0.593641558      -52.9117426      0.593641558      -52.9117426      0.797762955      36.4129164       
1284.18          0.801592042      36.0503475       0.588536477      -53.2771095      0.588536477      -53.2771095      0.801592042      36.0503475       
1299.64          0.805337898      35.6925815       0.583475934      -53.6375819      0.583475934      -53.6375819      0.805337898      35.6925815       
1315.1           0.809002518      35.3395375       0.578459893      -53.9932424      0.578459893      -53.9932424      0.809002518      35.3395375       
1330.56          0.812587852      34.9911358       0.573488289      -54.3441727      0.573488289      -54.3441727      0.812587852      34.9911358       
1346.02          0.816095807      34.6472976       0.568561028      -54.6904531      0.568561028      -54.6904531      0.816095807      34.6472976       
1361.48          0.819528246      34.3079453       0.563677985      -55.032163       0.563677985      -55.032163       0.819528246      34.3079453       
1376.94          0.822886989      33.9730024       0.55883901       -55.3693804      0.55883901       -55.3693804      0.822886989      33.9730024       
1392.4           0.826173812      33.6423935       0.554043931      -55.7021823      0.554043931      -55.7021823      0.826173812      33.6423935       
1407.86          0.829390451      33.3160442       0.549292551      -56.0306443      0.549292551      -56.0306443      0.829390451      33.3160442       
1423.32          0.832538598      32.9938814       0.544584652      -56.3548409      0.544584652      -56.3548409      0.832538598      32.9938814       
1438.78          0.835619905      32.675833        0.53992          -56.6748456      0.53992          -56.6748456      0.835619905      32.675833        
1454.24          0.838635985      32.3618281       0.535298339      -56.9907304      0.535298339      -56.9907304      0.838635985      32.3618281       
1469.7           0.84158841       32.0517969       0.5307194        -57.3025663      0.5307194        -57.3025663      0.84158841       32.0517969       
1485.16          0.844478714      31.7456708       0.526182898      -57.6104229      0.526182898      -57.6104229      0.844478714      31.7456708       
1500.62          0.847308394      31.4433822       0.521688533      -57.914369       0.521688533      -57.914369       0.847308394      31.4433822       
1516.08          0.850078906      31.1448647       0.517235994      -58.2144717      0.517235994      -58.2144717      0.850078906      31.1448647       
1531.54          0.852791675      30.8500532       0.512824958      -58.5107974      0.512824958      -58.5107974      0.852791675      30.8500532       
1547             0.855448084      30.5588833       0.508455091      -58.8034111      0.508455091      -58.8034111      0.855448084      30.5588833       
1562.46          0.858049487      30.2712922       0.50412605       -59.0923766      0.50412605       -59.0923766      0.858049487      30.2712922       
1577.92          0.860597199      29.9872178       0.499837484      -59.3777566      0.499837484      -59.3777566      0.860597199      29.9872178       
1593.38          0.863092504      29.7065993       0.495589034      -59.6596128      0.495589034      -59.6596128      0.863092504      29.7065993       
1608.84          0.865536652      29.429377        0.491380334      -59.9380056      0.491380334      -59.9380056      0.865536652      29.429377        
1624.3           0.867930862      29.1554921       0.487211012      -60.2129944      0.487211012      -60.2129944      0.867930862      29.1554921       
1639.76          0.870276321      28.8848871       0.483080691      -60.4846374      0.483080691      -60.4846374      0.870276321      28.8848871       
1655.22          0.872574185      28.6175053       0.47898899       -60.7529918      0.47898899       -60.7529918      0.872574185      28.6175053       
1670.68          0.874825581      28.3532912       0.474935524      -61.0181137      0.474935524      -61.0181137      0.874825581      28.3532912       
1686.14          0.877031608      28.0921902       0.470919902      -61.2800582      0.470919902      -61.2800582      0.877031608      28.0921902       
1701.6           0.879193334      27.834149        0.466941734      -61.5388791      0.466941734      -61.5388791      0.879193334      27.834149        
1717.06          0.8813118        27.5791148       0.463000627      -61.7946296      0.463000627      -61.7946296      0.8813118        27.5791148       
1732.52          0.883388021      27.3270363       0.459096184      -62.0473615      0.459096184      -62.0473615      0.883388021      27.3270363       
1747.98          0.885422987      27.0778628       0.455228009      -62.2971258      0.455228009      -62.2971258      0.885422987      27.0778628       
1763.44          0.887417658      26.8315446       0.451395704      -62.5439725      0.451395704      -62.5439725      0.887417658      26.8315446       
1778.9           0.889372973      26.5880332       0.447598872      -62.7879507      0.447598872      -62.7879507      0.889372973      26.5880332       
1794.36          0.891289844      26.3472808       0.443837114      -63.0291083      0.443837114      -63.0291083      0.891289844      26.3472808       
1809.82          0.893169162      26.1092404       0.440110033      -63.2674925      0.440110033      -63.2674925      0.893169162      26.1092404       
1825.28          0.895011793      25.8738661       0.436417232      -63.5031494      0.436417232      -63.5031494      0.895011793      25.8738661       
1840.74          0.89681858       25.6411129       0.432758316      -63.7361245      0.432758316      -63.7361245      0.89681858       25.6411129       
1856.2           0.898590345      25.4109365       0.429132889      -63.9664621      0.429132889      -63.9664621      0.898590345      25.4109365       
1871.66          0.90032789       25.1832936       0.425540557      -64.1942058      0.425540557      -64.1942058      0.90032789       25.1832936       
1887.12          0.902031994      24.9581415       0.421980931      -64.4193982      0.421980931      -64.4193982      0.902031994      24.9581415       
1902.58          0.903703416      24.7354386       0.41845362       -64.6420812      0.41845362       -64.6420812      0.903703416      24.7354386       
1918.04          0.905342897      24.5151439       0.414958236      -64.8622958      0.414958236      -64.8622958      0.905342897      24.5151439       
1933.5           0.906951157      24.2972173       0.411494396      -65.0800822      0.411494396      -65.0800822      0.906951157      24.2972173       
1948.96          0.908528899      24.0816194       0.408061716      -65.2954799      0.408061716      -65.2954799      0.908528899      24.0816194       
1964.42          0.910076807      23.8683117       0.404659816      -65.5085274      0.404659816      -65.5085274      0.910076807      23.8683117       
