! Coilcraft 0603CS-R20 Chip Inductor				
! 1 August 2002			
# MHZ S MA R 50
!Freq             MagS11           AngS11           MagS21           AngS21           MagS12           AngS12           MagS22           AngS22
1                0.0134959175     65.7499267       0.994533083      -0.708921506     0.994533083      -0.708921506     0.0134959175     65.7499267       
5.99             0.0743407917     77.0465501       0.986001109      -4.2137544       0.986001109      -4.2137544       0.0743407917     77.0465501       
10.98            0.134183807      76.0404633       0.976353012      -7.66465174      0.976353012      -7.66465174      0.134183807      76.0404633       
15.97            0.192361016      73.8020569       0.964200186      -11.0452189      0.964200186      -11.0452189      0.192361016      73.8020569       
20.96            0.248390492      71.201078        0.949532103      -14.337782       0.949532103      -14.337782       0.248390492      71.201078        
25.95            0.301880231      68.4869841       0.932590541      -17.5266806      0.932590541      -17.5266806      0.301880231      68.4869841       
30.94            0.352537603      65.7657929       0.913713461      -20.5991863      0.913713461      -20.5991863      0.352537603      65.7657929       
35.93            0.400170533      63.0924136       0.893274804      -23.5457936      0.893274804      -23.5457936      0.400170533      63.0924136       
40.92            0.444680815      60.4982318       0.871650457      -26.3601778      0.871650457      -26.3601778      0.444680815      60.4982318       
45.91            0.486052178      58.0017396       0.849196635      -29.0389448      0.849196635      -29.0389448      0.486052178      58.0017396       
50.9             0.524335644      55.613475        0.826236471      -31.5812603      0.826236471      -31.5812603      0.524335644      55.613475        
55.89            0.559634205      53.3386965       0.803052761      -33.9884213      0.803052761      -33.9884213      0.559634205      53.3386965       
60.88            0.592088314      51.1790192       0.779885306      -36.2634209      0.779885306      -36.2634209      0.592088314      51.1790192       
65.87            0.621863096      49.1335108       0.756931552      -38.4105366      0.756931552      -38.4105366      0.621863096      49.1335108       
70.86            0.649137688      47.19947         0.73434938       -40.4349643      0.73434938       -40.4349643      0.649137688      47.19947         
75.85            0.674096806      45.3729975       0.712261147      -42.3425066      0.712261147      -42.3425066      0.674096806      45.3729975       
80.84            0.696924378      43.6494204       0.690758293      -44.1393166      0.690758293      -44.1393166      0.696924378      43.6494204       
85.83            0.71779897       42.0236089       0.669906031      -45.8316948      0.669906031      -45.8316948      0.71779897       42.0236089       
90.82            0.73689071       40.4902101       0.649747803      -47.425934       0.649747803      -47.425934       0.73689071       40.4902101       
95.81            0.754359371      39.0438188       0.630309339      -48.9282035      0.630309339      -48.9282035      0.754359371      39.0438188       
100.8            0.770353359      37.6790995       0.611602219      -50.3444675      0.611602219      -50.3444675      0.770353359      37.6790995       
105.79           0.78500935       36.390871        0.593626933      -51.6804297      0.593626933      -51.6804297      0.78500935       36.390871        
110.78           0.798452388      35.1741623       0.576375444      -52.9414988      0.576375444      -52.9414988      0.798452388      35.1741623       
115.77           0.8107963        34.0242485       0.559833308      -54.1327708      0.559833308      -54.1327708      0.8107963        34.0242485       
120.76           0.822144302      32.9366692       0.543981403      -55.2590217      0.543981403      -55.2590217      0.822144302      32.9366692       
125.75           0.832589715      31.907237        0.528797314      -56.3247102      0.528797314      -56.3247102      0.832589715      31.907237        
130.74           0.842216743      30.9320365       0.514256435      -57.3339858      0.514256435      -57.3339858      0.842216743      30.9320365       
135.73           0.851101246      30.0074187       0.500332834      -58.2907008      0.500332834      -58.2907008      0.851101246      30.0074187       
140.72           0.859311509      29.1299908       0.486999922      -59.1984259      0.486999922      -59.1984259      0.859311509      29.1299908       
145.71           0.866908961      28.2966038       0.474230969      -60.060466       0.474230969      -60.060466       0.866908961      28.2966038       
150.7            0.873948859      27.5043391       0.461999485      -60.8798773      0.461999485      -60.8798773      0.873948859      27.5043391       
155.69           0.880480912      26.7504936       0.450279509      -61.6594847      0.450279509      -61.6594847      0.880480912      26.7504936       
160.68           0.886549853      26.0325656       0.439045813      -62.4018985      0.439045813      -62.4018985      0.886549853      26.0325656       
165.67           0.892195962      25.3482401       0.428274041      -63.1095303      0.428274041      -63.1095303      0.892195962      25.3482401       
170.66           0.897455532      24.6953753       0.417940807      -63.7846085      0.417940807      -63.7846085      0.897455532      24.6953753       
175.65           0.902361292      24.0719894       0.408023748      -64.4291929      0.408023748      -64.4291929      0.902361292      24.0719894       
180.64           0.906942784      23.4762481       0.39850155       -65.0451881      0.39850155       -65.0451881      0.906942784      23.4762481       
185.63           0.911226701      22.906453        0.389353958      -65.634356       0.389353958      -65.634356       0.911226701      22.906453        
190.62           0.915237188      22.3610306       0.380561757      -66.1983276      0.380561757      -66.1983276      0.915237188      22.3610306       
195.61           0.918996107      21.8385229       0.372106755      -66.7386135      0.372106755      -66.7386135      0.918996107      21.8385229       
200.6            0.922523278      21.3375772       0.363971751      -67.2566139      0.363971751      -67.2566139      0.922523278      21.3375772       
205.59           0.925836692      20.8569384       0.356140495      -67.7536276      0.356140495      -67.7536276      0.925836692      20.8569384       
210.58           0.928952697      20.3954408       0.348597651      -68.2308602      0.348597651      -68.2308602      0.928952697      20.3954408       
215.57           0.931886168      19.9520009       0.341328752      -68.689432       0.341328752      -68.689432       0.931886168      19.9520009       
220.56           0.934650655      19.5256108       0.334320155      -69.1303843      0.334320155      -69.1303843      0.934650655      19.5256108       
225.55           0.937258518      19.1153324       0.327559         -69.5546865      0.327559         -69.5546865      0.937258518      19.1153324       
230.54           0.939721042      18.7202915       0.321033166      -69.9632412      0.321033166      -69.9632412      0.939721042      18.7202915       
235.53           0.942048547      18.3396732       0.314731227      -70.35689        0.314731227      -70.35689        0.942048547      18.3396732       
240.52           0.944250478      17.9727168       0.308642413      -70.7364179      0.308642413      -70.7364179      0.944250478      17.9727168       
245.51           0.946335492      17.6187121       0.302756572      -71.102558       0.302756572      -71.102558       0.946335492      17.6187121       
250.5            0.948311533      17.2769949       0.29706413       -71.4559954      0.29706413       -71.4559954      0.948311533      17.2769949       
255.49           0.950185899      16.9469442       0.291556057      -71.797371       0.291556057      -71.797371       0.950185899      16.9469442       
260.48           0.951965299      16.6279782       0.286223835      -72.1272846      0.286223835      -72.1272846      0.951965299      16.6279782       
265.47           0.953655914      16.3195521       0.281059424      -72.4462983      0.281059424      -72.4462983      0.953655914      16.3195521       
270.46           0.955263439      16.0211547       0.276055234      -72.7549391      0.276055234      -72.7549391      0.955263439      16.0211547       
275.45           0.95679313       15.7323064       0.271204094      -73.0537017      0.271204094      -73.0537017      0.95679313       15.7323064       
280.44           0.958249841      15.4525565       0.266499231      -73.3430505      0.266499231      -73.3430505      0.958249841      15.4525565       
285.43           0.959638061      15.1814816       0.261934242      -73.6234221      0.261934242      -73.6234221      0.959638061      15.1814816       
290.42           0.960961948      14.9186831       0.25750307       -73.8952272      0.25750307       -73.8952272      0.960961948      14.9186831       
295.41           0.96222535       14.6637861       0.253199986      -74.1588525      0.253199986      -74.1588525      0.96222535       14.6637861       
300.4            0.96343184       14.416437        0.249019564      -74.4146622      0.249019564      -74.4146622      0.96343184       14.416437        
305.39           0.964584734      14.1763027       0.244956667      -74.6629997      0.244956667      -74.6629997      0.964584734      14.1763027       
310.38           0.965687113      13.9430687       0.241006429      -74.9041889      0.241006429      -74.9041889      0.965687113      13.9430687       
315.37           0.966741844      13.7164383       0.237164234      -75.1385358      0.237164234      -75.1385358      0.966741844      13.7164383       
320.36           0.967751596      13.4961309       0.233425705      -75.3663293      0.233425705      -75.3663293      0.967751596      13.4961309       
325.35           0.968718856      13.2818815       0.229786689      -75.5878427      0.229786689      -75.5878427      0.968718856      13.2818815       
330.34           0.969645944      13.073439        0.226243244      -75.8033344      0.226243244      -75.8033344      0.969645944      13.073439        
335.33           0.970535025      12.870566        0.222791622      -76.0130493      0.222791622      -76.0130493      0.970535025      12.870566        
340.32           0.971388123      12.6730375       0.219428265      -76.217219       0.219428265      -76.217219       0.971388123      12.6730375       
345.31           0.972207128      12.48064         0.216149789      -76.4160635      0.216149789      -76.4160635      0.972207128      12.48064         
350.3            0.972993813      12.2931714       0.212952973      -76.609791       0.212952973      -76.609791       0.972993813      12.2931714       
355.29           0.973749834      12.1104395       0.209834753      -76.7985995      0.209834753      -76.7985995      0.973749834      12.1104395       
360.28           0.974476747      11.932262        0.206792211      -76.9826768      0.206792211      -76.9826768      0.974476747      11.932262        
365.27           0.975176008      11.7584656       0.203822569      -77.1622014      0.203822569      -77.1622014      0.975176008      11.7584656       
370.26           0.975848987      11.5888854       0.200923176      -77.3373431      0.200923176      -77.3373431      0.975848987      11.5888854       
375.25           0.976496969      11.4233648       0.198091508      -77.5082633      0.198091508      -77.5082633      0.976496969      11.4233648       
380.24           0.977121163      11.2617544       0.195325153      -77.6751157      0.195325153      -77.6751157      0.977121163      11.2617544       
385.23           0.977722706      11.1039123       0.192621812      -77.8380466      0.192621812      -77.8380466      0.977722706      11.1039123       
390.22           0.978302667      10.9497029       0.189979289      -77.9971956      0.189979289      -77.9971956      0.978302667      10.9497029       
395.21           0.978862056      10.7989971       0.187395486      -78.1526955      0.187395486      -78.1526955      0.978862056      10.7989971       
400.2            0.979401823      10.6516719       0.184868399      -78.3046732      0.184868399      -78.3046732      0.979401823      10.6516719       
405.19           0.979922863      10.5076096       0.18239611       -78.4532497      0.18239611       -78.4532497      0.979922863      10.5076096       
410.18           0.980426024      10.3666981       0.179976786      -78.5985405      0.179976786      -78.5985405      0.980426024      10.3666981       
415.17           0.980912105      10.2288301       0.177608673      -78.740656       0.177608673      -78.740656       0.980912105      10.2288301       
420.16           0.981381861      10.0939032       0.17529009       -78.8797017      0.17529009       -78.8797017      0.981381861      10.0939032       
425.15           0.981836005      9.96181939       0.173019431      -79.0157783      0.173019431      -79.0157783      0.981836005      9.96181939       
430.14           0.982275214      9.83248492       0.170795153      -79.1489825      0.170795153      -79.1489825      0.982275214      9.83248492       
435.13           0.982700128      9.70581011       0.16861578       -79.2794065      0.16861578       -79.2794065      0.982700128      9.70581011       
440.12           0.983111352      9.58170906       0.166479896      -79.4071387      0.166479896      -79.4071387      0.983111352      9.58170906       
445.11           0.98350946       9.46009947       0.164386142      -79.5322637      0.164386142      -79.5322637      0.98350946       9.46009947       
450.1            0.983894997      9.34090251       0.162333214      -79.6548626      0.162333214      -79.6548626      0.983894997      9.34090251       
455.09           0.98426848       9.22404257       0.160319861      -79.7750133      0.160319861      -79.7750133      0.98426848       9.22404257       
460.08           0.984630399      9.10944714       0.158344882      -79.8927902      0.158344882      -79.8927902      0.984630399      9.10944714       
465.07           0.98498122       8.99704665       0.156407123      -80.0082649      0.156407123      -80.0082649      0.98498122       8.99704665       
470.06           0.985321385      8.88677432       0.154505474      -80.1215061      0.154505474      -80.1215061      0.985321385      8.88677432       
475.05           0.985651316      8.77856601       0.152638868      -80.2325796      0.152638868      -80.2325796      0.985651316      8.77856601       
480.04           0.985971412      8.67236013       0.150806281      -80.3415488      0.150806281      -80.3415488      0.985971412      8.67236013       
485.03           0.986282055      8.56809747       0.149006725      -80.4484744      0.149006725      -80.4484744      0.986282055      8.56809747       
490.02           0.986583607      8.46572111       0.147239252      -80.553415       0.147239252      -80.553415       0.986583607      8.46572111       
495.01           0.986876414      8.36517633       0.145502948      -80.6564267      0.145502948      -80.6564267      0.986876414      8.36517633       
500              0.987160805      8.26641045       0.143796932      -80.7575636      0.143796932      -80.7575636      0.987160805      8.26641045       
504.99           0.987437093      8.16937281       0.142120357      -80.8568777      0.142120357      -80.8568777      0.987437093      8.16937281       
509.98           0.987705578      8.07401462       0.140472407      -80.954419       0.140472407      -80.954419       0.987705578      8.07401462       
514.97           0.987966545      7.98028889       0.138852294      -81.0502357      0.138852294      -81.0502357      0.987966545      7.98028889       
519.96           0.988220268      7.88815036       0.137259258      -81.1443742      0.137259258      -81.1443742      0.988220268      7.88815036       
524.95           0.988467007      7.79755541       0.135692569      -81.2368792      0.135692569      -81.2368792      0.988467007      7.79755541       
529.94           0.98870701       7.70846198       0.134151519      -81.3277938      0.134151519      -81.3277938      0.98870701       7.70846198       
534.93           0.988940515      7.62082952       0.132635427      -81.4171594      0.132635427      -81.4171594      0.988940515      7.62082952       
539.92           0.98916775       7.53461893       0.131143635      -81.5050162      0.131143635      -81.5050162      0.98916775       7.53461893       
544.91           0.989388931      7.44979246       0.129675509      -81.5914027      0.129675509      -81.5914027      0.989388931      7.44979246       
549.9            0.989604268      7.36631369       0.128230433      -81.6763562      0.128230433      -81.6763562      0.989604268      7.36631369       
554.89           0.989813959      7.28414744       0.126807816      -81.7599126      0.126807816      -81.7599126      0.989813959      7.28414744       
559.88           0.990018195      7.20325974       0.125407084      -81.8421065      0.125407084      -81.8421065      0.990018195      7.20325974       
564.87           0.990217159      7.12361779       0.124027685      -81.9229714      0.124027685      -81.9229714      0.990217159      7.12361779       
569.86           0.990411026      7.04518988       0.122669081      -82.0025398      0.122669081      -82.0025398      0.990411026      7.04518988       
574.85           0.990599963      6.96794535       0.121330755      -82.0808427      0.121330755      -82.0808427      0.990599963      6.96794535       
579.84           0.990784132      6.89185457       0.120012207      -82.1579105      0.120012207      -82.1579105      0.990784132      6.89185457       
584.83           0.990963688      6.81688889       0.118712951      -82.2337722      0.118712951      -82.2337722      0.990963688      6.81688889       
589.82           0.991138777      6.74302059       0.117432519      -82.308456       0.117432519      -82.308456       0.991138777      6.74302059       
594.81           0.991309544      6.67022283       0.116170455      -82.3819892      0.116170455      -82.3819892      0.991309544      6.67022283       
599.8            0.991476123      6.59846965       0.11492632       -82.4543981      0.11492632       -82.4543981      0.991476123      6.59846965       
604.79           0.991638647      6.52773591       0.113699687      -82.5257082      0.113699687      -82.5257082      0.991638647      6.52773591       
609.78           0.991797242      6.45799728       0.112490144      -82.5959441      0.112490144      -82.5959441      0.991797242      6.45799728       
614.77           0.991952028      6.38923017       0.111297291      -82.6651298      0.111297291      -82.6651298      0.991952028      6.38923017       
619.76           0.992103122      6.32141174       0.110120739      -82.7332882      0.110120739      -82.7332882      0.992103122      6.32141174       
624.75           0.992250637      6.25451986       0.108960113      -82.8004418      0.108960113      -82.8004418      0.992250637      6.25451986       
629.74           0.99239468       6.18853306       0.107815048      -82.8666121      0.107815048      -82.8666121      0.99239468       6.18853306       
634.73           0.992535354      6.12343055       0.10668519       -82.9318201      0.10668519       -82.9318201      0.992535354      6.12343055       
