! Coilcraft 0603CS-23N Chip Inductor				
! 1 August 2002			
# MHZ S MA R 50
!Freq             MagS11           AngS11           MagS21           AngS21           MagS12           AngS12           MagS22           AngS22
1                0.00175054463    55.4768925       0.99900894       -0.0827179725    0.99900894       -0.0827179725    0.00175054463    55.4768925       
14.71            0.0213356393     82.3884792       0.997398193      -1.21492286      0.997398193      -1.21492286      0.0213356393     82.3884792       
28.42            0.0410280524     83.3144251       0.996057364      -2.34464507      0.996057364      -2.34464507      0.0410280524     83.3144251       
42.13            0.0606646395     83.0627119       0.994497711      -3.47159491      0.994497711      -3.47159491      0.0606646395     83.0627119       
55.84            0.08022187       82.4470015       0.992646113      -4.59517583      0.992646113      -4.59517583      0.08022187       82.4470015       
69.55            0.099679445      81.6673284       0.990477064      -5.71472125      0.990477064      -5.71472125      0.099679445      81.6673284       
83.26            0.119017825      80.7996323       0.987980927      -6.82954302      0.987980927      -6.82954302      0.119017825      80.7996323       
96.97            0.138218022      79.8799689       0.985155518      -7.93895114      0.985155518      -7.93895114      0.138218022      79.8799689       
110.68           0.157261656      78.9280637       0.982002934      -9.0422644       0.982002934      -9.0422644       0.157261656      78.9280637       
124.39           0.176131054      77.9558443       0.978528087      -10.1388172      0.978528087      -10.1388172      0.176131054      77.9558443       
138.1            0.194809336      76.9710886       0.974737911      -11.2279647      0.974737911      -11.2279647      0.194809336      76.9710886       
151.81           0.213280496      75.9791792       0.970640886      -12.3090859      0.970640886      -12.3090859      0.213280496      75.9791792       
165.52           0.231529472      74.9840235       0.966246711      -13.3815874      0.966246711      -13.3815874      0.231529472      74.9840235       
179.23           0.249542195      73.9885709       0.961566071      -14.4449052      0.961566071      -14.4449052      0.249542195      73.9885709       
192.94           0.267305637      72.99512         0.956610449      -15.4985065      0.956610449      -15.4985065      0.267305637      72.99512         
206.65           0.284807833      72.0055094       0.951391966      -16.5418917      0.951391966      -16.5418917      0.284807833      72.0055094       
220.36           0.302037906      71.0212402       0.945923253      -17.5745945      0.945923253      -17.5745945      0.302037906      71.0212402       
234.07           0.318986072      70.0435585       0.940217323      -18.5961837      0.940217323      -18.5961837      0.318986072      70.0435585       
247.78           0.335643638      69.0735118       0.93428747       -19.6062626      0.93428747       -19.6062626      0.335643638      69.0735118       
261.49           0.352002997      68.1119886       0.928147164      -20.60447        0.928147164      -20.60447        0.352002997      68.1119886       
275.2            0.368057604      67.1597472       0.921809964      -21.5904792      0.921809964      -21.5904792      0.368057604      67.1597472       
288.91           0.383801952      66.2174372       0.915289436      -22.5639986      0.915289436      -22.5639986      0.383801952      66.2174372       
302.62           0.399231545      65.2856155       0.908599077      -23.5247702      0.908599077      -23.5247702      0.399231545      65.2856155       
316.33           0.414342854      64.3647588       0.901752248      -24.4725694      0.901752248      -24.4725694      0.414342854      64.3647588       
330.04           0.429133283      63.4552736       0.894762112      -25.4072041      0.894762112      -25.4072041      0.429133283      63.4552736       
343.75           0.443601117      62.5575044       0.887641583      -26.3285134      0.887641583      -26.3285134      0.443601117      62.5575044       
357.46           0.457745478      61.6717399       0.880403276      -27.2363664      0.880403276      -27.2363664      0.457745478      61.6717399       
371.17           0.471566276      60.798219        0.873059469      -28.1306613      0.873059469      -28.1306613      0.471566276      60.798219        
384.88           0.485064154      59.9371356       0.865622066      -29.0113236      0.865622066      -29.0113236      0.485064154      59.9371356       
398.59           0.498240439      59.0886425       0.858102567      -29.8783051      0.858102567      -29.8783051      0.498240439      59.0886425       
412.3            0.511097086      58.2528552       0.850512047      -30.7315821      0.850512047      -30.7315821      0.511097086      58.2528552       
426.01           0.523636629      57.4298556       0.842861137      -31.5711544      0.842861137      -31.5711544      0.523636629      57.4298556       
439.72           0.535862129      56.6196944       0.835160009      -32.3970433      0.835160009      -32.3970433      0.535862129      56.6196944       
453.43           0.547777123      55.8223943       0.827418365      -33.2092905      0.827418365      -33.2092905      0.547777123      55.8223943       
467.14           0.559385576      55.0379524       0.819645436      -34.0079564      0.819645436      -34.0079564      0.559385576      55.0379524       
480.85           0.570691835      54.2663424       0.811849975      -34.7931189      0.811849975      -34.7931189      0.570691835      54.2663424       
494.56           0.58170058       53.5075169       0.804040263      -35.5648718      0.804040263      -35.5648718      0.58170058       53.5075169       
508.27           0.592416788      52.7614094       0.796224108      -36.3233237      0.796224108      -36.3233237      0.592416788      52.7614094       
521.98           0.602845687      52.027936        0.788408856      -37.0685962      0.788408856      -37.0685962      0.602845687      52.027936        
535.69           0.612992722      51.3069974       0.780601396      -37.8008232      0.780601396      -37.8008232      0.612992722      51.3069974       
549.4            0.622863513      50.5984803       0.772808171      -38.5201494      0.772808171      -38.5201494      0.622863513      50.5984803       
563.11           0.632463833      49.902259        0.765035195      -39.226729       0.765035195      -39.226729       0.632463833      49.902259        
576.82           0.641799564      49.2181966       0.757288057      -39.9207249      0.757288057      -39.9207249      0.641799564      49.2181966       
590.53           0.650876678      48.5461468       0.749571945      -40.6023075      0.749571945      -40.6023075      0.650876678      48.5461468       
604.24           0.65970121       47.8859545       0.741891654      -41.2716537      0.741891654      -41.2716537      0.65970121       47.8859545       
617.95           0.668279228      47.2374573       0.734251604      -41.9289461      0.734251604      -41.9289461      0.668279228      47.2374573       
631.66           0.676616817      46.6004864       0.726655857      -42.5743722      0.726655857      -42.5743722      0.676616817      46.6004864       
645.37           0.684720061      45.9748677       0.719108133      -43.2081231      0.719108133      -43.2081231      0.684720061      45.9748677       
659.08           0.692595016      45.3604224       0.711611824      -43.8303935      0.711611824      -43.8303935      0.692595016      45.3604224       
672.79           0.700247707      44.7569682       0.704170013      -44.4413804      0.704170013      -44.4413804      0.700247707      44.7569682       
686.5            0.707684103      44.1643195       0.696785489      -45.0412829      0.696785489      -45.0412829      0.707684103      44.1643195       
700.21           0.71491011       43.5822888       0.689460764      -45.6303011      0.689460764      -45.6303011      0.71491011       43.5822888       
713.92           0.72193156       43.0106868       0.682198084      -46.2086362      0.682198084      -46.2086362      0.72193156       43.0106868       
727.63           0.728754198      42.4493229       0.674999453      -46.7764895      0.674999453      -46.7764895      0.728754198      42.4493229       
741.34           0.73538368       41.8980061       0.66786664       -47.3340622      0.66786664       -47.3340622      0.73538368       41.8980061       
755.05           0.741825559      41.3565454       0.660801195      -47.8815548      0.660801195      -47.8815548      0.741825559      41.3565454       
768.76           0.748085284      40.82475         0.653804466      -48.419167       0.653804466      -48.419167       0.748085284      40.82475         
782.47           0.754168194      40.3024296       0.646877609      -48.9470972      0.646877609      -48.9470972      0.754168194      40.3024296       
796.18           0.760079511      39.7893953       0.640021602      -49.4655421      0.640021602      -49.4655421      0.760079511      39.7893953       
809.89           0.765824342      39.2854594       0.633237257      -49.9746967      0.633237257      -49.9746967      0.765824342      39.2854594       
823.6            0.771407674      38.7904356       0.626525232      -50.474754       0.626525232      -50.474754       0.771407674      38.7904356       
837.31           0.776834372      38.3041399       0.61988604       -50.9659044      0.61988604       -50.9659044      0.776834372      38.3041399       
851.02           0.782109176      37.8263899       0.613320063      -51.4483362      0.613320063      -51.4483362      0.782109176      37.8263899       
864.73           0.787236705      37.3570057       0.60682756       -51.9222349      0.60682756       -51.9222349      0.787236705      37.3570057       
878.44           0.792221455      36.89581         0.600408677      -52.3877832      0.600408677      -52.3877832      0.792221455      36.89581         
892.15           0.797067799      36.4426276       0.594063452      -52.845161       0.594063452      -52.845161       0.797067799      36.4426276       
905.86           0.801779986      35.9972864       0.587791832      -53.2945452      0.587791832      -53.2945452      0.801779986      35.9972864       
919.57           0.806362145      35.5596168       0.581593672      -53.7361097      0.581593672      -53.7361097      0.806362145      35.5596168       
933.28           0.810818285      35.1294523       0.575468748      -54.1700253      0.575468748      -54.1700253      0.810818285      35.1294523       
946.99           0.815152298      34.706629        0.569416762      -54.5964595      0.569416762      -54.5964595      0.815152298      34.706629        
960.7            0.819367958      34.2909863       0.563437347      -55.0155767      0.563437347      -55.0155767      0.819367958      34.2909863       
974.41           0.823468926      33.8823666       0.557530076      -55.4275381      0.557530076      -55.4275381      0.823468926      33.8823666       
988.12           0.827458749      33.480615        0.551694469      -55.8325015      0.551694469      -55.8325015      0.827458749      33.480615        
1001.83          0.831340866      33.0855802       0.545929991      -56.2306216      0.545929991      -56.2306216      0.831340866      33.0855802       
1015.54          0.835118609      32.6971135       0.540236066      -56.6220498      0.540236066      -56.6220498      0.835118609      32.6971135       
1029.25          0.838795202      32.3150695       0.534612075      -57.0069341      0.534612075      -57.0069341      0.838795202      32.3150695       
1042.96          0.842373769      31.939306        0.529057364      -57.3854195      0.529057364      -57.3854195      0.842373769      31.939306        
1056.67          0.845857334      31.5696835       0.523571248      -57.7576477      0.523571248      -57.7576477      0.845857334      31.5696835       
1070.38          0.849248822      31.206066        0.518153011      -58.1237573      0.518153011      -58.1237573      0.849248822      31.206066        
1084.09          0.852551065      30.8483202       0.512801913      -58.4838835      0.512801913      -58.4838835      0.852551065      30.8483202       
1097.8           0.855766803      30.4963157       0.507517194      -58.8381586      0.507517194      -58.8381586      0.855766803      30.4963157       
1111.51          0.858898685      30.1499255       0.502298074      -59.1867118      0.502298074      -59.1867118      0.858898685      30.1499255       
1125.22          0.861949274      29.809025        0.497143755      -59.5296692      0.497143755      -59.5296692      0.861949274      29.809025        
1138.93          0.864921049      29.4734928       0.49205343       -59.8671541      0.49205343       -59.8671541      0.864921049      29.4734928       
1152.64          0.867816406      29.1432104       0.487026276      -60.1992867      0.487026276      -60.1992867      0.867816406      29.1432104       
1166.35          0.870637665      28.8180617       0.482061466      -60.5261842      0.482061466      -60.5261842      0.870637665      28.8180617       
1180.06          0.873387064      28.4979337       0.477158161      -60.8479613      0.477158161      -60.8479613      0.873387064      28.4979337       
1193.77          0.876066772      28.182716        0.47231552       -61.1647295      0.47231552       -61.1647295      0.876066772      28.182716        
1207.48          0.878678882      27.8723008       0.467532697      -61.476598       0.467532697      -61.476598       0.878678882      27.8723008       
1221.19          0.881225421      27.5665829       0.462808846      -61.7836731      0.462808846      -61.7836731      0.881225421      27.5665829       
1234.9           0.883708345      27.2654597       0.458143119      -62.0860584      0.458143119      -62.0860584      0.883708345      27.2654597       
1248.61          0.886129547      26.968831        0.453534668      -62.3838551      0.453534668      -62.3838551      0.886129547      26.968831        
1262.32          0.888490858      26.6765992       0.448982648      -62.6771618      0.448982648      -62.6771618      0.888490858      26.6765992       
1276.03          0.890794045      26.3886689       0.444486217      -62.9660747      0.444486217      -62.9660747      0.890794045      26.3886689       
1289.74          0.89304082       26.1049471       0.440044535      -63.2506876      0.440044535      -63.2506876      0.89304082       26.1049471       
1303.45          0.895232834      25.8253432       0.43565677       -63.5310918      0.43565677       -63.5310918      0.895232834      25.8253432       
1317.16          0.897371688      25.5497686       0.431322092      -63.8073766      0.431322092      -63.8073766      0.897371688      25.5497686       
1330.87          0.899458925      25.2781371       0.427039681      -64.0796288      0.427039681      -64.0796288      0.899458925      25.2781371       
1344.58          0.901496041      25.0103645       0.422808719      -64.3479332      0.422808719      -64.3479332      0.901496041      25.0103645       
1358.29          0.903484481      24.7463688       0.4186284        -64.6123724      0.4186284        -64.6123724      0.903484481      24.7463688       
1372             0.905425642      24.4860697       0.414497924      -64.8730267      0.414497924      -64.8730267      0.905425642      24.4860697       
1385.71          0.907320875      24.2293894       0.410416499      -65.1299748      0.410416499      -65.1299748      0.907320875      24.2293894       
1399.42          0.909171487      23.9762515       0.406383342      -65.3832932      0.406383342      -65.3832932      0.909171487      23.9762515       
1413.13          0.910978742      23.7265819       0.40239768       -65.6330563      0.40239768       -65.6330563      0.910978742      23.7265819       
1426.84          0.912743864      23.4803081       0.398458747      -65.879337       0.398458747      -65.879337       0.912743864      23.4803081       
1440.55          0.914468034      23.2373594       0.394565791      -66.1222061      0.394565791      -66.1222061      0.914468034      23.2373594       
1454.26          0.916152397      22.9976669       0.390718065      -66.3617326      0.390718065      -66.3617326      0.916152397      22.9976669       
1467.97          0.91779806       22.7611633       0.386914835      -66.5979839      0.386914835      -66.5979839      0.91779806       22.7611633       
1481.68          0.919406095      22.5277832       0.383155377      -66.8310257      0.383155377      -66.8310257      0.919406095      22.5277832       
1495.39          0.920977538      22.2974626       0.379438976      -67.0609219      0.379438976      -67.0609219      0.920977538      22.2974626       
1509.1           0.922513393      22.070139        0.375764929      -67.2877349      0.375764929      -67.2877349      0.922513393      22.070139        
1522.81          0.92401463       21.8457516       0.372132542      -67.5115255      0.372132542      -67.5115255      0.92401463       21.8457516       
1536.52          0.92548219       21.6242411       0.368541132      -67.7323532      0.368541132      -67.7323532      0.92548219       21.6242411       
1550.23          0.926916983      21.4055494       0.364990028      -67.9502755      0.364990028      -67.9502755      0.926916983      21.4055494       
1563.94          0.928319891      21.1896201       0.361478568      -68.165349       0.361478568      -68.165349       0.928319891      21.1896201       
1577.65          0.929691765      20.9763981       0.358006101      -68.3776285      0.358006101      -68.3776285      0.929691765      20.9763981       
1591.36          0.931033433      20.7658294       0.354571986      -68.5871676      0.354571986      -68.5871676      0.931033433      20.7658294       
1605.07          0.932345694      20.5578617       0.351175594      -68.7940186      0.351175594      -68.7940186      0.932345694      20.5578617       
1618.78          0.933629324      20.3524437       0.347816305      -68.9982325      0.347816305      -68.9982325      0.933629324      20.3524437       
1632.49          0.934885075      20.1495253       0.34449351       -69.1998588      0.34449351       -69.1998588      0.934885075      20.1495253       
1646.2           0.936113672      19.9490577       0.34120661       -69.398946       0.34120661       -69.398946       0.936113672      19.9490577       
1659.91          0.937315822      19.7509934       0.337955016      -69.5955413      0.337955016      -69.5955413      0.937315822      19.7509934       
1673.62          0.938492208      19.5552858       0.334738151      -69.7896909      0.334738151      -69.7896909      0.938492208      19.5552858       
1687.33          0.939643491      19.3618894       0.331555445      -69.9814396      0.331555445      -69.9814396      0.939643491      19.3618894       
1701.04          0.940770313      19.1707601       0.328406341      -70.1708312      0.328406341      -70.1708312      0.940770313      19.1707601       
1714.75          0.941873297      18.9818544       0.32529029       -70.3579085      0.32529029       -70.3579085      0.941873297      18.9818544       
1728.46          0.942953046      18.7951303       0.322206752      -70.542713       0.322206752      -70.542713       0.942953046      18.7951303       
1742.17          0.944010145      18.6105463       0.319155199      -70.7252856      0.319155199      -70.7252856      0.944010145      18.6105463       
