! Coilcraft 0603CS-30N Chip Inductor				
! 21 May 2002			
# MHZ S MA R 50
!Freq             MagS11           AngS11           MagS21           AngS21           MagS12           AngS12           MagS22           AngS22
1                0.00205113837    66.5610723       0.999185888      -0.107912147     0.999185888      -0.107912147     0.00205113837    66.5610723       
12.22            0.0230930384     82.8757416       0.997399226      -1.31645774      0.997399226      -1.31645774      0.0230930384     82.8757416       
23.44            0.0441158935     83.3769174       0.995876394      -2.52199658      0.995876394      -2.52199658      0.0441158935     83.3769174       
34.66            0.0650632018     82.9390098       0.994101265      -3.72414842      0.994101265      -3.72414842      0.0650632018     82.9390098       
45.88            0.0859111963     82.1964693       0.991993583      -4.92217821      0.991993583      -4.92217821      0.0859111963     82.1964693       
57.1             0.106636434      81.3135831       0.989525886      -6.11527064      0.989525886      -6.11527064      0.106636434      81.3135831       
68.32            0.127215739      80.3547014       0.986688553      -7.30258805      0.986688553      -7.30258805      0.127215739      80.3547014       
79.54            0.147626476      79.3511104       0.983480443      -8.48329439      0.983480443      -8.48329439      0.147626476      79.3511104       
90.76            0.167846773      78.3202767       0.979905347      -9.65656841      0.979905347      -9.65656841      0.167846773      78.3202767       
101.98           0.187855695      77.2729596       0.975970323      -10.8216122      0.975970323      -10.8216122      0.187855695      77.2729596       
113.2            0.207633385      76.2162988       0.971684789      -11.9776572      0.971684789      -11.9776572      0.207633385      76.2162988       
124.42           0.227161175      75.1553172       0.967059959      -13.1239691      0.967059959      -13.1239691      0.227161175      75.1553172       
135.64           0.246421669      74.093717        0.962108459      -14.2598513      0.962108459      -14.2598513      0.246421669      74.093717        
146.86           0.265398812      73.0343314       0.956844034      -15.3846475      0.956844034      -15.3846475      0.265398812      73.0343314       
158.08           0.284077931      71.9793945       0.951281314      -16.4977442      0.951281314      -16.4977442      0.284077931      71.9793945       
169.3            0.302445769      70.9307099       0.945435614      -17.5985721      0.945435614      -17.5985721      0.302445769      70.9307099       
180.52           0.320490496      69.8897605       0.939322764      -18.686607       0.939322764      -18.686607       0.320490496      69.8897605       
191.74           0.338201704      68.857782        0.932958951      -19.7613705      0.932958951      -19.7613705      0.338201704      68.857782        
202.96           0.355570395      67.8358145       0.926360584      -20.8224302      0.926360584      -20.8224302      0.355570395      67.8358145       
214.18           0.372588953      66.8247383       0.919544165      -21.8693991      0.919544165      -21.8693991      0.372588953      66.8247383       
225.4            0.389251107      65.8253006       0.912526178      -22.9019357      0.912526178      -22.9019357      0.389251107      65.8253006       
236.62           0.405551882      64.838136        0.905322985      -23.9197422      0.905322985      -23.9197422      0.405551882      64.838136        
247.84           0.421487548      63.8637812       0.897950737      -24.9225642      0.897950737      -24.9225642      0.421487548      63.8637812       
259.06           0.437055557      62.902688        0.890425292      -25.9101889      0.890425292      -25.9101889      0.437055557      62.902688        
270.28           0.452254479      61.9552324       0.882762144      -26.8824433      0.882762144      -26.8824433      0.452254479      61.9552324       
281.5            0.467083933      61.0217232       0.874976365      -27.8391933      0.874976365      -27.8391933      0.467083933      61.0217232       
292.72           0.481544515      60.102409        0.867082551      -28.7803407      0.867082551      -28.7803407      0.481544515      60.102409        
303.94           0.495637727      59.1974837       0.859094779      -29.7058223      0.859094779      -29.7058223      0.495637727      59.1974837       
315.16           0.509365899      58.3070924       0.851026577      -30.6156074      0.851026577      -30.6156074      0.509365899      58.3070924       
326.38           0.522732121      57.4313355       0.842890891      -31.5096956      0.842890891      -31.5096956      0.522732121      57.4313355       
337.6            0.535740172      56.570273        0.834700071      -32.3881151      0.834700071      -32.3881151      0.535740172      56.570273        
348.82           0.548394443      55.7239286       0.826465855      -33.2509206      0.826465855      -33.2509206      0.548394443      55.7239286       
360.04           0.560699878      54.8922929       0.818199362      -34.0981908      0.818199362      -34.0981908      0.560699878      54.8922929       
371.26           0.572661902      54.0753266       0.80991109       -34.9300272      0.80991109       -34.9300272      0.572661902      54.0753266       
382.48           0.584286364      53.2729635       0.801610921      -35.7465512      0.801610921      -35.7465512      0.584286364      53.2729635       
393.7            0.595579475      52.4851135       0.793308125      -36.547903       0.793308125      -36.547903       0.595579475      52.4851135       
404.92           0.606547755      51.7116647       0.78501137       -37.3342395      0.78501137       -37.3342395      0.606547755      51.7116647       
416.14           0.617197981      50.9524858       0.776728738      -38.1057325      0.776728738      -38.1057325      0.617197981      50.9524858       
427.36           0.627537138      50.2074286       0.76846774       -38.8625669      0.76846774       -38.8625669      0.627537138      50.2074286       
438.58           0.637572377      49.4763299       0.760235333      -39.6049395      0.760235333      -39.6049395      0.637572377      49.4763299       
449.8            0.64731097       48.759013        0.752037937      -40.3330572      0.752037937      -40.3330572      0.64731097       48.759013        
461.02           0.656760277      48.0552899       0.743881462      -41.047136       0.743881462      -41.047136       0.656760277      48.0552899       
472.24           0.665927713      47.3649628       0.735771324      -41.7473992      0.735771324      -41.7473992      0.665927713      47.3649628       
483.46           0.67482071       46.6878252       0.727712471      -42.4340764      0.727712471      -42.4340764      0.67482071       46.6878252       
494.68           0.683446698      46.0236637       0.719709404      -43.1074025      0.719709404      -43.1074025      0.683446698      46.0236637       
505.9            0.691813078      45.3722589       0.711766199      -43.7676165      0.711766199      -43.7676165      0.691813078      45.3722589       
517.12           0.699927194      44.7333869       0.703886532      -44.4149606      0.703886532      -44.4149606      0.699927194      44.7333869       
528.34           0.707796325      44.1068198       0.696073698      -45.0496793      0.696073698      -45.0496793      0.707796325      44.1068198       
539.56           0.715427657      43.4923272       0.68833064       -45.6720186      0.68833064       -45.6720186      0.715427657      43.4923272       
550.78           0.722828276      42.8896766       0.680659961      -46.2822254      0.680659961      -46.2822254      0.722828276      42.8896766       
562              0.730005152      42.2986345       0.673063953      -46.8805463      0.673063953      -46.8805463      0.730005152      42.2986345       
573.22           0.73696513       41.7189669       0.665544614      -47.467228       0.665544614      -47.467228       0.73696513       41.7189669       
584.44           0.743714918      41.1504399       0.658103668      -48.0425156      0.658103668      -48.0425156      0.743714918      41.1504399       
595.66           0.750261083      40.5928204       0.650742585      -48.6066531      0.650742585      -48.6066531      0.750261083      40.5928204       
606.88           0.756610046      40.0458765       0.643462594      -49.1598822      0.643462594      -49.1598822      0.756610046      40.0458765       
618.1            0.762768072      39.509378        0.63626471       -49.7024425      0.63626471       -49.7024425      0.762768072      39.509378        
629.32           0.76874127       38.9830968       0.629149741      -50.2345708      0.629149741      -50.2345708      0.76874127       38.9830968       
640.54           0.774535592      38.4668071       0.622118306      -50.756501       0.622118306      -50.756501       0.774535592      38.4668071       
651.76           0.780156828      37.9602858       0.615170855      -51.2684638      0.615170855      -51.2684638      0.780156828      37.9602858       
662.98           0.785610608      37.463313        0.608307676      -51.7706864      0.608307676      -51.7706864      0.785610608      37.463313        
674.2            0.7909024        36.9756717       0.60152891       -52.2633922      0.60152891       -52.2633922      0.7909024        36.9756717       
685.42           0.79603751       36.4971485       0.594834565      -52.7468011      0.594834565      -52.7468011      0.79603751       36.4971485       
696.64           0.801021088      36.0275333       0.588224529      -53.2211289      0.588224529      -53.2211289      0.801021088      36.0275333       
707.86           0.805858124      35.5666199       0.581698575      -53.6865874      0.581698575      -53.6865874      0.805858124      35.5666199       
719.08           0.810553453      35.1142058       0.575256376      -54.1433843      0.575256376      -54.1433843      0.810553453      35.1142058       
730.3            0.815111755      34.6700924       0.568897514      -54.5917231      0.568897514      -54.5917231      0.815111755      34.6700924       
741.52           0.819537561      34.234085        0.562621486      -55.0318031      0.562621486      -55.0318031      0.819537561      34.234085        
752.74           0.823835255      33.8059929       0.556427716      -55.4638193      0.556427716      -55.4638193      0.823835255      33.8059929       
763.96           0.828009074      33.3856295       0.55031556       -55.8879624      0.55031556       -55.8879624      0.828009074      33.3856295       
775.18           0.832063115      32.972812        0.544284313      -56.304419       0.544284313      -56.304419       0.832063115      32.972812        
786.4            0.836001338      32.5673619       0.538333219      -56.7133713      0.538333219      -56.7133713      0.836001338      32.5673619       
797.62           0.839827568      32.1691045       0.532461471      -57.1149972      0.532461471      -57.1149972      0.839827568      32.1691045       
808.84           0.843545498      31.7778694       0.526668223      -57.5094705      0.526668223      -57.5094705      0.843545498      31.7778694       
820.06           0.847158695      31.3934899       0.520952592      -57.896961       0.520952592      -57.896961       0.847158695      31.3934899       
831.28           0.850670603      31.0158033       0.515313662      -58.277634       0.515313662      -58.277634       0.850670603      31.0158033       
842.5            0.854084546      30.6446511       0.50975049       -58.651651       0.50975049       -58.651651       0.854084546      30.6446511       
853.72           0.857403731      30.2798782       0.504262111      -59.0191694      0.504262111      -59.0191694      0.857403731      30.2798782       
864.94           0.860631254      29.9213336       0.498847538      -59.3803427      0.498847538      -59.3803427      0.860631254      29.9213336       
876.16           0.8637701        29.5688701       0.493505771      -59.7353204      0.493505771      -59.7353204      0.8637701        29.5688701       
887.38           0.866823151      29.2223439       0.488235794      -60.0842483      0.488235794      -60.0842483      0.866823151      29.2223439       
898.6            0.869793185      28.8816152       0.483036583      -60.4272684      0.483036583      -60.4272684      0.869793185      28.8816152       
909.82           0.872682884      28.5465473       0.477907105      -60.764519       0.477907105      -60.764519       0.872682884      28.5465473       
921.04           0.875494832      28.2170075       0.472846323      -61.0961349      0.472846323      -61.0961349      0.875494832      28.2170075       
932.26           0.878231523      27.8928661       0.467853198      -61.4222473      0.467853198      -61.4222473      0.878231523      27.8928661       
943.48           0.880895362      27.573997        0.462926687      -61.7429839      0.462926687      -61.7429839      0.880895362      27.573997        
954.7            0.88348867       27.2602772       0.458065751      -62.0584692      0.458065751      -62.0584692      0.88348867       27.2602772       
965.92           0.886013683      26.9515871       0.453269352      -62.3688242      0.453269352      -62.3688242      0.886013683      26.9515871       
977.14           0.888472558      26.64781         0.448536457      -62.6741668      0.448536457      -62.6741668      0.888472558      26.64781         
988.36           0.890867377      26.3488324       0.443866037      -62.9746118      0.443866037      -62.9746118      0.890867377      26.3488324       
999.58           0.893200148      26.0545437       0.43925707       -63.2702709      0.43925707       -63.2702709      0.893200148      26.0545437       
1010.8           0.895472805      25.7648363       0.434708542      -63.5612529      0.434708542      -63.5612529      0.895472805      25.7648363       
1022.02          0.897687217      25.4796055       0.430219447      -63.8476634      0.430219447      -63.8476634      0.897687217      25.4796055       
1033.24          0.899845186      25.198749        0.42578879       -64.1296055      0.42578879       -64.1296055      0.899845186      25.198749        
1044.46          0.901948448      24.9221676       0.421415583      -64.4071794      0.421415583      -64.4071794      0.901948448      24.9221676       
1055.68          0.903998682      24.6497645       0.417098852      -64.6804826      0.417098852      -64.6804826      0.903998682      24.6497645       
1066.9           0.905997505      24.3814455       0.412837632      -64.94961        0.412837632      -64.94961        0.905997505      24.3814455       
1078.12          0.907946477      24.117119        0.408630972      -65.214654       0.408630972      -65.214654       0.907946477      24.117119        
1089.34          0.909847106      23.8566956       0.404477931      -65.4757045      0.404477931      -65.4757045      0.909847106      23.8566956       
1100.56          0.911700846      23.6000885       0.400377583      -65.732849       0.400377583      -65.732849       0.911700846      23.6000885       
1111.78          0.913509099      23.347213        0.396329012      -65.9861725      0.396329012      -65.9861725      0.913509099      23.347213        
1123             0.915273221      23.0979866       0.392331318      -66.235758       0.392331318      -66.235758       0.915273221      23.0979866       
1134.22          0.916994519      22.8523292       0.388383614      -66.4816861      0.388383614      -66.4816861      0.916994519      22.8523292       
1145.44          0.918674255      22.6101626       0.384485026      -66.7240353      0.384485026      -66.7240353      0.918674255      22.6101626       
1156.66          0.92031365       22.3714107       0.380634693      -66.9628818      0.380634693      -66.9628818      0.92031365       22.3714107       
1167.88          0.92191388       22.1359994       0.376831768      -67.1983002      0.376831768      -67.1983002      0.92191388       22.1359994       
1179.1           0.923476083      21.9038565       0.373075421      -67.4303628      0.373075421      -67.4303628      0.923476083      21.9038565       
1190.32          0.925001357      21.6749118       0.369364831      -67.6591399      0.369364831      -67.6591399      0.925001357      21.6749118       
1201.54          0.926490763      21.4490969       0.365699194      -67.8847003      0.365699194      -67.8847003      0.926490763      21.4490969       
1212.76          0.927945327      21.2263449       0.36207772       -68.1071106      0.36207772       -68.1071106      0.927945327      21.2263449       
1223.98          0.92936604       21.006591        0.358499631      -68.3264358      0.358499631      -68.3264358      0.92936604       21.006591        
1235.2           0.930753858      20.7897719       0.354964165      -68.5427393      0.354964165      -68.5427393      0.930753858      20.7897719       
1246.42          0.932109707      20.5758259       0.351470571      -68.7560826      0.351470571      -68.7560826      0.932109707      20.5758259       
1257.64          0.933434483      20.364693        0.348018113      -68.9665256      0.348018113      -68.9665256      0.933434483      20.364693        
1268.86          0.934729049      20.1563146       0.34460607       -69.1741269      0.34460607       -69.1741269      0.934729049      20.1563146       
1280.08          0.935994243      19.9506336       0.341233732      -69.3789433      0.341233732      -69.3789433      0.935994243      19.9506336       
1291.3           0.937230873      19.7475946       0.337900403      -69.5810302      0.337900403      -69.5810302      0.937230873      19.7475946       
1302.52          0.938439722      19.5471433       0.3346054        -69.7804414      0.3346054        -69.7804414      0.938439722      19.5471433       
1313.74          0.939621546      19.3492269       0.331348052      -69.9772297      0.331348052      -69.9772297      0.939621546      19.3492269       
1324.96          0.940777077      19.1537939       0.328127704      -70.171446       0.328127704      -70.171446       0.940777077      19.1537939       
1336.18          0.941907025      18.9607942       0.324943709      -70.3631404      0.324943709      -70.3631404      0.941907025      18.9607942       
1347.4           0.943012073      18.7701788       0.321795435      -70.5523612      0.321795435      -70.5523612      0.943012073      18.7701788       
1358.62          0.944092888      18.5818999       0.318682262      -70.7391559      0.318682262      -70.7391559      0.944092888      18.5818999       
1369.84          0.945150109      18.3959112       0.315603582      -70.9235705      0.315603582      -70.9235705      0.945150109      18.3959112       
1381.06          0.94618436       18.2121671       0.312558798      -71.1056498      0.312558798      -71.1056498      0.94618436       18.2121671       
1392.28          0.947196243      18.0306235       0.309547326      -71.2854377      0.309547326      -71.2854377      0.947196243      18.0306235       
1403.5           0.948186341      17.8512372       0.306568591      -71.4629767      0.306568591      -71.4629767      0.948186341      17.8512372       
1414.72          0.949155218      17.673966        0.303622033      -71.6383084      0.303622033      -71.6383084      0.949155218      17.673966        
1425.94          0.950103422      17.498769        0.300707098      -71.8114731      0.300707098      -71.8114731      0.950103422      17.498769        
