! Coilcraft 0603CS-R21 Chip Inductor				
! 1 August 2002			
# MHZ S MA R 50
!Freq             MagS11           AngS11           MagS21           AngS21           MagS12           AngS12           MagS22           AngS22
1                0.0142106967     65.3606595       0.994159405      -0.744447754     0.994159405      -0.744447754     0.0142106967     65.3606595       
5.99             0.0780266278     76.8618785       0.985199148      -4.42337583      0.985199148      -4.42337583      0.0780266278     76.8618785       
10.98            0.140730896      75.7081154       0.974845132      -8.04173566      0.974845132      -8.04173566      0.140730896      75.7081154       
15.97            0.201539269      73.3147869       0.961711423      -11.5802255      0.961711423      -11.5802255      0.201539269      73.3147869       
20.96            0.259903563      70.5676722       0.945840118      -15.0186107      0.945840118      -15.0186107      0.259903563      70.5676722       
25.95            0.31538979       67.7205465       0.927538043      -18.3393444      0.927538043      -18.3393444      0.31538979       67.7205465       
30.94            0.36768654       64.8812293       0.907210233      -21.5285582      0.907210233      -21.5285582      0.36768654       64.8812293       
35.93            0.416603483      62.1052734       0.88529309       -24.5763185      0.88529309       -24.5763185      0.416603483      62.1052734       
40.92            0.462060502      59.4239531       0.862216111      -27.4764859      0.862216111      -27.4764859      0.462060502      59.4239531       
45.91            0.50407095       56.8551153       0.838378091      -30.2263343      0.838378091      -30.2263343      0.50407095       56.8551153       
50.9             0.542722346      54.4082891       0.81413325       -32.8260414      0.81413325       -32.8260414      0.542722346      54.4082891       
55.89            0.578157085      52.0875016       0.789784727      -35.2781312      0.789784727      -35.2781312      0.578157085      52.0875016       
60.88            0.610554871      49.8930281       0.765583411      -37.5869293      0.765583411      -37.5869293      0.610554871      49.8930281       
65.87            0.640117814      47.822576        0.741730374      -39.7580658      0.741730374      -39.7580658      0.640117814      47.822576        
70.86            0.667058484      45.8721252       0.718381483      -41.798048       0.718381483      -41.798048       0.667058484      45.8721252       
75.85            0.691590856      44.0365406       0.695653101      -43.7139074      0.695653101      -43.7139074      0.691590856      44.0365406       
80.84            0.713923785      42.3100207       0.673628081      -45.5129196      0.673628081      -45.5129196      0.713923785      42.3100207       
85.83            0.734256613      40.6864247       0.652361566      -47.2023908      0.652361566      -47.2023908      0.734256613      40.6864247       
90.82            0.752776432      39.1595088       0.631886292      -48.7894998      0.631886292      -48.7894998      0.752776432      39.1595088       
95.81            0.769656626      37.7230923       0.612217235      -50.2811871      0.612217235      -50.2811871      0.769656626      37.7230923       
100.8            0.785056323      36.3711719       0.593355596      -51.6840813      0.593355596      -51.6840813      0.785056323      36.3711719       
105.79           0.799120492      35.0979959       0.575292106      -53.004453       0.575292106      -53.004453       0.799120492      35.0979959       
110.78           0.811980465      33.8981101       0.558009747      -54.2481917      0.558009747      -54.2481917      0.811980465      33.8981101       
115.77           0.823754718      32.7663823       0.541485933      -55.4207977      0.541485933      -55.4207977      0.823754718      32.7663823       
120.76           0.834549801      31.6980112       0.525694249      -56.5273859      0.525694249      -56.5273859      0.834549801      31.6980112       
125.75           0.844461323      30.6885253       0.510605811      -57.572697       0.510605811      -57.572697       0.844461323      30.6885253       
130.74           0.853574952      29.7337738       0.496190319      -58.561114       0.496190319      -58.561114       0.853574952      29.7337738       
135.73           0.861967376      28.8299137       0.482416861      -59.4966819      0.482416861      -59.4966819      0.861967376      28.8299137       
140.72           0.869707214      27.9733927       0.469254517      -60.3831292      0.469254517      -60.3831292      0.869707214      27.9733927       
145.71           0.876855859      27.1609321       0.456672804      -61.2238892      0.456672804      -61.2238892      0.876855859      27.1609321       
150.7            0.883468256      26.3895079       0.444641996      -62.0221224      0.444641996      -62.0221224      0.883468256      26.3895079       
155.69           0.889593602      25.6563325       0.433133349      -62.7807372      0.433133349      -62.7807372      0.889593602      25.6563325       
160.68           0.895275976      24.9588367       0.422119249      -63.5024103      0.422119249      -63.5024103      0.895275976      24.9588367       
165.67           0.900554906      24.2946524       0.411573304      -64.1896055      0.411573304      -64.1896055      0.900554906      24.2946524       
170.66           0.905465876      23.6615967       0.401470392      -64.8445917      0.401470392      -64.8445917      0.905465876      23.6615967       
175.65           0.910040771      23.0576564       0.391786674      -65.4694592      0.391786674      -65.4694592      0.910040771      23.0576564       
180.64           0.914308276      22.4809739       0.38249959       -66.0661351      0.38249959       -66.0661351      0.914308276      22.4809739       
185.63           0.918294233      21.9298344       0.373587829      -66.6363973      0.373587829      -66.6363973      0.918294233      21.9298344       
190.62           0.922021945      21.4026537       0.365031292      -67.181887       0.365031292      -67.181887       0.922021945      21.4026537       
195.61           0.925512459      20.897967        0.356811046      -67.7041208      0.356811046      -67.7041208      0.925512459      20.897967        
200.6            0.928784807      20.4144191       0.348909271      -68.2045011      0.348909271      -68.2045011      0.928784807      20.4144191       
205.59           0.931856223      19.9507552       0.341309209      -68.6843259      0.341309209      -68.6843259      0.931856223      19.9507552       
210.58           0.934742334      19.5058121       0.333995102      -69.144798       0.333995102      -69.144798       0.934742334      19.5058121       
215.57           0.937457326      19.0785109       0.326952142      -69.5870323      0.326952142      -69.5870323      0.937457326      19.0785109       
220.56           0.9400141        18.6678499       0.320166411      -70.0120641      0.320166411      -70.0120641      0.9400141        18.6678499       
225.55           0.942424398      18.2728983       0.313624831      -70.4208548      0.313624831      -70.4208548      0.942424398      18.2728983       
230.54           0.944698924      17.8927901       0.30731511       -70.8142986      0.30731511       -70.8142986      0.944698924      17.8927901       
235.53           0.946847452      17.5267193       0.301225694      -71.1932279      0.301225694      -71.1932279      0.946847452      17.5267193       
240.52           0.94887891       17.1739346       0.29534572       -71.558418       0.29534572       -71.558418       0.94887891       17.1739346       
245.51           0.950801472      16.8337355       0.289664973      -71.910592       0.289664973      -71.910592       0.950801472      16.8337355       
250.5            0.952622626      16.505468        0.284173838      -72.2504248      0.284173838      -72.2504248      0.952622626      16.505468        
255.49           0.954349243      16.188521        0.278863271      -72.578547       0.278863271      -72.578547       0.954349243      16.188521        
260.48           0.955987633      15.8823228       0.273724751      -72.8955481      0.273724751      -72.8955481      0.955987633      15.8823228       
265.47           0.957543598      15.5863387       0.268750256      -73.2019799      0.268750256      -73.2019799      0.957543598      15.5863387       
270.46           0.959022483      15.3000674       0.263932221      -73.4983594      0.263932221      -73.4983594      0.959022483      15.3000674       
275.45           0.960429212      15.0230391       0.259263517      -73.785171       0.259263517      -73.785171       0.960429212      15.0230391       
280.44           0.96176833       14.7548129       0.254737415      -74.0628695      0.254737415      -74.0628695      0.96176833       14.7548129       
285.43           0.963044035      14.4949747       0.250347565      -74.331882       0.250347565      -74.331882       0.963044035      14.4949747       
290.42           0.964260211      14.2431353       0.24608797       -74.5926097      0.24608797       -74.5926097      0.964260211      14.2431353       
295.41           0.965420451      13.9989285       0.241952963      -74.8454301      0.241952963      -74.8454301      0.965420451      13.9989285       
300.4            0.966528088      13.7620096       0.237937187      -75.0906987      0.237937187      -75.0906987      0.966528088      13.7620096       
305.39           0.967586211      13.5320539       0.234035574      -75.3287503      0.234035574      -75.3287503      0.967586211      13.5320539       
310.38           0.968597691      13.3087553       0.230243328      -75.5599004      0.230243328      -75.5599004      0.968597691      13.3087553       
315.37           0.969565195      13.0918247       0.226555905      -75.7844469      0.226555905      -75.7844469      0.969565195      13.0918247       
320.36           0.970491205      12.8809896       0.222969004      -76.002671       0.222969004      -76.002671       0.970491205      12.8809896       
325.35           0.971378033      12.675992        0.219478543      -76.2148384      0.219478543      -76.2148384      0.971378033      12.675992        
330.34           0.972227831      12.4765884       0.216080653      -76.4212004      0.216080653      -76.4212004      0.972227831      12.4765884       
335.33           0.973042611      12.282548        0.212771662      -76.6219946      0.212771662      -76.6219946      0.973042611      12.282548        
340.32           0.973824249      12.0936527       0.209548083      -76.817446       0.209548083      -76.817446       0.973824249      12.0936527       
345.31           0.974574499      11.9096954       0.206406602      -77.007768       0.206406602      -77.007768       0.974574499      11.9096954       
350.3            0.975295001      11.7304801       0.203344071      -77.1931627      0.203344071      -77.1931627      0.975295001      11.7304801       
355.29           0.975987291      11.5558207       0.200357496      -77.3738218      0.200357496      -77.3738218      0.975987291      11.5558207       
360.28           0.976652807      11.3855405       0.197444026      -77.5499273      0.197444026      -77.5499273      0.976652807      11.3855405       
365.27           0.977292898      11.219472        0.194600949      -77.7216523      0.194600949      -77.7216523      0.977292898      11.219472        
370.26           0.97790883       11.0574556       0.191825682      -77.8891608      0.191825682      -77.8891608      0.97790883       11.0574556       
375.25           0.978501791      10.8993396       0.189115763      -78.0526094      0.189115763      -78.0526094      0.978501791      10.8993396       
380.24           0.979072897      10.74498         0.186468844      -78.2121465      0.186468844      -78.2121465      0.979072897      10.74498         
385.23           0.979623198      10.5942392       0.183882687      -78.3679137      0.183882687      -78.3679137      0.979623198      10.5942392       
390.22           0.980153683      10.4469866       0.181355155      -78.5200458      0.181355155      -78.5200458      0.980153683      10.4469866       
395.21           0.980665283      10.3030974       0.178884209      -78.6686712      0.178884209      -78.6686712      0.980665283      10.3030974       
400.2            0.981158873      10.1624528       0.176467899      -78.8139125      0.176467899      -78.8139125      0.981158873      10.1624528       
405.19           0.98163528       10.0249393       0.174104364      -78.9558866      0.174104364      -78.9558866      0.98163528       10.0249393       
410.18           0.982095285      9.89044865       0.171791825      -79.0947049      0.171791825      -79.0947049      0.982095285      9.89044865       
415.17           0.982539624      9.7588775        0.169528578      -79.2304739      0.169528578      -79.2304739      0.982539624      9.7588775        
420.16           0.982968992      9.63012705       0.167312995      -79.3632955      0.167312995      -79.3632955      0.982968992      9.63012705       
425.15           0.983384048      9.50410286       0.165143517      -79.4932669      0.165143517      -79.4932669      0.983384048      9.50410286       
430.14           0.983785414      9.38071462       0.163018649      -79.620481       0.163018649      -79.620481       0.983785414      9.38071462       
435.13           0.984173677      9.25987591       0.160936961      -79.745027       0.160936961      -79.745027       0.984173677      9.25987591       
440.12           0.984549397      9.141504         0.158897081      -79.8669899      0.158897081      -79.8669899      0.984549397      9.141504         
445.11           0.9849131        9.02551968       0.156897696      -79.9864513      0.156897696      -79.9864513      0.9849131        9.02551968       
450.1            0.985265288      8.91184705       0.154937543      -80.1034894      0.154937543      -80.1034894      0.985265288      8.91184705       
455.09           0.985606436      8.80041335       0.153015412      -80.218179       0.153015412      -80.218179       0.985606436      8.80041335       
460.08           0.985936995      8.69114884       0.151130142      -80.330592       0.151130142      -80.330592       0.985936995      8.69114884       
465.07           0.986257392      8.58398657       0.149280616      -80.4407971      0.149280616      -80.4407971      0.986257392      8.58398657       
470.06           0.986568035      8.47886234       0.147465763      -80.5488605      0.147465763      -80.5488605      0.986568035      8.47886234       
475.05           0.98686931       8.37571449       0.145684553      -80.6548456      0.145684553      -80.6548456      0.98686931       8.37571449       
480.04           0.987161584      8.27448378       0.143935996      -80.7588132      0.143935996      -80.7588132      0.987161584      8.27448378       
485.03           0.987445208      8.17511333       0.142219139      -80.8608219      0.142219139      -80.8608219      0.987445208      8.17511333       
490.02           0.987720514      8.07754844       0.140533065      -80.9609278      0.140533065      -80.9609278      0.987720514      8.07754844       
495.01           0.987987819      7.98173652       0.138876894      -81.059185       0.138876894      -81.059185       0.987987819      7.98173652       
500              0.988247425      7.88762701       0.137249777      -81.1556455      0.137249777      -81.1556455      0.988247425      7.88762701       
504.99           0.98849962       7.79517122       0.135650895      -81.2503592      0.135650895      -81.2503592      0.98849962       7.79517122       
509.98           0.98874468       7.70432231       0.134079463      -81.3433743      0.134079463      -81.3433743      0.98874468       7.70432231       
514.97           0.988982865      7.61503517       0.13253472       -81.434737       0.13253472       -81.434737       0.988982865      7.61503517       
519.96           0.989214426      7.52726635       0.131015936      -81.5244918      0.131015936      -81.5244918      0.989214426      7.52726635       
524.95           0.989439602      7.44097398       0.129522405      -81.6126818      0.129522405      -81.6126818      0.989439602      7.44097398       
529.94           0.98965862       7.35611771       0.128053447      -81.6993483      0.128053447      -81.6993483      0.98965862       7.35611771       
534.93           0.989871699      7.27265865       0.126608406      -81.7845311      0.126608406      -81.7845311      0.989871699      7.27265865       
539.92           0.990079047      7.19055925       0.125186648      -81.8682687      0.125186648      -81.8682687      0.990079047      7.19055925       
544.91           0.990280863      7.10978333       0.123787562      -81.9505982      0.123787562      -81.9505982      0.990280863      7.10978333       
549.9            0.990477338      7.03029594       0.122410558      -82.0315552      0.122410558      -82.0315552      0.990477338      7.03029594       
554.89           0.990668654      6.95206336       0.121055064      -82.1111742      0.121055064      -82.1111742      0.990668654      6.95206336       
559.88           0.990854986      6.87505302       0.11972053       -82.1894886      0.11972053       -82.1894886      0.990854986      6.87505302       
564.87           0.991036502      6.79923346       0.118406424      -82.2665304      0.118406424      -82.2665304      0.991036502      6.79923346       
569.86           0.991213362      6.7245743        0.11711223       -82.3423307      0.11711223       -82.3423307      0.991213362      6.7245743        
574.85           0.991385719      6.65104614       0.11583745       -82.4169195      0.11583745       -82.4169195      0.991385719      6.65104614       
579.84           0.99155372       6.5786206        0.114581602      -82.4903255      0.114581602      -82.4903255      0.99155372       6.5786206        
584.83           0.991717508      6.50727021       0.113344222      -82.5625769      0.113344222      -82.5625769      0.991717508      6.50727021       
589.82           0.991877218      6.43696842       0.112124857      -82.6337007      0.112124857      -82.6337007      0.991877218      6.43696842       
594.81           0.99203298       6.36768951       0.110923072      -82.7037229      0.110923072      -82.7037229      0.99203298       6.36768951       
599.8            0.992184918      6.29940862       0.109738443      -82.7726689      0.109738443      -82.7726689      0.992184918      6.29940862       
604.79           0.992333154      6.23210167       0.108570562      -82.8405629      0.108570562      -82.8405629      0.992333154      6.23210167       
609.78           0.992477802      6.16574535       0.107419031      -82.9074288      0.107419031      -82.9074288      0.992477802      6.16574535       
614.77           0.992618974      6.10031708       0.106283466      -82.9732893      0.106283466      -82.9732893      0.992618974      6.10031708       
619.76           0.992756775      6.03579498       0.105163496      -83.0381665      0.105163496      -83.0381665      0.992756775      6.03579498       
624.75           0.992891309      5.97215786       0.104058759      -83.1020819      0.104058759      -83.1020819      0.992891309      5.97215786       
629.74           0.993022674      5.90938518       0.102968905      -83.1650561      0.102968905      -83.1650561      0.993022674      5.90938518       
634.73           0.993150964      5.84745703       0.101893594      -83.2271092      0.101893594      -83.2271092      0.993150964      5.84745703       
