! Coilcraft 0603CS-10N Chip Inductor				
! 21 May 2002			
# MHZ S MA R 50
!Freq             MagS11           AngS11           MagS21           AngS21           MagS12           AngS12           MagS22           AngS22
1                0.000725876253   59.8792708       0.999635935      -0.0359868965    0.999635935      -0.0359868965    0.000725876253   59.8792708       
22.19            0.0139869454     83.697734        0.998561385      -0.797723164     0.998561385      -0.797723164     0.0139869454     83.697734        
43.38            0.0272590526     84.5819264       0.997795234      -1.55847861      0.997795234      -1.55847861      0.0272590526     84.5819264       
64.57            0.0405109128     84.5475074       0.996966604      -2.31826488      0.996966604      -2.31826488      0.0405109128     84.5475074       
85.76            0.0537368292     84.2188311       0.996023042      -3.07694362      0.996023042      -3.07694362      0.0537368292     84.2188311       
106.95           0.066931219      83.7535184       0.994944609      -3.83433981      0.994944609      -3.83433981      0.066931219      83.7535184       
128.14           0.0800884226     83.2123671       0.993721748      -4.59026323      0.993721748      -4.59026323      0.0800884226     83.2123671       
149.33           0.0932027491     82.6244831       0.992349503      -5.3445166       0.992349503      -5.3445166       0.0932027491     82.6244831       
170.52           0.106268523      82.005819        0.990825381      -6.09689958      0.990825381      -6.09689958      0.106268523      82.005819        
191.71           0.119280118      81.3659819       0.989148381      -6.84721108      0.989148381      -6.84721108      0.119280118      81.3659819       
212.9            0.13223199       80.7111785       0.987318505      -7.59525079      0.987318505      -7.59525079      0.13223199       80.7111785       
234.09           0.145118691      80.0456452       0.985336473      -8.34082029      0.985336473      -8.34082029      0.145118691      80.0456452       
255.28           0.157934896      79.3724051       0.983203555      -9.08372385      0.983203555      -9.08372385      0.157934896      79.3724051       
276.47           0.170675412      78.6936972       0.980921453      -9.82376909      0.980921453      -9.82376909      0.170675412      78.6936972       
297.66           0.183335195      78.0112321       0.97849223       -10.5607676      0.97849223       -10.5607676      0.183335195      78.0112321       
318.85           0.195909362      77.3263529       0.975918252      -11.2945352      0.975918252      -11.2945352      0.195909362      77.3263529       
340.04           0.208393199      76.6401385       0.97320214       -12.0248927      0.97320214       -12.0248927      0.208393199      76.6401385       
361.23           0.22078217       75.9534739       0.970346745      -12.7516658      0.970346745      -12.7516658      0.22078217       75.9534739       
382.42           0.233071927      75.2670974       0.967355111      -13.4746857      0.967355111      -13.4746857      0.233071927      75.2670974       
403.61           0.245258314      74.5816348       0.964230457      -14.1937893      0.964230457      -14.1937893      0.245258314      74.5816348       
424.8            0.257337375      73.8976235       0.960976152      -14.9088194      0.960976152      -14.9088194      0.257337375      73.8976235       
445.99           0.269305356      73.2155301       0.957595697      -15.6196247      0.957595697      -15.6196247      0.269305356      73.2155301       
467.18           0.28115871       72.5357642       0.95409271       -16.3260604      0.95409271       -16.3260604      0.28115871       72.5357642       
488.37           0.292894096      71.8586878       0.950470906      -17.0279877      0.950470906      -17.0279877      0.292894096      71.8586878       
509.56           0.304508387      71.1846233       0.946734084      -17.7252747      0.946734084      -17.7252747      0.304508387      71.1846233       
530.75           0.315998667      70.5138596       0.942886115      -18.4177956      0.942886115      -18.4177956      0.315998667      70.5138596       
551.94           0.327362228      69.8466563       0.938930925      -19.1054316      0.938930925      -19.1054316      0.327362228      69.8466563       
573.13           0.338596577      69.1832483       0.934872483      -19.7880701      0.934872483      -19.7880701      0.338596577      69.1832483       
594.32           0.349699425      68.5238479       0.930714792      -20.4656054      0.930714792      -20.4656054      0.349699425      68.5238479       
615.51           0.360668693      67.8686479       0.926461875      -21.1379383      0.926461875      -21.1379383      0.360668693      67.8686479       
636.7            0.371502506      67.2178233       0.922117765      -21.8049763      0.922117765      -21.8049763      0.371502506      67.2178233       
657.89           0.382199189      66.5715331       0.917686496      -22.4666332      0.917686496      -22.4666332      0.382199189      66.5715331       
679.08           0.392757261      65.9299218       0.913172091      -23.1228294      0.913172091      -23.1228294      0.392757261      65.9299218       
700.27           0.403175439      65.2931204       0.908578557      -23.7734917      0.908578557      -23.7734917      0.403175439      65.2931204       
721.46           0.413452622      64.6612476       0.903909871      -24.4185532      0.903909871      -24.4185532      0.413452622      64.6612476       
742.65           0.423587895      64.0344106       0.899169979      -25.0579529      0.899169979      -25.0579529      0.423587895      64.0344106       
763.84           0.433580519      63.4127059       0.894362783      -25.6916362      0.894362783      -25.6916362      0.433580519      63.4127059       
785.03           0.443429925      62.7962202       0.889492139      -26.3195541      0.889492139      -26.3195541      0.443429925      62.7962202       
806.22           0.453135711      62.1850308       0.884561845      -26.9416636      0.884561845      -26.9416636      0.453135711      62.1850308       
827.41           0.462697633      61.5792061       0.879575642      -27.5579273      0.879575642      -27.5579273      0.462697633      61.5792061       
848.6            0.472115599      60.9788063       0.874537205      -28.168313       0.874537205      -28.168313       0.472115599      60.9788063       
869.79           0.481389664      60.3838839       0.869450138      -28.7727941      0.869450138      -28.7727941      0.481389664      60.3838839       
890.98           0.490520022      59.7944841       0.864317972      -29.3713489      0.864317972      -29.3713489      0.490520022      59.7944841       
912.17           0.499506999      59.210645        0.859144161      -29.9639608      0.859144161      -29.9639608      0.499506999      59.210645        
933.36           0.508351049      58.6323982       0.853932078      -30.5506179      0.853932078      -30.5506179      0.508351049      58.6323982       
954.55           0.517052744      58.0597692       0.848685011      -31.131313       0.848685011      -31.131313       0.517052744      58.0597692       
975.74           0.52561277       57.4927775       0.843406164      -31.706043       0.843406164      -31.706043       0.52561277       57.4927775       
996.93           0.534031917      56.9314373       0.838098652      -32.2748095      0.838098652      -32.2748095      0.534031917      56.9314373       
1018.12          0.542311078      56.3757573       0.832765501      -32.8376176      0.832765501      -32.8376176      0.542311078      56.3757573       
1039.31          0.550451237      55.8257415       0.827409648      -33.3944767      0.827409648      -33.3944767      0.550451237      55.8257415       
1060.5           0.558453467      55.2813891       0.822033935      -33.9453998      0.822033935      -33.9453998      0.558453467      55.2813891       
1081.69          0.56631892       54.7426949       0.816641116      -34.4904031      0.816641116      -34.4904031      0.56631892       54.7426949       
1102.88          0.574048825      54.2096496       0.811233849      -35.0295065      0.811233849      -35.0295065      0.574048825      54.2096496       
1124.07          0.58164448       53.6822401       0.805814703      -35.5627329      0.805814703      -35.5627329      0.58164448       53.6822401       
1145.26          0.589107246      53.1604496       0.800386152      -36.090108       0.800386152      -36.090108       0.589107246      53.1604496       
1166.45          0.596438544      52.6442577       0.794950582      -36.6116606      0.794950582      -36.6116606      0.596438544      52.6442577       
1187.64          0.603639846      52.1336411       0.789510284      -37.1274219      0.789510284      -37.1274219      0.603639846      52.1336411       
1208.83          0.610712673      51.6285733       0.784067462      -37.6374258      0.784067462      -37.6374258      0.610712673      51.6285733       
1230.02          0.617658589      51.1290248       0.778624231      -38.1417083      0.778624231      -38.1417083      0.617658589      51.1290248       
1251.21          0.624479198      50.634964        0.773182617      -38.6403076      0.773182617      -38.6403076      0.624479198      50.634964        
1272.4           0.631176135      50.1463563       0.76774456       -39.133264       0.76774456       -39.133264       0.631176135      50.1463563       
1293.59          0.637751069      49.6631653       0.762311917      -39.6206198      0.762311917      -39.6206198      0.637751069      49.6631653       
1314.78          0.644205691      49.1853521       0.756886459      -40.1024186      0.756886459      -40.1024186      0.644205691      49.1853521       
1335.97          0.650541715      48.7128763       0.751469879      -40.5787061      0.751469879      -40.5787061      0.650541715      48.7128763       
1357.16          0.656760876      48.2456953       0.746063786      -41.0495292      0.746063786      -41.0495292      0.656760876      48.2456953       
1378.35          0.66286492       47.7837652       0.740669716      -41.5149361      0.740669716      -41.5149361      0.66286492       47.7837652       
1399.54          0.668855607      47.3270404       0.735289125      -41.9749763      0.735289125      -41.9749763      0.668855607      47.3270404       
1420.73          0.674734706      46.8754739       0.729923399      -42.4297006      0.729923399      -42.4297006      0.674734706      46.8754739       
1441.92          0.68050399       46.4290177       0.724573848      -42.8791604      0.724573848      -42.8791604      0.68050399       46.4290177       
1463.11          0.686165235      45.9876225       0.719241717      -43.3234082      0.719241717      -43.3234082      0.686165235      45.9876225       
1484.3           0.69172022       45.551238        0.713928178      -43.7624975      0.713928178      -43.7624975      0.69172022       45.551238        
1505.49          0.69717072       45.1198132       0.708634341      -44.1964821      0.708634341      -44.1964821      0.69717072       45.1198132       
1526.68          0.702518506      44.693296        0.703361252      -44.6254167      0.703361252      -44.6254167      0.702518506      44.693296        
1547.87          0.707765343      44.2716338       0.698109895      -45.0493564      0.698109895      -45.0493564      0.707765343      44.2716338       
1569.06          0.712912989      43.8547735       0.692881193      -45.4683567      0.692881193      -45.4683567      0.712912989      43.8547735       
1590.25          0.717963191      43.4426612       0.687676014      -45.8824735      0.687676014      -45.8824735      0.717963191      43.4426612       
1611.44          0.722917685      43.0352429       0.68249517       -46.291763       0.68249517       -46.291763       0.722917685      43.0352429       
1632.63          0.727778194      42.6324639       0.677339419      -46.6962817      0.677339419      -46.6962817      0.727778194      42.6324639       
1653.82          0.732546427      42.2342696       0.672209468      -47.096086       0.672209468      -47.096086       0.732546427      42.2342696       
1675.01          0.737224077      41.8406049       0.667105974      -47.4912325      0.667105974      -47.4912325      0.737224077      41.8406049       
1696.2           0.741812821      41.4514146       0.662029548      -47.881778       0.662029548      -47.881778       0.741812821      41.4514146       
1717.39          0.746314318      41.0666437       0.656980753      -48.267779       0.656980753      -48.267779       0.746314318      41.0666437       
1738.58          0.750730208      40.6862367       0.651960112      -48.649292       0.651960112      -48.649292       0.750730208      40.6862367       
1759.77          0.755062113      40.3101386       0.646968103      -49.0263736      0.646968103      -49.0263736      0.755062113      40.3101386       
1780.96          0.759311633      39.9382941       0.642005163      -49.3990798      0.642005163      -49.3990798      0.759311633      39.9382941       
1802.15          0.763480348      39.5706483       0.637071693      -49.7674666      0.637071693      -49.7674666      0.763480348      39.5706483       
1823.34          0.767569817      39.2071464       0.632168057      -50.13159        0.632168057      -50.13159        0.767569817      39.2071464       
1844.53          0.771581576      38.8477337       0.627294582      -50.4915051      0.627294582      -50.4915051      0.771581576      38.8477337       
1865.72          0.77551714       38.4923559       0.622451563      -50.8472673      0.622451563      -50.8472673      0.77551714       38.4923559       
1886.91          0.779378001      38.1409589       0.617639262      -51.1989312      0.617639262      -51.1989312      0.779378001      38.1409589       
1908.1           0.783165626      37.7934888       0.612857911      -51.5465511      0.612857911      -51.5465511      0.783165626      37.7934888       
1929.29          0.786881462      37.4498924       0.608107711      -51.8901811      0.608107711      -51.8901811      0.786881462      37.4498924       
1950.48          0.79052693       37.1101166       0.603388839      -52.2298746      0.603388839      -52.2298746      0.79052693       37.1101166       
1971.67          0.794103429      36.7741087       0.598701441      -52.5656847      0.598701441      -52.5656847      0.794103429      36.7741087       
1992.86          0.797612333      36.4418165       0.594045642      -52.8976638      0.594045642      -52.8976638      0.797612333      36.4418165       
2014.05          0.801054995      36.1131882       0.58942154       -53.225864       0.58942154       -53.225864       0.801054995      36.1131882       
2035.24          0.80443274       35.7881726       0.584829212      -53.5503369      0.584829212      -53.5503369      0.80443274       35.7881726       
2056.43          0.807746873      35.4667187       0.580268713      -53.8711333      0.580268713      -53.8711333      0.807746873      35.4667187       
2077.62          0.810998673      35.1487764       0.575740078      -54.1883038      0.575740078      -54.1883038      0.810998673      35.1487764       
2098.81          0.814189397      34.8342957       0.571243321      -54.501898       0.571243321      -54.501898       0.814189397      34.8342957       
2120             0.817320278      34.5232274       0.56677844       -54.8119654      0.56677844       -54.8119654      0.817320278      34.5232274       
2141.19          0.820392526      34.2155228       0.562345414      -55.1185546      0.562345414      -55.1185546      0.820392526      34.2155228       
2162.38          0.823407328      33.9111335       0.557944207      -55.4217137      0.557944207      -55.4217137      0.823407328      33.9111335       
2183.57          0.826365846      33.6100121       0.553574767      -55.7214901      0.553574767      -55.7214901      0.826365846      33.6100121       
2204.76          0.829269222      33.3121113       0.549237027      -56.0179308      0.549237027      -56.0179308      0.829269222      33.3121113       
2225.95          0.832118575      33.0173846       0.544930907      -56.3110819      0.544930907      -56.3110819      0.832118575      33.0173846       
2247.14          0.834915001      32.7257862       0.540656313      -56.6009892      0.540656313      -56.6009892      0.834915001      32.7257862       
2268.33          0.837659574      32.4372706       0.536413141      -56.8876976      0.536413141      -56.8876976      0.837659574      32.4372706       
2289.52          0.840353347      32.1517931       0.532201273      -57.1712515      0.532201273      -57.1712515      0.840353347      32.1517931       
2310.71          0.842997351      31.8693094       0.528020583      -57.4516947      0.528020583      -57.4516947      0.842997351      31.8693094       
2331.9           0.845592596      31.5897759       0.523870932      -57.7290704      0.523870932      -57.7290704      0.845592596      31.5897759       
2353.09          0.84814007       31.3131497       0.519752175      -58.003421       0.519752175      -58.003421       0.84814007       31.3131497       
2374.28          0.850640744      31.0393881       0.515664156      -58.2747884      0.515664156      -58.2747884      0.850640744      31.0393881       
2395.47          0.853095566      30.7684495       0.511606712      -58.5432138      0.511606712      -58.5432138      0.853095566      30.7684495       
2416.66          0.855505463      30.5002925       0.507579671      -58.808738       0.507579671      -58.808738       0.855505463      30.5002925       
2437.85          0.857871345      30.2348764       0.503582855      -59.0714008      0.503582855      -59.0714008      0.857871345      30.2348764       
2459.04          0.860194102      29.9721611       0.499616081      -59.3312417      0.499616081      -59.3312417      0.860194102      29.9721611       
2480.23          0.862474605      29.7121071       0.495679156      -59.5882995      0.495679156      -59.5882995      0.862474605      29.7121071       
2501.42          0.864713705      29.4546754       0.491771886      -59.8426122      0.491771886      -59.8426122      0.864713705      29.4546754       
2522.61          0.866912238      29.1998277       0.487894069      -60.0942174      0.487894069      -60.0942174      0.866912238      29.1998277       
2543.8           0.869071018      28.9475262       0.484045498      -60.3431521      0.484045498      -60.3431521      0.869071018      28.9475262       
2564.99          0.871190846      28.6977336       0.480225964      -60.5894525      0.480225964      -60.5894525      0.871190846      28.6977336       
2586.18          0.873272501      28.4504132       0.476435252      -60.8331544      0.476435252      -60.8331544      0.873272501      28.4504132       
2607.37          0.875316748      28.2055289       0.472673145      -61.0742929      0.472673145      -61.0742929      0.875316748      28.2055289       
2628.56          0.877324336      27.9630452       0.468939422      -61.3129026      0.468939422      -61.3129026      0.877324336      27.9630452       
2649.75          0.879295995      27.7229269       0.465233859      -61.5490174      0.465233859      -61.5490174      0.879295995      27.7229269       
2670.94          0.881232441      27.4851397       0.461556229      -61.7826706      0.461556229      -61.7826706      0.881232441      27.4851397       
2692.13          0.883134374      27.2496496       0.457906304      -62.0138952      0.457906304      -62.0138952      0.883134374      27.2496496       
