! Coilcraft 1008HT-R22 Chip Inductor				
! 16 July 2002			
# MHZ S MA R 50
!Freq             MagS11           AngS11           MagS21           AngS21           MagS12           AngS12           MagS22           AngS22
1                0.0194250149     45.0798506       0.986379503      -0.798993868     0.986379503      -0.798993868     0.0194250149     45.0798506       
4.24             0.0609678519     71.6332858       0.982494486      -3.37627716      0.982494486      -3.37627716      0.0609678519     71.6332858       
7.48             0.104783229      74.6467373       0.977493068      -5.93327726      0.977493068      -5.93327726      0.104783229      74.6467373       
10.72            0.148276193      74.4903937       0.970921078      -8.46214523      0.970921078      -8.46214523      0.148276193      74.4903937       
13.96            0.190981329      73.3286624       0.962754336      -10.9546221      0.962754336      -10.9546221      0.190981329      73.3286624       
17.2             0.232632599      71.7394684       0.953064787      -13.4028932      0.953064787      -13.4028932      0.232632599      71.7394684       
20.44            0.27303041       69.9466785       0.941968338      -15.7998909      0.941968338      -15.7998909      0.27303041       69.9466785       
23.68            0.312018002      68.057346        0.929605536      -18.1394529      0.929605536      -18.1394529      0.312018002      68.057346        
26.92            0.349474974      66.1301409       0.916130594      -20.4164021      0.916130594      -20.4164021      0.349474974      66.1301409       
30.16            0.385314188      64.2003189       0.901703637      -22.6265724      0.901703637      -22.6265724      0.385314188      64.2003189       
33.4             0.419479053      62.2903985       0.886484744      -24.7667921      0.886484744      -24.7667921      0.419479053      62.2903985       
36.64            0.451940531      60.4153006       0.870629334      -26.834834       0.870629334      -26.834834       0.451940531      60.4153006       
39.88            0.482693808      58.5850681       0.854284693      -28.8293433      0.854284693      -28.8293433      0.482693808      58.5850681       
43.12            0.51175476       56.8064269       0.837587508      -30.7497491      0.837587508      -30.7497491      0.51175476       56.8064269       
46.36            0.539156407      55.0837487       0.820662284      -32.5961682      0.820662284      -32.5961682      0.539156407      55.0837487       
49.6             0.564945486      53.4196814       0.803620514      -34.3693057      0.803620514      -34.3693057      0.564945486      53.4196814       
52.84            0.589179275      51.8155864       0.786560445      -36.070358       0.786560445      -36.070358       0.589179275      51.8155864       
56.08            0.611922743      50.2718548       0.769567331      -37.7009211      0.769567331      -37.7009211      0.611922743      50.2718548       
59.32            0.633246064      48.7881437       0.752714015      -39.2629061      0.752714015      -39.2629061      0.633246064      48.7881437       
62.56            0.653222503      47.3635573       0.736061765      -40.7584633      0.736061765      -40.7584633      0.653222503      47.3635573       
65.8             0.671926676      45.9967887       0.719661239      -42.1899165      0.719661239      -42.1899165      0.671926676      45.9967887       
69.04            0.689433137      44.6862311       0.703553537      -43.5597055      0.703553537      -43.5597055      0.689433137      44.6862311       
72.28            0.705815281      43.4300659       0.687771257      -44.8703382      0.687771257      -44.8703382      0.705815281      43.4300659       
75.52            0.7211445        42.2263328       0.67233953       -46.1243503      0.67233953       -46.1243503      0.7211445        42.2263328       
78.76            0.735489572      41.072985        0.657277009      -47.3242734      0.657277009      -47.3242734      0.735489572      41.072985        
82               0.748916239      39.9679326       0.642596773      -48.4726086      0.642596773      -48.4726086      0.748916239      39.9679326       
85.24            0.761486928      38.9090764       0.628307162      -49.5718062      0.628307162      -49.5718062      0.761486928      38.9090764       
88.48            0.773260605      37.8943341       0.614412525      -50.6242503      0.614412525      -50.6242503      0.773260605      37.8943341       
91.72            0.784292719      36.9216601       0.600913879      -51.6322475      0.600913879      -51.6322475      0.784292719      36.9216601       
94.96            0.794635222      35.9890603       0.587809494      -52.5980187      0.587809494      -52.5980187      0.794635222      35.9890603       
98.2             0.804336643      35.0946028       0.575095395      -53.5236941      0.575095395      -53.5236941      0.804336643      35.0946028       
101.44           0.813442199      34.2364253       0.562765805      -54.41131        0.562765805      -54.41131        0.813442199      34.2364253       
104.68           0.82199394       33.4127398       0.550813513      -55.2628077      0.550813513      -55.2628077      0.82199394       33.4127398       
107.92           0.830030903      32.6218355       0.539230199      -56.0800339      0.539230199      -56.0800339      0.830030903      32.6218355       
111.16           0.837589284      31.86208         0.528006699      -56.8647416      0.528006699      -56.8647416      0.837589284      31.86208         
114.4            0.84470261       31.1319191       0.517133233      -57.6185926      0.517133233      -57.6185926      0.84470261       31.1319191       
117.64           0.851401912      30.4298759       0.506599593      -58.3431603      0.506599593      -58.3431603      0.851401912      30.4298759       
120.88           0.857715895      29.7545488       0.496395302      -59.0399324      0.496395302      -59.0399324      0.857715895      29.7545488       
124.12           0.863671103      29.1046098       0.486509742      -59.7103151      0.486509742      -59.7103151      0.863671103      29.1046098       
127.36           0.869292076      28.4788013       0.476932259      -60.355636       0.476932259      -60.355636       0.869292076      28.4788013       
130.6            0.8746015        27.8759337       0.467652251      -60.9771486      0.467652251      -60.9771486      0.8746015        27.8759337       
133.84           0.879620348      27.2948821       0.458659231      -61.5760353      0.458659231      -61.5760353      0.879620348      27.2948821       
137.08           0.884368011      26.7345834       0.44994289       -62.1534119      0.44994289       -62.1534119      0.884368011      26.7345834       
140.32           0.888862424      26.1940334       0.44149313       -62.7103306      0.44149313       -62.7103306      0.888862424      26.1940334       
143.56           0.893120175      25.6722832       0.433300103      -63.247784       0.433300103      -63.247784       0.893120175      25.6722832       
146.8            0.89715662       25.1684368       0.425354233      -63.7667082      0.425354233      -63.7667082      0.89715662       25.1684368       
150.04           0.900985973      24.6816478       0.41764623       -64.2679865      0.41764623       -64.2679865      0.900985973      24.6816478       
153.28           0.9046214        24.211117        0.410167108      -64.752452       0.410167108      -64.752452       0.9046214        24.211117        
156.52           0.908075103      23.7560892       0.402908186      -65.2208912      0.402908186      -65.2208912      0.908075103      23.7560892       
159.76           0.911358398      23.3158509       0.395861092      -65.6740461      0.395861092      -65.6740461      0.911358398      23.3158509       
163              0.91448178       22.889728        0.389017766      -66.1126175      0.389017766      -66.1126175      0.91448178       22.889728        
166.24           0.917454994      22.4770832       0.382370452      -66.5372675      0.382370452      -66.5372675      0.917454994      22.4770832       
169.48           0.920287092      22.077314        0.375911702      -66.9486213      0.375911702      -66.9486213      0.920287092      22.077314        
172.72           0.922986487      21.6898506       0.369634359      -67.34727        0.369634359      -67.34727        0.922986487      21.6898506       
175.96           0.925561004      21.3141536       0.36353156       -67.7337725      0.36353156       -67.7337725      0.925561004      21.3141536       
179.2            0.928017926      20.9497129       0.357596722      -68.1086576      0.357596722      -68.1086576      0.928017926      20.9497129       
182.44           0.930364034      20.5960452       0.351823534      -68.4724253      0.351823534      -68.4724253      0.930364034      20.5960452       
185.68           0.932605649      20.2526929       0.346205952      -68.8255496      0.346205952      -68.8255496      0.932605649      20.2526929       
188.92           0.934748664      19.9192222       0.340738182      -69.1684788      0.340738182      -69.1684788      0.934748664      19.9192222       
192.16           0.93679858       19.5952222       0.33541468       -69.5016382      0.33541468       -69.5016382      0.93679858       19.5952222       
195.4            0.938760532      19.2803028       0.330230135      -69.8254307      0.330230135      -69.8254307      0.938760532      19.2803028       
198.64           0.94063932       18.9740941       0.325179461      -70.1402385      0.325179461      -70.1402385      0.94063932       18.9740941       
201.88           0.942439429      18.676245        0.320257791      -70.4464243      0.320257791      -70.4464243      0.942439429      18.676245        
205.12           0.944165059      18.386422        0.315460466      -70.7443325      0.315460466      -70.7443325      0.944165059      18.386422        
208.36           0.945820139      18.1043082       0.310783023      -71.0342899      0.310783023      -71.0342899      0.945820139      18.1043082       
211.6            0.947408354      17.8296026       0.306221192      -71.3166073      0.306221192      -71.3166073      0.947408354      17.8296026       
214.84           0.948933155      17.5620187       0.301770882      -71.5915802      0.301770882      -71.5915802      0.948933155      17.5620187       
218.08           0.950397781      17.3012841       0.297428177      -71.8594894      0.297428177      -71.8594894      0.950397781      17.3012841       
221.32           0.951805271      17.0471396       0.293189327      -72.1206022      0.293189327      -72.1206022      0.951805271      17.0471396       
224.56           0.953158483      16.7993382       0.289050739      -72.3751731      0.289050739      -72.3751731      0.953158483      16.7993382       
227.8            0.954460099      16.5576448       0.285008972      -72.6234445      0.285008972      -72.6234445      0.954460099      16.5576448       
231.04           0.955712643      16.3218352       0.281060728      -72.8656473      0.281060728      -72.8656473      0.955712643      16.3218352       
234.28           0.956918491      16.0916958       0.277202847      -73.1020017      0.277202847      -73.1020017      0.956918491      16.0916958       
237.52           0.95807988       15.8670225       0.273432299      -73.3327174      0.273432299      -73.3327174      0.95807988       15.8670225       
240.76           0.959198916      15.647621        0.26974618       -73.557995       0.26974618       -73.557995       0.959198916      15.647621        
244              0.960277585      15.4333055       0.266141705      -73.7780255      0.266141705      -73.7780255      0.960277585      15.4333055       
247.24           0.961317763      15.2238986       0.262616202      -73.9929914      0.262616202      -73.9929914      0.961317763      15.2238986       
250.48           0.962321216      15.0192307       0.259167108      -74.2030673      0.259167108      -74.2030673      0.962321216      15.0192307       
253.72           0.963289614      14.81914         0.255791963      -74.4084198      0.255791963      -74.4084198      0.963289614      14.81914         
256.96           0.964224537      14.6234715       0.252488406      -74.6092082      0.252488406      -74.6092082      0.964224537      14.6234715       
260.2            0.965127475      14.4320769       0.249254169      -74.805585       0.249254169      -74.805585       0.965127475      14.4320769       
263.44           0.965999839      14.2448144       0.246087077      -74.9976962      0.246087077      -74.9976962      0.965999839      14.2448144       
266.68           0.966842965      14.0615481       0.242985036      -75.1856813      0.242985036      -75.1856813      0.966842965      14.0615481       
269.92           0.967658117      13.882148        0.239946036      -75.369674       0.239946036      -75.369674       0.967658117      13.882148        
273.16           0.968446492      13.7064895       0.236968148      -75.5498025      0.236968148      -75.5498025      0.968446492      13.7064895       
276.4            0.969209227      13.534453        0.234049511      -75.7261897      0.234049511      -75.7261897      0.969209227      13.534453        
279.64           0.969947398      13.3659239       0.231188342      -75.8989531      0.231188342      -75.8989531      0.969947398      13.3659239       
282.88           0.970662026      13.2007924       0.228382922      -76.0682058      0.228382922      -76.0682058      0.970662026      13.2007924       
286.12           0.971354081      13.0389529       0.225631596      -76.234056       0.225631596      -76.234056       0.971354081      13.0389529       
289.36           0.972024484      12.8803042       0.222932776      -76.3966079      0.222932776      -76.3966079      0.972024484      12.8803042       
292.6            0.972674111      12.7247491       0.220284928      -76.5559611      0.220284928      -76.5559611      0.972674111      12.7247491       
295.84           0.973303793      12.5721942       0.217686578      -76.7122117      0.217686578      -76.7122117      0.973303793      12.5721942       
299.08           0.973914321      12.4225496       0.215136305      -76.8654518      0.215136305      -76.8654518      0.973914321      12.4225496       
302.32           0.974506448      12.2757291       0.21263274       -77.01577        0.21263274       -77.01577        0.974506448      12.2757291       
305.56           0.975080891      12.1316497       0.210174565      -77.1632514      0.210174565      -77.1632514      0.975080891      12.1316497       
308.8            0.975638331      11.9902316       0.207760507      -77.3079779      0.207760507      -77.3079779      0.975638331      11.9902316       
312.04           0.97617942       11.8513978       0.205389339      -77.4500284      0.205389339      -77.4500284      0.97617942       11.8513978       
315.28           0.976704776      11.7150746       0.203059881      -77.5894787      0.203059881      -77.5894787      0.976704776      11.7150746       
318.52           0.977214991      11.5811906       0.200770989      -77.7264019      0.200770989      -77.7264019      0.977214991      11.5811906       
321.76           0.977710629      11.4496772       0.198521565      -77.8608682      0.198521565      -77.8608682      0.977710629      11.4496772       
325              0.978192226      11.3204685       0.196310544      -77.9929454      0.196310544      -77.9929454      0.978192226      11.3204685       
328.24           0.978660297      11.1935006       0.194136901      -78.1226988      0.194136901      -78.1226988      0.978660297      11.1935006       
331.48           0.979115331      11.0687122       0.191999644      -78.2501914      0.191999644      -78.2501914      0.979115331      11.0687122       
334.72           0.979557798      10.946044        0.189897817      -78.3754838      0.189897817      -78.3754838      0.979557798      10.946044        
337.96           0.979988146      10.825439        0.187830496      -78.4986345      0.187830496      -78.4986345      0.979988146      10.825439        
341.2            0.980406802      10.7068418       0.185796785      -78.6197         0.185796785      -78.6197         0.980406802      10.7068418       
344.44           0.980814176      10.5901995       0.183795822      -78.7387347      0.183795822      -78.7387347      0.980814176      10.5901995       
347.68           0.98121066       10.4754605       0.18182677       -78.8557913      0.18182677       -78.8557913      0.98121066       10.4754605       
350.92           0.981596629      10.3625752       0.179888822      -78.9709206      0.179888822      -78.9709206      0.981596629      10.3625752       
354.16           0.981972443      10.2514957       0.177981197      -79.0841716      0.177981197      -79.0841716      0.981972443      10.2514957       
357.4            0.982338445      10.1421757       0.176103138      -79.1955916      0.176103138      -79.1955916      0.982338445      10.1421757       
360.64           0.982694966      10.0345703       0.174253914      -79.3052265      0.174253914      -79.3052265      0.982694966      10.0345703       
363.88           0.983042321      9.92863639       0.172432815      -79.4131205      0.172432815      -79.4131205      0.983042321      9.92863639       
367.12           0.983380813      9.82433198       0.170639156      -79.5193164      0.170639156      -79.5193164      0.983380813      9.82433198       
370.36           0.983710733      9.72161659       0.168872273      -79.6238556      0.168872273      -79.6238556      0.983710733      9.72161659       
373.6            0.98403236       9.62045104       0.167131522      -79.726778       0.167131522      -79.726778       0.98403236       9.62045104       
376.84           0.984345961      9.52079741       0.16541628       -79.8281224      0.16541628       -79.8281224      0.984345961      9.52079741       
380.08           0.984651794      9.42261898       0.163725942      -79.9279263      0.163725942      -79.9279263      0.984651794      9.42261898       
383.32           0.984950105      9.3258802        0.162059923      -80.0262259      0.162059923      -80.0262259      0.984950105      9.3258802        
386.56           0.985241131      9.23054663       0.160417655      -80.1230563      0.160417655      -80.1230563      0.985241131      9.23054663       
389.8            0.985525101      9.13658494       0.158798587      -80.2184515      0.158798587      -80.2184515      0.985525101      9.13658494       
393.04           0.985802233      9.04396278       0.157202185      -80.3124445      0.157202185      -80.3124445      0.985802233      9.04396278       
396.28           0.986072738      8.95264885       0.155627931      -80.4050672      0.155627931      -80.4050672      0.986072738      8.95264885       
399.52           0.986336818      8.86261277       0.154075323      -80.4963504      0.154075323      -80.4963504      0.986336818      8.86261277       
402.76           0.986594669      8.77382509       0.152543872      -80.5863241      0.152543872      -80.5863241      0.986594669      8.77382509       
406              0.986846478      8.68625726       0.151033104      -80.6750173      0.151033104      -80.6750173      0.986846478      8.68625726       
409.24           0.987092425      8.59988159       0.149542561      -80.7624583      0.149542561      -80.7624583      0.987092425      8.59988159       
412.48           0.987332685      8.51467118       0.148071795      -80.8486743      0.148071795      -80.8486743      0.987332685      8.51467118       
