! Coilcraft 1008HT-7N2 Chip Inductor				
! 16 July 2002			
# MHZ S MA R 50
!Freq             MagS11           AngS11           MagS21           AngS21           MagS12           AngS12           MagS22           AngS22
1                0.000832877239   32.8474916       0.999300388      -0.0259018673    0.999300388      -0.0259018673    0.000832877239   32.8474916       
19.7             0.00900667415    80.6396498       0.99857467       -0.509906766     0.99857467       -0.509906766     0.00900667415    80.6396498       
38.4             0.0174261786     83.2886898       0.998113515      -0.993528703     0.998113515      -0.993528703     0.0174261786     83.2886898       
57.1             0.025850666      84.070838        0.99766105       -1.4768279       0.99766105       -1.4768279       0.025850666      84.070838        
75.8             0.0342712232     84.3004397       0.997179734      -1.95979728      0.997179734      -1.95979728      0.0342712232     84.3004397       
94.5             0.0426848414     84.2849948       0.996654832      -2.44241261      0.996654832      -2.44241261      0.0426848414     84.2849948       
113.2            0.0510896255     84.13729         0.996078831      -2.92464204      0.996078831      -2.92464204      0.0510896255     84.13729         
131.9            0.05948401       83.9092599       0.995447357      -3.40644958      0.995447357      -3.40644958      0.05948401       83.9092599       
150.6            0.0678665534     83.6284417       0.994757661      -3.88779677      0.994757661      -3.88779677      0.0678665534     83.6284417       
169.3            0.0762358691     83.3109237       0.994007942      -4.3686436       0.994007942      -4.3686436       0.0762358691     83.3109237       
188              0.0845905997     82.9667999       0.993196994      -4.84894906      0.993196994      -4.84894906      0.0845905997     82.9667999       
206.7            0.0929294063     82.6027595       0.992324017      -5.32867149      0.992324017      -5.32867149      0.0929294063     82.6027595       
225.4            0.101250964      82.2234326       0.991388495      -5.80776886      0.991388495      -5.80776886      0.101250964      82.2234326       
244.1            0.109553963      81.8321405       0.990390125      -6.28619894      0.990390125      -6.28619894      0.109553963      81.8321405       
262.8            0.117837102      81.431337        0.989328769      -6.76391942      0.989328769      -6.76391942      0.117837102      81.431337        
281.5            0.126099098      81.0228815       0.988204419      -7.24088809      0.988204419      -7.24088809      0.126099098      81.0228815       
300.2            0.13433868       80.608214        0.98701717       -7.71706285      0.98701717       -7.71706285      0.13433868       80.608214        
318.9            0.142554592      80.1884713       0.985767209      -8.19240185      0.985767209      -8.19240185      0.142554592      80.1884713       
337.6            0.150745596      79.7645657       0.984454797      -8.66686351      0.984454797      -8.66686351      0.150745596      79.7645657       
356.3            0.15891047       79.3372408       0.983080259      -9.14040661      0.983080259      -9.14040661      0.15891047       79.3372408       
375              0.16704801       78.9071107       0.98164398       -9.6129903       0.98164398       -9.6129903       0.16704801       78.9071107       
393.7            0.175157034      78.4746889       0.980146393      -10.0845742      0.980146393      -10.0845742      0.175157034      78.4746889       
412.4            0.183236378      78.0404096       0.978587981      -10.5551184      0.978587981      -10.5551184      0.183236378      78.0404096       
431.1            0.191284899      77.6046437       0.976969265      -11.0245835      0.976969265      -11.0245835      0.191284899      77.6046437       
449.8            0.199301477      77.1677109       0.975290806      -11.4929306      0.975290806      -11.4929306      0.199301477      77.1677109       
468.5            0.207285015      76.7298893       0.973553199      -11.9601215      0.973553199      -11.9601215      0.207285015      76.7298893       
487.2            0.215234437      76.2914227       0.971757071      -12.4261184      0.971757071      -12.4261184      0.215234437      76.2914227       
505.9            0.223148695      75.8525263       0.96990308       -12.8908843      0.96990308       -12.8908843      0.223148695      75.8525263       
524.6            0.231026763      75.4133914       0.96799191       -13.3543829      0.96799191       -13.3543829      0.231026763      75.4133914       
543.3            0.23886764       74.9741893       0.966024273      -13.8165784      0.966024273      -13.8165784      0.23886764       74.9741893       
562              0.246670352      74.535074        0.964000901      -14.2774357      0.964000901      -14.2774357      0.246670352      74.535074        
580.7            0.254433951      74.0961848       0.961922551      -14.7369206      0.961922551      -14.7369206      0.254433951      74.0961848       
599.4            0.262157515      73.6576484       0.959790001      -15.1949994      0.959790001      -15.1949994      0.262157515      73.6576484       
618.1            0.26984015       73.2195804       0.957604046      -15.6516392      0.957604046      -15.6516392      0.26984015       73.2195804       
636.8            0.277480989      72.7820867       0.955365499      -16.1068081      0.955365499      -16.1068081      0.277480989      72.7820867       
655.5            0.285079191      72.345265        0.953075189      -16.5604746      0.953075189      -16.5604746      0.285079191      72.345265        
674.2            0.292633947      71.9092054       0.950733963      -17.0126081      0.950733963      -17.0126081      0.292633947      71.9092054       
692.9            0.300144471      71.4739912       0.948342677      -17.463179       0.948342677      -17.463179       0.300144471      71.4739912       
711.6            0.307610008      71.0397001       0.945902204      -17.9121581      0.945902204      -17.9121581      0.307610008      71.0397001       
730.3            0.315029832      70.6064041       0.943413425      -18.3595174      0.943413425      -18.3595174      0.315029832      70.6064041       
749              0.322403243      70.1741706       0.940877232      -18.8052295      0.940877232      -18.8052295      0.322403243      70.1741706       
767.7            0.329729572      69.7430627       0.938294529      -19.2492678      0.938294529      -19.2492678      0.329729572      69.7430627       
786.4            0.337008177      69.3131394       0.935666224      -19.6916065      0.935666224      -19.6916065      0.337008177      69.3131394       
805.1            0.344238444      68.8844561       0.932993236      -20.1322208      0.932993236      -20.1322208      0.344238444      68.8844561       
823.8            0.351419788      68.4570648       0.930276486      -20.5710866      0.930276486      -20.5710866      0.351419788      68.4570648       
842.5            0.358551652      68.0310146       0.927516905      -21.0081805      0.927516905      -21.0081805      0.358551652      68.0310146       
861.2            0.365633508      67.6063515       0.924715423      -21.4434802      0.924715423      -21.4434802      0.365633508      67.6063515       
879.9            0.372664855      67.1831189       0.921872979      -21.876964       0.921872979      -21.876964       0.372664855      67.1831189       
898.6            0.379645219      66.761358        0.918990509      -22.308611       0.918990509      -22.308611       0.379645219      66.761358        
917.3            0.386574156      66.3411072       0.916068956      -22.7384014      0.916068956      -22.7384014      0.386574156      66.3411072       
936              0.393451247      65.9224032       0.913109259      -23.1663159      0.913109259      -23.1663159      0.393451247      65.9224032       
954.7            0.4002761        65.5052804       0.910112359      -23.5923361      0.910112359      -23.5923361      0.4002761        65.5052804       
973.4            0.40704835       65.0897713       0.907079198      -24.0164446      0.907079198      -24.0164446      0.40704835       65.0897713       
992.1            0.41376766       64.6759066       0.904010715      -24.4386244      0.904010715      -24.4386244      0.41376766       64.6759066       
1010.8           0.420433717      64.2637151       0.900907845      -24.8588598      0.900907845      -24.8588598      0.420433717      64.2637151       
1029.5           0.427046233      63.8532242       0.897771524      -25.2771354      0.897771524      -25.2771354      0.427046233      63.8532242       
1048.2           0.433604948      63.4444597       0.894602681      -25.6934369      0.894602681      -25.6934369      0.433604948      63.4444597       
1066.9           0.440109625      63.0374458       0.891402243      -26.1077507      0.891402243      -26.1077507      0.440109625      63.0374458       
1085.6           0.446560051      62.6322051       0.888171131      -26.5200638      0.888171131      -26.5200638      0.446560051      62.6322051       
1104.3           0.452956038      62.2287593       0.884910261      -26.9303642      0.884910261      -26.9303642      0.452956038      62.2287593       
1123             0.459297421      61.8271283       0.881620544      -27.3386405      0.881620544      -27.3386405      0.459297421      61.8271283       
1141.7           0.465584058      61.427331        0.878302883      -27.7448821      0.878302883      -27.7448821      0.465584058      61.427331        
1160.4           0.471815829      61.0293851       0.874958176      -28.149079       0.874958176      -28.149079       0.471815829      61.0293851       
1179.1           0.477992639      60.633307        0.871587311      -28.5512221      0.871587311      -28.5512221      0.477992639      60.633307        
1197.8           0.48411441       60.239112        0.86819117       -28.9513028      0.86819117       -28.9513028      0.48411441       60.239112        
1216.5           0.490181088      59.8468145       0.864770627      -29.3493134      0.864770627      -29.3493134      0.490181088      59.8468145       
1235.2           0.49619264       59.4564276       0.861326545      -29.7452467      0.861326545      -29.7452467      0.49619264       59.4564276       
1253.9           0.502149051      59.0679636       0.857859781      -30.1390962      0.857859781      -30.1390962      0.502149051      59.0679636       
1272.6           0.508050327      58.6814337       0.85437118       -30.5308563      0.85437118       -30.5308563      0.508050327      58.6814337       
1291.3           0.513896492      58.2968482       0.850861579      -30.9205216      0.850861579      -30.9205216      0.513896492      58.2968482       
1310             0.51968759       57.9142166       0.847331803      -31.3080876      0.847331803      -31.3080876      0.51968759       57.9142166       
1328.7           0.525423681      57.5335474       0.843782668      -31.6935505      0.843782668      -31.6935505      0.525423681      57.5335474       
1347.4           0.531104845      57.1548482       0.840214978      -32.0769069      0.840214978      -32.0769069      0.531104845      57.1548482       
1366.1           0.536731175      56.7781259       0.836629529      -32.458154       0.836629529      -32.458154       0.536731175      56.7781259       
1384.8           0.542302785      56.4033867       0.833027103      -32.8372898      0.833027103      -32.8372898      0.542302785      56.4033867       
1403.5           0.5478198        56.0306358       0.82940847       -33.2143127      0.82940847       -33.2143127      0.5478198        56.0306358       
1422.2           0.553282365      55.6598779       0.825774392      -33.5892215      0.825774392      -33.5892215      0.553282365      55.6598779       
1440.9           0.558690636      55.2911167       0.822125615      -33.9620158      0.822125615      -33.9620158      0.558690636      55.2911167       
1459.6           0.564044786      54.9243556       0.818462877      -34.3326956      0.818462877      -34.3326956      0.564044786      54.9243556       
1478.3           0.569344999      54.559597        0.814786902      -34.7012615      0.814786902      -34.7012615      0.569344999      54.559597        
1497             0.574591475      54.1968427       0.811098401      -35.0677144      0.811098401      -35.0677144      0.574591475      54.1968427       
1515.7           0.579784426      53.8360941       0.807398075      -35.4320558      0.807398075      -35.4320558      0.579784426      53.8360941       
1534.4           0.584924074      53.4773519       0.803686611      -35.7942878      0.803686611      -35.7942878      0.584924074      53.4773519       
1553.1           0.590010655      53.120616        0.799964685      -36.1544128      0.799964685      -36.1544128      0.590010655      53.120616        
1571.8           0.595044416      52.7658859       0.796232958      -36.5124335      0.796232958      -36.5124335      0.595044416      52.7658859       
1590.5           0.600025614      52.4131608       0.792492081      -36.8683534      0.792492081      -36.8683534      0.600025614      52.4131608       
1609.2           0.604954517      52.062439        0.788742693      -37.2221761      0.788742693      -37.2221761      0.604954517      52.062439        
1627.9           0.609831402      51.7137185       0.784985417      -37.5739057      0.784985417      -37.5739057      0.609831402      51.7137185       
1646.6           0.614656556      51.3669967       0.781220867      -37.9235467      0.781220867      -37.9235467      0.614656556      51.3669967       
1665.3           0.619430275      51.0222707       0.777449643      -38.2711041      0.777449643      -38.2711041      0.619430275      51.0222707       
1684             0.624152863      50.679537        0.773672332      -38.616583       0.773672332      -38.616583       0.624152863      50.679537        
1702.7           0.628824632      50.3387917       0.769889509      -38.9599891      0.769889509      -38.9599891      0.628824632      50.3387917       
1721.4           0.633445902      50.0000305       0.766101738      -39.3013282      0.766101738      -39.3013282      0.633445902      50.0000305       
1740.1           0.638017         49.6632488       0.762309569      -39.6406067      0.762309569      -39.6406067      0.638017         49.6632488       
1758.8           0.64253826       49.3284414       0.75851354       -39.977831       0.75851354       -39.977831       0.64253826       49.3284414       
1777.5           0.647010021      48.9956028       0.754714176      -40.3130081      0.754714176      -40.3130081      0.647010021      48.9956028       
1796.2           0.65143263       48.6647274       0.750911992      -40.6461452      0.750911992      -40.6461452      0.65143263       48.6647274       
1814.9           0.655806439      48.3358088       0.74710749       -40.9772496      0.74710749       -40.9772496      0.655806439      48.3358088       
1833.6           0.660131804      48.0088407       0.743301158      -41.306329       0.743301158      -41.306329       0.660131804      48.0088407       
1852.3           0.664409088      47.6838163       0.739493476      -41.6333916      0.739493476      -41.6333916      0.664409088      47.6838163       
1871             0.668638658      47.3607284       0.735684909      -41.9584453      0.735684909      -41.9584453      0.668638658      47.3607284       
1889.7           0.672820883      47.0395697       0.731875912      -42.2814988      0.731875912      -42.2814988      0.672820883      47.0395697       
1908.4           0.676956138      46.7203326       0.728066928      -42.6025607      0.728066928      -42.6025607      0.676956138      46.7203326       
1927.1           0.681044801      46.403009        0.724258389      -42.9216398      0.724258389      -42.9216398      0.681044801      46.403009        
1945.8           0.685087255      46.0875909       0.720450715      -43.2387452      0.720450715      -43.2387452      0.685087255      46.0875909       
1964.5           0.689083882      45.7740698       0.716644317      -43.5538863      0.716644317      -43.5538863      0.689083882      45.7740698       
1983.2           0.69303507       45.4624371       0.712839591      -43.8670725      0.712839591      -43.8670725      0.69303507       45.4624371       
2001.9           0.696941209      45.152684        0.709036927      -44.1783134      0.709036927      -44.1783134      0.696941209      45.152684        
2020.6           0.700802689      44.8448014       0.7052367        -44.4876188      0.7052367        -44.4876188      0.700802689      44.8448014       
2039.3           0.704619904      44.53878         0.701439278      -44.7949988      0.701439278      -44.7949988      0.704619904      44.53878         
2058             0.708393249      44.2346105       0.697645016      -45.1004634      0.697645016      -45.1004634      0.708393249      44.2346105       
2076.7           0.712123119      43.9322832       0.693854262      -45.4040228      0.693854262      -45.4040228      0.712123119      43.9322832       
2095.4           0.715809913      43.6317883       0.690067349      -45.7056875      0.690067349      -45.7056875      0.715809913      43.6317883       
2114.1           0.719454029      43.333116        0.686284606      -46.005468       0.686284606      -46.005468       0.719454029      43.333116        
2132.8           0.723055864      43.0362561       0.682506347      -46.3033748      0.682506347      -46.3033748      0.723055864      43.0362561       
2151.5           0.726615818      42.7411984       0.67873288       -46.5994188      0.67873288       -46.5994188      0.726615818      42.7411984       
2170.2           0.730134292      42.4479326       0.674964501      -46.8936107      0.674964501      -46.8936107      0.730134292      42.4479326       
2188.9           0.733611683      42.1564483       0.6712015        -47.1859615      0.6712015        -47.1859615      0.733611683      42.1564483       
2207.6           0.737048392      41.8667348       0.667444156      -47.4764821      0.667444156      -47.4764821      0.737048392      41.8667348       
2226.3           0.740444818      41.5787814       0.663692737      -47.7651836      0.663692737      -47.7651836      0.740444818      41.5787814       
2245             0.743801358      41.2925775       0.659947507      -48.0520773      0.659947507      -48.0520773      0.743801358      41.2925775       
2263.7           0.747118412      41.008112        0.656208717      -48.3371742      0.656208717      -48.3371742      0.747118412      41.008112        
2282.4           0.750396375      40.7253741       0.652476612      -48.6204858      0.652476612      -48.6204858      0.750396375      40.7253741       
2301.1           0.753635644      40.4443528       0.648751429      -48.9020232      0.648751429      -48.9020232      0.753635644      40.4443528       
2319.8           0.756836613      40.1650369       0.645033395      -49.181798       0.645033395      -49.181798       0.756836613      40.1650369       
2338.5           0.759999677      39.8874152       0.641322732      -49.4598215      0.641322732      -49.4598215      0.759999677      39.8874152       
2357.2           0.763125227      39.6114766       0.637619651      -49.7361051      0.637619651      -49.7361051      0.763125227      39.6114766       
2375.9           0.766213654      39.3372097       0.633924357      -50.0106603      0.633924357      -50.0106603      0.766213654      39.3372097       
