! Coilcraft 1008HT-18N Chip Inductor				
! 16 July 2002			
# MHZ S MA R 50
!Freq             MagS11           AngS11           MagS21           AngS21           MagS12           AngS12           MagS22           AngS22
1                0.0016828605     42.0962187       0.998751921      -0.0647191406    0.998751921      -0.0647191406    0.0016828605     42.0962187       
13.72            0.0156350712     81.0696827       0.997692484      -0.887046523     0.997692484      -0.887046523     0.0156350712     81.0696827       
26.44            0.0299309304     83.1426891       0.996869362      -1.70824865      0.996869362      -1.70824865      0.0299309304     83.1426891       
39.16            0.0442192663     83.488373        0.995954811      -2.52827734      0.995954811      -2.52827734      0.0442192663     83.488373        
51.88            0.0584804861     83.3231226       0.994897444      -3.34693086      0.994897444      -3.34693086      0.0584804861     83.3231226       
64.6             0.0727043348     82.9326896       0.993677776      -4.163969        0.993677776      -4.163969        0.0727043348     82.9326896       
77.32            0.086882347      82.4219086       0.992286709      -4.97913614      0.992286709      -4.97913614      0.086882347      82.4219086       
90.04            0.101006647      81.8390774       0.990719829      -5.79217012      0.990719829      -5.79217012      0.101006647      81.8390774       
102.76           0.115069656      81.2098543       0.988975271      -6.60280681      0.988975271      -6.60280681      0.115069656      81.2098543       
115.48           0.129064014      80.5492904       0.987052754      -7.41078275      0.987052754      -7.41078275      0.129064014      80.5492904       
128.2            0.142982555      79.8668904       0.984953077      -8.215837        0.984953077      -8.215837        0.142982555      79.8668904       
140.92           0.156818318      79.1690119       0.982677834      -9.01771246      0.982677834      -9.01771246      0.156818318      79.1690119       
153.64           0.170564552      78.4601101       0.980229233      -9.81615692      0.980229233      -9.81615692      0.170564552      78.4601101       
166.36           0.18421473       77.7434299       0.977609982      -10.6109239      0.977609982      -10.6109239      0.18421473       77.7434299       
179.08           0.197762566      77.021413        0.974823201      -11.4017733      0.974823201      -11.4017733      0.197762566      77.021413        
191.8            0.211202022      76.2959492       0.971872363      -12.1884722      0.971872363      -12.1884722      0.211202022      76.2959492       
204.52           0.224527324      75.5685365       0.968761239      -12.970795       0.968761239      -12.970795       0.224527324      75.5685365       
217.24           0.237732967      74.8403879       0.965493865      -13.7485242      0.965493865      -13.7485242      0.237732967      74.8403879       
229.96           0.25081373       74.1125033       0.9620745        -14.5214507      0.9620745        -14.5214507      0.25081373       74.1125033       
242.68           0.263764677      73.3857203       0.958507597      -15.289374       0.958507597      -15.289374       0.263764677      73.3857203       
255.4            0.276581163      72.6607497       0.954797781      -16.0521025      0.954797781      -16.0521025      0.276581163      72.6607497       
268.12           0.289258842      71.9382024       0.950949816      -16.8094536      0.950949816      -16.8094536      0.289258842      71.9382024       
280.84           0.301793665      71.2186078       0.946968586      -17.5612544      0.946968586      -17.5612544      0.301793665      71.2186078       
293.56           0.314181884      70.5024292       0.942859074      -18.3073409      0.942859074      -18.3073409      0.314181884      70.5024292       
306.28           0.32642005       69.7900744       0.938626339      -19.047559       0.938626339      -19.047559       0.32642005       69.7900744       
319              0.33850501       69.0819043       0.934275496      -19.7817639      0.934275496      -19.7817639      0.33850501       69.0819043       
331.72           0.35043391       68.3782399       0.929811703      -20.5098204      0.929811703      -20.5098204      0.35043391       68.3782399       
344.44           0.362204185      67.6793672       0.925240139      -21.2316028      0.925240139      -21.2316028      0.362204185      67.6793672       
357.16           0.373813557      66.985542        0.920565989      -21.9469949      0.920565989      -21.9469949      0.373813557      66.985542        
369.88           0.385260029      66.296993        0.91579443       -22.6558896      0.91579443       -22.6558896      0.385260029      66.296993        
382.6            0.396541879      65.6139248       0.910930617      -23.3581893      0.910930617      -23.3581893      0.396541879      65.6139248       
395.32           0.407657651      64.9365205       0.905979669      -24.0538053      0.905979669      -24.0538053      0.407657651      64.9365205       
408.04           0.418606151      64.2649432       0.900946656      -24.7426579      0.900946656      -24.7426579      0.418606151      64.2649432       
420.76           0.429386432      63.5993383       0.895836591      -25.4246758      0.895836591      -25.4246758      0.429386432      63.5993383       
433.48           0.439997791      62.9398345       0.890654416      -26.0997967      0.890654416      -26.0997967      0.439997791      62.9398345       
446.2            0.450439758      62.2865456       0.885404996      -26.7679662      0.885404996      -26.7679662      0.450439758      62.2865456       
458.92           0.460712084      61.6395711       0.880093107      -27.4291379      0.880093107      -27.4291379      0.460712084      61.6395711       
471.64           0.470814733      60.9989976       0.874723431      -28.0832735      0.874723431      -28.0832735      0.470814733      60.9989976       
484.36           0.480747873      60.3648994       0.869300548      -28.7303418      0.869300548      -28.7303418      0.480747873      60.3648994       
497.08           0.490511861      59.7373398       0.863828931      -29.3703191      0.863828931      -29.3703191      0.490511861      59.7373398       
509.8            0.50010724       59.1163711       0.85831294       -30.0031887      0.85831294       -30.0031887      0.50010724       59.1163711       
522.52           0.509534723      58.5020362       0.852756818      -30.6289403      0.852756818      -30.6289403      0.509534723      58.5020362       
535.24           0.518795182      57.8943686       0.847164687      -31.2475704      0.847164687      -31.2475704      0.518795182      57.8943686       
547.96           0.527889643      57.293393        0.841540544      -31.8590811      0.841540544      -31.8590811      0.527889643      57.293393        
560.68           0.536819272      56.6991262       0.835888262      -32.4634809      0.835888262      -32.4634809      0.536819272      56.6991262       
573.4            0.545585367      56.1115774       0.830211582      -33.0607833      0.830211582      -33.0607833      0.545585367      56.1115774       
586.12           0.554189346      55.5307488       0.82451412       -33.6510073      0.82451412       -33.6510073      0.554189346      55.5307488       
598.84           0.562632741      54.9566359       0.818799358      -34.2341769      0.818799358      -34.2341769      0.562632741      54.9566359       
611.56           0.570917186      54.3892282       0.81307065       -34.8103207      0.81307065       -34.8103207      0.570917186      54.3892282       
624.28           0.579044408      53.8285092       0.807331218      -35.3794717      0.807331218      -35.3794717      0.579044408      53.8285092       
637              0.587016222      53.2744571       0.801584157      -35.941667       0.801584157      -35.941667       0.587016222      53.2744571       
649.72           0.594834519      52.7270454       0.795832429      -36.4969477      0.795832429      -36.4969477      0.594834519      52.7270454       
662.44           0.60250126       52.1862427       0.790078874      -37.0453585      0.790078874      -37.0453585      0.60250126       52.1862427       
675.16           0.610018466      51.6520134       0.784326203      -37.5869473      0.784326203      -37.5869473      0.610018466      51.6520134       
687.88           0.617388217      51.1243178       0.778577003      -38.1217654      0.778577003      -38.1217654      0.617388217      51.1243178       
700.6            0.624612635      50.6031127       0.772833741      -38.6498667      0.772833741      -38.6498667      0.624612635      50.6031127       
713.32           0.631693889      50.0883515       0.767098764      -39.171308       0.767098764      -39.171308       0.631693889      50.0883515       
726.04           0.638634178      49.5799845       0.761374302      -39.6861485      0.761374302      -39.6861485      0.638634178      49.5799845       
738.76           0.645435734      49.0779591       0.755662472      -40.1944495      0.755662472      -40.1944495      0.645435734      49.0779591       
751.48           0.65210081       48.5822201       0.749965279      -40.6962745      0.749965279      -40.6962745      0.65210081       48.5822201       
764.2            0.65863168       48.0927101       0.74428462       -41.1916889      0.74428462       -41.1916889      0.65863168       48.0927101       
776.92           0.665030629      47.6093694       0.738622286      -41.6807595      0.738622286      -41.6807595      0.665030629      47.6093694       
789.64           0.671299954      47.1321364       0.732979968      -42.1635548      0.732979968      -42.1635548      0.671299954      47.1321364       
802.36           0.677441953      46.6609479       0.727359257      -42.6401445      0.727359257      -42.6401445      0.677441953      46.6609479       
815.08           0.683458929      46.195739        0.721761646      -43.1105997      0.721761646      -43.1105997      0.683458929      46.195739        
827.8            0.689353179      45.7364436       0.71618854       -43.5749922      0.71618854       -43.5749922      0.689353179      45.7364436       
840.52           0.695126996      45.2829942       0.710641252      -44.0333948      0.710641252      -44.0333948      0.695126996      45.2829942       
853.24           0.700782662      44.8353227       0.705121008      -44.4858811      0.705121008      -44.4858811      0.700782662      44.8353227       
865.96           0.706322447      44.3933596       0.699628954      -44.9325251      0.699628954      -44.9325251      0.706322447      44.3933596       
878.68           0.711748607      43.9570349       0.694166154      -45.3734015      0.694166154      -45.3734015      0.711748607      43.9570349       
891.4            0.717063381      43.5262781       0.688733596      -45.8085853      0.688733596      -45.8085853      0.717063381      43.5262781       
904.12           0.722268987      43.101018        0.683332196      -46.2381517      0.683332196      -46.2381517      0.722268987      43.101018        
916.84           0.727367622      42.6811831       0.677962797      -46.662176       0.677962797      -46.662176       0.727367622      42.6811831       
929.56           0.73236146       42.2667017       0.672626178      -47.0807338      0.672626178      -47.0807338      0.73236146       42.2667017       
942.28           0.73725265       41.8575019       0.66732305       -47.4939005      0.66732305       -47.4939005      0.73725265       41.8575019       
955              0.742043314      41.4535117       0.662054064      -47.9017514      0.662054064      -47.9017514      0.742043314      41.4535117       
967.72           0.746735549      41.0546592       0.656819812      -48.3043617      0.656819812      -48.3043617      0.746735549      41.0546592       
980.44           0.751331419      40.6608724       0.65162083       -48.7018061      0.65162083       -48.7018061      0.751331419      40.6608724       
993.16           0.755832961      40.2720797       0.646457601      -49.0941595      0.646457601      -49.0941595      0.755832961      40.2720797       
1005.88          0.760242181      39.8882096       0.641330555      -49.4814958      0.641330555      -49.4814958      0.760242181      39.8882096       
1018.6           0.764561053      39.509191        0.636240077      -49.8638889      0.636240077      -49.8638889      0.764561053      39.509191        
1031.32          0.76879152       39.134953        0.631186502      -50.2414121      0.631186502      -50.2414121      0.76879152       39.134953        
1044.04          0.772935491      38.7654254       0.626170125      -50.6141381      0.626170125      -50.6141381      0.772935491      38.7654254       
1056.76          0.776994844      38.4005381       0.621191196      -50.9821391      0.621191196      -50.9821391      0.776994844      38.4005381       
1069.48          0.780971422      38.0402218       0.616249928      -51.3454867      0.616249928      -51.3454867      0.780971422      38.0402218       
1082.2           0.784867036      37.6844077       0.611346496      -51.7042516      0.611346496      -51.7042516      0.784867036      37.6844077       
1094.92          0.788683462      37.3330275       0.60648104       -52.0585042      0.60648104       -52.0585042      0.788683462      37.3330275       
1107.64          0.792422444      36.9860136       0.601653667      -52.4083138      0.601653667      -52.4083138      0.792422444      36.9860136       
1120.36          0.796085691      36.6432991       0.596864452      -52.7537494      0.596864452      -52.7537494      0.796085691      36.6432991       
1133.08          0.79967488       36.3048176       0.592113441      -53.0948788      0.592113441      -53.0948788      0.79967488       36.3048176       
1145.8           0.803191653      35.9705037       0.58740065       -53.4317693      0.58740065       -53.4317693      0.803191653      35.9705037       
1158.52          0.806637618      35.6402924       0.582726071      -53.7644873      0.582726071      -53.7644873      0.806637618      35.6402924       
1171.24          0.810014353      35.3141197       0.578089671      -54.0930983      0.578089671      -54.0930983      0.810014353      35.3141197       
1183.96          0.8133234        34.9919223       0.573491393      -54.417667       0.573491393      -54.417667       0.8133234        34.9919223       
1196.68          0.81656627       34.6736377       0.568931158      -54.7382575      0.568931158      -54.7382575      0.81656627       34.6736377       
1209.4           0.819744441      34.3592041       0.564408867      -55.0549326      0.564408867      -55.0549326      0.819744441      34.3592041       
1222.12          0.82285936       34.0485607       0.559924402      -55.3677546      0.559924402      -55.3677546      0.82285936       34.0485607       
1234.84          0.825912443      33.7416472       0.555477627      -55.6767849      0.555477627      -55.6767849      0.825912443      33.7416472       
1247.56          0.828905072      33.4384045       0.551068389      -55.9820837      0.551068389      -55.9820837      0.828905072      33.4384045       
1260.28          0.831838602      33.1387741       0.546696521      -56.2837108      0.546696521      -56.2837108      0.831838602      33.1387741       
1273             0.834714354      32.8426983       0.542361838      -56.5817246      0.542361838      -56.5817246      0.834714354      32.8426983       
1285.72          0.837533624      32.5501204       0.538064145      -56.8761832      0.538064145      -56.8761832      0.837533624      32.5501204       
1298.44          0.840297674      32.2609844       0.533803232      -57.1671433      0.533803232      -57.1671433      0.840297674      32.2609844       
1311.16          0.843007739      31.9752352       0.529578881      -57.454661       0.529578881      -57.454661       0.843007739      31.9752352       
1323.88          0.845665027      31.6928186       0.525390859      -57.7387914      0.525390859      -57.7387914      0.845665027      31.6928186       
1336.6           0.848270717      31.413681        0.521238925      -58.0195889      0.521238925      -58.0195889      0.848270717      31.413681        
1349.32          0.85082596       31.1377699       0.51712283       -58.2971068      0.51712283       -58.2971068      0.85082596       31.1377699       
1362.04          0.853331881      30.8650336       0.513042316      -58.5713978      0.513042316      -58.5713978      0.853331881      30.8650336       
1374.76          0.855789578      30.595421        0.508997116      -58.8425134      0.508997116      -58.8425134      0.855789578      30.595421        
1387.48          0.858200125      30.328882        0.504986958      -59.1105046      0.504986958      -59.1105046      0.858200125      30.328882        
1400.2           0.860564569      30.0653673       0.501011563      -59.3754214      0.501011563      -59.3754214      0.860564569      30.0653673       
1412.92          0.862883932      29.8048283       0.497070647      -59.637313       0.497070647      -59.637313       0.862883932      29.8048283       
1425.64          0.865159215      29.5472174       0.493163919      -59.8962275      0.493163919      -59.8962275      0.865159215      29.5472174       
1438.36          0.86739139       29.2924876       0.489291085      -60.1522127      0.489291085      -60.1522127      0.86739139       29.2924876       
1451.08          0.86958141       29.0405928       0.485451847      -60.4053152      0.485451847      -60.4053152      0.86958141       29.0405928       
1463.8           0.871730204      28.7914875       0.481645903      -60.6555809      0.481645903      -60.6555809      0.871730204      28.7914875       
1476.52          0.873838679      28.5451273       0.477872949      -60.9030549      0.477872949      -60.9030549      0.873838679      28.5451273       
1489.24          0.875907719      28.3014682       0.474132676      -61.1477815      0.474132676      -61.1477815      0.875907719      28.3014682       
1501.96          0.877938189      28.0604672       0.470424774      -61.3898043      0.470424774      -61.3898043      0.877938189      28.0604672       
1514.68          0.87993093       27.8220819       0.466748932      -61.6291661      0.466748932      -61.6291661      0.87993093       27.8220819       
1527.4           0.881886768      27.5862707       0.463104836      -61.865909       0.463104836      -61.865909       0.881886768      27.5862707       
1540.12          0.883806503      27.3529927       0.459492172      -62.1000742      0.459492172      -62.1000742      0.883806503      27.3529927       
1552.84          0.88569092       27.1222077       0.455910625      -62.3317023      0.455910625      -62.3317023      0.88569092       27.1222077       
1565.56          0.887540784      26.8938762       0.452359877      -62.5608331      0.452359877      -62.5608331      0.887540784      26.8938762       
1578.28          0.88935684       26.6679594       0.448839614      -62.7875058      0.448839614      -62.7875058      0.88935684       26.6679594       
1591             0.891139818      26.4444193       0.445349518      -63.0117588      0.445349518      -63.0117588      0.891139818      26.4444193       
1603.72          0.892890429      26.2232183       0.441889273      -63.2336299      0.441889273      -63.2336299      0.892890429      26.2232183       
1616.44          0.894609365      26.0043197       0.438458564      -63.4531561      0.438458564      -63.4531561      0.894609365      26.0043197       
