! Coilcraft 1008HT-R33 Chip Inductor				
! 16 July 2002			
# MHZ S MA R 50
!Freq             MagS11           AngS11           MagS21           AngS21           MagS12           AngS12           MagS22           AngS22
1                0.0271764393     49.3615147       0.982516868      -1.20269043      0.982516868      -1.20269043      0.0271764393     49.3615147       
3.49             0.0756836485     70.0196045       0.976732318      -4.17612616      0.976732318      -4.17612616      0.0756836485     70.0196045       
5.98             0.125936484      72.4820186       0.969559153      -7.1153005       0.969559153      -7.1153005       0.125936484      72.4820186       
8.47             0.175496794      72.0175604       0.960436597      -10.0088393      0.960436597      -10.0088393      0.175496794      72.0175604       
10.96            0.223784697      70.5831191       0.949362977      -12.8449946      0.949362977      -12.8449946      0.223784697      70.5831191       
13.45            0.270452485      68.7368626       0.936474465      -15.6130109      0.936474465      -15.6130109      0.270452485      68.7368626       
15.94            0.315248528      66.7033331       0.921968029      -18.3036078      0.921968029      -18.3036078      0.315248528      66.7033331       
18.43            0.357990601      64.5925189       0.906070269      -20.9091923      0.906070269      -20.9091923      0.357990601      64.5925189       
20.92            0.398556294      62.4654259       0.889019066      -23.4239196      0.889019066      -23.4239196      0.398556294      62.4654259       
23.41            0.436876198      60.3586493       0.871050939      -25.8436503      0.871050939      -25.8436503      0.436876198      60.3586493       
25.9             0.472927034      58.2951381       0.852392043      -28.1658342      0.852392043      -28.1658342      0.472927034      58.2951381       
28.39            0.506724426      56.2895123       0.833251986      -30.3893469      0.833251986      -30.3893469      0.506724426      56.2895123       
30.88            0.53831557       54.3509626       0.813819964      -32.5143001      0.813819964      -32.5143001      0.53831557       54.3509626       
33.37            0.5677722        52.4849721       0.794262786      -34.5418423      0.794262786      -34.5418423      0.5677722        52.4849721       
35.86            0.595184137      50.6944127       0.774724362      -36.4739632      0.774724362      -36.4739632      0.595184137      50.6944127       
38.35            0.620653614      48.9802863       0.755326293      -38.3133114      0.755326293      -38.3133114      0.620653614      48.9802863       
40.84            0.644290481      47.3422473       0.736169202      -40.063029       0.736169202      -40.063029       0.644290481      47.3422473       
43.33            0.666208274      45.7789846       0.717334541      -41.7266084      0.717334541      -41.7266084      0.666208274      45.7789846       
45.82            0.686521114      44.2885052       0.698886634      -43.3077705      0.698886634      -43.3077705      0.686521114      44.2885052       
48.31            0.705341335      42.8683482       0.680874803      -44.8103634      0.680874803      -44.8103634      0.705341335      42.8683482       
50.8             0.722777753      41.5157472       0.663335444      -46.2382812      0.663335444      -46.2382812      0.722777753      41.5157472       
53.29            0.738934448      40.2277533       0.646293985      -47.5953993      0.646293985      -47.5953993      0.738934448      40.2277533       
55.78            0.753909986      39.001328        0.62976667       -48.8855254      0.62976667       -48.8855254      0.753909986      39.001328        
58.27            0.76779696       37.8334121       0.613762163      -50.1123623      0.613762163      -50.1123623      0.76779696       37.8334121       
60.76            0.7806818        36.7209775       0.598282948      -51.2794815      0.598282948      -51.2794815      0.7806818        36.7209775       
63.25            0.792644767      35.6610638       0.583326542      -52.3903053      0.583326542      -52.3903053      0.792644767      35.6610638       
65.74            0.803760086      34.6508047       0.568886531      -53.4480956      0.568886531      -53.4480956      0.803760086      34.6508047       
68.23            0.814096172      33.6874452       0.554953443      -54.455948       0.554953443      -54.455948       0.814096172      33.6874452       
70.72            0.823715925      32.7683532       0.541515482      -55.41679        0.541515482      -55.41679        0.823715925      32.7683532       
73.21            0.832677057      31.891025        0.52855913       -56.333382       0.52855913       -56.333382       0.832677057      31.891025        
75.7             0.841032438      31.0530883       0.516069647      -57.2083215      0.516069647      -57.2083215      0.841032438      31.0530883       
78.19            0.848830447      30.2523016       0.504031476      -58.0440479      0.504031476      -58.0440479      0.848830447      30.2523016       
80.68            0.856115319      29.486552        0.492428569      -58.8428487      0.492428569      -58.8428487      0.856115319      29.486552        
83.17            0.862927479      28.7538511       0.481244653      -59.6068673      0.481244653      -59.6068673      0.862927479      28.7538511       
85.66            0.869303861      28.052331        0.47046343       -60.3381096      0.47046343       -60.3381096      0.869303861      28.052331        
88.15            0.875278206      27.3802381       0.460068748      -61.0384522      0.460068748      -61.0384522      0.875278206      27.3802381       
90.64            0.880881344      26.7359279       0.45004472       -61.70965        0.45004472       -61.70965        0.880881344      26.7359279       
93.13            0.886141449      26.117859        0.440375818      -62.3533436      0.440375818      -62.3533436      0.886141449      26.117859        
95.62            0.891084278      25.5245873       0.431046949      -62.9710667      0.431046949      -62.9710667      0.891084278      25.5245873       
98.11            0.895733391      24.9547597       0.422043498      -63.564253       0.422043498      -63.564253       0.895733391      24.9547597       
100.6            0.90011035       24.4071091       0.413351366      -64.1342433      0.413351366      -64.1342433      0.90011035       24.4071091       
103.09           0.9042349        23.8804485       0.404956988      -64.682291       0.404956988      -64.682291       0.9042349        23.8804485       
105.58           0.908125136      23.3736656       0.396847346      -65.2095691      0.396847346      -65.2095691      0.908125136      23.3736656       
108.07           0.911797649      22.8857185       0.389009968      -65.7171751      0.389009968      -65.7171751      0.911797649      22.8857185       
110.56           0.91526767       22.4156303       0.381432927      -66.2061365      0.381432927      -66.2061365      0.91526767       22.4156303       
113.05           0.918549187      21.9624852       0.374104833      -66.6774156      0.374104833      -66.6774156      0.918549187      21.9624852       
115.54           0.921655058      21.5254241       0.367014817      -67.1319142      0.367014817      -67.1319142      0.921655058      21.5254241       
118.03           0.924597115      21.1036408       0.360152518      -67.570478       0.360152518      -67.570478       0.924597115      21.1036408       
120.52           0.927386251      20.6963783       0.353508068      -67.9939001      0.353508068      -67.9939001      0.927386251      20.6963783       
123.01           0.93003251       20.3029256       0.347072072      -68.402925       0.347072072      -68.402925       0.93003251       20.3029256       
125.5            0.932545153      19.9226146       0.34083559       -68.7982519      0.34083559       -68.7982519      0.932545153      19.9226146       
127.99           0.934932732      19.5548169       0.334790114      -69.1805378      0.334790114      -69.1805378      0.934932732      19.5548169       
130.48           0.937203153      19.1989414       0.328927556      -69.5504006      0.328927556      -69.5504006      0.937203153      19.1989414       
132.97           0.939363725      18.8544314       0.323240221      -69.9084216      0.323240221      -69.9084216      0.939363725      18.8544314       
135.46           0.941421215      18.5207628       0.317720795      -70.255148       0.317720795      -70.255148       0.941421215      18.5207628       
137.95           0.943381895      18.1974415       0.312362319      -70.5910954      0.312362319      -70.5910954      0.943381895      18.1974415       
140.44           0.945251579      17.8840016       0.307158178      -70.9167497      0.307158178      -70.9167497      0.945251579      17.8840016       
142.93           0.947035667      17.5800036       0.302102081      -71.2325692      0.302102081      -71.2325692      0.947035667      17.5800036       
145.42           0.948739171      17.2850323       0.297188042      -71.5389865      0.297188042      -71.5389865      0.948739171      17.2850323       
147.91           0.950366756      16.9986956       0.292410367      -71.8364101      0.292410367      -71.8364101      0.950366756      16.9986956       
150.4            0.951922758      16.720623        0.28776364       -72.125226       0.28776364       -72.125226       0.951922758      16.720623        
152.89           0.953411218      16.4504638       0.283242703      -72.4057991      0.283242703      -72.4057991      0.953411218      16.4504638       
155.38           0.954835904      16.1878863       0.278842649      -72.6784748      0.278842649      -72.6784748      0.954835904      16.1878863       
157.87           0.956200327      15.9325764       0.274558802      -72.9435799      0.274558802      -72.9435799      0.956200327      15.9325764       
160.36           0.957507768      15.6842364       0.270386711      -73.201424       0.270386711      -73.201424       0.957507768      15.6842364       
162.85           0.958761291      15.4425843       0.266322133      -73.4523005      0.266322133      -73.4523005      0.958761291      15.4425843       
165.34           0.959963761      15.2073525       0.262361025      -73.6964876      0.262361025      -73.6964876      0.959963761      15.2073525       
167.83           0.96111786       14.9782869       0.258499533      -73.9342494      0.258499533      -73.9342494      0.96111786       14.9782869       
170.32           0.962226097      14.7551464       0.25473398       -74.1658364      0.25473398       -74.1658364      0.962226097      14.7551464       
172.81           0.963290826      14.537702        0.251060858      -74.3914867      0.251060858      -74.3914867      0.963290826      14.537702        
175.3            0.964314252      14.3257357       0.247476822      -74.6114266      0.247476822      -74.6114266      0.964314252      14.3257357       
177.79           0.965298448      14.1190406       0.243978674      -74.8258712      0.243978674      -74.8258712      0.965298448      14.1190406       
180.28           0.966245356      13.9174195       0.240563362      -75.0350252      0.240563362      -75.0350252      0.966245356      13.9174195       
182.77           0.967156805      13.7206847       0.237227972      -75.2390834      0.237227972      -75.2390834      0.967156805      13.7206847       
185.26           0.968034513      13.5286575       0.233969717      -75.4382314      0.233969717      -75.4382314      0.968034513      13.5286575       
187.75           0.968880097      13.3411676       0.230785932      -75.6326459      0.230785932      -75.6326459      0.968880097      13.3411676       
190.24           0.969695079      13.1580526       0.227674069      -75.8224957      0.227674069      -75.8224957      0.969695079      13.1580526       
192.73           0.970480895      12.9791574       0.224631691      -76.0079413      0.224631691      -76.0079413      0.970480895      12.9791574       
195.22           0.971238897      12.8043342       0.221656465      -76.1891363      0.221656465      -76.1891363      0.971238897      12.8043342       
197.71           0.971970361      12.6334419       0.218746157      -76.3662271      0.218746157      -76.3662271      0.971970361      12.6334419       
200.2            0.972676492      12.4663455       0.215898627      -76.5393535      0.215898627      -76.5393535      0.972676492      12.4663455       
202.69           0.973358428      12.3029161       0.213111825      -76.7086493      0.213111825      -76.7086493      0.973358428      12.3029161       
205.18           0.974017243      12.1430305       0.210383788      -76.8742423      0.210383788      -76.8742423      0.974017243      12.1430305       
207.67           0.974653956      11.9865708       0.207712631      -77.0362547      0.207712631      -77.0362547      0.974653956      11.9865708       
210.16           0.975269527      11.8334241       0.205096548      -77.1948033      0.205096548      -77.1948033      0.975269527      11.8334241       
212.65           0.975864868      11.6834824       0.202533806      -77.3500003      0.202533806      -77.3500003      0.975864868      11.6834824       
215.14           0.976440842      11.5366423       0.200022742      -77.5019528      0.200022742      -77.5019528      0.976440842      11.5366423       
217.63           0.976998267      11.3928045       0.197561757      -77.6507634      0.197561757      -77.6507634      0.976998267      11.3928045       
220.12           0.977537916      11.2518742       0.195149318      -77.7965307      0.195149318      -77.7965307      0.977537916      11.2518742       
222.61           0.978060527      11.1137601       0.192783953      -77.9393491      0.192783953      -77.9393491      0.978060527      11.1137601       
225.1            0.978566798      10.9783747       0.190464243      -78.0793089      0.190464243      -78.0793089      0.978566798      10.9783747       
227.59           0.979057391      10.8456344       0.188188828      -78.2164972      0.188188828      -78.2164972      0.979057391      10.8456344       
230.08           0.979532936      10.7154583       0.185956399      -78.3509973      0.185956399      -78.3509973      0.979532936      10.7154583       
232.57           0.979994033      10.5877693       0.183765696      -78.4828892      0.183765696      -78.4828892      0.979994033      10.5877693       
235.06           0.98044125       10.4624929       0.181615506      -78.61225        0.181615506      -78.61225        0.98044125       10.4624929       
237.55           0.980875131      10.3395577       0.179504664      -78.7391534      0.179504664      -78.7391534      0.980875131      10.3395577       
240.04           0.98129619       10.2188951       0.177432046      -78.8636705      0.177432046      -78.8636705      0.98129619       10.2188951       
242.53           0.98170492       10.1004389       0.175396569      -78.9858697      0.175396569      -78.9858697      0.98170492       10.1004389       
245.02           0.982101787      9.98412559       0.173397192      -79.1058167      0.173397192      -79.1058167      0.982101787      9.98412559       
247.51           0.982487239      9.869894         0.171432909      -79.2235747      0.171432909      -79.2235747      0.982487239      9.869894         
250              0.982861701      9.75768522       0.169502753      -79.3392046      0.169502753      -79.3392046      0.982861701      9.75768522       
252.49           0.98322558       9.6474425        0.167605789      -79.452765       0.167605789      -79.452765       0.98322558       9.6474425        
254.98           0.983579261      9.53911118       0.165741116      -79.5643124      0.165741116      -79.5643124      0.983579261      9.53911118       
257.47           0.983923116      9.4326386        0.163907866      -79.6739011      0.163907866      -79.6739011      0.983923116      9.4326386        
259.96           0.984257497      9.32797397       0.162105198      -79.7815835      0.162105198      -79.7815835      0.984257497      9.32797397       
262.45           0.984582743      9.22506831       0.160332304      -79.8874103      0.160332304      -79.8874103      0.984582743      9.22506831       
264.94           0.984899176      9.12387439       0.158588401      -79.9914301      0.158588401      -79.9914301      0.984899176      9.12387439       
267.43           0.985207105      9.02434663       0.156872733      -80.09369        0.156872733      -80.09369        0.985207105      9.02434663       
269.92           0.985506826      8.92644102       0.155184571      -80.1942353      0.155184571      -80.1942353      0.985506826      8.92644102       
272.41           0.98579862       8.83011508       0.15352321       -80.2931097      0.15352321       -80.2931097      0.98579862       8.83011508       
274.9            0.986082758      8.7353278        0.151887967      -80.3903556      0.151887967      -80.3903556      0.986082758      8.7353278        
277.39           0.9863595        8.64203955       0.150278184      -80.4860138      0.150278184      -80.4860138      0.9863595        8.64203955       
279.88           0.986629094      8.55021201       0.148693221      -80.5801236      0.148693221      -80.5801236      0.986629094      8.55021201       
282.37           0.986891778      8.45980819       0.147132463      -80.6727232      0.147132463      -80.6727232      0.986891778      8.45980819       
284.86           0.98714778       8.37079228       0.145595313      -80.7638494      0.145595313      -80.7638494      0.98714778       8.37079228       
287.35           0.987397318      8.28312968       0.144081192      -80.8535378      0.144081192      -80.8535378      0.987397318      8.28312968       
289.84           0.987640603      8.19678691       0.142589542      -80.9418227      0.142589542      -80.9418227      0.987640603      8.19678691       
292.33           0.987877836      8.11173157       0.14111982       -81.0287374      0.14111982       -81.0287374      0.987877836      8.11173157       
294.82           0.988109211      8.0279323        0.139671502      -81.1143141      0.139671502      -81.1143141      0.988109211      8.0279323        
297.31           0.988334913      7.94535875       0.138244079      -81.1985839      0.138244079      -81.1985839      0.988334913      7.94535875       
299.8            0.98855512       7.86398153       0.13683706       -81.281577       0.13683706       -81.281577       0.98855512       7.86398153       
302.29           0.988770005      7.78377217       0.135449966      -81.3633225      0.135449966      -81.3633225      0.988770005      7.78377217       
304.78           0.988979731      7.70470309       0.134082334      -81.4438487      0.134082334      -81.4438487      0.988979731      7.70470309       
307.27           0.989184458      7.62674756       0.132733716      -81.523183       0.132733716      -81.523183       0.989184458      7.62674756       
309.76           0.989384337      7.54987967       0.131403677      -81.6013517      0.131403677      -81.6013517      0.989384337      7.54987967       
312.25           0.989579515      7.47407432       0.130091794      -81.6783805      0.130091794      -81.6783805      0.989579515      7.47407432       
314.74           0.989770133      7.39930714       0.128797658      -81.7542944      0.128797658      -81.7542944      0.989770133      7.39930714       
317.23           0.989956328      7.32555452       0.12752087       -81.8291174      0.12752087       -81.8291174      0.989956328      7.32555452       
