! Coilcraft 1008HT-R39 Chip Inductor				
! 16 July 2002			
# MHZ S MA R 50
!Freq             MagS11           AngS11           MagS21           AngS21           MagS12           AngS12           MagS22           AngS22
1                0.030696972      50.1398673       0.980608976      -1.37690972      0.980608976      -1.37690972      0.030696972      50.1398673       
3.24             0.0806500103     69.0998142       0.974146852      -4.43586147      0.974146852      -4.43586147      0.0806500103     69.0998142       
5.48             0.132200024      71.5213817       0.966268625      -7.45578599      0.966268625      -7.45578599      0.132200024      71.5213817       
7.72             0.182960802      71.0562351       0.956390021      -10.4246392      0.956390021      -10.4246392      0.182960802      71.0562351       
9.96             0.232319925      69.6122733       0.944513301      -13.3300208      0.944513301      -13.3300208      0.232319925      69.6122733       
12.2             0.279911567      67.7495187       0.930789921      -16.1606773      0.930789921      -16.1606773      0.279911567      67.7495187       
14.44            0.325475995      65.6965819       0.915436038      -18.9070271      0.915436038      -18.9070271      0.325475995      65.6965819       
16.68            0.368830502      63.5663342       0.898697797      -21.5613784      0.898697797      -21.5613784      0.368830502      63.5663342       
18.92            0.409858141      61.4215755       0.880830986      -24.117973       0.880830986      -24.117973       0.409858141      61.4215755       
21.16            0.448499399      59.2999346       0.862087262      -26.5729147      0.862087262      -26.5729147      0.448499399      59.2999346       
23.4             0.484743913      57.2248822       0.842704632      -28.924019       0.842704632      -28.924019       0.484743913      57.2248822       
25.64            0.518621977      55.2112184       0.822901171      -31.1706143      0.822901171      -31.1706143      0.518621977      55.2112184       
27.88            0.550196154      53.2680901       0.802871367      -33.3133192      0.802871367      -33.3133192      0.550196154      53.2680901       
30.12            0.579553399      51.4007937       0.782784523      -35.3538151      0.782784523      -35.3538151      0.579553399      51.4007937       
32.36            0.606798006      49.6119295       0.762784725      -37.2946278      0.762784725      -37.2946278      0.606798006      49.6119295       
34.6             0.632045532      47.9021836       0.742991926      -39.1389267      0.742991926      -39.1389267      0.632045532      47.9021836       
36.84            0.655417769      46.2708787       0.72350375       -40.890348       0.72350375       -40.890348       0.655417769      46.2708787       
39.08            0.677038724      44.7163745       0.704397712      -42.5528425      0.704397712      -42.5528425      0.677038724      44.7163745       
41.32            0.69703152       43.2363645       0.685733622      -44.1305499      0.685733622      -44.1305499      0.69703152       43.2363645       
43.56            0.715516102      41.8280969       0.66755599       -45.6276953      0.66755599       -45.6276953      0.715516102      41.8280969       
45.8             0.732607607      40.4885411       0.64989632       -47.0485081      0.64989632       -47.0485081      0.732607607      40.4885411       
48.04            0.748415295      39.2145122       0.632775231      -48.3971597      0.632775231      -48.3971597      0.748415295      39.2145122       
50.28            0.763041901      38.0027633       0.616204357      -49.6777157      0.616204357      -49.6777157      0.763041901      38.0027633       
52.52            0.776583323      36.8500541       0.600188025      -50.894103       0.600188025      -50.894103       0.776583323      36.8500541       
54.76            0.78912856       35.7532          0.584724697      -52.0500859      0.584724697      -52.0500859      0.78912856       35.7532          
57               0.800759822      34.709107        0.569808205      -53.149252       0.569808205      -53.149252       0.800759822      34.709107        
59.24            0.811552775      33.7147951       0.555428795      -54.1950036      0.555428795      -54.1950036      0.811552775      33.7147951       
61.48            0.821576857      32.7674142       0.541573991      -55.1905552      0.541573991      -55.1905552      0.821576857      32.7674142       
63.72            0.830895647      31.8642525       0.528229307      -56.1389344      0.528229307      -56.1389344      0.830895647      31.8642525       
65.96            0.839567267      31.0027408       0.515378843      -57.0429856      0.515378843      -57.0429856      0.839567267      31.0027408       
68.2             0.847644777      30.1804531       0.503005747      -57.9053761      0.503005747      -57.9053761      0.847644777      30.1804531       
70.44            0.855176578      29.3951042       0.491092608      -58.7286027      0.491092608      -58.7286027      0.855176578      29.3951042       
72.68            0.862206793      28.6445466       0.479621752      -59.5150007      0.479621752      -59.5150007      0.862206793      28.6445466       
74.92            0.868775638      27.9267647       0.468575481      -60.2667516      0.468575481      -60.2667516      0.868775638      27.9267647       
77.16            0.874919761      27.2398696       0.457936265      -60.9858925      0.457936265      -60.9858925      0.874919761      27.2398696       
79.4             0.880672565      26.5820922       0.447686875      -61.6743247      0.447686875      -61.6743247      0.880672565      26.5820922       
81.64            0.8860645        25.951777        0.437810497      -62.3338224      0.437810497      -62.3338224      0.8860645        25.951777        
83.88            0.891123341      25.3473751       0.428290804      -62.9660409      0.428290804      -62.9660409      0.891123341      25.3473751       
86.12            0.895874431      24.7674382       0.419112013      -63.5725248      0.419112013      -63.5725248      0.895874431      24.7674382       
88.36            0.900340909      24.2106117       0.410258921      -64.1547158      0.410258921      -64.1547158      0.900340909      24.2106117       
90.6             0.904543916      23.6756289       0.401716926      -64.7139594      0.401716926      -64.7139594      0.904543916      23.6756289       
92.84            0.908502783      23.1613049       0.393472036      -65.2515122      0.393472036      -65.2515122      0.908502783      23.1613049       
95.08            0.912235199      22.6665312       0.385510872      -65.7685481      0.385510872      -65.7685481      0.912235199      22.6665312       
97.32            0.915757363      22.1902706       0.377820658      -66.2661641      0.377820658      -66.2661641      0.915757363      22.1902706       
99.56            0.919084124      21.7315518       0.370389214      -66.7453859      0.370389214      -66.7453859      0.919084124      21.7315518       
101.8            0.922229103      21.2894653       0.363204939      -67.2071733      0.363204939      -67.2071733      0.922229103      21.2894653       
104.04           0.92520481       20.863159        0.356256793      -67.6524245      0.356256793      -67.6524245      0.92520481       20.863159        
106.28           0.928022741      20.4518339       0.349534275      -68.0819809      0.349534275      -68.0819809      0.928022741      20.4518339       
108.52           0.930693471      20.0547405       0.343027405      -68.4966309      0.343027405      -68.4966309      0.930693471      20.0547405       
110.76           0.93322674       19.6711757       0.336726702      -68.897114       0.336726702      -68.897114       0.93322674       19.6711757       
113              0.935631524      19.3004789       0.330623159      -69.2841241      0.330623159      -69.2841241      0.935631524      19.3004789       
115.24           0.937916102      18.9420298       0.324708221      -69.6583125      0.324708221      -69.6583125      0.937916102      18.9420298       
117.48           0.940088122      18.5952449       0.318973767      -70.0202915      0.318973767      -70.0202915      0.940088122      18.5952449       
119.72           0.942154649      18.2595756       0.313412083      -70.3706365      0.313412083      -70.3706365      0.942154649      18.2595756       
121.96           0.944122223      17.9345052       0.308015847      -70.7098889      0.308015847      -70.7098889      0.944122223      17.9345052       
124.2            0.945996896      17.6195473       0.302778104      -71.0385584      0.302778104      -71.0385584      0.945996896      17.6195473       
126.44           0.94778428       17.3142434       0.297692248      -71.3571252      0.297692248      -71.3571252      0.94778428       17.3142434       
128.68           0.949489578      17.018161        0.292752004      -71.6660419      0.292752004      -71.6660419      0.949489578      17.018161        
130.92           0.951117625      16.7308923       0.28795141       -71.9657353      0.28795141       -71.9657353      0.951117625      16.7308923       
133.16           0.95267291       16.4520518       0.283284801      -72.2566086      0.283284801      -72.2566086      0.95267291       16.4520518       
135.4            0.954159609      16.1812758       0.27874679       -72.5390421      0.27874679       -72.5390421      0.954159609      16.1812758       
137.64           0.955581612      15.9182201       0.274332257      -72.8133956      0.274332257      -72.8133956      0.955581612      15.9182201       
139.88           0.95694254       15.6625593       0.270036332      -73.0800091      0.270036332      -73.0800091      0.95694254       15.6625593       
142.12           0.958245771      15.4139852       0.265854378      -73.3392045      0.265854378      -73.3392045      0.958245771      15.4139852       
144.36           0.959494456      15.1722063       0.261781986      -73.5912864      0.261781986      -73.5912864      0.959494456      15.1722063       
146.6            0.960691539      14.936946        0.257814957      -73.8365435      0.257814957      -73.8365435      0.960691539      14.936946        
148.84           0.961839773      14.7079423       0.25394929       -74.0752493      0.25394929       -74.0752493      0.961839773      14.7079423       
151.08           0.962941729      14.4849464       0.250181176      -74.3076634      0.250181176      -74.3076634      0.962941729      14.4849464       
153.32           0.963999819      14.2677224       0.246506983      -74.5340321      0.246506983      -74.5340321      0.963999819      14.2677224       
155.56           0.965016298      14.056046        0.242923248      -74.7545892      0.242923248      -74.7545892      0.965016298      14.056046        
157.8            0.965993283      13.8497043       0.239426669      -74.9695569      0.239426669      -74.9695569      0.965993283      13.8497043       
160.04           0.966932759      13.6484947       0.236014094      -75.1791463      0.236014094      -75.1791463      0.966932759      13.6484947       
162.28           0.96783659       13.4522245       0.232682516      -75.3835584      0.232682516      -75.3835584      0.96783659       13.4522245       
164.52           0.968706526      13.2607104       0.229429062      -75.5829843      0.229429062      -75.5829843      0.968706526      13.2607104       
166.76           0.969544215      13.0737776       0.22625099       -75.777606       0.22625099       -75.777606       0.969544215      13.0737776       
169              0.970351205      12.8912599       0.223145677      -75.9675969      0.223145677      -75.9675969      0.970351205      12.8912599       
171.24           0.971128954      12.7129986       0.220110617      -76.1531222      0.220110617      -76.1531222      0.971128954      12.7129986       
173.48           0.971878836      12.5388423       0.217143413      -76.3343395      0.217143413      -76.3343395      0.971878836      12.5388423       
175.72           0.972602146      12.3686469       0.214241773      -76.5113991      0.214241773      -76.5113991      0.972602146      12.3686469       
177.96           0.973300104      12.2022745       0.211403502      -76.6844444      0.211403502      -76.6844444      0.973300104      12.2022745       
180.2            0.973973864      12.0395934       0.2086265        -76.8536126      0.2086265        -76.8536126      0.973973864      12.0395934       
182.44           0.974624513      11.880478        0.205908753      -77.0190344      0.205908753      -77.0190344      0.974624513      11.880478        
184.68           0.975253082      11.7248081       0.203248335      -77.180835       0.203248335      -77.180835       0.975253082      11.7248081       
186.92           0.975860541      11.5724685       0.200643398      -77.3391341      0.200643398      -77.3391341      0.975860541      11.5724685       
189.16           0.976447811      11.4233495       0.19809217       -77.494046       0.19809217       -77.494046       0.976447811      11.4233495       
191.4            0.977015763      11.2773456       0.195592952      -77.6456802      0.195592952      -77.6456802      0.977015763      11.2773456       
193.64           0.977565222      11.134356        0.193144114      -77.7941418      0.193144114      -77.7941418      0.977565222      11.134356        
195.88           0.978096969      10.9942842       0.190744091      -77.939531       0.190744091      -77.939531       0.978096969      10.9942842       
198.12           0.978611745      10.8570374       0.188391381      -78.0819441      0.188391381      -78.0819441      0.978611745      10.8570374       
200.36           0.979110254      10.7225271       0.186084541      -78.2214735      0.186084541      -78.2214735      0.979110254      10.7225271       
202.6            0.979593161      10.5906679       0.183822185      -78.3582075      0.183822185      -78.3582075      0.979593161      10.5906679       
204.84           0.980061101      10.4613782       0.181602979      -78.4922312      0.181602979      -78.4922312      0.980061101      10.4613782       
207.08           0.980514676      10.3345796       0.179425644      -78.6236259      0.179425644      -78.6236259      0.980514676      10.3345796       
209.32           0.980954457      10.2101967       0.177288946      -78.7524699      0.177288946      -78.7524699      0.980954457      10.2101967       
211.56           0.981380989      10.0881572       0.175191702      -78.8788383      0.175191702      -78.8788383      0.981380989      10.0881572       
213.8            0.981794788      9.96839145       0.173132769      -79.0028032      0.173132769      -79.0028032      0.981794788      9.96839145       
216.04           0.982196349      9.85083271       0.17111105       -79.1244342      0.17111105       -79.1244342      0.982196349      9.85083271       
218.28           0.982586139      9.73541666       0.169125488      -79.2437977      0.169125488      -79.2437977      0.982586139      9.73541666       
220.52           0.982964606      9.62208142       0.167175063      -79.3609581      0.167175063      -79.3609581      0.982964606      9.62208142       
222.76           0.983332176      9.51076749       0.165258795      -79.475977       0.165258795      -79.475977       0.983332176      9.51076749       
225              0.983689255      9.40141755       0.163375737      -79.5889138      0.163375737      -79.5889138      0.983689255      9.40141755       
227.24           0.984036231      9.29397642       0.161524978      -79.6998257      0.161524978      -79.6998257      0.984036231      9.29397642       
229.48           0.984373473      9.18839093       0.159705637      -79.8087677      0.159705637      -79.8087677      0.984373473      9.18839093       
231.72           0.984701335      9.08460985       0.157916866      -79.915793       0.157916866      -79.915793       0.984701335      9.08460985       
233.96           0.985020153      8.9825838        0.156157846      -80.0209525      0.156157846      -80.0209525      0.985020153      8.9825838        
236.2            0.98533025       8.88226516       0.154427787      -80.1242957      0.154427787      -80.1242957      0.98533025       8.88226516       
238.44           0.985631935      8.783608         0.152725926      -80.2258699      0.152725926      -80.2258699      0.985631935      8.783608         
240.68           0.985925501      8.686568         0.151051525      -80.325721       0.151051525      -80.325721       0.985925501      8.686568         
242.92           0.98621123       8.59110239       0.149403873      -80.4238932      0.149403873      -80.4238932      0.98621123       8.59110239       
245.16           0.986489393      8.49716989       0.147782281      -80.5204291      0.147782281      -80.5204291      0.986489393      8.49716989       
247.4            0.986760247      8.40473061       0.146186086      -80.6153699      0.146186086      -80.6153699      0.986760247      8.40473061       
249.64           0.987024039      8.31374603       0.144614643      -80.7087553      0.144614643      -80.7087553      0.987024039      8.31374603       
251.88           0.987281007      8.22417894       0.143067331      -80.8006237      0.143067331      -80.8006237      0.987281007      8.22417894       
254.12           0.987531377      8.13599337       0.141543549      -80.8910123      0.141543549      -80.8910123      0.987531377      8.13599337       
256.36           0.987775367      8.04915454       0.140042715      -80.9799567      0.140042715      -80.9799567      0.987775367      8.04915454       
258.6            0.988013187      7.96362882       0.138564265      -81.0674916      0.138564265      -81.0674916      0.988013187      7.96362882       
260.84           0.988245035      7.87938368       0.137107655      -81.1536505      0.137107655      -81.1536505      0.988245035      7.87938368       
263.08           0.988471104      7.79638765       0.135672356      -81.2384657      0.135672356      -81.2384657      0.988471104      7.79638765       
265.32           0.988691579      7.71461026       0.134257859      -81.3219685      0.134257859      -81.3219685      0.988691579      7.71461026       
267.56           0.988906637      7.63402204       0.132863666      -81.4041892      0.132863666      -81.4041892      0.988906637      7.63402204       
269.8            0.989116448      7.55459442       0.131489299      -81.485157       0.131489299      -81.485157       0.989116448      7.55459442       
272.04           0.989321175      7.47629976       0.130134293      -81.5649003      0.130134293      -81.5649003      0.989321175      7.47629976       
274.28           0.989520976      7.39911127       0.128798197      -81.6434465      0.128798197      -81.6434465      0.989520976      7.39911127       
276.52           0.989716001      7.32300299       0.127480574      -81.7208222      0.127480574      -81.7208222      0.989716001      7.32300299       
278.76           0.989906397      7.24794977       0.126180999      -81.797053       0.126180999      -81.797053       0.989906397      7.24794977       
281              0.990092302      7.17392722       0.124899063      -81.8721638      0.124899063      -81.8721638      0.990092302      7.17392722       
283.24           0.990273852      7.10091169       0.123634365      -81.9461788      0.123634365      -81.9461788      0.990273852      7.10091169       
285.48           0.990451176      7.02888023       0.122386519      -82.0191213      0.122386519      -82.0191213      0.990451176      7.02888023       
