! Coilcraft 1008HT-R27 Chip Inductor				
! 16 July 2002			
# MHZ S MA R 50
!Freq             MagS11           AngS11           MagS21           AngS21           MagS12           AngS12           MagS22           AngS22
1                0.0229245736     46.9299921       0.984487453      -0.974690377     0.984487453      -0.974690377     0.0229245736     46.9299921       
4.24             0.0740676281     71.4188459       0.978919341      -4.11270392      0.978919341      -4.11270392      0.0740676281     71.4188459       
7.48             0.127237438      73.5539245       0.971670863      -7.21480383      0.971670863      -7.21480383      0.127237438      73.5539245       
10.72            0.179568011      72.7514678       0.962161471      -10.267064       0.962161471      -10.267064       0.179568011      72.7514678       
13.96            0.230435334      71.0343425       0.950429823      -13.2553839      0.950429823      -13.2553839      0.230435334      71.0343425       
17.2             0.279453618      68.9483407       0.936658695      -16.1670433      0.936658695      -16.1670433      0.279453618      68.9483407       
20.44            0.326342642      66.7078674       0.921094515      -18.9912438      0.921094515      -18.9912438      0.326342642      66.7078674       
23.68            0.370903406      64.4167094       0.904013439      -21.7193359      0.904013439      -21.7193359      0.370903406      64.4167094       
26.92            0.413008424      62.1319534       0.885700415      -24.3448615      0.885700415      -24.3448615      0.413008424      62.1319534       
30.16            0.452593467      59.8874768       0.866434489      -26.8634658      0.866434489      -26.8634658      0.452593467      59.8874768       
33.4             0.489648629      57.7041355       0.846478433      -29.2727206      0.846478433      -29.2727206      0.489648629      57.7041355       
36.64            0.52420883       55.5947869       0.826071915      -31.5718928      0.826071915      -31.5718928      0.52420883       55.5947869       
39.88            0.556344345      53.567047        0.805427566      -33.7616859      0.805427566      -33.7616859      0.556344345      53.567047        
43.12            0.586151887      51.624946        0.784729394      -35.8439782      0.784729394      -35.8439782      0.586151887      51.624946        
46.36            0.613746656      49.7699994       0.764132947      -37.8215722      0.764132947      -37.8215722      0.613746656      49.7699994       
49.6             0.639255539      48.0019412       0.743766726      -39.6979665      0.743766726      -39.6979665      0.639255539      48.0019412       
52.84            0.662811534      46.3192472       0.72373439       -41.4771562      0.72373439       -41.4771562      0.662811534      46.3192472       
56.08            0.68454934       44.7195187       0.704117391      -43.1634631      0.704117391      -43.1634631      0.68454934       44.7195187       
59.32            0.704602016      43.1997672       0.684977775      -44.7613958      0.684977775      -44.7613958      0.704602016      43.1997672       
62.56            0.723098538      41.7566287       0.666360954      -46.2755369      0.666360954      -46.2755369      0.723098538      41.7566287       
65.8             0.74016212       40.3865232       0.648298317      -47.7104554      0.648298317      -47.7104554      0.74016212       40.3865232       
69.04            0.755909138      39.0857738       0.630809622      -49.0706399      0.630809622      -49.0706399      0.755909138      39.0857738       
72.28            0.770448526      37.8506942       0.613905114      -50.360449       0.613905114      -50.360449       0.770448526      37.8506942       
75.52            0.78388153       36.6776526       0.597587377      -51.584077       0.597587377      -51.584077       0.78388153       36.6776526       
78.76            0.796301715      35.5631161       0.581852917      -52.7455309      0.581852917      -52.7455309      0.796301715      35.5631161       
82               0.807795168      34.5036815       0.566693504      -53.8486167      0.566693504      -53.8486167      0.807795168      34.5036815       
85.24            0.818440816      33.4960951       0.552097287      -54.8969324      0.552097287      -54.8969324      0.818440816      33.4960951       
88.48            0.828310823      32.5372644       0.538049719      -55.8938673      0.538049719      -55.8938673      0.828310823      32.5372644       
91.72            0.837471036      31.6242631       0.524534313      -56.8426039      0.524534313      -56.8426039      0.837471036      31.6242631       
94.96            0.845981443      30.7543327       0.511533255      -57.7461242      0.511533255      -57.7461242      0.845981443      30.7543327       
98.2             0.853896638      29.9248798       0.499027893      -58.6072169      0.499027893      -58.6072169      0.853896638      29.9248798       
101.44           0.861266263      29.1334718       0.48699913       -59.4284862      0.48699913       -59.4284862      0.861266263      29.1334718       
104.68           0.868135447      28.3778307       0.475427729      -60.2123617      0.475427729      -60.2123617      0.868135447      28.3778307       
107.92           0.874545203      27.6558261       0.464294551      -60.9611079      0.464294551      -60.9611079      0.874545203      27.6558261       
111.16           0.880532809      26.9654673       0.45358074       -61.6768349      0.45358074       -61.6768349      0.880532809      26.9654673       
114.4            0.886132154      26.3048958       0.443267858      -62.361508       0.443267858      -62.361508       0.886132154      26.3048958       
117.64           0.89137406       25.6723767       0.433337984      -63.0169573      0.433337984      -63.0169573      0.89137406       25.6723767       
120.88           0.896286572      25.0662913       0.423773786      -63.6448873      0.423773786      -63.6448873      0.896286572      25.0662913       
124.12           0.900895226      24.4851293       0.414558568      -64.2468857      0.414558568      -64.2468857      0.900895226      24.4851293       
127.36           0.905223287      23.9274815       0.405676301      -64.8244315      0.405676301      -64.8244315      0.905223287      23.9274815       
130.6            0.909291969      23.3920328       0.397111632      -65.3789032      0.397111632      -65.3789032      0.909291969      23.3920328       
133.84           0.913120632      22.8775553       0.388849892      -65.9115861      0.388849892      -65.9115861      0.913120632      22.8775553       
137.08           0.916726959      22.3829027       0.38087709       -66.4236788      0.38087709       -66.4236788      0.916726959      22.3829027       
140.32           0.920127115      21.907004        0.373179898      -66.9163003      0.373179898      -66.9163003      0.920127115      21.907004        
143.56           0.923335892      21.4488582       0.365745636      -67.3904951      0.365745636      -67.3904951      0.923335892      21.4488582       
146.8            0.92636684       21.0075293       0.358562254      -67.8472394      0.358562254      -67.8472394      0.92636684       21.0075293       
150.04           0.929232379      20.5821416       0.351618305      -68.2874457      0.351618305      -68.2874457      0.929232379      20.5821416       
153.28           0.93194391       20.1718753       0.344902923      -68.7119677      0.344902923      -68.7119677      0.93194391       20.1718753       
156.52           0.934511904      19.7759624       0.338405798      -69.1216044      0.338405798      -69.1216044      0.934511904      19.7759624       
159.76           0.936945993      19.3936832       0.332117152      -69.5171045      0.332117152      -69.5171045      0.936945993      19.3936832       
163              0.939255039      19.0243627       0.326027708      -69.8991697      0.326027708      -69.8991697      0.939255039      19.0243627       
166.24           0.941447209      18.6673673       0.320128672      -70.2684582      0.320128672      -70.2684582      0.941447209      18.6673673       
169.48           0.943530035      18.3221021       0.314411704      -70.6255878      0.314411704      -70.6255878      0.943530035      18.3221021       
172.72           0.945510472      17.988008        0.308868896      -70.9711388      0.308868896      -70.9711388      0.945510472      17.988008        
175.96           0.947394943      17.6645594       0.303492746      -71.3056568      0.303492746      -71.3056568      0.947394943      17.6645594       
179.2            0.949189393      17.3512615       0.298276142      -71.6296548      0.298276142      -71.6296548      0.949189393      17.3512615       
182.44           0.950899324      17.0476487       0.293212334      -71.9436159      0.293212334      -71.9436159      0.950899324      17.0476487       
185.68           0.952529834      16.7532821       0.288294918      -72.2479948      0.288294918      -72.2479948      0.952529834      16.7532821       
188.92           0.954085655      16.467748        0.283517816      -72.5432204      0.283517816      -72.5432204      0.954085655      16.467748        
192.16           0.955571177      16.190656        0.278875258      -72.8296971      0.278875258      -72.8296971      0.955571177      16.190656        
195.4            0.956990481      15.9216377       0.274361763      -73.1078065      0.274361763      -73.1078065      0.956990481      15.9216377       
198.64           0.95834736       15.660345        0.269972125      -73.377909       0.269972125      -73.377909       0.95834736       15.660345        
201.88           0.95964535       15.4064489       0.265701398      -73.6403452      0.265701398      -73.6403452      0.95964535       15.4064489       
205.12           0.960887739      15.1596382       0.261544879      -73.8954374      0.261544879      -73.8954374      0.960887739      15.1596382       
208.36           0.962077599      14.9196183       0.257498094      -74.1434901      0.257498094      -74.1434901      0.962077599      14.9196183       
211.6            0.963217791      14.6861104       0.253556789      -74.3847921      0.253556789      -74.3847921      0.963217791      14.6861104       
214.84           0.964310993      14.4588503       0.249716916      -74.6196166      0.249716916      -74.6196166      0.964310993      14.4588503       
218.08           0.965359703      14.2375872       0.245974619      -74.8482229      0.245974619      -74.8482229      0.965359703      14.2375872       
221.32           0.966366261      14.0220836       0.242326227      -75.0708568      0.242326227      -75.0708568      0.966366261      14.0220836       
224.56           0.967332856      13.8121138       0.238768241      -75.2877515      0.238768241      -75.2877515      0.967332856      13.8121138       
227.8            0.968261541      13.6074636       0.235297327      -75.4991285      0.235297327      -75.4991285      0.968261541      13.6074636       
231.04           0.969154238      13.4079291       0.231910305      -75.7051985      0.231910305      -75.7051985      0.969154238      13.4079291       
234.28           0.970012752      13.2133169       0.228604142      -75.9061614      0.228604142      -75.9061614      0.970012752      13.2133169       
237.52           0.970838778      13.0234428       0.225375945      -76.1022077      0.225375945      -76.1022077      0.970838778      13.0234428       
240.76           0.971633908      12.8381313       0.222222948      -76.2935185      0.222222948      -76.2935185      0.971633908      12.8381313       
244              0.972399639      12.6572156       0.219142513      -76.4802663      0.219142513      -76.4802663      0.972399639      12.6572156       
247.24           0.973137379      12.4805365       0.216132119      -76.6626154      0.216132119      -76.6626154      0.973137379      12.4805365       
250.48           0.973848456      12.3079423       0.213189355      -76.8407225      0.213189355      -76.8407225      0.973848456      12.3079423       
253.72           0.974534118      12.1392884       0.210311915      -77.0147371      0.210311915      -77.0147371      0.974534118      12.1392884       
256.96           0.975195543      11.9744367       0.207497596      -77.1848015      0.207497596      -77.1848015      0.975195543      11.9744367       
260.2            0.975833842      11.8132555       0.204744288      -77.3510519      0.204744288      -77.3510519      0.975833842      11.8132555       
263.44           0.976450065      11.6556188       0.20204997       -77.5136183      0.20204997       -77.5136183      0.976450065      11.6556188       
266.68           0.977045201      11.5014064       0.199412709      -77.6726248      0.199412709      -77.6726248      0.977045201      11.5014064       
269.92           0.977620188      11.3505033       0.196830651      -77.8281901      0.196830651      -77.8281901      0.977620188      11.3505033       
273.16           0.978175909      11.2027994       0.194302021      -77.9804277      0.194302021      -77.9804277      0.978175909      11.2027994       
276.4            0.978713204      11.0581895       0.191825116      -78.1294462      0.191825116      -78.1294462      0.978713204      11.0581895       
279.64           0.979232864      10.9165727       0.189398302      -78.2753497      0.189398302      -78.2753497      0.979232864      10.9165727       
282.88           0.97973564       10.7778527       0.187020013      -78.4182375      0.187020013      -78.4182375      0.97973564       10.7778527       
286.12           0.980222245      10.6419369       0.184688744      -78.5582052      0.184688744      -78.5582052      0.980222245      10.6419369       
289.36           0.980693354      10.5087367       0.182403053      -78.695344       0.182403053      -78.695344       0.980693354      10.5087367       
292.6            0.981149606      10.378167        0.180161551      -78.8297418      0.180161551      -78.8297418      0.981149606      10.378167        
295.84           0.981591609      10.2501464       0.177962907      -78.9614824      0.177962907      -78.9614824      0.981591609      10.2501464       
299.08           0.98201994       10.1245967       0.17580584       -79.0906465      0.17580584       -79.0906465      0.98201994       10.1245967       
302.32           0.982435149      10.0014426       0.173689119      -79.2173116      0.173689119      -79.2173116      0.982435149      10.0014426       
305.56           0.982837755      9.88061198       0.171611558      -79.341552       0.171611558      -79.341552       0.982837755      9.88061198       
308.8            0.983228256      9.76203561       0.16957202       -79.4634391      0.16957202       -79.4634391      0.983228256      9.76203561       
312.04           0.983607123      9.64564682       0.167569408      -79.5830416      0.167569408      -79.5830416      0.983607123      9.64564682       
315.28           0.983974804      9.53138156       0.165602665      -79.7004253      0.165602665      -79.7004253      0.983974804      9.53138156       
318.52           0.984331728      9.41917821       0.163670776      -79.8156537      0.163670776      -79.8156537      0.984331728      9.41917821       
321.76           0.984678302      9.30897749       0.161772762      -79.9287879      0.161772762      -79.9287879      0.984678302      9.30897749       
325              0.985014915      9.20072234       0.159907678      -80.0398866      0.159907678      -80.0398866      0.985014915      9.20072234       
328.24           0.985341937      9.09435783       0.158074615      -80.1490062      0.158074615      -80.1490062      0.985341937      9.09435783       
331.48           0.985659722      8.98983105       0.156272696      -80.2562013      0.156272696      -80.2562013      0.985659722      8.98983105       
334.72           0.985968607      8.88709102       0.154501076      -80.3615241      0.154501076      -80.3615241      0.985968607      8.88709102       
337.96           0.986268914      8.78608862       0.152758939      -80.4650253      0.152758939      -80.4650253      0.986268914      8.78608862       
341.2            0.986560951      8.68677648       0.151045497      -80.5667534      0.151045497      -80.5667534      0.986560951      8.68677648       
344.44           0.986845012      8.58910892       0.149359989      -80.6667555      0.149359989      -80.6667555      0.986845012      8.58910892       
347.68           0.987121378      8.49304188       0.147701683      -80.7650768      0.147701683      -80.7650768      0.987121378      8.49304188       
350.92           0.987390318      8.39853285       0.14606987       -80.8617608      0.14606987       -80.8617608      0.987390318      8.39853285       
354.16           0.98765209       8.30554078       0.144463863      -80.9568499      0.144463863      -80.9568499      0.98765209       8.30554078       
357.4            0.987906939      8.21402606       0.142883003      -81.0503845      0.142883003      -81.0503845      0.987906939      8.21402606       
360.64           0.988155101      8.12395041       0.141326648      -81.142404       0.141326648      -81.142404       0.988155101      8.12395041       
363.88           0.988396802      8.03527686       0.139794182      -81.2329463      0.139794182      -81.2329463      0.988396802      8.03527686       
367.12           0.988632258      7.94796968       0.138285004      -81.3220479      0.138285004      -81.3220479      0.988632258      7.94796968       
370.36           0.988861676      7.86199433       0.136798537      -81.4097442      0.136798537      -81.4097442      0.988861676      7.86199433       
373.6            0.989085256      7.77731744       0.135334222      -81.4960694      0.135334222      -81.4960694      0.989085256      7.77731744       
376.84           0.989303188      7.69390669       0.133891515      -81.5810567      0.133891515      -81.5810567      0.989303188      7.69390669       
380.08           0.989515655      7.61173085       0.132469893      -81.6647378      0.132469893      -81.6647378      0.989515655      7.61173085       
383.32           0.989722832      7.5307597        0.131068847      -81.7471437      0.131068847      -81.7471437      0.989722832      7.5307597        
386.56           0.989924889      7.45096396       0.129687886      -81.8283044      0.129687886      -81.8283044      0.989924889      7.45096396       
389.8            0.990121986      7.37231531       0.128326533      -81.9082486      0.128326533      -81.9082486      0.990121986      7.37231531       
393.04           0.990314279      7.29478633       0.126984326      -81.9870045      0.126984326      -81.9870045      0.990314279      7.29478633       
396.28           0.990501919      7.21835044       0.125660818      -82.064599       0.125660818      -82.064599       0.990501919      7.21835044       
399.52           0.990685047      7.14298189       0.124355574      -82.1410585      0.124355574      -82.1410585      0.990685047      7.14298189       
402.76           0.990863804      7.06865574       0.123068173      -82.2164083      0.123068173      -82.2164083      0.990863804      7.06865574       
406              0.991038321      6.99534781       0.121798209      -82.290673       0.121798209      -82.290673       0.991038321      6.99534781       
409.24           0.991208725      6.92303465       0.120545284      -82.3638765      0.120545284      -82.3638765      0.991208725      6.92303465       
412.48           0.991375142      6.85169353       0.119309015      -82.4360418      0.119309015      -82.4360418      0.991375142      6.85169353       
