! Coilcraft 1008HT-6N8 Chip Inductor				
! 16 July 2002			
# MHZ S MA R 50
!Freq             MagS11           AngS11           MagS21           AngS21           MagS12           AngS12           MagS22           AngS22
1                0.000816110683   31.5202368       0.999304393      -0.0244629726    0.999304393      -0.0244629726    0.000816110683   31.5202368       
23.19            0.00999788045    81.1420409       0.99850934       -0.56685843      0.99850934       -0.56685843      0.00999788045    81.1420409       
45.38            0.0194357015     83.5276008       0.997995984      -1.10877706      0.997995984      -1.10877706      0.0194357015     83.5276008       
67.57            0.0288756865     84.1671929       0.997479207      -1.65027693      0.997479207      -1.65027693      0.0288756865     84.1671929       
89.76            0.0383088225     84.291591        0.996918618      -2.19133401      0.996918618      -2.19133401      0.0383088225     84.291591        
111.95           0.0477316198     84.1876496       0.996298486      -2.73190376      0.996298486      -2.73190376      0.0477316198     84.1876496       
134.14           0.0571416104     83.9605177       0.995610866      -3.27193255      0.995610866      -3.27193255      0.0571416104     83.9605177       
156.33           0.0665366245     83.6586265       0.994851201      -3.81136198      0.994851201      -3.81136198      0.0665366245     83.6586265       
178.52           0.0759146048     83.3076742       0.994016699      -4.35013084      0.994016699      -4.35013084      0.0759146048     83.3076742       
200.71           0.0852735473     82.922691        0.993105599      -4.88817629      0.993105599      -4.88817629      0.0852735473     82.922691        
222.9            0.0946114798     82.5131199       0.992116797      -5.4254345       0.992116797      -5.4254345       0.0946114798     82.5131199       
245.09           0.103926455      82.0852302       0.99104964       -5.96184111      0.99104964       -5.96184111      0.103926455      82.0852302       
267.28           0.113216547      81.6433705       0.989903796      -6.49733161      0.989903796      -6.49733161      0.113216547      81.6433705       
289.47           0.122479856      81.190668        0.98867918       -7.03184153      0.98867918       -7.03184153      0.122479856      81.190668        
311.66           0.131714503      80.7294406       0.987375897      -7.56530663      0.987375897      -7.56530663      0.131714503      80.7294406       
333.85           0.140918638      80.2614506       0.985994205      -8.09766312      0.985994205      -8.09766312      0.140918638      80.2614506       
356.04           0.150090438      79.7880686       0.984534492      -8.6288477       0.984534492      -8.6288477       0.150090438      79.7880686       
378.23           0.15922811       79.3103813       0.982997254      -9.15879773      0.982997254      -9.15879773      0.15922811       79.3103813       
400.42           0.168329894      78.8292655       0.98138308       -9.68745129      0.98138308       -9.68745129      0.168329894      78.8292655       
422.61           0.177394064      78.3454395       0.979692644      -10.2147473      0.979692644      -10.2147473      0.177394064      78.3454395       
444.8            0.186418928      77.8595002       0.977926691      -10.7406256      0.977926691      -10.7406256      0.186418928      77.8595002       
466.99           0.195402833      77.37195         0.976086034      -11.2650269      0.976086034      -11.2650269      0.195402833      77.37195         
489.18           0.204344165      76.8832164       0.974171543      -11.7878929      0.974171543      -11.7878929      0.204344165      76.8832164       
511.37           0.213241347      76.393667        0.972184146      -12.3091667      0.972184146      -12.3091667      0.213241347      76.393667        
533.56           0.222092846      75.9036212       0.970124815      -12.828792       0.970124815      -12.828792       0.222092846      75.9036212       
555.75           0.230897173      75.4133586       0.967994574      -13.3467141      0.967994574      -13.3467141      0.230897173      75.4133586       
577.94           0.239652878      74.9231261       0.965794482      -13.8628793      0.965794482      -13.8628793      0.239652878      74.9231261       
600.13           0.24835856       74.4331431       0.963525642      -14.3772351      0.963525642      -14.3772351      0.24835856       74.4331431       
622.32           0.25701286       73.9436062       0.961189187      -14.8897306      0.961189187      -14.8897306      0.25701286       73.9436062       
644.51           0.265614467      73.4546923       0.958786287      -15.4003158      0.958786287      -15.4003158      0.265614467      73.4546923       
666.7            0.274162116      72.9665615       0.956318136      -15.9089422      0.956318136      -15.9089422      0.274162116      72.9665615       
688.89           0.282654589      72.4793596       0.953785959      -16.4155628      0.953785959      -16.4155628      0.282654589      72.4793596       
711.08           0.291090716      71.9932195       0.951191004      -16.9201317      0.951191004      -16.9201317      0.291090716      71.9932195       
733.27           0.299469375      71.5082635       0.948534539      -17.4226046      0.948534539      -17.4226046      0.299469375      71.5082635       
755.46           0.307789492      71.0246037       0.945817855      -17.9229385      0.945817855      -17.9229385      0.307789492      71.0246037       
777.65           0.316050041      70.5423441       0.943042257      -18.421092       0.943042257      -18.421092       0.316050041      70.5423441       
799.84           0.324250045      70.0615805       0.940209067      -18.9170249      0.940209067      -18.9170249      0.324250045      70.0615805       
822.03           0.332388574      69.5824022       0.93731962       -19.4106985      0.93731962       -19.4106985      0.332388574      69.5824022       
844.22           0.34046475       69.1048918       0.934375262      -19.9020757      0.934375262      -19.9020757      0.34046475       69.1048918       
866.41           0.348477738      68.6291265       0.931377349      -20.3911207      0.931377349      -20.3911207      0.348477738      68.6291265       
888.6            0.356426754      68.1551782       0.928327244      -20.8777992      0.928327244      -20.8777992      0.356426754      68.1551782       
910.79           0.364311062      67.6831142       0.925226315      -21.3620783      0.925226315      -21.3620783      0.364311062      67.6831142       
932.98           0.372129971      67.212997        0.922075936      -21.8439266      0.922075936      -21.8439266      0.372129971      67.212997        
955.17           0.379882838      66.7448855       0.918877481      -22.3233141      0.918877481      -22.3233141      0.379882838      66.7448855       
977.36           0.387569066      66.2788344       0.915632327      -22.8002122      0.915632327      -22.8002122      0.387569066      66.2788344       
999.55           0.395188104      65.814895        0.912341849      -23.2745938      0.912341849      -23.2745938      0.395188104      65.814895        
1021.74          0.402739444      65.3531154       0.90900742       -23.7464332      0.90900742       -23.7464332      0.402739444      65.3531154       
1043.93          0.410222626      64.8935404       0.90563041       -24.2157061      0.90563041       -24.2157061      0.410222626      64.8935404       
1066.12          0.41763723       64.4362119       0.902212182      -24.6823896      0.902212182      -24.6823896      0.41763723       64.4362119       
1088.31          0.424982882      63.9811692       0.898754096      -25.146462       0.898754096      -25.146462       0.424982882      63.9811692       
1110.5           0.432259246      63.5284487       0.895257503      -25.6079032      0.895257503      -25.6079032      0.432259246      63.5284487       
1132.69          0.439466031      63.0780845       0.891723744      -26.0666942      0.891723744      -26.0666942      0.439466031      63.0780845       
1154.88          0.446602985      62.6301081       0.888154153      -26.5228176      0.888154153      -26.5228176      0.446602985      62.6301081       
1177.07          0.453669895      62.1845491       0.88455005       -26.9762571      0.88455005       -26.9762571      0.453669895      62.1845491       
1199.26          0.460666587      61.7414345       0.880912747      -27.4269976      0.880912747      -27.4269976      0.460666587      61.7414345       
1221.45          0.467592924      61.3007896       0.87724354       -27.8750255      0.87724354       -27.8750255      0.467592924      61.3007896       
1243.64          0.474448805      60.8626376       0.873543714      -28.3203282      0.873543714      -28.3203282      0.474448805      60.8626376       
1265.83          0.481234167      60.4269997       0.869814536      -28.7628945      0.869814536      -28.7628945      0.481234167      60.4269997       
1288.02          0.487948979      59.9938953       0.866057262      -29.2027143      0.866057262      -29.2027143      0.487948979      59.9938953       
1310.21          0.494593245      59.5633423       0.86227313       -29.6397786      0.86227313       -29.6397786      0.494593245      59.5633423       
1332.4           0.501167001      59.1353567       0.858463361      -30.0740796      0.858463361      -30.0740796      0.501167001      59.1353567       
1354.59          0.507670314      58.7099529       0.854629159      -30.5056106      0.854629159      -30.5056106      0.507670314      58.7099529       
1376.78          0.514103282      58.2871438       0.850771712      -30.9343661      0.850771712      -30.9343661      0.514103282      58.2871438       
1398.97          0.520466033      57.8669409       0.846892186      -31.3603414      0.846892186      -31.3603414      0.520466033      57.8669409       
1421.16          0.526758723      57.4493543       0.842991733      -31.783533       0.842991733      -31.783533       0.526758723      57.4493543       
1443.35          0.532981533      57.0343924       0.839071482      -32.2039383      0.839071482      -32.2039383      0.532981533      57.0343924       
1465.54          0.539134675      56.6220627       0.835132544      -32.621556       0.835132544      -32.621556       0.539134675      56.6220627       
1487.73          0.545218381      56.2123712       0.83117601       -33.0363852      0.83117601       -33.0363852      0.545218381      56.2123712       
1509.92          0.551232912      55.8053228       0.82720295       -33.4484264      0.82720295       -33.4484264      0.551232912      55.8053228       
1532.11          0.557178548      55.400921        0.823214415      -33.8576808      0.823214415      -33.8576808      0.557178548      55.400921        
1554.3           0.563055595      54.9991685       0.819211434      -34.2641504      0.819211434      -34.2641504      0.563055595      54.9991685       
1576.49          0.568864377      54.6000667       0.815195015      -34.6678382      0.815195015      -34.6678382      0.568864377      54.6000667       
1598.68          0.57460524       54.203616        0.811166147      -35.0687478      0.811166147      -35.0687478      0.57460524       54.203616        
1620.87          0.580278549      53.8098159       0.807125796      -35.4668839      0.807125796      -35.4668839      0.580278549      53.8098159       
1643.06          0.585884688      53.4186648       0.803074906      -35.8622516      0.803074906      -35.8622516      0.585884688      53.4186648       
1665.25          0.591424057      53.0301603       0.799014403      -36.254857       0.799014403      -36.254857       0.591424057      53.0301603       
1687.44          0.596897073      52.644299        0.794945189      -36.6447067      0.794945189      -36.6447067      0.596897073      52.644299        
1709.63          0.602304169      52.2610767       0.790868145      -37.0318083      0.790868145      -37.0318083      0.602304169      52.2610767       
1731.82          0.607645792      51.8804885       0.786784131      -37.4161696      0.786784131      -37.4161696      0.607645792      51.8804885       
1754.01          0.612922404      51.5025287       0.782693988      -37.7977993      0.782693988      -37.7977993      0.612922404      51.5025287       
1776.2           0.61813448       51.1271906       0.778598532      -38.1767069      0.778598532      -38.1767069      0.61813448       51.1271906       
1798.39          0.623282505      50.7544671       0.774498562      -38.5529019      0.774498562      -38.5529019      0.623282505      50.7544671       
1820.58          0.628366978      50.3843503       0.770394853      -38.926395       0.770394853      -38.926395       0.628366978      50.3843503       
1842.77          0.633388408      50.0168318       0.766288161      -39.2971969      0.766288161      -39.2971969      0.633388408      50.0168318       
1864.96          0.638347312      49.6519022       0.762179221      -39.6653192      0.762179221      -39.6653192      0.638347312      49.6519022       
1887.15          0.64324422       49.2895519       0.758068748      -40.0307737      0.758068748      -40.0307737      0.64324422       49.2895519       
1909.34          0.648079666      48.9297706       0.753957437      -40.3935729      0.753957437      -40.3935729      0.648079666      48.9297706       
1931.53          0.652854196      48.5725474       0.749845962      -40.7537295      0.749845962      -40.7537295      0.652854196      48.5725474       
1953.72          0.657568359      48.217871        0.745734979      -41.1112567      0.745734979      -41.1112567      0.657568359      48.217871        
1975.91          0.662222714      47.8657296       0.741625124      -41.4661683      0.741625124      -41.4661683      0.662222714      47.8657296       
1998.1           0.666817823      47.516111        0.737517013      -41.8184782      0.737517013      -41.8184782      0.666817823      47.516111        
2020.29          0.671354256      47.1690023       0.733411243      -42.1682007      0.733411243      -42.1682007      0.671354256      47.1690023       
2042.48          0.675832586      46.8243905       0.729308394      -42.5153505      0.729308394      -42.5153505      0.675832586      46.8243905       
2064.67          0.680253389      46.4822621       0.725209026      -42.8599427      0.725209026      -42.8599427      0.680253389      46.4822621       
2086.86          0.684617248      46.1426033       0.721113682      -43.2019926      0.721113682      -43.2019926      0.684617248      46.1426033       
2109.05          0.688924744      45.8053997       0.717022886      -43.5415157      0.717022886      -43.5415157      0.688924744      45.8053997       
2131.24          0.693176467      45.470637        0.712937148      -43.8785279      0.712937148      -43.8785279      0.693176467      45.470637        
2153.43          0.697373002      45.1383001       0.708856955      -44.2130452      0.708856955      -44.2130452      0.697373002      45.1383001       
2175.62          0.701514942      44.8083742       0.704782782      -44.545084       0.704782782      -44.545084       0.701514942      44.8083742       
2197.81          0.705602876      44.4808437       0.700715087      -44.8746608      0.700715087      -44.8746608      0.705602876      44.4808437       
2220             0.709637398      44.155693        0.696654308      -45.2017924      0.696654308      -45.2017924      0.709637398      44.155693        
2242.19          0.7136191        43.8329063       0.692600873      -45.5264955      0.692600873      -45.5264955      0.7136191        43.8329063       
2264.38          0.717548573      43.5124676       0.688555189      -45.8487874      0.688555189      -45.8487874      0.717548573      43.5124676       
2286.57          0.72142641       43.1943605       0.68451765       -46.1686851      0.68451765       -46.1686851      0.72142641       43.1943605       
2308.76          0.725253202      42.8785687       0.680488637      -46.4862062      0.680488637      -46.4862062      0.725253202      42.8785687       
2330.95          0.72902954       42.5650754       0.676468513      -46.8013679      0.676468513      -46.8013679      0.72902954       42.5650754       
2353.14          0.732756011      42.253864        0.672457629      -47.114188       0.672457629      -47.114188       0.732756011      42.253864        
2375.33          0.736433204      41.9449176       0.668456321      -47.4246841      0.668456321      -47.4246841      0.736433204      41.9449176       
2397.52          0.740061702      41.6382192       0.664464912      -47.732874       0.664464912      -47.732874       0.740061702      41.6382192       
2419.71          0.74364209       41.3337515       0.660483712      -48.0387755      0.660483712      -48.0387755      0.74364209       41.3337515       
2441.9           0.747174946      41.0314975       0.656513017      -48.3424065      0.656513017      -48.3424065      0.747174946      41.0314975       
2464.09          0.75066085       40.7314398       0.652553111      -48.6437851      0.652553111      -48.6437851      0.75066085       40.7314398       
2486.28          0.754100374      40.433561        0.648604265      -48.9429292      0.648604265      -48.9429292      0.754100374      40.433561        
2508.47          0.757494092      40.1378436       0.64466674       -49.2398568      0.64466674       -49.2398568      0.757494092      40.1378436       
2530.66          0.76084257       39.8442702       0.640740783      -49.5345861      0.640740783      -49.5345861      0.76084257       39.8442702       
2552.85          0.764146373      39.5528232       0.63682663       -49.827135       0.63682663       -49.827135       0.764146373      39.5528232       
2575.04          0.767406063      39.2634851       0.632924507      -50.1175218      0.632924507      -50.1175218      0.767406063      39.2634851       
2597.23          0.770622195      38.9762382       0.629034628      -50.4057644      0.629034628      -50.4057644      0.770622195      38.9762382       
2619.42          0.773795322      38.691065        0.625157198      -50.6918809      0.625157198      -50.6918809      0.773795322      38.691065        
2641.61          0.776925994      38.4079477       0.62129241       -50.9758894      0.62129241       -50.9758894      0.776925994      38.4079477       
2663.8           0.780014754      38.1268689       0.617440447      -51.2578079      0.617440447      -51.2578079      0.780014754      38.1268689       
2685.99          0.783062141      37.8478109       0.613601485      -51.5376544      0.613601485      -51.5376544      0.783062141      37.8478109       
2708.18          0.786068691      37.570756        0.609775687      -51.8154468      0.609775687      -51.8154468      0.786068691      37.570756        
2730.37          0.789034935      37.2956868       0.605963209      -52.091203       0.605963209      -52.091203       0.789034935      37.2956868       
2752.56          0.791961398      37.0225857       0.602164199      -52.3649409      0.602164199      -52.3649409      0.791961398      37.0225857       
2774.75          0.7948486        36.7514352       0.598378794      -52.6366783      0.598378794      -52.6366783      0.7948486        36.7514352       
2796.94          0.797697058      36.4822179       0.594607124      -52.9064329      0.594607124      -52.9064329      0.797697058      36.4822179       
2819.13          0.800507282      36.2149163       0.59084931       -53.1742224      0.59084931       -53.1742224      0.800507282      36.2149163       
