! Coilcraft 1008HT-R24 Chip Inductor				
! 16 July 2002			
# MHZ S MA R 50
!Freq             MagS11           AngS11           MagS21           AngS21           MagS12           AngS12           MagS22           AngS22
1                0.0206020965     46.5814904       0.98595329       -0.869644829     0.98595329       -0.869644829     0.0206020965     46.5814904       
4.24             0.0661691779     71.7982922       0.981346383      -3.67248504      0.981346383      -3.67248504      0.0661691779     71.7982922       
7.48             0.113792568      74.3298444       0.975437461      -6.44919224      0.975437461      -6.44919224      0.113792568      74.3298444       
10.72            0.160887065      73.8619737       0.967701816      -9.18980222      0.967701816      -9.18980222      0.160887065      73.8619737       
13.96            0.206941599      72.4486208       0.958130383      -11.8839482      0.958130383      -11.8839482      0.206941599      72.4486208       
17.2             0.251647853      70.6407083       0.946830871      -14.5219881      0.946830871      -14.5219881      0.251647853      70.6407083       
20.44            0.294774761      68.6531369       0.933963799      -17.0954024      0.933963799      -17.0954024      0.294774761      68.6531369       
23.68            0.336146378      66.5893978       0.919717658      -19.5969881      0.919717658      -19.5969881      0.336146378      66.5893978       
26.92            0.375635113      64.5064705       0.904294282      -22.0209386      0.904294282      -22.0209386      0.375635113      64.5064705       
30.16            0.413157405      62.4385703       0.88789848       -24.3628437      0.88789848       -24.3628437      0.413157405      62.4385703       
33.4             0.448669265      60.4073556       0.870730274      -26.6196289      0.870730274      -26.6196289      0.448669265      60.4073556       
36.64            0.482161286      58.4268837       0.852979194      -28.7894525      0.852979194      -28.7894525      0.482161286      58.4268837       
39.88            0.513653299      56.5062695       0.834820308      -30.8715741      0.834820308      -30.8715741      0.513653299      56.5062695       
43.12            0.543188984      54.6512404       0.816411764      -32.8662091      0.816411764      -32.8662091      0.543188984      54.6512404       
46.36            0.570830685      52.8651146       0.797893556      -34.7743786      0.797893556      -34.7743786      0.570830685      52.8651146       
49.6             0.596654665      51.1494585       0.779387289      -36.5977629      0.779387289      -36.5977629      0.596654665      51.1494585       
52.84            0.620746899      49.5045491       0.760996678      -38.3385649      0.760996678      -38.3385649      0.620746899      49.5045491       
56.08            0.643199491      47.9297135       0.74280857       -39.9993861      0.74280857       -39.9993861      0.643199491      47.9297135       
59.32            0.664107695      46.4235842       0.724894295      -41.5831178      0.724894295      -41.5831178      0.664107695      46.4235842       
62.56            0.683567531      44.9842945       0.707311208      -43.0928476      0.707311208      -43.0928476      0.683567531      44.9842945       
65.8             0.701673922      43.6096291       0.69010429       -44.5317809      0.69010429       -44.5317809      0.701673922      43.6096291       
69.04            0.718519298      42.2971415       0.673307731      -45.9031764      0.673307731      -45.9031764      0.718519298      42.2971415       
72.28            0.734192586      41.0442442       0.656946444      -47.2102942      0.656946444      -47.2102942      0.734192586      41.0442442       
75.52            0.748778524      39.8482789       0.641037459      -48.4563547      0.641037459      -48.4563547      0.748778524      39.8482789       
78.76            0.762357229      38.7065696       0.625591189      -49.644508       0.625591189      -49.644508       0.762357229      38.7065696       
82               0.775003979      37.6164628       0.610612563      -50.7778097      0.610612563      -50.7778097      0.775003979      37.6164628       
85.24            0.786789137      36.5753571       0.596102008      -51.859205       0.596102008      -51.859205       0.786789137      36.5753571       
88.48            0.797778201      35.5807254       0.582056311      -52.891517       0.582056311      -52.891517       0.797778201      35.5807254       
91.72            0.808031934      34.6301291       0.568469354      -53.8774401      0.568469354      -53.8774401      0.808031934      34.6301291       
94.96            0.817606553      33.7212289       0.555332736      -54.8195365      0.555332736      -54.8195365      0.817606553      33.7212289       
98.2             0.826553958      32.8517903       0.542636306      -55.7202352      0.542636306      -55.7202352      0.826553958      32.8517903       
101.44           0.834921979      32.0196867       0.530368596      -56.581834       0.530368596      -56.581834       0.834921979      32.0196867       
104.68           0.842754643      31.2229002       0.518517193      -57.4065015      0.518517193      -57.4065015      0.842754643      31.2229002       
107.92           0.85009243       30.4595205       0.507069034      -58.1962817      0.507069034      -58.1962817      0.85009243       30.4595205       
111.16           0.856972538      29.7277425       0.496010659      -58.9530986      0.496010659      -58.9530986      0.856972538      29.7277425       
114.4            0.863429132      29.0258631       0.485328402      -59.6787614      0.485328402      -59.6787614      0.863429132      29.0258631       
117.64           0.869493581      28.3522773       0.47500856       -60.3749699      0.47500856       -60.3749699      0.869493581      28.3522773       
120.88           0.87519469       27.705474        0.465037514      -61.0433206      0.465037514      -61.0433206      0.87519469       27.705474        
124.12           0.880558904      27.0840315       0.455401831      -61.685312       0.455401831      -61.685312       0.880558904      27.0840315       
127.36           0.885610514      26.4866127       0.44608834       -62.3023507      0.44608834       -62.3023507      0.885610514      26.4866127       
130.6            0.890371832      25.9119607       0.437084195      -62.8957564      0.437084195      -62.8957564      0.890371832      25.9119607       
133.84           0.894863366      25.3588939       0.428376912      -63.4667678      0.428376912      -63.4667678      0.894863366      25.3588939       
137.08           0.899103969      24.8263021       0.419954404      -64.0165471      0.419954404      -64.0165471      0.899103969      24.8263021       
140.32           0.903110988      24.3131416       0.411804998      -64.5461854      0.411804998      -64.5461854      0.903110988      24.3131416       
143.56           0.90690039       23.8184316       0.40391745       -65.0567071      0.40391745       -65.0567071      0.90690039       23.8184316       
146.8            0.91048688       23.3412497       0.39628095       -65.549074       0.39628095       -65.549074       0.91048688       23.3412497       
150.04           0.913884012      22.8807289       0.38888512       -66.0241898      0.38888512       -66.0241898      0.913884012      22.8807289       
153.28           0.91710429       22.4360534       0.381720015      -66.4829039      0.381720015      -66.4829039      0.91710429       22.4360534       
156.52           0.920159251      22.0064557       0.374776109      -66.9260147      0.374776109      -66.9260147      0.920159251      22.0064557       
159.76           0.923059555      21.5912132       0.368044293      -67.3542732      0.368044293      -67.3542732      0.923059555      21.5912132       
163              0.925815054      21.1896458       0.361515858      -67.7683862      0.361515858      -67.7683862      0.925815054      21.1896458       
166.24           0.928434864      20.8011123       0.355182486      -68.1690191      0.355182486      -68.1690191      0.928434864      20.8011123       
169.48           0.930927423      20.4250087       0.349036234      -68.5567987      0.349036234      -68.5567987      0.930927423      20.4250087       
172.72           0.93330055       20.0607653       0.343069523      -68.9323157      0.343069523      -68.9323157      0.93330055       20.0607653       
175.96           0.935561496      19.7078448       0.33727512       -69.296127       0.33727512       -69.296127       0.935561496      19.7078448       
179.2            0.93771699       19.3657398       0.331646127      -69.6487583      0.331646127      -69.6487583      0.93771699       19.3657398       
182.44           0.939773282      19.0339713       0.326175963      -69.9907056      0.326175963      -69.9907056      0.939773282      19.0339713       
185.68           0.941736179      18.7120867       0.320858352      -70.3224373      0.320858352      -70.3224373      0.941736179      18.7120867       
188.92           0.943611087      18.399658        0.315687311      -70.6443964      0.315687311      -70.6443964      0.943611087      18.399658        
192.16           0.945403035      18.0962805       0.310657131      -70.9570013      0.310657131      -70.9570013      0.945403035      18.0962805       
195.4            0.947116711      17.8015712       0.305762369      -71.2606482      0.305762369      -71.2606482      0.947116711      17.8015712       
198.64           0.948756483      17.5151674       0.300997833      -71.555712       0.300997833      -71.555712       0.948756483      17.5151674       
201.88           0.95032643       17.2367254       0.296358568      -71.8425477      0.296358568      -71.8425477      0.95032643       17.2367254       
205.12           0.951830359      16.9659198       0.291839849      -72.1214917      0.291839849      -72.1214917      0.951830359      16.9659198       
208.36           0.953271829      16.7024415       0.287437165      -72.392863       0.287437165      -72.392863       0.953271829      16.7024415       
211.6            0.954654166      16.4459975       0.283146212      -72.6569642      0.283146212      -72.6569642      0.954654166      16.4459975       
214.84           0.955980486      16.1963097       0.278962879      -72.9140825      0.278962879      -72.9140825      0.955980486      16.1963097       
218.08           0.957253704      15.9531137       0.274883241      -73.1644906      0.274883241      -73.1644906      0.957253704      15.9531137       
221.32           0.958476553      15.7161584       0.27090355       -73.4084476      0.27090355       -73.4084476      0.958476553      15.7161584       
224.56           0.959651598      15.4852051       0.267020222      -73.6462         0.267020222      -73.6462         0.959651598      15.4852051       
227.8            0.960781244      15.2600267       0.263229836      -73.8779818      0.263229836      -73.8779818      0.960781244      15.2600267       
231.04           0.961867749      15.0404069       0.259529118      -74.1040162      0.259529118      -74.1040162      0.961867749      15.0404069       
234.28           0.962913237      14.8261398       0.255914939      -74.3245152      0.255914939      -74.3245152      0.962913237      14.8261398       
237.52           0.963919705      14.6170295       0.252384306      -74.5396812      0.252384306      -74.5396812      0.963919705      14.6170295       
240.76           0.964889031      14.4128888       0.248934354      -74.7497066      0.248934354      -74.7497066      0.964889031      14.4128888       
244              0.965822984      14.2135397       0.245562342      -74.9547753      0.245562342      -74.9547753      0.965822984      14.2135397       
247.24           0.96672323       14.0188121       0.242265645      -75.1550624      0.242265645      -75.1550624      0.96672323       14.0188121       
250.48           0.967591341      13.8285435       0.23904175       -75.3507351      0.23904175       -75.3507351      0.967591341      13.8285435       
253.72           0.968428798      13.6425792       0.235888249      -75.5419531      0.235888249      -75.5419531      0.968428798      13.6425792       
256.96           0.969237         13.4607708       0.232802833      -75.7288688      0.232802833      -75.7288688      0.969237         13.4607708       
260.2            0.970017269      13.2829771       0.229783291      -75.911628       0.229783291      -75.911628       0.970017269      13.2829771       
263.44           0.970770853      13.1090625       0.226827501      -76.09037        0.226827501      -76.09037        0.970770853      13.1090625       
266.68           0.971498931      12.9388978       0.223933428      -76.265228       0.223933428      -76.265228       0.971498931      12.9388978       
269.92           0.972202621      12.7723589       0.221099119      -76.4363295      0.221099119      -76.4363295      0.972202621      12.7723589       
273.16           0.972882979      12.6093274       0.2183227        -76.6037966      0.2183227        -76.6037966      0.972882979      12.6093274       
276.4            0.973541007      12.4496895       0.215602371      -76.7677462      0.215602371      -76.7677462      0.973541007      12.4496895       
279.64           0.974177653      12.2933366       0.212936405      -76.9282901      0.212936405      -76.9282901      0.974177653      12.2933366       
282.88           0.974793816      12.1401642       0.21032314       -77.0855358      0.21032314       -77.0855358      0.974793816      12.1401642       
286.12           0.975390349      11.9900723       0.20776098       -77.239586       0.20776098       -77.239586       0.975390349      11.9900723       
289.36           0.975968061      11.8429649       0.205248392      -77.3905395      0.205248392      -77.3905395      0.975968061      11.8429649       
292.6            0.976527722      11.6987499       0.202783899      -77.5384909      0.202783899      -77.5384909      0.976527722      11.6987499       
295.84           0.97707006       11.5573389       0.200366083      -77.6835312      0.200366083      -77.6835312      0.97707006       11.5573389       
299.08           0.977595771      11.418647        0.197993579      -77.8257476      0.197993579      -77.8257476      0.977595771      11.418647        
302.32           0.978105513      11.2825927       0.19566507       -77.965224       0.19566507       -77.965224       0.978105513      11.2825927       
305.56           0.978599914      11.1490974       0.193379293      -78.1020408      0.193379293      -78.1020408      0.978599914      11.1490974       
308.8            0.979079572      11.0180858       0.191135028      -78.2362755      0.191135028      -78.2362755      0.979079572      11.0180858       
312.04           0.979545055      10.8894854       0.188931101      -78.3680026      0.188931101      -78.3680026      0.979545055      10.8894854       
315.28           0.979996906      10.7632265       0.186766381      -78.4972936      0.186766381      -78.4972936      0.979996906      10.7632265       
318.52           0.980435641      10.6392419       0.184639777      -78.6242175      0.184639777      -78.6242175      0.980435641      10.6392419       
321.76           0.980861751      10.5174671       0.182550237      -78.7488406      0.182550237      -78.7488406      0.980861751      10.5174671       
325              0.981275706      10.3978397       0.180496747      -78.8712268      0.180496747      -78.8712268      0.981275706      10.3978397       
328.24           0.981677955      10.2802998       0.178478329      -78.9914375      0.178478329      -78.9914375      0.981677955      10.2802998       
331.48           0.982068926      10.1647896       0.176494039      -79.1095319      0.176494039      -79.1095319      0.982068926      10.1647896       
334.72           0.982449025      10.0512536       0.174542964      -79.2255673      0.174542964      -79.2255673      0.982449025      10.0512536       
337.96           0.982818645      9.9396378        0.172624226      -79.3395986      0.172624226      -79.3395986      0.982818645      9.9396378        
341.2            0.983178157      9.82989059       0.170736975      -79.4516789      0.170736975      -79.4516789      0.983178157      9.82989059       
344.44           0.983527918      9.72196195       0.168880388      -79.5618595      0.168880388      -79.5618595      0.983527918      9.72196195       
347.68           0.98386827       9.61580364       0.167053674      -79.6701896      0.167053674      -79.6701896      0.98386827       9.61580364       
350.92           0.984199538      9.5113691        0.165256066      -79.776717       0.165256066      -79.776717       0.984199538      9.5113691        
354.16           0.984522036      9.40861336       0.163486822      -79.8814877      0.163486822      -79.8814877      0.984522036      9.40861336       
357.4            0.984836061      9.30749299       0.161745225      -79.9845462      0.161745225      -79.9845462      0.984836061      9.30749299       
360.64           0.9851419        9.20796601       0.160030583      -80.0859353      0.160030583      -80.0859353      0.9851419        9.20796601       
363.88           0.985439828      9.10999187       0.158342224      -80.1856964      0.158342224      -80.1856964      0.985439828      9.10999187       
367.12           0.985730109      9.01353136       0.1566795        -80.2838698      0.1566795        -80.2838698      0.985730109      9.01353136       
370.36           0.986012993      8.91854655       0.155041782      -80.3804941      0.155041782      -80.3804941      0.986012993      8.91854655       
373.6            0.986288724      8.82500078       0.153428462      -80.4756067      0.153428462      -80.4756067      0.986288724      8.82500078       
376.84           0.986557533      8.73285855       0.15183895       -80.569244       0.15183895       -80.569244       0.986557533      8.73285855       
380.08           0.986819642      8.64208553       0.150272678      -80.6614408      0.150272678      -80.6614408      0.986819642      8.64208553       
383.32           0.987075267      8.55264848       0.14872909       -80.7522311      0.14872909       -80.7522311      0.987075267      8.55264848       
386.56           0.987324613      8.46451522       0.147207653      -80.8416476      0.147207653      -80.8416476      0.987324613      8.46451522       
389.8            0.987567876      8.37765457       0.145707846      -80.9297222      0.145707846      -80.9297222      0.987567876      8.37765457       
393.04           0.987805246      8.29203634       0.144229167      -81.0164856      0.144229167      -81.0164856      0.987805246      8.29203634       
396.28           0.988036907      8.20763128       0.142771127      -81.1019674      0.142771127      -81.1019674      0.988036907      8.20763128       
399.52           0.988263032      8.12441103       0.141333252      -81.1861967      0.141333252      -81.1861967      0.988263032      8.12441103       
402.76           0.988483792      8.04234812       0.139915084      -81.2692011      0.139915084      -81.2692011      0.988483792      8.04234812       
406              0.988699347      7.96141589       0.138516177      -81.3510079      0.138516177      -81.3510079      0.988699347      7.96141589       
409.24           0.988909854      7.88158849       0.137136098      -81.4316432      0.137136098      -81.4316432      0.988909854      7.88158849       
412.48           0.989115464      7.80284086       0.135774428      -81.5111325      0.135774428      -81.5111325      0.989115464      7.80284086       
