! Coilcraft 1008HT-15N Chip Inductor				
! 16 July 2002			
# MHZ S MA R 50
!Freq             MagS11           AngS11           MagS21           AngS21           MagS12           AngS12           MagS22           AngS22
1                0.00148824184    39.1847541       0.998846888      -0.0539377429    0.998846888      -0.0539377429    0.00148824184    39.1847541       
11.72            0.0112044459     79.0456388       0.997931483      -0.631589302     0.997931483      -0.631589302     0.0112044459     79.0456388       
22.44            0.0212371139     82.1114204       0.997307149      -1.20862629      0.997307149      -1.20862629      0.0212371139     82.1114204       
33.16            0.0312794416     83.0250899       0.996685299      -1.78512181      0.996685299      -1.78512181      0.0312794416     83.0250899       
43.88            0.0413154083     83.289913        0.99601803       -2.36105057      0.99601803       -2.36105057      0.0413154083     83.289913        
54.6             0.0513394924     83.265624        0.995286355      -2.93636114      0.995286355      -2.93636114      0.0513394924     83.265624        
65.32            0.0613482271     83.0851625       0.994480617      -3.5109904       0.994480617      -3.5109904       0.0613482271     83.0851625       
76.04            0.0713387737     82.8099452       0.993595266      -4.08486901      0.993595266      -4.08486901      0.0713387737     82.8099452       
86.76            0.0813085402     82.4725919       0.992626903      -4.65792407      0.992626903      -4.65792407      0.0813085402     82.4725919       
97.48            0.0912550523     82.09218         0.991573393      -5.23008052      0.991573393      -5.23008052      0.0912550523     82.09218         
108.2            0.101175904      81.6806886       0.99043341       -5.80126208      0.99043341       -5.80126208      0.101175904      81.6806886       
118.92           0.111068738      81.246063        0.989206183      -6.37139186      0.989206183      -6.37139186      0.111068738      81.246063        
129.64           0.120931237      80.7938089       0.987891343      -6.94039276      0.987891343      -6.94039276      0.120931237      80.7938089       
140.36           0.130761121      80.3278804       0.986488821      -7.50818781      0.986488821      -7.50818781      0.130761121      80.3278804       
151.08           0.140556147      79.8512041       0.984998785      -8.07470044      0.984998785      -8.07470044      0.140556147      79.8512041       
161.8            0.150314113      79.3660022       0.983421595      -8.63985464      0.983421595      -8.63985464      0.150314113      79.3660022       
172.52           0.160032856      78.874           0.981757769      -9.20357517      0.981757769      -9.20357517      0.160032856      78.874           
183.24           0.169710256      78.3765634       0.980007961      -9.76578768      0.980007961      -9.76578768      0.169710256      78.3765634       
193.96           0.179344238      77.8747924       0.978172939      -10.3264189      0.978172939      -10.3264189      0.179344238      77.8747924       
204.68           0.188932775      77.3695865       0.976253575      -10.8853965      0.976253575      -10.8853965      0.188932775      77.3695865       
215.4            0.198473888      76.8616919       0.974250829      -11.4426497      0.974250829      -11.4426497      0.198473888      76.8616919       
226.12           0.207965648      76.3517349       0.972165743      -11.9981087      0.972165743      -11.9981087      0.207965648      76.3517349       
236.84           0.21740618       75.8402475       0.969999429      -12.5517053      0.969999429      -12.5517053      0.21740618       75.8402475       
247.56           0.226793664      75.3276861       0.967753066      -13.1033727      0.967753066      -13.1033727      0.226793664      75.3276861       
258.28           0.236126333      74.814446        0.965427892      -13.6530456      0.965427892      -13.6530456      0.236126333      74.814446        
269              0.24540248       74.3008726       0.963025198      -14.2006603      0.963025198      -14.2006603      0.24540248       74.3008726       
279.72           0.254620454      73.7872697       0.960546325      -14.7461548      0.960546325      -14.7461548      0.254620454      73.7872697       
290.44           0.263778665      73.273907        0.957992657      -15.2894685      0.957992657      -15.2894685      0.263778665      73.273907        
301.16           0.27287558       72.7610246       0.955365618      -15.8305428      0.955365618      -15.8305428      0.27287558       72.7610246       
311.88           0.281909732      72.2488384       0.95266667       -16.3693207      0.95266667       -16.3693207      0.281909732      72.2488384       
322.6            0.29087971       71.737543        0.949897307      -16.9057471      0.949897307      -16.9057471      0.29087971       71.737543        
333.32           0.299784169      71.2273146       0.947059051      -17.4397685      0.947059051      -17.4397685      0.299784169      71.2273146       
344.04           0.308621823      70.7183138       0.94415345       -17.9713334      0.94415345       -17.9713334      0.308621823      70.7183138       
354.76           0.317391451      70.2106871       0.941182076      -18.5003919      0.941182076      -18.5003919      0.317391451      70.2106871       
365.48           0.326091892      69.7045688       0.93814652       -19.0268963      0.93814652       -19.0268963      0.326091892      69.7045688       
376.2            0.33472205       69.2000824       0.935048389      -19.5508005      0.935048389      -19.5508005      0.33472205       69.2000824       
386.92           0.343280889      68.6973415       0.931889306      -20.0720603      0.931889306      -20.0720603      0.343280889      68.6973415       
397.64           0.351767436      68.1964511       0.928670903      -20.5906334      0.928670903      -20.5906334      0.351767436      68.1964511       
408.36           0.360180779      67.6975083       0.925394824      -21.1064794      0.925394824      -21.1064794      0.360180779      67.6975083       
419.08           0.368520068      67.2006031       0.922062716      -21.6195596      0.922062716      -21.6195596      0.368520068      67.2006031       
429.8            0.376784511      66.7058187       0.918676232      -22.1298375      0.918676232      -22.1298375      0.376784511      66.7058187       
440.52           0.384973379      66.2132326       0.915237028      -22.6372781      0.915237028      -22.6372781      0.384973379      66.2132326       
451.24           0.393085998      65.7229165       0.911746757      -23.1418484      0.911746757      -23.1418484      0.393085998      65.7229165       
461.96           0.401121757      65.2349372       0.908207071      -23.6435172      0.908207071      -23.6435172      0.401121757      65.2349372       
472.68           0.409080098      64.7493566       0.904619618      -24.1422551      0.904619618      -24.1422551      0.409080098      64.7493566       
483.4            0.416960522      64.2662323       0.90098604       -24.6380345      0.90098604       -24.6380345      0.416960522      64.2662323       
494.12           0.424762582      63.7856175       0.897307969      -25.1308295      0.897307969      -25.1308295      0.424762582      63.7856175       
504.84           0.432485888      63.3075618       0.893587029      -25.6206161      0.893587029      -25.6206161      0.432485888      63.3075618       
515.56           0.440130102      62.832111        0.889824834      -26.1073718      0.889824834      -26.1073718      0.440130102      62.832111        
526.28           0.447694936      62.3593074       0.886022982      -26.5910761      0.886022982      -26.5910761      0.447694936      62.3593074       
537              0.455180156      61.8891902       0.882183059      -27.0717098      0.882183059      -27.0717098      0.455180156      61.8891902       
547.72           0.462585572      61.4217955       0.878306635      -27.5492555      0.878306635      -27.5492555      0.462585572      61.4217955       
558.44           0.469911047      60.9571563       0.874395263      -28.0236976      0.874395263      -28.0236976      0.469911047      60.9571563       
569.16           0.477156487      60.495303        0.870450477      -28.4950218      0.870450477      -28.4950218      0.477156487      60.495303        
579.88           0.484321845      60.0362633       0.866473793      -28.9632154      0.866473793      -28.9632154      0.484321845      60.0362633       
590.6            0.491407115      59.5800624       0.862466708      -29.4282672      0.862466708      -29.4282672      0.491407115      59.5800624       
601.32           0.498412335      59.126723        0.858430694      -29.8901677      0.858430694      -29.8901677      0.498412335      59.126723        
612.04           0.505337585      58.6762657       0.854367206      -30.3489084      0.854367206      -30.3489084      0.505337585      58.6762657       
622.76           0.512182982      58.2287087       0.850277671      -30.8044827      0.850277671      -30.8044827      0.512182982      58.2287087       
633.48           0.518948682      57.7840684       0.846163498      -31.2568849      0.846163498      -31.2568849      0.518948682      57.7840684       
644.2            0.525634878      57.3423589       0.842026067      -31.706111       0.842026067      -31.706111       0.525634878      57.3423589       
654.92           0.532241797      56.9035927       0.837866737      -32.1521581      0.837866737      -32.1521581      0.532241797      56.9035927       
665.64           0.5387697        56.4677801       0.833686839      -32.5950246      0.833686839      -32.5950246      0.5387697        56.4677801       
676.36           0.545218881      56.03493         0.829487679      -33.03471        0.829487679      -33.03471        0.545218881      56.03493         
687.08           0.551589664      55.6050495       0.825270538      -33.4712151      0.825270538      -33.4712151      0.551589664      55.6050495       
697.8            0.557882402      55.1781441       0.82103667       -33.9045419      0.82103667       -33.9045419      0.557882402      55.1781441       
708.52           0.564097477      54.7542178       0.816787302      -34.3346934      0.816787302      -34.3346934      0.564097477      54.7542178       
719.24           0.570235297      54.3332731       0.812523634      -34.7616737      0.812523634      -34.7616737      0.570235297      54.3332731       
729.96           0.576296297      53.9153111       0.80824684       -35.1854878      0.80824684       -35.1854878      0.576296297      53.9153111       
740.68           0.582280933      53.5003316       0.803958064      -35.6061419      0.803958064      -35.6061419      0.582280933      53.5003316       
751.4            0.588189687      53.0883332       0.799658426      -36.023643       0.799658426      -36.023643       0.588189687      53.0883332       
762.12           0.594023061      52.6793132       0.795349017      -36.4379991      0.795349017      -36.4379991      0.594023061      52.6793132       
772.84           0.599781576      52.2732677       0.7910309        -36.8492191      0.7910309        -36.8492191      0.599781576      52.2732677       
783.56           0.605465775      51.8701917       0.786705113      -37.2573126      0.786705113      -37.2573126      0.605465775      51.8701917       
794.28           0.611076217      51.4700792       0.782372665      -37.6622901      0.782372665      -37.6622901      0.611076217      51.4700792       
805              0.616613477      51.0729233       0.778034537      -38.064163       0.778034537      -38.064163       0.616613477      51.0729233       
815.72           0.622078148      50.6787158       0.773691686      -38.4629432      0.773691686      -38.4629432      0.622078148      50.6787158       
826.44           0.627470836      50.287448        0.769345039      -38.8586434      0.769345039      -38.8586434      0.627470836      50.287448        
837.16           0.632792159      49.89911         0.764995499      -39.2512771      0.764995499      -39.2512771      0.632792159      49.89911         
847.88           0.638042751      49.5136912       0.760643942      -39.6408583      0.760643942      -39.6408583      0.638042751      49.5136912       
858.6            0.643223255      49.1311803       0.756291218      -40.0274017      0.756291218      -40.0274017      0.643223255      49.1311803       
869.32           0.648334325      48.7515651       0.751938149      -40.4109224      0.751938149      -40.4109224      0.648334325      48.7515651       
880.04           0.653376625      48.3748329       0.747585536      -40.7914363      0.747585536      -40.7914363      0.653376625      48.3748329       
890.76           0.658350826      48.0009701       0.74323415       -41.1689597      0.74323415       -41.1689597      0.658350826      48.0009701       
901.48           0.66325761       47.6299625       0.738884742      -41.5435093      0.738884742      -41.5435093      0.66325761       47.6299625       
912.2            0.668097662      47.2617956       0.734538035      -41.9151024      0.734538035      -41.9151024      0.668097662      47.2617956       
922.92           0.672871676      46.896454        0.730194729      -42.2837567      0.730194729      -42.2837567      0.672871676      46.896454        
933.64           0.677580351      46.5339218       0.7258555        -42.6494904      0.7258555        -42.6494904      0.677580351      46.5339218       
944.36           0.682224389      46.1741829       0.721521003      -43.0123218      0.721521003      -43.0123218      0.682224389      46.1741829       
955.08           0.686804498      45.8172204       0.717191868      -43.3722698      0.717191868      -43.3722698      0.686804498      45.8172204       
965.8            0.691321388      45.4630172       0.712868702      -43.7293537      0.712868702      -43.7293537      0.691321388      45.4630172       
976.52           0.695775772      45.1115556       0.708552092      -44.0835928      0.708552092      -44.0835928      0.695775772      45.1115556       
987.24           0.700168365      44.7628176       0.704242602      -44.435007       0.704242602      -44.435007       0.700168365      44.7628176       
997.96           0.704499882      44.4167849       0.699940776      -44.7836163      0.699940776      -44.7836163      0.704499882      44.4167849       
1008.68          0.708771042      44.0734389       0.695647136      -45.1294409      0.695647136      -45.1294409      0.708771042      44.0734389       
1019.4           0.71298256       43.7327606       0.691362184      -45.4725015      0.691362184      -45.4725015      0.71298256       43.7327606       
1030.12          0.717135155      43.3947307       0.687086403      -45.8128186      0.687086403      -45.8128186      0.717135155      43.3947307       
1040.84          0.721229542      43.0593297       0.682820257      -46.1504132      0.682820257      -46.1504132      0.721229542      43.0593297       
1051.56          0.725266435      42.7265379       0.67856419       -46.4853064      0.67856419       -46.4853064      0.725266435      42.7265379       
1062.28          0.72924655       42.3963353       0.674318626      -46.8175192      0.674318626      -46.8175192      0.72924655       42.3963353       
1073             0.733170595      42.0687017       0.670083976      -47.1470732      0.670083976      -47.1470732      0.733170595      42.0687017       
1083.72          0.737039281      41.743617        0.665860627      -47.4739896      0.665860627      -47.4739896      0.737039281      41.743617        
1094.44          0.740853313      41.4210605       0.661648955      -47.7982901      0.661648955      -47.7982901      0.740853313      41.4210605       
1105.16          0.744613394      41.1010116       0.657449315      -48.1199962      0.657449315      -48.1199962      0.744613394      41.1010116       
1115.88          0.748320223      40.7834497       0.653262047      -48.4391297      0.653262047      -48.4391297      0.748320223      40.7834497       
1126.6           0.751974494      40.4683538       0.649087475      -48.7557122      0.649087475      -48.7557122      0.751974494      40.4683538       
1137.32          0.7555769        40.1557031       0.64492591       -49.0697656      0.64492591       -49.0697656      0.7555769        40.1557031       
1148.04          0.759128126      39.8454765       0.640777643      -49.3813116      0.640777643      -49.3813116      0.759128126      39.8454765       
1158.76          0.762628855      39.537653        0.636642956      -49.6903721      0.636642956      -49.6903721      0.762628855      39.537653        
1169.48          0.766079763      39.2322114       0.632522113      -49.9969689      0.632522113      -49.9969689      0.766079763      39.2322114       
1180.2           0.769481523      38.9291306       0.628415365      -50.3011237      0.628415365      -50.3011237      0.769481523      38.9291306       
1190.92          0.772834801      38.6283895       0.624322952      -50.6028584      0.624322952      -50.6028584      0.772834801      38.6283895       
1201.64          0.776140258      38.3299669       0.620245097      -50.9021947      0.620245097      -50.9021947      0.776140258      38.3299669       
1212.36          0.77939855       38.0338415       0.616182014      -51.1991542      0.616182014      -51.1991542      0.77939855       38.0338415       
1223.08          0.782610326      37.7399923       0.612133902      -51.4937587      0.612133902      -51.4937587      0.782610326      37.7399923       
1233.8           0.785776229      37.448398        0.608100952      -51.7860297      0.608100952      -51.7860297      0.785776229      37.448398        
1244.52          0.788896896      37.1590376       0.604083339      -52.0759887      0.604083339      -52.0759887      0.788896896      37.1590376       
1255.24          0.791972959      36.8718901       0.60008123       -52.3636573      0.60008123       -52.3636573      0.791972959      36.8718901       
1265.96          0.795005042      36.5869344       0.596094781      -52.6490566      0.596094781      -52.6490566      0.795005042      36.5869344       
1276.68          0.797993764      36.3041495       0.592124136      -52.9322081      0.592124136      -52.9322081      0.797993764      36.3041495       
1287.4           0.800939735      36.0235146       0.588169429      -53.2131327      0.588169429      -53.2131327      0.800939735      36.0235146       
1298.12          0.803843561      35.7450089       0.584230788      -53.4918517      0.584230788      -53.4918517      0.803843561      35.7450089       
1308.84          0.80670584       35.4686116       0.580308326      -53.7683859      0.580308326      -53.7683859      0.80670584       35.4686116       
1319.56          0.809527164      35.1943021       0.576402151      -54.0427562      0.576402151      -54.0427562      0.809527164      35.1943021       
1330.28          0.812308116      34.9220598       0.572512361      -54.3149832      0.572512361      -54.3149832      0.812308116      34.9220598       
1341             0.815049275      34.6518644       0.568639046      -54.5850875      0.568639046      -54.5850875      0.815049275      34.6518644       
1351.72          0.817751211      34.3836954       0.564782286      -54.8530895      0.564782286      -54.8530895      0.817751211      34.3836954       
1362.44          0.820414488      34.1175327       0.560942154      -55.1190095      0.560942154      -55.1190095      0.820414488      34.1175327       
