! Coilcraft 1008HT-82N Chip Inductor				
! 16 July 2002			
# MHZ S MA R 50
!Freq             MagS11           AngS11           MagS21           AngS21           MagS12           AngS12           MagS22           AngS22
1                0.00706190229    46.2605096       0.995130618      -0.293763928     0.995130618      -0.293763928     0.00706190229    46.2605096       
5.99             0.0313884036     75.6813938       0.992703213      -1.75563913      0.992703213      -1.75563913      0.0313884036     75.6813938       
10.98            0.0565997545     78.6665378       0.990433087      -3.21208608      0.990433087      -3.21208608      0.0565997545     78.6665378       
15.97            0.0817684991     79.0851439       0.987785579      -4.66226422      0.987785579      -4.66226422      0.0817684991     79.0851439       
20.96            0.106786597      78.7002079       0.984659989      -6.10483371      0.984659989      -6.10483371      0.106786597      78.7002079       
25.95            0.131595967      77.9581629       0.981024389      -7.53834425      0.981024389      -7.53834425      0.131595967      77.9581629       
30.94            0.15615028       77.027826        0.976871722      -8.96133123      0.976871722      -8.96133123      0.15615028       77.027826        
35.93            0.180408399      75.9884452       0.972207336      -10.3723583      0.972207336      -10.3723583      0.180408399      75.9884452       
40.92            0.204332781      74.8827906       0.967044032      -11.770042       0.967044032      -11.770042       0.204332781      74.8827906       
45.91            0.227889066      73.7363487       0.96139962       -13.1530675      0.96139962       -13.1530675      0.227889066      73.7363487       
50.9             0.251046003      72.5654822       0.955295498      -14.5202004      0.955295498      -14.5202004      0.251046003      72.5654822       
55.89            0.273775473      71.3813232       0.948755703      -15.8702946      0.948755703      -15.8702946      0.273775473      71.3813232       
60.88            0.296052517      70.1918002       0.941806211      -17.2022982      0.941806211      -17.2022982      0.296052517      70.1918002       
65.87            0.317855354      69.0027692       0.934474381      -18.5152572      0.934474381      -18.5152572      0.317855354      69.0027692       
70.86            0.339165349      67.8186799       0.926788488      -19.8083172      0.926788488      -19.8083172      0.339165349      67.8186799       
75.85            0.359966968      66.6429878       0.918777329      -21.0807246      0.918777329      -21.0807246      0.359966968      66.6429878       
80.84            0.380247682      65.47842         0.910469873      -22.3318251      0.910469873      -22.3318251      0.380247682      65.47842         
85.83            0.399997854      64.3271517       0.901894961      -23.5610624      0.901894961      -23.5610624      0.399997854      64.3271517       
90.82            0.419210594      63.1909285       0.893081048      -24.7679749      0.893081048      -24.7679749      0.419210594      63.1909285       
95.81            0.437881602      62.0711534       0.884055975      -25.9521928      0.884055975      -25.9521928      0.437881602      62.0711534       
100.8            0.456008985      60.9689503       0.874846788      -27.1134332      0.874846788      -27.1134332      0.456008985      60.9689503       
105.79           0.473593073      59.885212        0.865479572      -28.2514956      0.865479572      -28.2514956      0.473593073      59.885212        
110.78           0.490636226      58.820637        0.855979336      -29.3662571      0.855979336      -29.3662571      0.490636226      58.820637        
115.77           0.507142639      57.7757593       0.846369908      -30.4576664      0.846369908      -30.4576664      0.507142639      57.7757593       
120.76           0.523118144      56.7509714       0.836673864      -31.5257392      0.836673864      -31.5257392      0.523118144      56.7509714       
125.75           0.538570024      55.7465448       0.826912482      -32.5705519      0.826912482      -32.5705519      0.538570024      55.7465448       
130.74           0.553506827      54.7626457       0.817105712      -33.5922363      0.817105712      -33.5922363      0.553506827      54.7626457       
135.73           0.56793819       53.7993493       0.807272166      -34.5909745      0.807272166      -34.5909745      0.56793819       53.7993493       
140.72           0.581874673      52.8566523       0.797429122      -35.5669932      0.797429122      -35.5669932      0.581874673      52.8566523       
145.71           0.595327607      51.9344828       0.787592543      -36.5205591      0.787592543      -36.5205591      0.595327607      51.9344828       
150.7            0.608308944      51.0327101       0.777777109      -37.4519737      0.777777109      -37.4519737      0.608308944      51.0327101       
155.69           0.620831131      50.1511528       0.767996251      -38.3615691      0.767996251      -38.3615691      0.620831131      50.1511528       
160.68           0.632906987      49.2895859       0.758262203      -39.2497032      0.758262203      -39.2497032      0.632906987      49.2895859       
165.67           0.644549592      48.4477472       0.748586046      -40.1167565      0.748586046      -40.1167565      0.644549592      48.4477472       
170.66           0.655772195      47.6253435       0.738977771      -40.9631275      0.738977771      -40.9631275      0.655772195      47.6253435       
175.65           0.666588122      46.8220551       0.72944633       -41.7892303      0.72944633       -41.7892303      0.666588122      46.8220551       
180.64           0.677010704      46.037541        0.719999701      -42.5954905      0.719999701      -42.5954905      0.677010704      46.037541        
185.63           0.687053206      45.2714424       0.710644945      -43.3823431      0.710644945      -43.3823431      0.687053206      45.2714424       
190.62           0.696728774      44.5233865       0.701388266      -44.1502296      0.701388266      -44.1502296      0.696728774      44.5233865       
195.61           0.706050383      43.7929898       0.692235073      -44.8995958      0.692235073      -44.8995958      0.706050383      43.7929898       
200.6            0.715030795      43.0798609       0.683190035      -45.6308898      0.683190035      -45.6308898      0.715030795      43.0798609       
205.59           0.723682524      42.3836029       0.674257136      -46.3445599      0.674257136      -46.3445599      0.723682524      42.3836029       
210.58           0.732017809      41.7038155       0.665439733      -47.0410533      0.665439733      -47.0410533      0.732017809      41.7038155       
215.57           0.74004859       41.0400972       0.656740605      -47.7208145      0.656740605      -47.7208145      0.74004859       41.0400972       
220.56           0.747786488      40.3920466       0.648161999      -48.3842842      0.648161999      -48.3842842      0.747786488      40.3920466       
225.55           0.755242794      39.7592643       0.639705682      -49.031898       0.639705682      -49.031898       0.755242794      39.7592643       
230.54           0.762428457      39.1413538       0.631372981      -49.6640856      0.631372981      -49.6640856      0.762428457      39.1413538       
235.53           0.76935408       38.5379226       0.623164822      -50.2812701      0.623164822      -50.2812701      0.76935408       38.5379226       
240.52           0.776029913      37.9485833       0.615081774      -50.8838673      0.615081774      -50.8838673      0.776029913      37.9485833       
245.51           0.782465855      37.3729542       0.60712408       -51.4722848      0.60712408       -51.4722848      0.782465855      37.3729542       
250.5            0.788671452      36.81066         0.59929169       -52.0469223      0.59929169       -52.0469223      0.788671452      36.81066         
255.49           0.794655903      36.2613325       0.591584293      -52.6081704      0.591584293      -52.6081704      0.794655903      36.2613325       
260.48           0.800428063      35.7246106       0.584001347      -53.1564111      0.584001347      -53.1564111      0.800428063      35.7246106       
265.47           0.80599645       35.2001413       0.576542101      -53.692017       0.576542101      -53.692017       0.80599645       35.2001413       
270.46           0.811369248      34.6875792       0.569205622      -54.2153513      0.569205622      -54.2153513      0.811369248      34.6875792       
275.45           0.816554321      34.1865873       0.561990815      -54.7267682      0.561990815      -54.7267682      0.816554321      34.1865873       
280.44           0.821559215      33.6968368       0.554896444      -55.2266119      0.554896444      -55.2266119      0.821559215      33.6968368       
285.43           0.826391171      33.2180075       0.547921151      -55.7152178      0.547921151      -55.7152178      0.826391171      33.2180075       
290.42           0.831057133      32.7497874       0.541063471      -56.1929114      0.541063471      -56.1929114      0.831057133      32.7497874       
295.41           0.835563757      32.291873        0.534321849      -56.6600091      0.534321849      -56.6600091      0.835563757      32.291873        
300.4            0.839917421      31.8439693       0.527694653      -57.1168183      0.527694653      -57.1168183      0.839917421      31.8439693       
305.39           0.844124236      31.4057896       0.521180185      -57.5636369      0.521180185      -57.5636369      0.844124236      31.4057896       
310.38           0.848190053      30.9770554       0.514776695      -58.0007543      0.514776695      -58.0007543      0.848190053      30.9770554       
315.37           0.852120475      30.5574964       0.508482389      -58.4284508      0.508482389      -58.4284508      0.852120475      30.5574964       
320.36           0.855920867      30.1468501       0.502295441      -58.8469984      0.502295441      -58.8469984      0.855920867      30.1468501       
325.35           0.859596364      29.7448623       0.496213996      -59.2566604      0.496213996      -59.2566604      0.859596364      29.7448623       
330.34           0.863151878      29.351286        0.490236184      -59.6576921      0.490236184      -59.6576921      0.863151878      29.351286        
335.33           0.866592113      28.9658821       0.48436012       -60.0503407      0.48436012       -60.0503407      0.866592113      28.9658821       
340.32           0.869921569      28.5884186       0.478583918      -60.4348455      0.478583918      -60.4348455      0.869921569      28.5884186       
345.31           0.873144553      28.2186711       0.472905686      -60.8114385      0.472905686      -60.8114385      0.873144553      28.2186711       
350.3            0.876265184      27.8564218       0.46732354       -61.180344       0.46732354       -61.180344       0.876265184      27.8564218       
355.29           0.879287405      27.5014598       0.461835602      -61.5417792      0.461835602      -61.5417792      0.879287405      27.5014598       
360.28           0.88221499       27.1535811       0.456440007      -61.8959544      0.456440007      -61.8959544      0.88221499       27.1535811       
365.27           0.885051549      26.8125878       0.451134904      -62.2430731      0.451134904      -62.2430731      0.885051549      26.8125878       
370.26           0.887800538      26.4782886       0.445918463      -62.5833322      0.445918463      -62.5833322      0.887800538      26.4782886       
375.25           0.890465263      26.150498        0.440788869      -62.9169223      0.440788869      -62.9169223      0.890465263      26.150498        
380.24           0.893048889      25.8290366       0.435744333      -63.2440278      0.435744333      -63.2440278      0.893048889      25.8290366       
385.23           0.895554448      25.5137306       0.43078309       -63.5648272      0.43078309       -63.5648272      0.895554448      25.5137306       
390.22           0.897984838      25.2044117       0.425903399      -63.8794931      0.425903399      -63.8794931      0.897984838      25.2044117       
395.21           0.900342839      24.9009171       0.421103547      -64.1881927      0.421103547      -64.1881927      0.900342839      24.9009171       
400.2            0.902631109      24.6030891       0.416381847      -64.4910877      0.416381847      -64.4910877      0.902631109      24.6030891       
405.19           0.904852196      24.310775        0.411736645      -64.7883347      0.411736645      -64.7883347      0.904852196      24.310775        
410.18           0.90700854       24.0238271       0.407166311      -65.080085       0.407166311      -65.080085       0.90700854       24.0238271       
415.17           0.909102477      23.7421022       0.402669249      -65.3664853      0.402669249      -65.3664853      0.909102477      23.7421022       
420.16           0.911136249      23.4654617       0.398243893      -65.6476776      0.398243893      -65.6476776      0.911136249      23.4654617       
425.15           0.913112         23.1937715       0.393888705      -65.9237991      0.393888705      -65.9237991      0.913112         23.1937715       
430.14           0.91503179       22.9269017       0.389602181      -66.1949828      0.389602181      -66.1949828      0.91503179       22.9269017       
435.13           0.916897589      22.6647264       0.385382845      -66.4613576      0.385382845      -66.4613576      0.916897589      22.6647264       
440.12           0.918711288      22.4071236       0.381229254      -66.723048       0.381229254      -66.723048       0.918711288      22.4071236       
445.11           0.920474702      22.1539755       0.377139995      -66.9801749      0.377139995      -66.9801749      0.920474702      22.1539755       
450.1            0.922189571      21.9051675       0.373113685      -67.232855       0.373113685      -67.232855       0.922189571      21.9051675       
455.09           0.923857562      21.6605888       0.369148972      -67.4812015      0.369148972      -67.4812015      0.923857562      21.6605888       
460.08           0.925480277      21.4201322       0.365244533      -67.7253243      0.365244533      -67.7253243      0.925480277      21.4201322       
465.07           0.927059254      21.1836936       0.361399076      -67.9653295      0.361399076      -67.9653295      0.927059254      21.1836936       
470.06           0.928595968      20.9511721       0.357611337      -68.2013201      0.357611337      -68.2013201      0.928595968      20.9511721       
475.05           0.930091836      20.7224701       0.353880082      -68.4333958      0.353880082      -68.4333958      0.930091836      20.7224701       
480.04           0.931548218      20.4974928       0.350204104      -68.6616533      0.350204104      -68.6616533      0.931548218      20.4974928       
485.03           0.932966421      20.2761483       0.346582226      -68.8861863      0.346582226      -68.8861863      0.932966421      20.2761483       
490.02           0.934347701      20.0583476       0.343013297      -69.1070855      0.343013297      -69.1070855      0.934347701      20.0583476       
495.01           0.935693263      19.8440044       0.339496192      -69.3244392      0.339496192      -69.3244392      0.935693263      19.8440044       
500              0.937004269      19.6330349       0.336029816      -69.5383326      0.336029816      -69.5383326      0.937004269      19.6330349       
504.99           0.938281832      19.4253579       0.332613096      -69.7488485      0.332613096      -69.7488485      0.938281832      19.4253579       
509.98           0.939527025      19.2208946       0.329244988      -69.9560672      0.329244988      -69.9560672      0.939527025      19.2208946       
514.97           0.940740878      19.0195685       0.32592447       -70.1600666      0.32592447       -70.1600666      0.940740878      19.0195685       
519.96           0.941924384      18.8213054       0.322650547      -70.3609223      0.322650547      -70.3609223      0.941924384      18.8213054       
524.95           0.943078496      18.6260333       0.319422246      -70.5587076      0.319422246      -70.5587076      0.943078496      18.6260333       
529.94           0.944204133      18.4336823       0.316238617      -70.7534937      0.316238617      -70.7534937      0.944204133      18.4336823       
534.93           0.945302179      18.2441846       0.313098736      -70.9453495      0.313098736      -70.9453495      0.945302179      18.2441846       
539.92           0.946373485      18.0574742       0.310001697      -71.1343421      0.310001697      -71.1343421      0.946373485      18.0574742       
544.91           0.94741887       17.8734873       0.306946619      -71.3205365      0.306946619      -71.3205365      0.94741887       17.8734873       
549.9            0.948439123      17.6921617       0.303932641      -71.5039961      0.303932641      -71.5039961      0.948439123      17.6921617       
554.89           0.949435006      17.5134369       0.300958923      -71.684782       0.300958923      -71.684782       0.949435006      17.5134369       
559.88           0.95040725       17.3372545       0.298024645      -71.8629538      0.298024645      -71.8629538      0.95040725       17.3372545       
564.87           0.951356562      17.1635574       0.295129008      -72.0385695      0.295129008      -72.0385695      0.951356562      17.1635574       
569.86           0.952283623      16.9922903       0.29227123       -72.2116853      0.29227123       -72.2116853      0.952283623      16.9922903       
574.85           0.953189089      16.8233994       0.289450549      -72.3823558      0.289450549      -72.3823558      0.953189089      16.8233994       
579.84           0.954073593      16.6568324       0.286666223      -72.550634       0.286666223      -72.550634       0.954073593      16.6568324       
584.83           0.954937745      16.4925385       0.283917525      -72.7165716      0.283917525      -72.7165716      0.954937745      16.4925385       
589.82           0.955782134      16.3304682       0.281203748      -72.8802187      0.281203748      -72.8802187      0.955782134      16.3304682       
594.81           0.95660733       16.1705734       0.278524199      -73.0416241      0.278524199      -73.0416241      0.95660733       16.1705734       
599.8            0.957413879      16.0128074       0.275878204      -73.2008351      0.275878204      -73.2008351      0.957413879      16.0128074       
604.79           0.958202313      15.8571248       0.273265105      -73.3578978      0.273265105      -73.3578978      0.958202313      15.8571248       
609.78           0.958973141      15.7034813       0.270684258      -73.5128571      0.270684258      -73.5128571      0.958973141      15.7034813       
614.77           0.959726859      15.5518338       0.268135035      -73.6657566      0.268135035      -73.6657566      0.959726859      15.5518338       
619.76           0.960463942      15.4021405       0.265616825      -73.8166386      0.265616825      -73.8166386      0.960463942      15.4021405       
624.75           0.961184852      15.2543606       0.263129029      -73.9655444      0.263129029      -73.9655444      0.961184852      15.2543606       
629.74           0.961890033      15.1084544       0.260671062      -74.1125141      0.260671062      -74.1125141      0.961890033      15.1084544       
634.73           0.962579917      14.9643832       0.258242355      -74.257587       0.258242355      -74.257587       0.962579917      14.9643832       
