! Coilcraft 1008HT-R47 Chip Inductor				
! 16 July 2002			
# MHZ S MA R 50
!Freq             MagS11           AngS11           MagS21           AngS21           MagS12           AngS12           MagS22           AngS22
1                0.0371117392     51.6708784       0.977417785      -1.70682674      0.977417785      -1.70682674      0.0371117392     51.6708784       
3.24             0.0993049559     68.9099387       0.968707739      -5.4885075       0.968707739      -5.4885075       0.0993049559     68.9099387       
5.48             0.162626949      70.3160397       0.957544624      -9.20184587      0.957544624      -9.20184587      0.162626949      70.3160397       
7.72             0.224205717      69.0508034       0.943367994      -12.8238848      0.943367994      -12.8238848      0.224205717      69.0508034       
9.96             0.283178326      66.9197228       0.926372801      -16.3328499      0.926372801      -16.3328499      0.283178326      66.9197228       
12.2             0.339025416      64.4560102       0.906950958      -19.7106249      0.906950958      -19.7106249      0.339025416      64.4560102       
14.44            0.391420209      61.878959        0.885567088      -22.9434959      0.885567088      -22.9434959      0.391420209      61.878959        
16.68            0.440188217      59.296579        0.862699551      -26.0222312      0.862699551      -26.0222312      0.440188217      59.296579        
18.92            0.485280628      56.76754         0.838804878      -28.941773       0.838804878      -28.941773       0.485280628      56.76754         
21.16            0.526748814      54.3249895       0.814296154      -31.700704       0.814296154      -31.700704       0.526748814      54.3249895       
23.4             0.564719552      51.9873828       0.789531541      -34.3006076      0.789531541      -34.3006076      0.564719552      51.9873828       
25.64            0.599372312      49.7641037       0.764810276      -36.7454115      0.764810276      -36.7454115      0.599372312      49.7641037       
27.88            0.630919761      47.6587036       0.740373889      -39.0407716      0.740373889      -39.0407716      0.630919761      47.6587036       
30.12            0.659591985      45.6709214       0.716410702      -41.1935328      0.716410702      -41.1935328      0.659591985      45.6709214       
32.36            0.685624397      43.7980143       0.693062104      -43.2112781      0.693062104      -43.2112781      0.685624397      43.7980143       
34.6             0.709248974      42.0356633       0.670429488      -45.101969       0.670429488      -45.101969       0.709248974      42.0356633       
36.84            0.730688282      40.3786013       0.64858112       -46.8736697      0.64858112       -46.8736697      0.730688282      40.3786013       
39.08            0.75015171       38.8210513       0.627558489      -48.5343432      0.627558489      -48.5343432      0.75015171       38.8210513       
41.32            0.767833389      37.3570297       0.607381919      -50.0917078      0.607381919      -50.0917078      0.767833389      37.3570297       
43.56            0.783911326      35.9805546       0.588055364      -51.5531407      0.588055364      -51.5531407      0.783911326      35.9805546       
45.8             0.798547384      34.685785        0.569570407      -52.9256187      0.569570407      -52.9256187      0.798547384      34.685785        
48.04            0.811887827      33.4671104       0.551909513      -54.2156873      0.551909513      -54.2156873      0.811887827      33.4671104       
50.28            0.824064203      32.3192051       0.535048641      -55.4294488      0.535048641      -55.4294488      0.824064203      32.3192051       
52.52            0.835194424      31.2370577       0.51895931       -56.5725659      0.51895931       -56.5725659      0.835194424      31.2370577       
54.76            0.84538392       30.2159826       0.503610198      -57.6502745      0.503610198      -57.6502745      0.84538392       30.2159826       
57               0.854726812      29.2516199       0.488968382      -58.6674029      0.488968382      -58.6674029      0.854726812      29.2516199       
59.24            0.86330704       28.3399273       0.475000261      -59.6283951      0.475000261      -59.6283951      0.86330704       28.3399273       
61.48            0.871199432      27.4771662       0.461672255      -60.5373356      0.461672255      -60.5373356      0.871199432      27.4771662       
63.72            0.878470689      26.6598857       0.448951311      -61.3979756      0.448951311      -61.3979756      0.878470689      26.6598857       
65.96            0.885180284      25.8849046       0.436805259      -62.2137582      0.436805259      -62.2137582      0.885180284      25.8849046       
68.2             0.891381277      25.1492923       0.42520306       -62.9878431      0.42520306       -62.9878431      0.891381277      25.1492923       
70.44            0.89712104       24.4503506       0.414114969      -63.7231304      0.414114969      -63.7231304      0.89712104       24.4503506       
72.68            0.902441909      23.7855954       0.403512626      -64.4222825      0.403512626      -64.4222825      0.902441909      23.7855954       
74.92            0.90738176       23.1527399       0.393369104      -65.0877445      0.393369104      -65.0877445      0.90738176       23.1527399       
77.16            0.911974517      22.549678        0.383658918      -65.7217635      0.383658918      -65.7217635      0.911974517      22.549678        
79.4             0.916250606      21.9744692       0.374358006      -66.326406       0.374358006      -66.326406       0.916250606      21.9744692       
81.64            0.920237348      21.4253247       0.3654437        -66.9035738      0.3654437        -66.9035738      0.920237348      21.4253247       
83.88            0.923959313      20.9005946       0.35689467       -67.4550184      0.35689467       -67.4550184      0.923959313      20.9005946       
86.12            0.927438625      20.3987558       0.348690872      -67.9823547      0.348690872      -67.9823547      0.927438625      20.3987558       
88.36            0.930695239      19.9184011       0.340813486      -68.4870727      0.340813486      -68.4870727      0.930695239      19.9184011       
90.6             0.933747172      19.4582295       0.33324485       -68.9705489      0.33324485       -68.9705489      0.933747172      19.4582295       
92.84            0.936610721      19.0170371       0.325968396      -69.4340555      0.325968396      -69.4340555      0.936610721      19.0170371       
95.08            0.939300645      18.5937085       0.318968585      -69.8787702      0.318968585      -69.8787702      0.939300645      18.5937085       
97.32            0.941830333      18.18721         0.312230845      -70.3057839      0.312230845      -70.3057839      0.941830333      18.18721         
99.56            0.944211942      17.796582        0.305741509      -70.7161081      0.305741509      -70.7161081      0.944211942      17.796582        
101.8            0.946456532      17.4209334       0.299487757      -71.110682       0.299487757      -71.110682       0.946456532      17.4209334       
104.04           0.948574178      17.0594357       0.293457562      -71.4903779      0.293457562      -71.4903779      0.948574178      17.0594357       
106.28           0.950574065      16.7113179       0.287639634      -71.8560075      0.287639634      -71.8560075      0.950574065      16.7113179       
108.52           0.952464586      16.3758616       0.282023378      -72.2083264      0.282023378      -72.2083264      0.952464586      16.3758616       
110.76           0.954253413      16.0523975       0.276598838      -72.5480385      0.276598838      -72.5480385      0.954253413      16.0523975       
113              0.955947575      15.7403004       0.271356663      -72.8758009      0.271356663      -72.8758009      0.955947575      15.7403004       
115.24           0.957553512      15.4389869       0.266288059      -73.1922267      0.266288059      -73.1922267      0.957553512      15.4389869       
117.48           0.959077141      15.1479111       0.261384756      -73.4978892      0.261384756      -73.4978892      0.959077141      15.1479111       
119.72           0.960523896      14.8665624       0.256638972      -73.7933245      0.256638972      -73.7933245      0.960523896      14.8665624       
121.96           0.961898781      14.5944627       0.252043379      -74.0790347      0.252043379      -74.0790347      0.961898781      14.5944627       
124.2            0.963206405      14.3311636       0.247591073      -74.3554902      0.247591073      -74.3554902      0.963206405      14.3311636       
126.44           0.964451019      14.0762445       0.243275547      -74.6231324      0.243275547      -74.6231324      0.964451019      14.0762445       
128.68           0.96563655       13.8293105       0.239090663      -74.8823754      0.239090663      -74.8823754      0.96563655       13.8293105       
130.92           0.966766626      13.5899905       0.235030628      -75.1336084      0.235030628      -75.1336084      0.966766626      13.5899905       
133.16           0.967844607      13.3579355       0.231089974      -75.3771975      0.231089974      -75.3771975      0.967844607      13.3579355       
135.4            0.968873605      13.132817        0.227263532      -75.613487       0.227263532      -75.613487       0.968873605      13.132817        
137.64           0.969856505      12.9143254       0.223546417      -75.8428012      0.223546417      -75.8428012      0.969856505      12.9143254       
139.88           0.970795986      12.7021691       0.219934009      -76.065446       0.219934009      -76.065446       0.970795986      12.7021691       
142.12           0.971694538      12.4960727       0.216421933      -76.2817097      0.216421933      -76.2817097      0.971694538      12.4960727       
144.36           0.972554477      12.2957766       0.213006048      -76.4918645      0.213006048      -76.4918645      0.972554477      12.2957766       
146.6            0.973377957      12.1010351       0.209682429      -76.6961675      0.209682429      -76.6961675      0.973377957      12.1010351       
148.84           0.974166988      11.9116162       0.206447355      -76.8948619      0.206447355      -76.8948619      0.974166988      11.9116162       
151.08           0.974923445      11.7273004       0.203297297      -77.0881775      0.203297297      -77.0881775      0.974923445      11.7273004       
153.32           0.975649075      11.5478796       0.200228904      -77.2763322      0.200228904      -77.2763322      0.975649075      11.5478796       
155.56           0.976345514      11.373157        0.197238996      -77.4595319      0.197238996      -77.4595319      0.976345514      11.373157        
157.8            0.97701429       11.2029458       0.194324548      -77.6379723      0.194324548      -77.6379723      0.97701429       11.2029458       
160.04           0.977656833      11.037069        0.191482687      -77.8118387      0.191482687      -77.8118387      0.977656833      11.037069        
162.28           0.978274484      10.8753585       0.18871068       -77.9813069      0.18871068       -77.9813069      0.978274484      10.8753585       
164.52           0.978868499      10.7176545       0.186005925      -78.1465441      0.186005925      -78.1465441      0.978868499      10.7176545       
166.76           0.979440055      10.5638054       0.183365944      -78.3077091      0.183365944      -78.3077091      0.979440055      10.5638054       
169              0.979990259      10.4136669       0.180788379      -78.4649527      0.180788379      -78.4649527      0.979990259      10.4136669       
171.24           0.98052015       10.2671017       0.178270979      -78.6184185      0.178270979      -78.6184185      0.98052015       10.2671017       
173.48           0.981030706      10.1239792       0.1758116        -78.7682433      0.1758116        -78.7682433      0.981030706      10.1239792       
175.72           0.981522846      9.98417483       0.173408197      -78.9145571      0.173408197      -78.9145571      0.981522846      9.98417483       
177.96           0.981997436      9.84757004       0.171058814      -79.0574841      0.171058814      -79.0574841      0.981997436      9.84757004       
180.2            0.982455292      9.71405171       0.168761588      -79.1971424      0.168761588      -79.1971424      0.982455292      9.71405171       
182.44           0.982897183      9.58351194       0.166514736      -79.3336448      0.166514736      -79.3336448      0.982897183      9.58351194       
184.68           0.983323834      9.45584774       0.164316554      -79.4670991      0.164316554      -79.4670991      0.983323834      9.45584774       
186.92           0.98373593       9.33096075       0.162165415      -79.5976079      0.162165415      -79.5976079      0.98373593       9.33096075       
189.16           0.984134118      9.20875701       0.160059759      -79.7252695      0.160059759      -79.7252695      0.984134118      9.20875701       
191.4            0.98451901       9.08914668       0.157998095      -79.8501778      0.157998095      -79.8501778      0.98451901       9.08914668       
193.64           0.984891185      8.97204386       0.155978995      -79.9724223      0.155978995      -79.9724223      0.984891185      8.97204386       
195.88           0.985251189      8.85736635       0.154001091      -80.092089       0.154001091      -80.092089       0.985251189      8.85736635       
198.12           0.985599541      8.74503547       0.152063072      -80.20926        0.152063072      -80.20926        0.985599541      8.74503547       
200.36           0.985936732      8.63497587       0.150163681      -80.324014       0.150163681      -80.324014       0.985936732      8.63497587       
202.6            0.986263228      8.52711536       0.148301713      -80.4364263      0.148301713      -80.4364263      0.986263228      8.52711536       
204.84           0.986579469      8.42138475       0.14647601       -80.5465691      0.14647601       -80.5465691      0.986579469      8.42138475       
207.08           0.986885876      8.31771769       0.144685464      -80.6545116      0.144685464      -80.6545116      0.986885876      8.31771769       
209.32           0.987182846      8.21605053       0.142929008      -80.7603202      0.142929008      -80.7603202      0.987182846      8.21605053       
211.56           0.987470756      8.1163222        0.141205619      -80.8640585      0.141205619      -80.8640585      0.987470756      8.1163222        
213.8            0.987749966      8.01847405       0.139514312      -80.9657877      0.139514312      -80.9657877      0.987749966      8.01847405       
216.04           0.988020818      7.92244976       0.137854141      -81.0655664      0.137854141      -81.0655664      0.988020818      7.92244976       
218.28           0.988283636      7.82819522       0.136224198      -81.163451       0.136224198      -81.163451       0.988283636      7.82819522       
220.52           0.988538731      7.73565842       0.134623608      -81.2594958      0.134623608      -81.2594958      0.988538731      7.73565842       
222.76           0.988786395      7.64478934       0.133051528      -81.3537526      0.133051528      -81.3537526      0.988786395      7.64478934       
225              0.98902691       7.55553988       0.131507148      -81.4462716      0.131507148      -81.4462716      0.98902691       7.55553988       
227.24           0.989260544      7.46786377       0.129989689      -81.5371008      0.129989689      -81.5371008      0.989260544      7.46786377       
229.48           0.989487551      7.38171644       0.128498398      -81.6262867      0.128498398      -81.6262867      0.989487551      7.38171644       
231.72           0.989708176      7.29705499       0.127032552      -81.7138737      0.127032552      -81.7138737      0.989708176      7.29705499       
233.96           0.989922649      7.21383811       0.125591452      -81.7999049      0.125591452      -81.7999049      0.989922649      7.21383811       
236.2            0.990131193      7.13202598       0.124174426      -81.8844214      0.124174426      -81.8844214      0.990131193      7.13202598       
238.44           0.990334019      7.05158023       0.122780823      -81.9674632      0.122780823      -81.9674632      0.990334019      7.05158023       
240.68           0.99053133       6.97246385       0.121410019      -82.0490686      0.121410019      -82.0490686      0.99053133       6.97246385       
242.92           0.99072332       6.89464117       0.120061408      -82.1292745      0.120061408      -82.1292745      0.99072332       6.89464117       
245.16           0.990910174      6.81807774       0.118734408      -82.2081166      0.118734408      -82.2081166      0.990910174      6.81807774       
247.4            0.991092068      6.74274036       0.117428455      -82.2856293      0.117428455      -82.2856293      0.991092068      6.74274036       
249.64           0.991269172      6.66859693       0.116143004      -82.3618458      0.116143004      -82.3618458      0.991269172      6.66859693       
251.88           0.991441648      6.5956165        0.114877531      -82.436798       0.114877531      -82.436798       0.991441648      6.5956165        
254.12           0.991609652      6.52376914       0.113631527      -82.5105169      0.113631527      -82.5105169      0.991609652      6.52376914       
256.36           0.991773332      6.45302595       0.112404502      -82.5830322      0.112404502      -82.5830322      0.991773332      6.45302595       
258.6            0.991932832      6.38335899       0.111195979      -82.6543728      0.111195979      -82.6543728      0.991932832      6.38335899       
260.84           0.992088287      6.31474125       0.1100055        -82.7245664      0.1100055        -82.7245664      0.992088287      6.31474125       
263.08           0.99223983       6.24714661       0.108832621      -82.79364        0.108832621      -82.79364        0.99223983       6.24714661       
265.32           0.992387586      6.18054982       0.107676911      -82.8616195      0.107676911      -82.8616195      0.992387586      6.18054982       
267.56           0.992531676      6.11492643       0.106537955      -82.9285299      0.106537955      -82.9285299      0.992531676      6.11492643       
269.8            0.992672216      6.05025278       0.105415348      -82.9943956      0.105415348      -82.9943956      0.992672216      6.05025278       
272.04           0.992809318      5.98650597       0.104308702      -83.05924        0.104308702      -83.05924        0.992809318      5.98650597       
274.28           0.992943088      5.92366384       0.103217637      -83.1230857      0.103217637      -83.1230857      0.992943088      5.92366384       
276.52           0.99307363       5.86170491       0.102141788      -83.1859547      0.102141788      -83.1859547      0.99307363       5.86170491       
278.76           0.993201042      5.80060837       0.1010808        -83.2478682      0.1010808        -83.2478682      0.993201042      5.80060837       
281              0.99332542       5.74035407       0.100034327      -83.3088468      0.100034327      -83.3088468      0.99332542       5.74035407       
283.24           0.993446855      5.68092246       0.0990020378     -83.3689103      0.0990020378     -83.3689103      0.993446855      5.68092246       
285.48           0.993565435      5.6222946        0.0979836073     -83.4280779      0.0979836073     -83.4280779      0.993565435      5.6222946        
