! Coilcraft 1008HT-33N Chip Inductor				
! 16 July 2002			
# MHZ S MA R 50
!Freq             MagS11           AngS11           MagS21           AngS21           MagS12           AngS12           MagS22           AngS22
1                0.00281438913    47.2161573       0.998090507      -0.118573253     0.998090507      -0.118573253     0.00281438913    47.2161573       
8.48             0.0177646131     79.6678009       0.996967017      -1.00443022      0.996967017      -1.00443022      0.0177646131     79.6678009       
15.96            0.033139825      82.1738771       0.996028679      -1.88892902      0.996028679      -1.88892902      0.033139825      82.1738771       
23.44            0.0485146652     82.6705588       0.994974988      -2.77197783      0.994974988      -2.77197783      0.0485146652     82.6705588       
30.92            0.0638585708     82.561451        0.993752133      -3.65331996      0.993752133      -3.65331996      0.0638585708     82.561451        
38.4             0.0791571621     82.1845297       0.992339552      -4.53265528      0.992339552      -4.53265528      0.0791571621     82.1845297       
45.88            0.0943993226     81.6646187       0.990727821      -5.40966663      0.990727821      -5.40966663      0.0943993226     81.6646187       
53.36            0.109575032      81.0593228       0.988912631      -6.28403021      0.988912631      -6.28403021      0.109575032      81.0593228       
60.84            0.124674811      80.3992392       0.986892507      -7.15542095      0.986892507      -7.15542095      0.124674811      80.3992392       
68.32            0.139689547      79.7022981       0.984667758      -8.02351587      0.984667758      -8.02351587      0.139689547      79.7022981       
75.8             0.154610446      78.9798066       0.982239933      -8.88799627      0.982239933      -8.88799627      0.154610446      78.9798066       
83.28            0.16942902       78.2393164       0.979611499      -9.74854941      0.979611499      -9.74854941      0.16942902       78.2393164       
90.76            0.184137094      77.486111        0.976785643      -10.6048699      0.976785643      -10.6048699      0.184137094      77.486111        
98.24            0.198726821      76.7240324       0.973766137      -11.4566606      0.973766137      -11.4566606      0.198726821      76.7240324       
105.72           0.213190695      75.9559664       0.97055724       -12.3036336      0.97055724       -12.3036336      0.213190695      75.9559664       
113.2            0.227521564      75.1841425       0.96716362       -13.1455113      0.96716362       -13.1455113      0.227521564      75.1841425       
120.68           0.241712643      74.4103243       0.963590299      -13.9820262      0.963590299      -13.9820262      0.241712643      74.4103243       
128.16           0.255757526      73.6359363       0.959842596      -14.8129223      0.959842596      -14.8129223      0.255757526      73.6359363       
135.64           0.269650192      72.86215         0.955926087      -15.6379552      0.955926087      -15.6379552      0.269650192      72.86215         
143.12           0.283385016      72.0899432       0.951846565      -16.4568923      0.951846565      -16.4568923      0.283385016      72.0899432       
150.6            0.296956769      71.3201431       0.947610001      -17.2695133      0.947610001      -17.2695133      0.296956769      71.3201431       
158.08           0.310360621      70.5534572       0.943222516      -18.0756101      0.943222516      -18.0756101      0.310360621      70.5534572       
165.56           0.323592146      69.7904963       0.938690345      -18.8749876      0.938690345      -18.8749876      0.323592146      69.7904963       
173.04           0.336647314      69.0317913       0.934019812      -19.667463       0.934019812      -19.667463       0.336647314      69.0317913       
180.52           0.34952249       68.2778068       0.929217302      -20.4528663      0.929217302      -20.4528663      0.34952249       68.2778068       
188              0.362214431      67.5289513       0.924289237      -21.2310401      0.924289237      -21.2310401      0.362214431      67.5289513       
195.48           0.374720277      66.7855847       0.919242049      -22.0018396      0.919242049      -22.0018396      0.374720277      66.7855847       
202.96           0.387037543      66.0480253       0.914082165      -22.7651324      0.914082165      -22.7651324      0.387037543      66.0480253       
210.44           0.39916411       65.3165544       0.908815977      -23.5207982      0.908815977      -23.5207982      0.39916411       65.3165544       
217.92           0.411098217      64.5914209       0.903449833      -24.2687289      0.903449833      -24.2687289      0.411098217      64.5914209       
225.4            0.422838443      63.8728444       0.897990013      -25.0088281      0.897990013      -25.0088281      0.422838443      63.8728444       
232.88           0.434383701      63.1610185       0.892442715      -25.7410111      0.892442715      -25.7410111      0.434383701      63.1610185       
240.36           0.445733224      62.4561131       0.886814043      -26.465204       0.886814043      -26.465204       0.445733224      62.4561131       
247.84           0.456886547      61.7582762       0.88110999       -27.1813442      0.88110999       -27.1813442      0.456886547      61.7582762       
255.32           0.467843498      61.0676363       0.875336429      -27.8893793      0.875336429      -27.8893793      0.467843498      61.0676363       
262.8            0.478604181      60.3843036       0.869499101      -28.5892672      0.869499101      -28.5892672      0.478604181      60.3843036       
270.28           0.489168962      59.7083716       0.863603607      -29.2809755      0.863603607      -29.2809755      0.489168962      59.7083716       
277.76           0.499538453      59.0399183       0.857655401      -29.9644813      0.857655401      -29.9644813      0.499538453      59.0399183       
285.24           0.509713499      58.3790075       0.851659781      -30.6397704      0.851659781      -30.6397704      0.509713499      58.3790075       
292.72           0.519695162      57.7256896       0.845621885      -31.3068374      0.845621885      -31.3068374      0.519695162      57.7256896       
300.2            0.529484709      57.0800028       0.839546686      -31.9656851      0.839546686      -31.9656851      0.529484709      57.0800028       
307.68           0.539083591      56.4419738       0.833438989      -32.6163237      0.833438989      -32.6163237      0.539083591      56.4419738       
315.16           0.548493438      55.8116188       0.827303428      -33.2587711      0.827303428      -33.2587711      0.548493438      55.8116188       
322.64           0.557716037      55.1889441       0.821144464      -33.8930519      0.821144464      -33.8930519      0.557716037      55.1889441       
330.12           0.566753323      54.573947        0.814966384      -34.5191974      0.814966384      -34.5191974      0.566753323      54.573947        
337.6            0.575607366      53.9666162       0.808773302      -35.1372447      0.808773302      -35.1372447      0.575607366      53.9666162       
345.08           0.584280357      53.3669327       0.802569158      -35.747237       0.802569158      -35.747237       0.584280357      53.3669327       
352.56           0.592774596      52.7748702       0.79635772       -36.3492226      0.79635772       -36.3492226      0.592774596      52.7748702       
360.04           0.601092482      52.1903956       0.790142586      -36.9432549      0.790142586      -36.9432549      0.601092482      52.1903956       
367.52           0.609236498      51.61347         0.783927184      -37.5293918      0.783927184      -37.5293918      0.609236498      51.61347         
375              0.617209206      51.0440485       0.777714777      -38.1076957      0.777714777      -38.1076957      0.617209206      51.0440485       
382.48           0.625013234      50.4820811       0.771508466      -38.6782326      0.771508466      -38.6782326      0.625013234      50.4820811       
389.96           0.632651264      49.9275131       0.76531119       -39.2410724      0.76531119       -39.2410724      0.632651264      49.9275131       
397.44           0.64012603       49.3802854       0.759125734      -39.7962881      0.759125734      -39.7962881      0.64012603       49.3802854       
404.92           0.647440302      48.8403349       0.752954731      -40.3439559      0.752954731      -40.3439559      0.647440302      48.8403349       
412.4            0.654596881      48.3075951       0.746800663      -40.8841544      0.746800663      -40.8841544      0.654596881      48.3075951       
419.88           0.661598596      47.7819961       0.740665872      -41.4169648      0.740665872      -41.4169648      0.661598596      47.7819961       
427.36           0.668448289      47.2634651       0.734552557      -41.9424706      0.734552557      -41.9424706      0.668448289      47.2634651       
434.84           0.675148814      46.7519268       0.728462785      -42.460757       0.728462785      -42.460757       0.675148814      46.7519268       
442.32           0.68170303       46.2473034       0.722398491      -42.9719109      0.722398491      -42.9719109      0.68170303       46.2473034       
449.8            0.688113796      45.7495154       0.716361483      -43.4760208      0.716361483      -43.4760208      0.688113796      45.7495154       
457.28           0.694383963      45.2584811       0.710353449      -43.9731764      0.710353449      -43.9731764      0.694383963      45.2584811       
464.76           0.700516373      44.7741176       0.704375961      -44.4634683      0.704375961      -44.4634683      0.700516373      44.7741176       
472.24           0.706513852      44.2963404       0.698430477      -44.9469882      0.698430477      -44.9469882      0.706513852      44.2963404       
479.72           0.712379208      43.8250642       0.692518349      -45.4238282      0.692518349      -45.4238282      0.712379208      43.8250642       
487.2            0.718115226      43.3602025       0.686640825      -45.8940812      0.686640825      -45.8940812      0.718115226      43.3602025       
494.68           0.723724667      42.9016683       0.680799054      -46.3578403      0.680799054      -46.3578403      0.723724667      42.9016683       
502.16           0.729210261      42.4493738       0.674994093      -46.8151989      0.674994093      -46.8151989      0.729210261      42.4493738       
509.64           0.734574709      42.003231        0.669226907      -47.2662504      0.669226907      -47.2662504      0.734574709      42.003231        
517.12           0.739820677      41.5631516       0.663498375      -47.7110881      0.663498375      -47.7110881      0.739820677      41.5631516       
524.6            0.744950797      41.129047        0.657809296      -48.1498054      0.657809296      -48.1498054      0.744950797      41.129047        
532.08           0.749967663      40.700829        0.65216039       -48.5824953      0.65216039       -48.5824953      0.749967663      40.700829        
539.56           0.75487383       40.278409        0.646552303      -49.0092503      0.646552303      -49.0092503      0.75487383       40.278409        
547.04           0.759671814      39.8616991       0.640985611      -49.4301626      0.640985611      -49.4301626      0.759671814      39.8616991       
554.52           0.764364088      39.4506114       0.635460825      -49.8453238      0.635460825      -49.8453238      0.764364088      39.4506114       
562              0.768953084      39.0450585       0.629978391      -50.254825       0.629978391      -50.254825       0.768953084      39.0450585       
569.48           0.77344119       38.6449537       0.624538695      -50.6587563      0.624538695      -50.6587563      0.77344119       38.6449537       
576.96           0.777830751      38.2502107       0.61914207       -51.0572075      0.61914207       -51.0572075      0.777830751      38.2502107       
584.44           0.782124068      37.8607437       0.613788791      -51.4502672      0.613788791      -51.4502672      0.782124068      37.8607437       
591.92           0.786323396      37.4764679       0.608479088      -51.8380234      0.608479088      -51.8380234      0.786323396      37.4764679       
599.4            0.790430947      37.097299        0.603213138      -52.220563       0.603213138      -52.220563       0.790430947      37.097299        
606.88           0.794448887      36.7231538       0.597991079      -52.597972       0.597991079      -52.597972       0.794448887      36.7231538       
614.36           0.798379338      36.3539496       0.592813003      -52.9703355      0.592813003      -52.9703355      0.798379338      36.3539496       
621.84           0.802224377      35.989605        0.587678964      -53.3377375      0.587678964      -53.3377375      0.802224377      35.989605        
629.32           0.805986035      35.6300391       0.58258898       -53.7002609      0.58258898       -53.7002609      0.805986035      35.6300391       
636.8            0.8096663        35.2751723       0.577543033      -54.0579877      0.577543033      -54.0579877      0.8096663        35.2751723       
644.28           0.813267115      34.9249259       0.572541074      -54.4109985      0.572541074      -54.4109985      0.813267115      34.9249259       
651.76           0.816790381      34.5792222       0.567583022      -54.7593731      0.567583022      -54.7593731      0.816790381      34.5792222       
659.24           0.820237955      34.2379845       0.562668768      -55.10319        0.562668768      -55.10319        0.820237955      34.2379845       
666.72           0.823611649      33.9011372       0.55779818       -55.4425265      0.55779818       -55.4425265      0.823611649      33.9011372       
674.2            0.826913236      33.5686057       0.552971096      -55.777459       0.552971096      -55.777459       0.826913236      33.5686057       
681.68           0.830144446      33.2403167       0.548187336      -56.1080623      0.548187336      -56.1080623      0.830144446      33.2403167       
689.16           0.833306967      32.9161977       0.543446696      -56.4344105      0.543446696      -56.4344105      0.833306967      32.9161977       
696.64           0.836402448      32.5961774       0.538748953      -56.7565762      0.538748953      -56.7565762      0.836402448      32.5961774       
704.12           0.839432499      32.2801858       0.534093867      -57.0746309      0.534093867      -57.0746309      0.839432499      32.2801858       
711.6            0.842398687      31.9681537       0.52948118       -57.3886451      0.52948118       -57.3886451      0.842398687      31.9681537       
719.08           0.845302545      31.6600131       0.52491062       -57.6986879      0.52491062       -57.6986879      0.845302545      31.6600131       
726.56           0.848145566      31.3556973       0.520381898      -58.0048274      0.520381898      -58.0048274      0.848145566      31.3556973       
734.04           0.850929206      31.0551405       0.515894716      -58.3071304      0.515894716      -58.3071304      0.850929206      31.0551405       
741.52           0.853654886      30.758278        0.511448761      -58.6056626      0.511448761      -58.6056626      0.853654886      30.758278        
749              0.85632399       30.4650463       0.507043712      -58.9004885      0.507043712      -58.9004885      0.85632399       30.4650463       
756.48           0.858937869      30.1753828       0.502679235      -59.1916717      0.502679235      -59.1916717      0.858937869      30.1753828       
763.96           0.861497838      29.8892262       0.498354991      -59.4792743      0.498354991      -59.4792743      0.861497838      29.8892262       
771.44           0.864005179      29.6065162       0.494070629      -59.7633576      0.494070629      -59.7633576      0.864005179      29.6065162       
778.92           0.866461144      29.3271935       0.489825794      -60.0439816      0.489825794      -60.0439816      0.866461144      29.3271935       
786.4            0.868866949      29.0511998       0.485620124      -60.3212053      0.485620124      -60.3212053      0.868866949      29.0511998       
793.88           0.871223782      28.7784781       0.48145325       -60.5950865      0.48145325       -60.5950865      0.871223782      28.7784781       
801.36           0.873532799      28.5089721       0.477324801      -60.8656821      0.477324801      -60.8656821      0.873532799      28.5089721       
808.84           0.875795128      28.2426268       0.473234398      -61.1330478      0.473234398      -61.1330478      0.875795128      28.2426268       
816.32           0.878011867      27.9793879       0.469181663      -61.3972383      0.469181663      -61.3972383      0.878011867      27.9793879       
823.8            0.880184085      27.7192025       0.46516621       -61.6583073      0.46516621       -61.6583073      0.880184085      27.7192025       
831.28           0.882312825      27.4620183       0.461187655      -61.9163074      0.461187655      -61.9163074      0.882312825      27.4620183       
838.76           0.884399102      27.2077842       0.457245608      -62.1712903      0.457245608      -62.1712903      0.884399102      27.2077842       
846.24           0.886443904      26.9564498       0.453339682      -62.4233067      0.453339682      -62.4233067      0.886443904      26.9564498       
853.72           0.888448197      26.707966        0.449469485      -62.6724063      0.449469485      -62.6724063      0.888448197      26.707966        
861.2            0.890412917      26.4622843       0.445634627      -62.9186377      0.445634627      -62.9186377      0.890412917      26.4622843       
868.68           0.892338981      26.2193573       0.441834716      -63.1620489      0.441834716      -63.1620489      0.892338981      26.2193573       
876.16           0.894227277      25.9791384       0.43806936       -63.4026866      0.43806936       -63.4026866      0.894227277      25.9791384       
883.64           0.896078675      25.7415819       0.43433817       -63.6405968      0.43433817       -63.6405968      0.896078675      25.7415819       
891.12           0.897894019      25.506643        0.430640754      -63.8758247      0.430640754      -63.8758247      0.897894019      25.506643        
898.6            0.899674133      25.2742777       0.426976725      -64.1084143      0.426976725      -64.1084143      0.899674133      25.2742777       
906.08           0.901419819      25.0444429       0.423345693      -64.338409       0.423345693      -64.338409       0.901419819      25.0444429       
913.56           0.903131858      24.8170963       0.419747274      -64.5658514      0.419747274      -64.5658514      0.903131858      24.8170963       
921.04           0.904811012      24.5921963       0.416181083      -64.7907829      0.416181083      -64.7907829      0.904811012      24.5921963       
928.52           0.906458022      24.3697023       0.412646738      -65.0132445      0.412646738      -65.0132445      0.906458022      24.3697023       
936              0.908073611      24.1495743       0.409143858      -65.2332761      0.409143858      -65.2332761      0.908073611      24.1495743       
943.48           0.909658483      23.9317731       0.405672065      -65.450917       0.405672065      -65.450917       0.909658483      23.9317731       
950.96           0.911213323      23.7162604       0.402230985      -65.6662056      0.402230985      -65.6662056      0.911213323      23.7162604       
