! Coilcraft 1008HT-39N Chip Inductor				
! 16 July 2002			
# MHZ S MA R 50
!Freq             MagS11           AngS11           MagS21           AngS21           MagS12           AngS12           MagS22           AngS22
1                0.00336597004    46.438556        0.997683384      -0.140074905     0.997683384      -0.140074905     0.00336597004    46.438556        
8.48             0.0209950244     79.2460935       0.996296053      -1.18627846      0.996296053      -1.18627846      0.0209950244     79.2460935       
15.96            0.0391392917     81.6791697       0.995089808      -2.23042213      0.995089808      -2.23042213      0.0391392917     81.6791697       
23.44            0.0572714276     82.0528089       0.993701809      -3.27227297      0.993701809      -3.27227297      0.0572714276     82.0528089       
30.92            0.075349461      81.8060182       0.992068134      -4.31136502      0.992068134      -4.31136502      0.075349461      81.8060182       
38.4             0.0933515311     81.2856831       0.990165408      -5.3471739       0.990165408      -5.3471739       0.0933515311     81.2856831       
45.88            0.111259939      80.6200812       0.987984031      -6.3791553       0.987984031      -6.3791553       0.111259939      80.6200812       
53.36            0.129058513      79.8685318       0.985520878      -7.40676066      0.985520878      -7.40676066      0.129058513      79.8685318       
60.84            0.146731962      79.0626392       0.982776518      -8.42944567      0.982776518      -8.42944567      0.146731962      79.0626392       
68.32            0.164265689      78.2210042       0.97975392       -9.44667553      0.97975392       -9.44667553      0.164265689      78.2210042       
75.8             0.18164576       77.3554228       0.97645777       -10.4579289      0.97645777       -10.4579289      0.18164576       77.3554228       
83.28            0.198858912      76.4738278       0.972894054      -11.4627005      0.972894054      -11.4627005      0.198858912      76.4738278       
90.76            0.215892576      75.5818135       0.969069791      -12.4605039      0.969069791      -12.4605039      0.215892576      75.5818135       
98.24            0.232734907      74.6834832       0.964992837      -13.4508729      0.964992837      -13.4508729      0.232734907      74.6834832       
105.72           0.249374813      73.781947        0.960671737      -14.433363       0.960671737      -14.433363       0.249374813      73.781947        
113.2            0.26580197       72.8796283       0.956115602      -15.4075532      0.956115602      -15.4075532      0.26580197       72.8796283       
120.68           0.282006847      71.9784596       0.951334008      -16.3730461      0.951334008      -16.3730461      0.282006847      71.9784596       
128.16           0.297980711      71.0800123       0.946336905      -17.3294695      0.946336905      -17.3294695      0.297980711      71.0800123       
135.64           0.313715633      70.1855845       0.941134536      -18.276476       0.941134536      -18.276476       0.313715633      70.1855845       
143.12           0.329204486      69.2962625       0.935737361      -19.2137442      0.935737361      -19.2137442      0.329204486      69.2962625       
150.6            0.344440945      68.4129649       0.930155991      -20.1409781      0.930155991      -20.1409781      0.344440945      68.4129649       
158.08           0.359419466      67.5364744       0.924401123      -21.0579074      0.924401123      -21.0579074      0.359419466      67.5364744       
165.56           0.374135281      66.667462        0.918483487      -21.9642875      0.918483487      -21.9642875      0.374135281      66.667462        
173.04           0.38858437       65.8065046       0.912413789      -22.8598986      0.912413789      -22.8598986      0.38858437       65.8065046       
180.52           0.402763442      64.9540993       0.906202664      -23.744546       0.906202664      -23.744546       0.402763442      64.9540993       
188              0.416669909      64.1106744       0.899860632      -24.6180588      0.899860632      -24.6180588      0.416669909      64.1106744       
195.48           0.430301853      63.2765978       0.89339806       -25.48029        0.89339806       -25.48029        0.430301853      63.2765978       
202.96           0.443658001      62.4521845       0.886825124      -26.3311151      0.886825124      -26.3311151      0.443658001      62.4521845       
210.44           0.456737687      61.6377023       0.880151781      -27.1704317      0.880151781      -27.1704317      0.456737687      61.6377023       
217.92           0.469540822      60.8333769       0.873387738      -27.9981585      0.873387738      -27.9981585      0.469540822      60.8333769       
225.4            0.482067854      60.0393958       0.866542432      -28.8142345      0.866542432      -28.8142345      0.482067854      60.0393958       
232.88           0.49431974       59.2559123       0.859625006      -29.6186178      0.859625006      -29.6186178      0.49431974       59.2559123       
240.36           0.506297903      58.4830486       0.852644296      -30.411285       0.852644296      -30.411285       0.506297903      58.4830486       
247.84           0.518004201      57.7208984       0.845608818      -31.1922298      0.845608818      -31.1922298      0.518004201      57.7208984       
255.32           0.529440891      56.9695297       0.838526752      -31.9614625      0.838526752      -31.9614625      0.529440891      56.9695297       
262.8            0.540610595      56.2289868       0.831405941      -32.7190085      0.831405941      -32.7190085      0.540610595      56.2289868       
270.28           0.551516265      55.4992928       0.824253884      -33.4649075      0.824253884      -33.4649075      0.551516265      55.4992928       
277.76           0.562161152      54.7804509       0.817077732      -34.1992128      0.817077732      -34.1992128      0.562161152      54.7804509       
285.24           0.572548776      54.0724466       0.809884288      -34.9219898      0.809884288      -34.9219898      0.572548776      54.0724466       
292.72           0.582682893      53.3752492       0.802680008      -35.6333155      0.802680008      -35.6333155      0.582682893      53.3752492       
300.2            0.592567469      52.6888129       0.795471007      -36.3332773      0.795471007      -36.3332773      0.592567469      52.6888129       
307.68           0.602206651      52.013079        0.788263059      -37.0219725      0.788263059      -37.0219725      0.602206651      52.013079        
315.16           0.611604744      51.3479762       0.781061607      -37.6995068      0.781061607      -37.6995068      0.611604744      51.3479762       
322.64           0.620766183      50.6934226       0.773871768      -38.3659942      0.773871768      -38.3659942      0.620766183      50.6934226       
330.12           0.629695515      50.0493261       0.766698342      -39.0215557      0.766698342      -39.0215557      0.629695515      50.0493261       
337.6            0.638397373      49.4155862       0.759545819      -39.6663188      0.759545819      -39.6663188      0.638397373      49.4155862       
345.08           0.646876462      48.7920943       0.75241839       -40.3004166      0.75241839       -40.3004166      0.646876462      48.7920943       
352.56           0.655137535      48.1787348       0.745319959      -40.9239873      0.745319959      -40.9239873      0.655137535      48.1787348       
360.04           0.663185381      47.5753861       0.738254148      -41.5371737      0.738254148      -41.5371737      0.663185381      47.5753861       
367.52           0.671024808      46.981921        0.731224314      -42.140122       0.731224314      -42.140122       0.671024808      46.981921        
375              0.678660628      46.398208        0.724233554      -42.7329819      0.724233554      -42.7329819      0.678660628      46.398208        
382.48           0.686097645      45.8241113       0.717284721      -43.3159058      0.717284721      -43.3159058      0.686097645      45.8241113       
389.96           0.693340645      45.2594917       0.710380433      -43.8890483      0.710380433      -43.8890483      0.693340645      45.2594917       
397.44           0.700394382      44.7042073       0.703523083      -44.4525656      0.703523083      -44.4525656      0.700394382      44.7042073       
404.92           0.707263574      44.1581138       0.696714851      -45.0066154      0.696714851      -45.0066154      0.707263574      44.1581138       
412.4            0.713952888      43.6210651       0.689957714      -45.5513564      0.689957714      -45.5513564      0.713952888      43.6210651       
419.88           0.720466939      43.0929138       0.68325346       -46.0869476      0.68325346       -46.0869476      0.720466939      43.0929138       
427.36           0.72681028       42.5735112       0.676603691      -46.6135485      0.676603691      -46.6135485      0.72681028       42.5735112       
434.84           0.732987396      42.0627083       0.670009842      -47.1313183      0.670009842      -47.1313183      0.732987396      42.0627083       
442.32           0.739002703      41.5603557       0.663473182      -47.6404162      0.663473182      -47.6404162      0.739002703      41.5603557       
449.8            0.744860537      41.0663038       0.656994832      -48.1410004      0.656994832      -48.1410004      0.744860537      41.0663038       
457.28           0.750565159      40.5804037       0.650575766      -48.6332285      0.650575766      -48.6332285      0.750565159      40.5804037       
464.76           0.756120743      40.1025066       0.644216825      -49.1172569      0.644216825      -49.1172569      0.756120743      40.1025066       
472.24           0.761531382      39.6324649       0.637918725      -49.5932409      0.637918725      -49.5932409      0.761531382      39.6324649       
479.72           0.766801079      39.1701316       0.631682063      -50.0613343      0.631682063      -50.0613343      0.766801079      39.1701316       
487.2            0.771933753      38.7153612       0.625507325      -50.5216894      0.625507325      -50.5216894      0.771933753      38.7153612       
494.68           0.776933229      38.2680092       0.619394895      -50.9744567      0.619394895      -50.9744567      0.776933229      38.2680092       
502.16           0.781803246      37.8279327       0.613345062      -51.4197849      0.613345062      -51.4197849      0.781803246      37.8279327       
509.64           0.786547451      37.3949905       0.607358024      -51.857821       0.607358024      -51.857821       0.786547451      37.3949905       
517.12           0.791169401      36.969043        0.601433898      -52.2887096      0.601433898      -52.2887096      0.791169401      36.969043        
524.6            0.795672562      36.5499525       0.595572723      -52.7125935      0.595572723      -52.7125935      0.795672562      36.5499525       
532.08           0.800060314      36.1375831       0.589774467      -53.1296132      0.589774467      -53.1296132      0.800060314      36.1375831       
539.56           0.804335943      35.7318008       0.584039033      -53.539907       0.584039033      -53.539907       0.804335943      35.7318008       
547.04           0.808502652      35.3324739       0.578366262      -53.943611       0.578366262      -53.943611       0.808502652      35.3324739       
554.52           0.812563555      34.9394725       0.572755942      -54.3408589      0.572755942      -54.3408589      0.812563555      34.9394725       
562              0.816521679      34.552669        0.567207806      -54.7317822      0.567207806      -54.7317822      0.816521679      34.552669        
569.48           0.820379969      34.171938        0.561721544      -55.1165098      0.561721544      -55.1165098      0.820379969      34.171938        
576.96           0.824141286      33.7971561       0.5562968        -55.4951685      0.5562968        -55.4951685      0.824141286      33.7971561       
584.44           0.827808409      33.4282022       0.550933181      -55.8678826      0.550933181      -55.8678826      0.827808409      33.4282022       
591.92           0.831384037      33.0649575       0.545630256      -56.234774       0.545630256      -56.234774       0.831384037      33.0649575       
599.4            0.834870793      32.7073053       0.540387563      -56.5959622      0.540387563      -56.5959622      0.834870793      32.7073053       
606.88           0.838271221      32.3551312       0.535204612      -56.9515644      0.535204612      -56.9515644      0.838271221      32.3551312       
614.36           0.841587791      32.008323        0.530080886      -57.3016954      0.530080886      -57.3016954      0.841587791      32.008323        
621.84           0.844822899      31.6667708       0.525015842      -57.6464678      0.525015842      -57.6464678      0.844822899      31.6667708       
629.32           0.84797887       31.3303668       0.520008919      -57.9859915      0.520008919      -57.9859915      0.84797887       31.3303668       
636.8            0.85105796       30.9990054       0.515059536      -58.3203744      0.515059536      -58.3203744      0.85105796       30.9990054       
644.28           0.854062358      30.6725833       0.510167096      -58.6497221      0.510167096      -58.6497221      0.854062358      30.6725833       
651.76           0.856994183      30.3509991       0.505330988      -58.9741379      0.505330988      -58.9741379      0.856994183      30.3509991       
659.24           0.859855495      30.0341538       0.500550587      -59.2937228      0.500550587      -59.2937228      0.859855495      30.0341538       
666.72           0.862648287      29.7219504       0.495825258      -59.6085757      0.495825258      -59.6085757      0.862648287      29.7219504       
674.2            0.865374493      29.414294        0.491154358      -59.9187932      0.491154358      -59.9187932      0.865374493      29.414294        
681.68           0.868035989      29.1110916       0.486537235      -60.2244699      0.486537235      -60.2244699      0.868035989      29.1110916       
689.16           0.870634591      28.8122524       0.481973232      -60.5256983      0.481973232      -60.5256983      0.870634591      28.8122524       
696.64           0.873172062      28.5176875       0.477461685      -60.8225687      0.477461685      -60.8225687      0.873172062      28.5176875       
704.12           0.875650109      28.2273101       0.473001931      -61.1151696      0.473001931      -61.1151696      0.875650109      28.2273101       
711.6            0.878070386      27.941035        0.468593299      -61.4035872      0.468593299      -61.4035872      0.878070386      27.941035        
719.08           0.880434498      27.6587793       0.46423512       -61.687906       0.46423512       -61.687906       0.880434498      27.6587793       
726.56           0.882744         27.3804617       0.459926723      -61.9682085      0.459926723      -61.9682085      0.882744         27.3804617       
734.04           0.885000398      27.1060027       0.45566744       -62.2445753      0.45566744       -62.2445753      0.885000398      27.1060027       
741.52           0.887205152      26.8353247       0.451456599      -62.5170851      0.451456599      -62.5170851      0.887205152      26.8353247       
749              0.889359678      26.5683518       0.447293536      -62.7858149      0.447293536      -62.7858149      0.889359678      26.5683518       
756.48           0.891465348      26.3050099       0.443177584      -63.05084        0.443177584      -63.05084        0.891465348      26.3050099       
763.96           0.893523491      26.0452263       0.439108084      -63.3122337      0.439108084      -63.3122337      0.893523491      26.0452263       
771.44           0.895535397      25.7889304       0.435084377      -63.5700678      0.435084377      -63.5700678      0.895535397      25.7889304       
778.92           0.897502313      25.5360528       0.43110581       -63.8244124      0.43110581       -63.8244124      0.897502313      25.5360528       
786.4            0.899425451      25.2865259       0.427171735      -64.075336       0.427171735      -64.075336       0.899425451      25.2865259       
793.88           0.901305985      25.0402835       0.423281508      -64.3229055      0.423281508      -64.3229055      0.901305985      25.0402835       
801.36           0.903145053      24.7972611       0.419434492      -64.5671863      0.419434492      -64.5671863      0.903145053      24.7972611       
808.84           0.904943757      24.5573955       0.415630054      -64.8082421      0.415630054      -64.8082421      0.904943757      24.5573955       
816.32           0.906703167      24.320625        0.411867568      -65.0461353      0.411867568      -65.0461353      0.906703167      24.320625        
823.8            0.90842432       24.0868893       0.408146414      -65.2809268      0.408146414      -65.2809268      0.90842432       24.0868893       
831.28           0.910108221      23.8561295       0.40446598       -65.5126762      0.40446598       -65.5126762      0.910108221      23.8561295       
838.76           0.911755845      23.628288        0.40082566       -65.7414414      0.40082566       -65.7414414      0.911755845      23.628288        
846.24           0.913368138      23.4033086       0.397224854      -65.9672792      0.397224854      -65.9672792      0.913368138      23.4033086       
853.72           0.914946017      23.1811362       0.39366297       -66.1902452      0.39366297       -66.1902452      0.914946017      23.1811362       
861.2            0.91649037       22.9617173       0.390139423      -66.4103934      0.390139423      -66.4103934      0.91649037       22.9617173       
868.68           0.91800206       22.7449992       0.386653637      -66.6277768      0.386653637      -66.6277768      0.91800206       22.7449992       
876.16           0.919481924      22.5309306       0.383205042      -66.8424471      0.383205042      -66.8424471      0.919481924      22.5309306       
883.64           0.920930774      22.3194615       0.379793075      -67.0544546      0.379793075      -67.0544546      0.920930774      22.3194615       
891.12           0.922349398      22.1105427       0.376417182      -67.2638488      0.376417182      -67.2638488      0.922349398      22.1105427       
898.6            0.923738558      21.9041265       0.373076816      -67.4706778      0.373076816      -67.4706778      0.923738558      21.9041265       
906.08           0.925098998      21.700166        0.369771437      -67.6749887      0.369771437      -67.6749887      0.925098998      21.700166        
913.56           0.926431436      21.4986154       0.366500516      -67.8768275      0.366500516      -67.8768275      0.926431436      21.4986154       
921.04           0.927736571      21.2994299       0.363263527      -68.0762391      0.363263527      -68.0762391      0.927736571      21.2994299       
928.52           0.929015082      21.102566        0.360059955      -68.2732674      0.360059955      -68.2732674      0.929015082      21.102566        
936              0.930267625      20.9079808       0.356889291      -68.4679553      0.356889291      -68.4679553      0.930267625      20.9079808       
943.48           0.931494839      20.7156325       0.353751036      -68.6603448      0.353751036      -68.6603448      0.931494839      20.7156325       
950.96           0.932697346      20.5254802       0.350644696      -68.8504767      0.350644696      -68.8504767      0.932697346      20.5254802       
