! Coilcraft 1008HT-47N Chip Inductor				
! 16 July 2002			
# MHZ S MA R 50
!Freq             MagS11           AngS11           MagS21           AngS21           MagS12           AngS12           MagS22           AngS22
1                0.00389760031    48.9207386       0.997443204      -0.168767672     0.997443204      -0.168767672     0.00389760031    48.9207386       
6.73             0.0201488787     78.1275043       0.996049869      -1.1343041       0.996049869      -1.1343041       0.0201488787     78.1275043       
12.46            0.0368785385     80.9614406       0.994873285      -2.09796941      0.994873285      -2.09796941      0.0368785385     80.9614406       
18.19            0.0536097432     81.5831758       0.993569279      -3.05964928      0.993569279      -3.05964928      0.0536097432     81.5831758       
23.92            0.0703006056     81.5188358       0.992071423      -4.01901413      0.992071423      -4.01901413      0.0703006056     81.5188358       
29.65            0.0869317299     81.147648        0.990354229      -4.9756762       0.990354229      -4.9756762       0.0869317299     81.147648        
35.38            0.103488442      80.6116814       0.988406187      -5.92922529      0.988406187      -5.92922529      0.103488442      80.6116814       
41.11            0.1199577        79.9770649       0.986222289      -6.87924322      0.986222289      -6.87924322      0.1199577        79.9770649       
46.84            0.13632729       79.2791349       0.983801157      -7.82531134      0.983801157      -7.82531134      0.13632729       79.2791349       
52.57            0.152585568      78.5386952       0.981143717      -8.76701523      0.981143717      -8.76701523      0.152585568      78.5386952       
58.3             0.168721388      77.7689155       0.9782525        -9.70394789      0.9782525        -9.70394789      0.168721388      77.7689155       
64.03            0.184724077      76.9786205       0.97513123       -10.6357121      0.97513123       -10.6357121      0.184724077      76.9786205       
69.76            0.200583452      76.1740023       0.971784559      -11.5619223      0.971784559      -11.5619223      0.200583452      76.1740023       
75.49            0.216289828      75.3595743       0.968217891      -12.482206       0.968217891      -12.482206       0.216289828      75.3595743       
81.22            0.231834038      74.5387338       0.964437246      -13.3962052      0.964437246      -13.3962052      0.231834038      74.5387338       
86.95            0.247207452      73.7141088       0.960449154      -14.3035772      0.960449154      -14.3035772      0.247207452      73.7141088       
92.68            0.262401988      72.8877799       0.956260578      -15.2039954      0.956260578      -15.2039954      0.262401988      72.8877799       
98.41            0.277410125      72.0614276       0.95187883       -16.0971503      0.95187883       -16.0971503      0.277410125      72.0614276       
104.14           0.292224909      71.2364324       0.947311519      -16.9827496      0.947311519      -16.9827496      0.292224909      71.2364324       
109.87           0.306839959      70.4139447       0.942566485      -17.8605185      0.942566485      -17.8605185      0.306839959      70.4139447       
115.6            0.321249467      69.5949344       0.937651753      -18.7302007      0.937651753      -18.7302007      0.321249467      69.5949344       
121.33           0.335448195      68.7802276       0.932575484      -19.5915576      0.932575484      -19.5915576      0.335448195      68.7802276       
127.06           0.349431472      67.9705333       0.92734593       -20.444369       0.92734593       -20.444369       0.349431472      67.9705333       
132.79           0.363195181      67.1664638       0.921971395      -21.2884327      0.921971395      -21.2884327      0.363195181      67.1664638       
138.52           0.376735752      66.3685503       0.916460198      -22.1235646      0.916460198      -22.1235646      0.376735752      66.3685503       
144.25           0.390050148      65.5772548       0.910820637      -22.9495982      0.910820637      -22.9495982      0.390050148      65.5772548       
149.98           0.403135849      64.7929801       0.905060959      -23.7663847      0.905060959      -23.7663847      0.403135849      64.7929801       
155.71           0.415990834      64.0160768       0.899189331      -24.5737922      0.899189331      -24.5737922      0.415990834      64.0160768       
161.44           0.428613561      63.2468504       0.893213813      -25.3717055      0.893213813      -25.3717055      0.428613561      63.2468504       
167.17           0.441002952      62.4855659       0.887142335      -26.1600256      0.887142335      -26.1600256      0.441002952      62.4855659       
172.9            0.453158366      61.7324519       0.880982675      -26.9386694      0.880982675      -26.9386694      0.453158366      61.7324519       
178.63           0.46507958       60.987705        0.874742443      -27.7075687      0.874742443      -27.7075687      0.46507958       60.987705        
184.36           0.476766766      60.2514921       0.86842906       -28.46667        0.86842906       -28.46667        0.476766766      60.2514921       
190.09           0.488220467      59.5239536       0.862049748      -29.2159337      0.862049748      -29.2159337      0.488220467      59.5239536       
195.82           0.499441575      58.8052057       0.855611516      -29.9553337      0.855611516      -29.9553337      0.499441575      58.8052057       
201.55           0.510431306      58.0953424       0.84912115       -30.6848563      0.84912115       -30.6848563      0.510431306      58.0953424       
207.28           0.52119118       57.3944373       0.842585205      -31.4045003      0.842585205      -31.4045003      0.52119118       57.3944373       
213.01           0.531722996      56.7025455       0.836009999      -32.1142755      0.836009999      -32.1142755      0.531722996      56.7025455       
218.74           0.542028809      56.019705        0.829401607      -32.8142027      0.829401607      -32.8142027      0.542028809      56.019705        
224.47           0.552110909      55.3459383       0.822765861      -33.5043127      0.822765861      -33.5043127      0.552110909      55.3459383       
230.2            0.561971803      54.6812531       0.816108343      -34.1846459      0.816108343      -34.1846459      0.561971803      54.6812531       
235.93           0.571614187      54.0256445       0.80943439       -34.8552516      0.80943439       -34.8552516      0.571614187      54.0256445       
241.66           0.581040934      53.379095        0.802749091      -35.5161871      0.802749091      -35.5161871      0.581040934      53.379095        
247.39           0.590255071      52.7415762       0.79605729       -36.1675175      0.79605729       -36.1675175      0.590255071      52.7415762       
253.12           0.599259763      52.1130497       0.789363589      -36.809315       0.789363589      -36.809315       0.599259763      52.1130497       
258.85           0.608058292      51.4934676       0.782672351      -37.4416582      0.782672351      -37.4416582      0.608058292      51.4934676       
264.58           0.616654047      50.8827739       0.775987703      -38.0646317      0.775987703      -38.0646317      0.616654047      50.8827739       
270.31           0.625050501      50.2809046       0.769313544      -38.6783256      0.769313544      -38.6783256      0.625050501      50.2809046       
276.04           0.633251205      49.6877891       0.762653549      -39.2828346      0.762653549      -39.2828346      0.633251205      49.6877891       
281.77           0.641259766      49.1033503       0.756011171      -39.8782583      0.756011171      -39.8782583      0.641259766      49.1033503       
287.5            0.649079842      48.5275055       0.749389655      -40.4646999      0.749389655      -40.4646999      0.649079842      48.5275055       
293.23           0.656715124      47.9601672       0.742792038      -41.0422663      0.742792038      -41.0422663      0.656715124      47.9601672       
298.96           0.664169331      47.4012431       0.736221159      -41.6110676      0.736221159      -41.6110676      0.664169331      47.4012431       
304.69           0.671446193      46.8506371       0.729679664      -42.1712165      0.729679664      -42.1712165      0.671446193      46.8506371       
310.42           0.678549447      46.3082495       0.723170015      -42.7228281      0.723170015      -42.7228281      0.678549447      46.3082495       
316.15           0.685482829      45.7739776       0.716694497      -43.2660195      0.716694497      -43.2660195      0.685482829      45.7739776       
321.88           0.69225006       45.2477161       0.710255223      -43.8009095      0.710255223      -43.8009095      0.69225006       45.2477161       
327.61           0.698854848      44.7293574       0.703854145      -44.3276185      0.703854145      -44.3276185      0.698854848      44.7293574       
333.34           0.705300872      44.218792        0.697493058      -44.8462675      0.697493058      -44.8462675      0.705300872      44.218792        
339.07           0.711591783      43.7159087       0.691173606      -45.3569789      0.691173606      -45.3569789      0.711591783      43.7159087       
344.8            0.717731196      43.2205953       0.684897295      -45.8598752      0.684897295      -45.8598752      0.717731196      43.2205953       
350.53           0.723722687      42.7327385       0.678665492      -46.3550795      0.678665492      -46.3550795      0.723722687      42.7327385       
356.26           0.729569787      42.2522241       0.672479439      -46.842715       0.672479439      -46.842715       0.729569787      42.2522241       
361.99           0.735275978      41.7789378       0.666340253      -47.3229048      0.666340253      -47.3229048      0.735275978      41.7789378       
367.72           0.740844693      41.3127647       0.660248938      -47.7957717      0.660248938      -47.7957717      0.740844693      41.3127647       
373.45           0.746279311      40.85359         0.654206387      -48.2614382      0.654206387      -48.2614382      0.746279311      40.85359         
379.18           0.751583152      40.401299        0.64821339       -48.7200262      0.64821339       -48.7200262      0.751583152      40.401299        
384.91           0.756759482      39.9557774       0.642270641      -49.1716568      0.642270641      -49.1716568      0.756759482      39.9557774       
390.64           0.761811504      39.5169113       0.636378739      -49.6164503      0.636378739      -49.6164503      0.761811504      39.5169113       
396.37           0.766742361      39.0845872       0.630538199      -50.0545262      0.630538199      -50.0545262      0.766742361      39.0845872       
402.1            0.771555132      38.6586928       0.624749454      -50.4860027      0.624749454      -50.4860027      0.771555132      38.6586928       
407.83           0.776252837      38.2391162       0.619012859      -50.9109969      0.619012859      -50.9109969      0.776252837      38.2391162       
413.56           0.780838427      37.8257466       0.613328699      -51.3296249      0.613328699      -51.3296249      0.780838427      37.8257466       
419.29           0.785314794      37.4184743       0.60769719       -51.7420011      0.60769719       -51.7420011      0.785314794      37.4184743       
425.02           0.789684761      37.0171907       0.602118488      -52.1482389      0.602118488      -52.1482389      0.789684761      37.0171907       
430.75           0.793951089      36.6217883       0.596592686      -52.54845        0.596592686      -52.54845        0.793951089      36.6217883       
436.48           0.798116476      36.232161        0.591119826      -52.9427447      0.591119826      -52.9427447      0.798116476      36.232161        
442.21           0.802183555      35.8482041       0.585699896      -53.3312319      0.585699896      -53.3312319      0.802183555      35.8482041       
447.94           0.806154895      35.4698139       0.580332839      -53.7140186      0.580332839      -53.7140186      0.806154895      35.4698139       
453.67           0.810033003      35.0968885       0.575018551      -54.0912104      0.575018551      -54.0912104      0.810033003      35.0968885       
459.4            0.813820324      34.7293273       0.56975689       -54.4629115      0.56975689       -54.4629115      0.813820324      34.7293273       
465.13           0.81751924       34.3670311       0.564547673      -54.829224       0.564547673      -54.829224       0.81751924       34.3670311       
470.86           0.821132075      34.0099025       0.559390685      -55.1902486      0.559390685      -55.1902486      0.821132075      34.0099025       
476.59           0.824661092      33.6578452       0.554285676      -55.5460843      0.554285676      -55.5460843      0.824661092      33.6578452       
482.32           0.828108494      33.3107649       0.549232367      -55.8968283      0.549232367      -55.8968283      0.828108494      33.3107649       
488.05           0.831476429      32.9685684       0.544230453      -56.2425764      0.544230453      -56.2425764      0.831476429      32.9685684       
493.78           0.834766984      32.6311645       0.539279602      -56.5834223      0.539279602      -56.5834223      0.834766984      32.6311645       
499.51           0.837982195      32.2984633       0.534379461      -56.9194583      0.534379461      -56.9194583      0.837982195      32.2984633       
505.24           0.841124041      31.9703766       0.529529653      -57.2507749      0.529529653      -57.2507749      0.841124041      31.9703766       
510.97           0.844194447      31.6468175       0.524729785      -57.577461       0.524729785      -57.577461       0.844194447      31.6468175       
516.7            0.847195287      31.3277012       0.519979446      -57.8996038      0.519979446      -57.8996038      0.847195287      31.3277012       
522.43           0.850128383      31.0129438       0.515278209      -58.2172887      0.515278209      -58.2172887      0.850128383      31.0129438       
528.16           0.852995507      30.7024636       0.510625634      -58.5305997      0.510625634      -58.5305997      0.852995507      30.7024636       
533.89           0.855798382      30.3961799       0.506021266      -58.8396189      0.506021266      -58.8396189      0.855798382      30.3961799       
539.62           0.858538685      30.0940139       0.501464642      -59.1444272      0.501464642      -59.1444272      0.858538685      30.0940139       
545.35           0.861218045      29.795888        0.496955287      -59.4451034      0.496955287      -59.4451034      0.861218045      29.795888        
551.08           0.863838044      29.5017265       0.49249272       -59.7417251      0.49249272       -59.7417251      0.863838044      29.5017265       
556.81           0.866400222      29.2114548       0.488076449      -60.0343681      0.488076449      -60.0343681      0.866400222      29.2114548       
562.54           0.868906076      28.9249999       0.483705979      -60.3231069      0.483705979      -60.3231069      0.868906076      28.9249999       
568.27           0.871357059      28.6422904       0.479380809      -60.6080143      0.479380809      -60.6080143      0.871357059      28.6422904       
574              0.873754585      28.363256        0.475100431      -60.8891617      0.475100431      -60.8891617      0.873754585      28.363256        
579.73           0.876100028      28.0878282       0.470864336      -61.166619       0.470864336      -61.166619       0.876100028      28.0878282       
585.46           0.878394722      27.8159395       0.466672011      -61.4404547      0.466672011      -61.4404547      0.878394722      27.8159395       
591.19           0.880639964      27.547524        0.462522943      -61.7107357      0.462522943      -61.7107357      0.880639964      27.547524        
596.92           0.882837014      27.2825171       0.458416614      -61.9775278      0.458416614      -61.9775278      0.882837014      27.2825171       
602.65           0.884987097      27.0208555       0.454352509      -62.2408951      0.454352509      -62.2408951      0.884987097      27.0208555       
608.38           0.887091404      26.7624773       0.450330111      -62.5009006      0.450330111      -62.5009006      0.887091404      26.7624773       
614.11           0.88915109       26.5073216       0.446348903      -62.757606       0.446348903      -62.757606       0.88915109       26.5073216       
619.84           0.891167279      26.2553291       0.44240837       -63.0110714      0.44240837       -63.0110714      0.891167279      26.2553291       
625.57           0.893141063      26.0064415       0.438507998      -63.2613559      0.438507998      -63.2613559      0.893141063      26.0064415       
631.3            0.895073504      25.7606018       0.434647275      -63.5085172      0.434647275      -63.5085172      0.895073504      25.7606018       
637.03           0.896965632      25.5177542       0.430825692      -63.7526119      0.430825692      -63.7526119      0.896965632      25.5177542       
642.76           0.898818448      25.2778439       0.42704274       -63.9936953      0.42704274       -63.9936953      0.898818448      25.2778439       
648.49           0.900632928      25.0408174       0.423297916      -64.2318216      0.423297916      -64.2318216      0.900632928      25.0408174       
654.22           0.902410016      24.8066224       0.419590718      -64.4670436      0.419590718      -64.4670436      0.902410016      24.8066224       
659.95           0.904150633      24.5752075       0.41592065       -64.6994134      0.41592065       -64.6994134      0.904150633      24.5752075       
665.68           0.905855672      24.3465225       0.412287216      -64.9289815      0.412287216      -64.9289815      0.905855672      24.3465225       
671.41           0.907526001      24.1205182       0.408689928      -65.1557978      0.408689928      -65.1557978      0.907526001      24.1205182       
677.14           0.909162466      23.8971463       0.4051283        -65.3799106      0.4051283        -65.3799106      0.909162466      23.8971463       
682.87           0.910765887      23.6763598       0.401601851      -65.6013677      0.401601851      -65.6013677      0.910765887      23.6763598       
688.6            0.912337061      23.4581126       0.398110103      -65.8202156      0.398110103      -65.8202156      0.912337061      23.4581126       
694.33           0.913876764      23.2423593       0.394652586      -66.0364997      0.394652586      -66.0364997      0.913876764      23.2423593       
700.06           0.91538575       23.0290557       0.391228831      -66.2502646      0.391228831      -66.2502646      0.91538575       23.0290557       
705.79           0.916864752      22.8181586       0.387838377      -66.4615539      0.387838377      -66.4615539      0.916864752      22.8181586       
711.52           0.918314483      22.6096255       0.384480768      -66.6704102      0.384480768      -66.6704102      0.918314483      22.6096255       
717.25           0.919735635      22.4034149       0.38115555       -66.8768753      0.38115555       -66.8768753      0.919735635      22.4034149       
722.98           0.921128882      22.199486        0.377862277      -67.0809901      0.377862277      -67.0809901      0.921128882      22.199486        
728.71           0.922494879      21.9977992       0.374600507      -67.2827945      0.374600507      -67.2827945      0.922494879      21.9977992       
