! Coilcraft 1008HT-R12 Chip Inductor				
! 16 July 2002			
# MHZ S MA R 50
!Freq             MagS11           AngS11           MagS21           AngS21           MagS12           AngS12           MagS22           AngS22
1                0.0103911948     45.6542972       0.992764513      -0.428878434     0.992764513      -0.428878434     0.0103911948     45.6542972       
5.49             0.0420577079     74.5637722       0.989636406      -2.34778538      0.989636406      -2.34778538      0.0420577079     74.5637722       
9.98             0.0750193238     77.3818876       0.986332447      -4.25651412      0.986332447      -4.25651412      0.0750193238     77.3818876       
14.47            0.107842072      77.4696334       0.982260517      -6.15247028      0.982260517      -6.15247028      0.107842072      77.4696334       
18.96            0.140323983      76.7064179       0.977322067      -8.03238494      0.977322067      -8.03238494      0.140323983      76.7064179       
23.45            0.172347057      75.5721807       0.971503718      -9.89292771      0.971503718      -9.89292771      0.172347057      75.5721807       
27.94            0.203816389      74.2492899       0.964825494      -11.7308767      0.964825494      -11.7308767      0.203816389      74.2492899       
32.43            0.234649993      72.8238997       0.957325363      -13.5432011      0.957325363      -13.5432011      0.234649993      72.8238997       
36.92            0.264776497      71.3429007       0.9490525        -15.3271116      0.9490525        -15.3271116      0.264776497      71.3429007       
41.41            0.294134569      69.834501        0.940063482      -17.0800912      0.940063482      -17.0800912      0.294134569      69.834501        
45.9             0.322672728      68.3169638       0.930419711      -18.7999153      0.930419711      -18.7999153      0.322672728      68.3169638       
50.39            0.350349153      66.8027736       0.920185458      -20.4846602      0.920185458      -20.4846602      0.350349153      66.8027736       
54.88            0.377131374      65.3008067       0.909426278      -22.1327057      0.909426278      -22.1327057      0.377131374      65.3008067       
59.37            0.402995831      63.8175462       0.898207708      -23.7427294      0.898207708      -23.7427294      0.402995831      63.8175462       
63.86            0.427927311      62.3578041       0.886594193      -25.3136968      0.886594193      -25.3136968      0.427927311      62.3578041       
68.35            0.451918285      60.9251748       0.874648203      -26.8448464      0.874648203      -26.8448464      0.451918285      60.9251748       
72.84            0.474968178      59.5223335       0.862429537      -28.3356723      0.862429537      -28.3356723      0.474968178      59.5223335       
77.33            0.497082601      58.1512417       0.849994797      -29.7859043      0.849994797      -29.7859043      0.497082601      58.1512417       
81.82            0.518272575      56.8132949       0.837396998      -31.1954863      0.837396998      -31.1954863      0.518272575      56.8132949       
86.31            0.538553755      55.5094326       0.824685322      -32.5645544      0.824685322      -32.5645544      0.538553755      55.5094326       
90.8             0.557945696      54.2402227       0.811904978      -33.8934149      0.811904978      -33.8934149      0.557945696      54.2402227       
95.29            0.576471151      53.0059289       0.799097162      -35.1825231      0.799097162      -35.1825231      0.576471151      53.0059289       
99.78            0.594155423      51.8065648       0.786299093      -36.4324619      0.786299093      -36.4324619      0.594155423      51.8065648       
104.27           0.611025781      50.6419386       0.773544122      -37.6439229      0.773544122      -37.6439229      0.611025781      50.6419386       
108.76           0.627110931      49.5116907       0.760861876      -38.8176878      0.760861876      -38.8176878      0.627110931      49.5116907       
113.25           0.642440549      48.4153247       0.74827845       -39.954612       0.74827845       -39.954612       0.642440549      48.4153247       
117.74           0.65704488       47.3522346       0.735816623      -41.0556092      0.735816623      -41.0556092      0.65704488       47.3522346       
122.23           0.670954387      46.321727        0.72349608       -42.1216378      0.72349608       -42.1216378      0.670954387      46.321727        
126.72           0.684199457      45.3230407       0.711333655      -43.1536887      0.711333655      -43.1536887      0.684199457      45.3230407       
131.21           0.696810161      44.3553631       0.699343565      -44.152775       0.699343565      -44.152775       0.696810161      44.3553631       
135.7            0.708816048      43.4178441       0.687537649      -45.1199221      0.687537649      -45.1199221      0.708816048      43.4178441       
140.19           0.720245988      42.5096079       0.67592559       -46.0561602      0.67592559       -46.0561602      0.720245988      42.5096079       
144.68           0.731128045      41.6297631       0.664515136      -46.9625171      0.664515136      -46.9625171      0.731128045      41.6297631       
149.17           0.74148938       40.7774112       0.653312305      -47.8400126      0.653312305      -47.8400126      0.74148938       40.7774112       
153.66           0.751356186      39.9516529       0.642321574      -48.6896534      0.642321574      -48.6896534      0.751356186      39.9516529       
158.15           0.760753634      39.151595        0.631546059      -49.5124295      0.631546059      -49.5124295      0.760753634      39.151595        
162.64           0.769705851      38.3763542       0.62098768       -50.3093104      0.62098768       -50.3093104      0.769705851      38.3763542       
167.13           0.778235904      37.6250612       0.610647307      -51.0812431      0.610647307      -51.0812431      0.778235904      37.6250612       
171.62           0.786365797      36.896864        0.600524901      -51.8291498      0.600524901      -51.8291498      0.786365797      36.896864        
176.11           0.794116486      36.1909304       0.590619633      -52.5539263      0.590619633      -52.5539263      0.794116486      36.1909304       
180.6            0.801507895      35.5064493       0.580929999      -53.2564411      0.580929999      -53.2564411      0.801507895      35.5064493       
185.09           0.808558937      34.8426325       0.571453915      -53.9375349      0.571453915      -53.9375349      0.808558937      34.8426325       
189.58           0.815287552      34.1987158       0.56218881       -54.5980195      0.56218881       -54.5980195      0.815287552      34.1987158       
194.07           0.821710732      33.5739594       0.553131704      -55.2386786      0.553131704      -55.2386786      0.821710732      33.5739594       
198.56           0.827844559      32.9676481       0.544279276      -55.860267       0.544279276      -55.860267       0.827844559      32.9676481       
203.05           0.833704248      32.3790919       0.535627931      -56.4635116      0.535627931      -56.4635116      0.833704248      32.3790919       
207.54           0.839304178      31.8076255       0.527173848      -57.0491112      0.527173848      -57.0491112      0.839304178      31.8076255       
212.03           0.844657933      31.2526083       0.518913031      -57.6177377      0.518913031      -57.6177377      0.844657933      31.2526083       
216.52           0.849778342      30.7134239       0.510841354      -58.1700359      0.510841354      -58.1700359      0.849778342      30.7134239       
221.01           0.85467752       30.1894797       0.502954592      -58.706625       0.502954592      -58.706625       0.85467752       30.1894797       
225.5            0.859366896      29.6802064       0.495248454      -59.2280988      0.495248454      -59.2280988      0.859366896      29.6802064       
229.99           0.86385726       29.1850574       0.487718615      -59.7350266      0.487718615      -59.7350266      0.86385726       29.1850574       
234.48           0.868158791      28.7035078       0.480360731      -60.2279543      0.480360731      -60.2279543      0.868158791      28.7035078       
238.97           0.872281094      28.2350543       0.473170468      -60.707405       0.473170468      -60.707405       0.872281094      28.2350543       
243.46           0.876233231      27.7792141       0.466143512      -61.1738796      0.466143512      -61.1738796      0.876233231      27.7792141       
247.95           0.880023753      27.3355243       0.45927559       -61.6278583      0.45927559       -61.6278583      0.880023753      27.3355243       
252.44           0.883660728      26.903541        0.452562475      -62.0698006      0.452562475      -62.0698006      0.883660728      26.903541        
256.93           0.887151772      26.4828388       0.446000003      -62.5001469      0.446000003      -62.5001469      0.887151772      26.4828388       
261.42           0.890504071      26.0730101       0.439584076      -62.9193189      0.439584076      -62.9193189      0.890504071      26.0730101       
265.91           0.89372441       25.6736641       0.433310674      -63.3277202      0.433310674      -63.3277202      0.89372441       25.6736641       
270.4            0.896819196      25.2844265       0.427175855      -63.7257375      0.427175855      -63.7257375      0.896819196      25.2844265       
274.89           0.899794481      24.9049383       0.421175762      -64.113741       0.421175762      -64.113741       0.899794481      24.9049383       
279.38           0.902655979      24.5348558       0.41530663       -64.4920856      0.41530663       -64.4920856      0.902655979      24.5348558       
283.87           0.905409093      24.1738493       0.409564779      -64.8611108      0.409564779      -64.8611108      0.905409093      24.1738493       
288.36           0.908058926      23.8216031       0.403946625      -65.2211421      0.403946625      -65.2211421      0.908058926      23.8216031       
292.85           0.910610305      23.4778144       0.398448676      -65.5724913      0.398448676      -65.5724913      0.910610305      23.4778144       
297.34           0.913067795      23.1421929       0.393067534      -65.915457       0.393067534      -65.915457       0.913067795      23.1421929       
301.83           0.915435714      22.8144604       0.387799894      -66.2503257      0.387799894      -66.2503257      0.915435714      22.8144604       
306.32           0.917718148      22.4943499       0.382642544      -66.5773717      0.382642544      -66.5773717      0.917718148      22.4943499       
310.81           0.919918967      22.1816057       0.377592363      -66.8968582      0.377592363      -66.8968582      0.919918967      22.1816057       
315.3            0.922041833      21.875982        0.372646323      -67.2090375      0.372646323      -67.2090375      0.922041833      21.875982        
319.79           0.924090216      21.5772435       0.367801485      -67.5141515      0.367801485      -67.5141515      0.924090216      21.5772435       
324.28           0.926067407      21.285164        0.363054998      -67.8124323      0.363054998      -67.8124323      0.926067407      21.285164        
328.77           0.927976521      20.9995267       0.358404097      -68.1041028      0.358404097      -68.1041028      0.927976521      20.9995267       
333.26           0.929820516      20.7201232       0.353846102      -68.3893766      0.353846102      -68.3893766      0.929820516      20.7201232       
337.75           0.931602195      20.4467536       0.349378414      -68.6684589      0.349378414      -68.6684589      0.931602195      20.4467536       
342.24           0.933324222      20.1792258       0.344998518      -68.9415468      0.344998518      -68.9415468      0.933324222      20.1792258       
346.73           0.934989121      19.9173552       0.340703975      -69.2088294      0.340703975      -69.2088294      0.934989121      19.9173552       
351.22           0.936599294      19.6609646       0.336492422      -69.4704886      0.336492422      -69.4704886      0.936599294      19.6609646       
355.71           0.93815702       19.4098837       0.332361572      -69.7266989      0.332361572      -69.7266989      0.93815702       19.4098837       
360.2            0.939664465      19.1639485       0.32830921       -69.9776283      0.32830921       -69.9776283      0.939664465      19.1639485       
364.69           0.941123689      18.9230016       0.32433319       -70.223438       0.32433319       -70.223438       0.941123689      18.9230016       
369.18           0.942536653      18.6868914       0.320431435      -70.4642833      0.320431435      -70.4642833      0.942536653      18.6868914       
373.67           0.943905219      18.4554723       0.316601933      -70.7003134      0.316601933      -70.7003134      0.943905219      18.4554723       
378.16           0.945231162      18.2286041       0.312842737      -70.9316719      0.312842737      -70.9316719      0.945231162      18.2286041       
382.65           0.946516171      18.0061516       0.30915196       -71.158497       0.30915196       -71.158497       0.946516171      18.0061516       
387.14           0.947761855      17.787985        0.305527778      -71.3809216      0.305527778      -71.3809216      0.947761855      17.787985        
391.63           0.948969747      17.5739792       0.30196842       -71.5990738      0.30196842       -71.5990738      0.948969747      17.5739792       
396.12           0.950141309      17.3640136       0.298472177      -71.8130769      0.298472177      -71.8130769      0.950141309      17.3640136       
400.61           0.951277933      17.157972        0.295037389      -72.0230496      0.295037389      -72.0230496      0.951277933      17.157972        
405.1            0.952380948      16.9557427       0.29166245       -72.2291065      0.29166245       -72.2291065      0.952380948      16.9557427       
409.59           0.953451623      16.7572176       0.288345807      -72.4313578      0.288345807      -72.4313578      0.953451623      16.7572176       
414.08           0.954491168      16.5622928       0.285085952      -72.6299099      0.285085952      -72.6299099      0.954491168      16.5622928       
418.57           0.955500739      16.3708679       0.281881426      -72.8248653      0.281881426      -72.8248653      0.955500739      16.3708679       
423.06           0.956481438      16.1828462       0.278730817      -73.0163229      0.278730817      -73.0163229      0.956481438      16.1828462       
427.55           0.957434321      15.9981344       0.275632755      -73.204378       0.275632755      -73.204378       0.957434321      15.9981344       
432.04           0.958360397      15.8166423       0.272585912      -73.3891227      0.272585912      -73.3891227      0.958360397      15.8166423       
436.53           0.959260627      15.6382829       0.269589004      -73.570646       0.269589004      -73.570646       0.959260627      15.6382829       
441.02           0.960135936      15.4629722       0.266640784      -73.7490334      0.266640784      -73.7490334      0.960135936      15.4629722       
445.51           0.960987203      15.2906291       0.263740044      -73.9243679      0.263740044      -73.9243679      0.960987203      15.2906291       
450              0.961815274      15.1211753       0.260885614      -74.0967295      0.260885614      -74.0967295      0.961815274      15.1211753       
454.49           0.962620957      14.9545351       0.258076359      -74.2661954      0.258076359      -74.2661954      0.962620957      14.9545351       
458.98           0.963405025      14.7906351       0.255311177      -74.4328404      0.255311177      -74.4328404      0.963405025      14.7906351       
463.47           0.964168219      14.6294047       0.252589001      -74.5967366      0.252589001      -74.5967366      0.964168219      14.6294047       
467.96           0.96491125       14.4707755       0.249908797      -74.7579537      0.249908797      -74.7579537      0.96491125       14.4707755       
472.45           0.965634799      14.3146813       0.24726956       -74.9165594      0.24726956       -74.9165594      0.965634799      14.3146813       
476.94           0.966339519      14.1610581       0.244670316      -75.0726188      0.244670316      -75.0726188      0.966339519      14.1610581       
481.43           0.967026035      14.009844        0.242110119      -75.226195       0.242110119      -75.226195       0.967026035      14.009844        
485.92           0.967694949      13.8609789       0.239588054      -75.3773492      0.239588054      -75.3773492      0.967694949      13.8609789       
490.41           0.968346838      13.714405        0.237103228      -75.5261405      0.237103228      -75.5261405      0.968346838      13.714405        
494.9            0.968982254      13.5700659       0.234654778      -75.6726261      0.234654778      -75.6726261      0.968982254      13.5700659       
499.39           0.96960173       13.4279073       0.232241866      -75.8168614      0.232241866      -75.8168614      0.96960173       13.4279073       
503.88           0.970205775      13.2878766       0.229863676      -75.9589002      0.229863676      -75.9589002      0.970205775      13.2878766       
508.37           0.970794881      13.1499225       0.227519418      -76.0987943      0.227519418      -76.0987943      0.970794881      13.1499225       
512.86           0.971369519      13.0139957       0.225208322      -76.2365941      0.225208322      -76.2365941      0.971369519      13.0139957       
517.35           0.971930142      12.8800482       0.222929644      -76.3723485      0.222929644      -76.3723485      0.971930142      12.8800482       
521.84           0.972477186      12.7480335       0.220682657      -76.5061047      0.220682657      -76.5061047      0.972477186      12.7480335       
526.33           0.973011069      12.6179064       0.218466657      -76.6379087      0.218466657      -76.6379087      0.973011069      12.6179064       
530.82           0.973532197      12.4896233       0.21628096       -76.7678047      0.21628096       -76.7678047      0.973532197      12.4896233       
535.31           0.974040955      12.3631417       0.214124899      -76.895836       0.214124899      -76.895836       0.974040955      12.3631417       
539.8            0.974537719      12.2384205       0.211997828      -77.0220444      0.211997828      -77.0220444      0.974537719      12.2384205       
544.29           0.975022848      12.1154197       0.209899118      -77.1464704      0.209899118      -77.1464704      0.975022848      12.1154197       
548.78           0.975496688      11.9941006       0.207828157      -77.2691534      0.207828157      -77.2691534      0.975496688      11.9941006       
553.27           0.975959574      11.8744255       0.20578435       -77.3901316      0.20578435       -77.3901316      0.975959574      11.8744255       
557.76           0.976411826      11.7563578       0.203767119      -77.5094421      0.203767119      -77.5094421      0.976411826      11.7563578       
562.25           0.976853756      11.6398621       0.201775901      -77.6271208      0.201775901      -77.6271208      0.976853756      11.6398621       
566.74           0.977285661      11.524904        0.199810147      -77.7432027      0.199810147      -77.7432027      0.977285661      11.524904        
571.23           0.97770783       11.4114497       0.197869326      -77.8577218      0.197869326      -77.8577218      0.97770783       11.4114497       
