! Coilcraft 1008HT-22N Chip Inductor				
! 16 July 2002			
# MHZ S MA R 50
!Freq             MagS11           AngS11           MagS21           AngS21           MagS12           AngS12           MagS22           AngS22
1                0.00205658696    42.0735608       0.998474377      -0.0790792019    0.998474377      -0.0790792019    0.00205658696    42.0735608       
10.47            0.0146461756     79.4428749       0.997420518      -0.827121485     0.997420518      -0.827121485     0.0146461756     79.4428749       
19.94            0.0276339785     82.2002412       0.99662588       -1.57417102      0.99662588       -1.57417102      0.0276339785     82.2002412       
29.41            0.0406275022     82.8769724       0.995778565      -2.3202452       0.995778565      -2.3202452       0.0406275022     82.8769724       
38.88            0.0536035865     82.9299213       0.994825582      -3.0652216       0.994825582      -3.0652216       0.0536035865     82.9299213       
48.35            0.0665526345     82.7066607       0.993746262      -3.80894088      0.993746262      -3.80894088      0.0665526345     82.7066607       
57.82            0.079467711      82.3352269       0.992530507      -4.551228        0.992530507      -4.551228        0.079467711      82.3352269       
67.29            0.0923427215     81.874632        0.991172951      -5.2919004       0.991172951      -5.2919004       0.0923427215     81.874632        
76.76            0.105171935      81.3561776       0.989670769      -6.03077201      0.989670769      -6.03077201      0.105171935      81.3561776       
86.23            0.117949833      80.7981685       0.988022672      -6.76765559      0.988022672      -6.76765559      0.117949833      80.7981685       
95.7             0.130671052      80.2121122       0.9862284        -7.50236428      0.9862284        -7.50236428      0.130671052      80.2121122       
105.17           0.143330369      79.6056612       0.984288424      -8.23471268      0.984288424      -8.23471268      0.143330369      79.6056612       
114.64           0.155922698      78.9841399       0.982203771      -8.96451762      0.982203771      -8.96451762      0.155922698      78.9841399       
124.11           0.168443094      78.3513938       0.979975903      -9.69159889      0.979975903      -9.69159889      0.168443094      78.3513938       
133.58           0.18088676       77.7102894       0.977606642      -10.4157797      0.977606642      -10.4157797      0.18088676       77.7102894       
143.05           0.19324905       77.063022        0.975098109      -11.1368871      0.975098109      -11.1368871      0.19324905       77.063022        
152.52           0.205525482      76.4113126       0.972452681      -11.8547525      0.972452681      -11.8547525      0.205525482      76.4113126       
161.99           0.217711739      75.7565389       0.969672957      -12.5692118      0.969672957      -12.5692118      0.217711739      75.7565389       
171.46           0.229803678      75.0998235       0.966761728      -13.280106       0.966761728      -13.280106       0.229803678      75.0998235       
180.93           0.241797336      74.4420958       0.963721956      -13.9872809      0.963721956      -13.9872809      0.241797336      74.4420958       
190.4            0.253688932      73.7841366       0.96055675       -14.6905878      0.96055675       -14.6905878      0.253688932      73.7841366       
199.87           0.265474871      73.1266099       0.95726935       -15.3898837      0.95726935       -15.3898837      0.265474871      73.1266099       
209.34           0.277151753      72.4700862       0.953863111      -16.0850309      0.953863111      -16.0850309      0.277151753      72.4700862       
218.81           0.288716365      71.8150611       0.950341483      -16.7758979      0.950341483      -16.7758979      0.288716365      71.8150611       
228.28           0.300165693      71.161968        0.946708004      -17.4623588      0.946708004      -17.4623588      0.300165693      71.161968        
237.75           0.311496915      70.5111891       0.942966278      -18.1442937      0.942966278      -18.1442937      0.311496915      70.5111891       
247.22           0.322707405      69.8630634       0.939119973      -18.8215891      0.939119973      -18.8215891      0.322707405      69.8630634       
256.69           0.333794732      69.217893        0.935172798      -19.494137       0.935172798      -19.494137       0.333794732      69.217893        
266.16           0.344756658      68.5759483       0.931128501      -20.161836       0.931128501      -20.161836       0.344756658      68.5759483       
275.63           0.355591139      67.9374725       0.926990852      -20.8245905      0.926990852      -20.8245905      0.355591139      67.9374725       
285.1            0.366296317      67.3026843       0.922763638      -21.4823111      0.922763638      -21.4823111      0.366296317      67.3026843       
294.57           0.376870524      66.6717811       0.918450649      -22.1349142      0.918450649      -22.1349142      0.376870524      66.6717811       
304.04           0.387312273      66.0449414       0.914055673      -22.7823225      0.914055673      -22.7823225      0.387312273      66.0449414       
313.51           0.397620257      65.4223265       0.909582486      -23.4244643      0.909582486      -23.4244643      0.397620257      65.4223265       
322.98           0.407793346      64.804082        0.905034842      -24.061274       0.905034842      -24.061274       0.407793346      64.804082        
332.45           0.41783058       64.1903395       0.90041647       -24.6926916      0.90041647       -24.6926916      0.41783058       64.1903395       
341.92           0.427731165      63.5812178       0.895731064      -25.3186626      0.895731064      -25.3186626      0.427731165      63.5812178       
351.39           0.437494469      62.9768236       0.890982277      -25.9391383      0.890982277      -25.9391383      0.437494469      62.9768236       
360.86           0.447120015      62.3772527       0.886173715      -26.5540751      0.886173715      -26.5540751      0.447120015      62.3772527       
370.33           0.456607477      61.7825906       0.881308934      -27.1634348      0.881308934      -27.1634348      0.456607477      61.7825906       
379.8            0.465956673      61.1929136       0.876391433      -27.7671844      0.876391433      -27.7671844      0.465956673      61.1929136       
389.27           0.47516756       60.6082889       0.871424647      -28.3652958      0.871424647      -28.3652958      0.47516756       60.6082889       
398.74           0.484240229      60.0287756       0.866411949      -28.9577456      0.866411949      -28.9577456      0.484240229      60.0287756       
408.21           0.493174896      59.4544249       0.861356641      -29.5445153      0.861356641      -29.5445153      0.493174896      59.4544249       
417.68           0.5019719        58.885281        0.856261954      -30.1255907      0.856261954      -30.1255907      0.5019719        58.885281        
427.15           0.510631693      58.3213811       0.851131044      -30.7009622      0.851131044      -30.7009622      0.510631693      58.3213811       
436.62           0.519154837      57.7627561       0.845966989      -31.2706241      0.845966989      -31.2706241      0.519154837      57.7627561       
446.09           0.527541997      57.2094308       0.840772788      -31.834575       0.840772788      -31.834575       0.527541997      57.2094308       
455.56           0.535793934      56.6614244       0.835551359      -32.3928172      0.835551359      -32.3928172      0.535793934      56.6614244       
465.03           0.543911502      56.1187509       0.830305536      -32.9453567      0.830305536      -32.9453567      0.543911502      56.1187509       
474.5            0.55189564       55.5814191       0.825038073      -33.4922031      0.825038073      -33.4922031      0.55189564       55.5814191       
483.97           0.559747364      55.0494332       0.819751637      -34.0333694      0.819751637      -34.0333694      0.559747364      55.0494332       
493.44           0.567467769      54.5227929       0.81444881       -34.5688718      0.81444881       -34.5688718      0.567467769      54.5227929       
502.91           0.575058015      54.0014939       0.809132091      -35.0987293      0.809132091      -35.0987293      0.575058015      54.0014939       
512.38           0.582519327      53.4855278       0.803803891      -35.6229641      0.803803891      -35.6229641      0.582519327      53.4855278       
521.85           0.589852991      52.9748827       0.79846654       -36.141601       0.79846654       -36.141601       0.589852991      52.9748827       
531.32           0.597060342      52.4695432       0.793122281      -36.6546675      0.793122281      -36.6546675      0.597060342      52.4695432       
540.79           0.604142768      51.9694907       0.787773273      -37.1621933      0.787773273      -37.1621933      0.604142768      51.9694907       
550.26           0.6111017        51.4747035       0.782421595      -37.6642105      0.782421595      -37.6642105      0.6111017        51.4747035       
559.73           0.617938609      50.9851572       0.77706924       -38.1607535      0.77706924       -38.1607535      0.617938609      50.9851572       
569.2            0.624655002      50.5008248       0.771718125      -38.6518586      0.771718125      -38.6518586      0.624655002      50.5008248       
578.67           0.631252418      50.0216767       0.766370083      -39.1375637      0.766370083      -39.1375637      0.631252418      50.0216767       
588.14           0.637732424      49.5476813       0.761026871      -39.6179089      0.761026871      -39.6179089      0.637732424      49.5476813       
597.61           0.644096611      49.0788047       0.755690168      -40.0929357      0.755690168      -40.0929357      0.644096611      49.0788047       
607.08           0.650346591      48.615011        0.750361579      -40.5626869      0.750361579      -40.5626869      0.650346591      48.615011        
616.55           0.656483993      48.1562628       0.745042636      -41.027207       0.745042636      -41.027207       0.656483993      48.1562628       
626.02           0.662510462      47.7025208       0.739734795      -41.4865416      0.739734795      -41.4865416      0.662510462      47.7025208       
635.49           0.668427652      47.2537441       0.734439447      -41.9407375      0.734439447      -41.9407375      0.668427652      47.2537441       
644.96           0.674237228      46.8098908       0.72915791       -42.3898425      0.72915791       -42.3898425      0.674237228      46.8098908       
654.43           0.679940858      46.3709173       0.723891439      -42.8339053      0.723891439      -42.8339053      0.679940858      46.3709173       
663.9            0.685540216      45.9367792       0.718641221      -43.2729756      0.718641221      -43.2729756      0.685540216      45.9367792       
673.37           0.691036977      45.5074308       0.713408382      -43.7071038      0.713408382      -43.7071038      0.691036977      45.5074308       
682.84           0.696432813      45.0828257       0.708193987      -44.1363409      0.708193987      -44.1363409      0.696432813      45.0828257       
692.31           0.701729395      44.6629166       0.702999039      -44.5607385      0.702999039      -44.5607385      0.701729395      44.6629166       
701.78           0.706928387      44.2476552       0.697824488      -44.9803489      0.697824488      -44.9803489      0.706928387      44.2476552       
711.25           0.712031448      43.836993        0.692671224      -45.3952245      0.692671224      -45.3952245      0.712031448      43.836993        
720.72           0.717040228      43.4308806       0.687540087      -45.8054183      0.687540087      -45.8054183      0.717040228      43.4308806       
730.19           0.721956367      43.0292684       0.682431863      -46.2109835      0.682431863      -46.2109835      0.721956367      43.0292684       
739.66           0.726781494      42.632106        0.677347289      -46.6119736      0.677347289      -46.6119736      0.726781494      42.632106        
749.13           0.731517224      42.2393431       0.672287053      -47.0084422      0.672287053      -47.0084422      0.731517224      42.2393431       
758.6            0.736165159      41.8509288       0.667251798      -47.400443       0.667251798      -47.400443       0.736165159      41.8509288       
768.07           0.740726888      41.4668122       0.662242121      -47.7880298      0.662242121      -47.7880298      0.740726888      41.4668122       
777.54           0.745203982      41.0869423       0.657258576      -48.1712564      0.657258576      -48.1712564      0.745203982      41.0869423       
787.01           0.749597995      40.7112677       0.652301677      -48.5501765      0.652301677      -48.5501765      0.749597995      40.7112677       
796.48           0.753910465      40.3397373       0.647371896      -48.9248437      0.647371896      -48.9248437      0.753910465      40.3397373       
805.95           0.758142911      39.9722999       0.642469671      -49.2953116      0.642469671      -49.2953116      0.758142911      39.9722999       
815.42           0.762296833      39.6089042       0.6375954        -49.6616334      0.6375954        -49.6616334      0.762296833      39.6089042       
824.89           0.766373713      39.2494994       0.632749447      -50.0238623      0.632749447      -50.0238623      0.766373713      39.2494994       
834.36           0.77037501       38.8940344       0.627932143      -50.3820512      0.627932143      -50.3820512      0.77037501       38.8940344       
843.83           0.774302166      38.5424585       0.623143787      -50.7362526      0.623143787      -50.7362526      0.774302166      38.5424585       
853.3            0.778156601      38.1947212       0.618384647      -51.0865187      0.618384647      -51.0865187      0.778156601      38.1947212       
862.77           0.781939712      37.8507724       0.613654963      -51.4329017      0.613654963      -51.4329017      0.781939712      37.8507724       
872.24           0.785652878      37.5105619       0.608954946      -51.7754529      0.608954946      -51.7754529      0.785652878      37.5105619       
881.71           0.789297454      37.1740401       0.60428478       -52.1142237      0.60428478       -52.1142237      0.789297454      37.1740401       
891.18           0.792874776      36.8411577       0.599644624      -52.4492648      0.599644624      -52.4492648      0.792874776      36.8411577       
900.65           0.796386155      36.5118657       0.595034615      -52.7806265      0.595034615      -52.7806265      0.796386155      36.5118657       
910.12           0.799832882      36.1861155       0.590454864      -53.1083588      0.590454864      -53.1083588      0.799832882      36.1861155       
919.59           0.803216226      35.8638589       0.585905461      -53.4325111      0.585905461      -53.4325111      0.803216226      35.8638589       
929.06           0.806537435      35.545048        0.581386477      -53.7531323      0.581386477      -53.7531323      0.806537435      35.545048        
938.53           0.809797732      35.2296355       0.576897962      -54.0702709      0.576897962      -54.0702709      0.809797732      35.2296355       
948              0.812998322      34.9175745       0.572439946      -54.383975       0.572439946      -54.383975       0.812998322      34.9175745       
957.47           0.816140385      34.6088185       0.568012443      -54.6942919      0.568012443      -54.6942919      0.816140385      34.6088185       
966.94           0.819225083      34.3033215       0.563615451      -55.0012685      0.563615451      -55.0012685      0.819225083      34.3033215       
976.41           0.822253553      34.001038        0.559248948      -55.3049513      0.559248948      -55.3049513      0.822253553      34.001038        
985.88           0.825226912      33.701923        0.554912903      -55.6053861      0.554912903      -55.6053861      0.825226912      33.701923        
995.35           0.828146257      33.405932        0.550607265      -55.9026182      0.550607265      -55.9026182      0.828146257      33.405932        
1004.82          0.831012663      33.1130209       0.546331974      -56.1966923      0.546331974      -56.1966923      0.831012663      33.1130209       
1014.29          0.833827183      32.8231463       0.542086955      -56.4876527      0.542086955      -56.4876527      0.833827183      32.8231463       
1023.76          0.836590852      32.5362651       0.53787212       -56.7755428      0.53787212       -56.7755428      0.836590852      32.5362651       
1033.23          0.839304683      32.252335        0.533687374      -57.0604059      0.533687374      -57.0604059      0.839304683      32.252335        
1042.7           0.84196967       31.9713139       0.529532607      -57.3422844      0.529532607      -57.3422844      0.84196967       31.9713139       
1052.17          0.844586786      31.6931605       0.525407701      -57.6212201      0.525407701      -57.6212201      0.844586786      31.6931605       
1061.64          0.847156985      31.4178338       0.521312529      -57.8972546      0.521312529      -57.8972546      0.847156985      31.4178338       
1071.11          0.849681202      31.1452937       0.517246954      -58.1704284      0.517246954      -58.1704284      0.849681202      31.1452937       
1080.58          0.852160354      30.8755001       0.513210833      -58.4407819      0.513210833      -58.4407819      0.852160354      30.8755001       
1090.05          0.854595336      30.6084139       0.509204014      -58.7083547      0.509204014      -58.7083547      0.854595336      30.6084139       
1099.52          0.856987028      30.3439964       0.505226338      -58.9731859      0.505226338      -58.9731859      0.856987028      30.3439964       
1108.99          0.85933629       30.0822092       0.501277638      -59.2353139      0.501277638      -59.2353139      0.85933629       30.0822092       
1118.46          0.861643966      29.8230148       0.497357744      -59.4947768      0.497357744      -59.4947768      0.861643966      29.8230148       
1127.93          0.86391088       29.566376        0.493466478      -59.7516118      0.493466478      -59.7516118      0.86391088       29.566376        
1137.4           0.86613784       29.3122561       0.489603657      -60.0058559      0.489603657      -60.0058559      0.86613784       29.3122561       
1146.87          0.868325638      29.0606191       0.485769095      -60.2575453      0.485769095      -60.2575453      0.868325638      29.0606191       
1156.34          0.870475047      28.8114293       0.481962598      -60.5067157      0.481962598      -60.5067157      0.870475047      28.8114293       
1165.81          0.872586827      28.5646517       0.478183971      -60.7534023      0.478183971      -60.7534023      0.872586827      28.5646517       
1175.28          0.874661718      28.3202518       0.474433014      -60.9976398      0.474433014      -60.9976398      0.874661718      28.3202518       
1184.75          0.876700447      28.0781955       0.470709524      -61.2394622      0.470709524      -61.2394622      0.876700447      28.0781955       
1194.22          0.878703725      27.8384493       0.467013295      -61.4789031      0.467013295      -61.4789031      0.878703725      27.8384493       
1203.69          0.880672248      27.6009801       0.463344116      -61.7159955      0.463344116      -61.7159955      0.880672248      27.6009801       
