! Coilcraft 1008HT-R15 Chip Inductor				
! 16 July 2002			
# MHZ S MA R 50
!Freq             MagS11           AngS11           MagS21           AngS21           MagS12           AngS12           MagS22           AngS22
1                0.0133802198     43.6998279       0.990369656      -0.534807674     0.990369656      -0.534807674     0.0133802198     43.6998279       
4.74             0.0457172263     72.1432786       0.986941139      -2.52702631      0.986941139      -2.52702631      0.0457172263     72.1432786       
8.48             0.0797608762     75.66237         0.983289666      -4.50751492      0.983289666      -4.50751492      0.0797608762     75.66237         
12.22            0.113709         76.0470922       0.978822623      -6.47337523      0.978822623      -6.47337523      0.113709         76.0470922       
15.96            0.147293375      75.428513        0.973437682      -8.42099629      0.973437682      -8.42099629      0.147293375      75.428513        
19.7             0.18037127       74.3678311       0.967123525      -10.3467153      0.967123525      -10.3467153      0.18037127       74.3678311       
23.44            0.212833947      73.0806142       0.959905153      -12.2470087      0.959905153      -12.2470087      0.212833947      73.0806142       
27.18            0.244590318      71.6690913       0.951827122      -14.1185857      0.951827122      -14.1185857      0.244590318      71.6690913       
30.92            0.275562825      70.1889065       0.942946085      -15.9584441      0.942946085      -15.9584441      0.275562825      70.1889065       
34.66            0.305686172      68.6734504       0.933326501      -17.7639047      0.933326501      -17.7639047      0.305686172      68.6734504       
38.4             0.334906785      67.1442447       0.923037705      -19.53263        0.923037705      -19.53263        0.334906785      67.1442447       
42.14            0.363182356      65.6159116       0.912151664      -21.2626327      0.912151664      -21.2626327      0.363182356      65.6159116       
45.88            0.390481325      64.0987696       0.900741193      -22.952274       0.900741193      -22.952274       0.390481325      64.0987696       
49.62            0.416782221      62.600289        0.888878494      -24.6002547      0.888878494      -24.6002547      0.416782221      62.600289        
53.36            0.442072891      61.1259599       0.876633966      -26.2055994      0.876633966      -26.2055994      0.442072891      61.1259599       
57.1             0.466349639      59.6798369       0.864075271      -27.767638       0.864075271      -27.767638       0.466349639      59.6798369       
60.84            0.489616304      58.2648985       0.851266605      -29.2859816      0.851266605      -29.2859816      0.489616304      58.2648985       
64.58            0.511883317      56.8832946       0.838268176      -30.7604981      0.838268176      -30.7604981      0.511883317      56.8832946       
68.32            0.533166766      55.5365241       0.825135844      -32.1912855      0.825135844      -32.1912855      0.533166766      55.5365241       
72.06            0.553487485      54.2255666       0.811920923      -33.5786457      0.811920923      -33.5786457      0.553487485      54.2255666       
75.8             0.572870205      52.9509836       0.7986701        -34.9230583      0.7986701        -34.9230583      0.572870205      52.9509836       
79.54            0.591342754      51.7129983       0.78542546       -36.2251554      0.78542546       -36.2251554      0.591342754      51.7129983       
83.28            0.608935341      50.511559        0.772224601      -37.485698       0.772224601      -37.485698       0.608935341      50.511559        
87.02            0.625679909      49.3463919       0.759100804      -38.7055537      0.759100804      -38.7055537      0.625679909      49.3463919       
90.76            0.641609566      48.2170442       0.746083256      -39.8856767      0.746083256      -39.8856767      0.641609566      48.2170442       
94.5             0.656758096      47.1229197       0.733197307      -41.027089       0.733197307      -41.027089       0.656758096      47.1229197       
98.24            0.671159541      46.0633093       0.720464738      -42.1308647      0.720464738      -42.1308647      0.671159541      46.0633093       
101.98           0.68484784       45.037416        0.707904049      -43.1981146      0.707904049      -43.1981146      0.68484784       45.037416        
105.72           0.69785655       44.0443768       0.695530744      -44.2299741      0.695530744      -44.2299741      0.69785655       44.0443768       
109.46           0.710218596      43.0832801       0.683357609      -45.227592       0.683357609      -45.227592       0.710218596      43.0832801       
113.2            0.721966096      42.1531808       0.671394987      -46.1921208      0.671394987      -46.1921208      0.721966096      42.1531808       
116.94           0.733130207      41.253113        0.659651031      -47.1247089      0.659651031      -47.1247089      0.733130207      41.253113        
120.68           0.743741022      40.3821004       0.648131949      -48.0264938      0.648131949      -48.0264938      0.743741022      40.3821004       
124.42           0.75382749       39.5391648       0.636842233      -48.8985968      0.636842233      -48.8985968      0.75382749       39.5391648       
128.16           0.763417369      38.7233332       0.62578486       -49.7421179      0.62578486       -49.7421179      0.763417369      38.7233332       
131.9            0.772537196      37.9336438       0.614961489      -50.5581327      0.614961489      -50.5581327      0.772537196      37.9336438       
135.64           0.781212275      37.1691504       0.604372633      -51.3476894      0.604372633      -51.3476894      0.781212275      37.1691504       
139.38           0.789466687      36.428926        0.594017815      -52.1118065      0.594017815      -52.1118065      0.789466687      36.428926        
143.12           0.797323303      35.7120658       0.583895709      -52.8514714      0.583895709      -52.8514714      0.797323303      35.7120658       
146.86           0.804803809      35.0176893       0.574004267      -53.5676393      0.574004267      -53.5676393      0.804803809      35.0176893       
150.6            0.811928742      34.3449419       0.564340834      -54.2612326      0.564340834      -54.2612326      0.811928742      34.3449419       
154.34           0.818717524      33.6929962       0.554902243      -54.9331403      0.554902243      -54.9331403      0.818717524      33.6929962       
158.08           0.825188509      33.061052        0.545684907      -55.5842187      0.545684907      -55.5842187      0.825188509      33.061052        
161.82           0.831359024      32.4483376       0.536684897      -56.2152906      0.536684897      -56.2152906      0.831359024      32.4483376       
165.56           0.837245415      31.8541092       0.527898007      -56.827147       0.527898007      -56.827147       0.837245415      31.8541092       
169.3            0.842863096      31.2776509       0.519319816      -57.4205465      0.519319816      -57.4205465      0.842863096      31.2776509       
173.04           0.848226591      30.7182746       0.51094574       -57.996217       0.51094574       -57.996217       0.848226591      30.7182746       
176.78           0.853349586      30.1753193       0.502771077      -58.5548556      0.502771077      -58.5548556      0.853349586      30.1753193       
180.52           0.85824497       29.6481506       0.494791042      -59.0971305      0.494791042      -59.0971305      0.85824497       29.6481506       
184.26           0.862924879      29.13616         0.487000807      -59.6236812      0.487000807      -59.6236812      0.862924879      29.13616         
188              0.867400741      28.6387642       0.479395525      -60.1351196      0.479395525      -60.1351196      0.867400741      28.6387642       
191.74           0.871683315      28.1554042       0.471970355      -60.6320314      0.471970355      -60.6320314      0.871683315      28.1554042       
195.48           0.875782729      27.6855446       0.464720484      -61.1149765      0.464720484      -61.1149765      0.875782729      27.6855446       
199.22           0.879708519      27.2286729       0.457641144      -61.5844906      0.457641144      -61.5844906      0.879708519      27.2286729       
202.96           0.883469665      26.7842981       0.450727625      -62.0410858      0.450727625      -62.0410858      0.883469665      26.7842981       
206.7            0.887074622      26.3519506       0.443975288      -62.4852518      0.443975288      -62.4852518      0.887074622      26.3519506       
210.44           0.890531355      25.9311808       0.437379576      -62.9174567      0.437379576      -62.9174567      0.890531355      25.9311808       
214.18           0.893847365      25.5215584       0.430936018      -63.3381481      0.430936018      -63.3381481      0.893847365      25.5215584       
217.92           0.897029723      25.1226718       0.424640242      -63.747754       0.424640242      -63.747754       0.897029723      25.1226718       
221.66           0.90008509       24.7341272       0.418487972      -64.1466834      0.418487972      -64.1466834      0.90008509       24.7341272       
225.4            0.903019747      24.3555473       0.412475037      -64.5353277      0.412475037      -64.5353277      0.903019747      24.3555473       
229.14           0.905839617      23.9865717       0.40659737       -64.9140609      0.40659737       -64.9140609      0.905839617      23.9865717       
232.88           0.908550287      23.6268549       0.400851015      -65.2832408      0.400851015      -65.2832408      0.908550287      23.6268549       
236.62           0.911157029      23.2760664       0.395232121      -65.6432099      0.395232121      -65.6432099      0.911157029      23.2760664       
240.36           0.913664817      22.93389         0.389736946      -65.9942956      0.389736946      -65.9942956      0.913664817      22.93389         
244.1            0.916078352      22.6000227       0.384361857      -66.3368112      0.384361857      -66.3368112      0.916078352      22.6000227       
247.84           0.91840207       22.2741745       0.379103328      -66.6710568      0.379103328      -66.6710568      0.91840207       22.2741745       
251.58           0.920640166      21.9560675       0.373957939      -66.9973193      0.373957939      -66.9973193      0.920640166      21.9560675       
255.32           0.922796602      21.6454357       0.368922373      -67.3158738      0.368922373      -67.3158738      0.922796602      21.6454357       
259.06           0.924875126      21.3420242       0.363993419      -67.6269836      0.363993419      -67.6269836      0.924875126      21.3420242       
262.8            0.926879285      21.0455885       0.359167963      -67.9309007      0.359167963      -67.9309007      0.926879285      21.0455885       
266.54           0.928812434      20.7558945       0.354442992      -68.227867       0.354442992      -68.227867       0.928812434      20.7558945       
270.28           0.930677748      20.4727177       0.34981559       -68.518114       0.34981559       -68.518114       0.930677748      20.4727177       
274.02           0.932478237      20.1958426       0.345282931      -68.8018637      0.345282931      -68.8018637      0.932478237      20.1958426       
277.76           0.934216749      19.9250629       0.340842285      -69.079329       0.340842285      -69.079329       0.934216749      19.9250629       
281.5            0.935895987      19.6601802       0.336491006      -69.3507141      0.336491006      -69.3507141      0.935895987      19.6601802       
285.24           0.937518513      19.4010045       0.33222654       -69.6162149      0.33222654       -69.6162149      0.937518513      19.4010045       
288.98           0.939086754      19.1473531       0.328046411      -69.8760194      0.328046411      -69.8760194      0.939086754      19.1473531       
292.72           0.940603018      18.8990508       0.323948229      -70.130308       0.323948229      -70.130308       0.940603018      18.8990508       
296.46           0.942069492      18.6559292       0.319929679      -70.3792541      0.319929679      -70.3792541      0.942069492      18.6559292       
300.2            0.943488256      18.4178267       0.315988524      -70.6230239      0.315988524      -70.6230239      0.943488256      18.4178267       
303.94           0.944861283      18.1845877       0.312122602      -70.8617774      0.312122602      -70.8617774      0.944861283      18.1845877       
307.68           0.946190452      17.956063        0.308329818      -71.0956681      0.308329818      -71.0956681      0.946190452      17.956063        
311.42           0.947477545      17.7321089       0.30460815       -71.3248438      0.30460815       -71.3248438      0.947477545      17.7321089       
315.16           0.948724261      17.5125873       0.300955641      -71.5494464      0.300955641      -71.5494464      0.948724261      17.5125873       
318.9            0.949932214      17.2973654       0.297370398      -71.7696123      0.297370398      -71.7696123      0.949932214      17.2973654       
322.64           0.951102942      17.0863153       0.293850591      -71.985473       0.293850591      -71.985473       0.951102942      17.0863153       
326.38           0.952237909      16.8793139       0.29039445       -72.1971547      0.29039445       -72.1971547      0.952237909      16.8793139       
330.12           0.953338509      16.6762429       0.28700026       -72.4047792      0.28700026       -72.4047792      0.953338509      16.6762429       
333.86           0.954406071      16.4769882       0.283666365      -72.6084635      0.283666365      -72.6084635      0.954406071      16.4769882       
337.6            0.955441862      16.2814399       0.280391163      -72.8083204      0.280391163      -72.8083204      0.955441862      16.2814399       
341.34           0.956447091      16.0894922       0.277173101      -73.0044586      0.277173101      -73.0044586      0.956447091      16.0894922       
345.08           0.957422909      15.901043        0.274010678      -73.1969826      0.274010678      -73.1969826      0.957422909      15.901043        
348.82           0.958370416      15.715994        0.270902443      -73.3859934      0.270902443      -73.3859934      0.958370416      15.715994        
352.56           0.959290664      15.5342505       0.267846987      -73.5715882      0.267846987      -73.5715882      0.959290664      15.5342505       
356.3            0.960184655      15.3557208       0.26484295       -73.7538607      0.26484295       -73.7538607      0.960184655      15.3557208       
360.04           0.961053346      15.1803169       0.261889014      -73.9329015      0.261889014      -73.9329015      0.961053346      15.1803169       
363.78           0.961897655      15.0079536       0.258983902      -74.1087977      0.258983902      -74.1087977      0.961897655      15.0079536       
367.52           0.962718456      14.8385487       0.256126378      -74.2816335      0.256126378      -74.2816335      0.962718456      14.8385487       
371.26           0.963516586      14.6720229       0.253315244      -74.4514902      0.253315244      -74.4514902      0.963516586      14.6720229       
375              0.964292847      14.5082996       0.250549342      -74.6184463      0.250549342      -74.6184463      0.964292847      14.5082996       
378.74           0.965048005      14.3473047       0.247827547      -74.7825775      0.247827547      -74.7825775      0.965048005      14.3473047       
382.48           0.965782793      14.1889668       0.245148771      -74.943957       0.245148771      -74.943957       0.965782793      14.1889668       
386.22           0.966497915      14.0332168       0.242511958      -75.1026555      0.242511958      -75.1026555      0.966497915      14.0332168       
389.96           0.967194044      13.8799879       0.239916084      -75.2587414      0.239916084      -75.2587414      0.967194044      13.8799879       
393.7            0.967871824      13.7292155       0.237360159      -75.4122807      0.237360159      -75.4122807      0.967871824      13.7292155       
397.44           0.968531874      13.5808372       0.234843222      -75.5633372      0.234843222      -75.5633372      0.968531874      13.5808372       
401.18           0.969174786      13.4347926       0.232364338      -75.7119727      0.232364338      -75.7119727      0.969174786      13.4347926       
404.92           0.96980113       13.2910231       0.229922605      -75.8582469      0.229922605      -75.8582469      0.96980113       13.2910231       
408.66           0.97041145       13.1494724       0.227517145      -76.0022177      0.227517145      -76.0022177      0.97041145       13.1494724       
412.4            0.971006271      13.0100855       0.225147106      -76.1439409      0.225147106      -76.1439409      0.971006271      13.0100855       
416.14           0.971586094      12.8728096       0.222811663      -76.2834706      0.222811663      -76.2834706      0.971586094      12.8728096       
419.88           0.972151402      12.7375932       0.220510015      -76.4208593      0.220510015      -76.4208593      0.972151402      12.7375932       
423.62           0.97270266       12.6043867       0.218241382      -76.5561577      0.218241382      -76.5561577      0.97270266       12.6043867       
427.36           0.973240311      12.4731418       0.21600501       -76.6894148      0.21600501       -76.6894148      0.973240311      12.4731418       
431.1            0.973764785      12.343812        0.213800166      -76.8206784      0.213800166      -76.8206784      0.973764785      12.343812        
434.84           0.974276492      12.2163519       0.211626137      -76.9499946      0.211626137      -76.9499946      0.974276492      12.2163519       
438.58           0.974775829      12.0907177       0.209482231      -77.0774079      0.209482231      -77.0774079      0.974775829      12.0907177       
442.32           0.975263176      11.9668668       0.207367776      -77.2029618      0.207367776      -77.2029618      0.975263176      11.9668668       
446.06           0.975738899      11.8447581       0.20528212       -77.3266982      0.20528212       -77.3266982      0.975738899      11.8447581       
449.8            0.976203351      11.7243514       0.203224628      -77.4486579      0.203224628      -77.4486579      0.976203351      11.7243514       
453.54           0.976656872      11.6056081       0.201194683      -77.5688802      0.201194683      -77.5688802      0.976656872      11.6056081       
457.28           0.977099787      11.4884903       0.199191685      -77.6874036      0.199191685      -77.6874036      0.977099787      11.4884903       
461.02           0.977532411      11.3729616       0.197215053      -77.8042652      0.197215053      -77.8042652      0.977532411      11.3729616       
464.76           0.977955048      11.2589864       0.195264218      -77.919501       0.195264218      -77.919501       0.977955048      11.2589864       
468.5            0.97836799       11.1465302       0.193338632      -78.0331461      0.193338632      -78.0331461      0.97836799       11.1465302       
472.24           0.978771518      11.0355597       0.191437756      -78.1452343      0.191437756      -78.1452343      0.978771518      11.0355597       
475.98           0.979165904      10.9260422       0.189561071      -78.2557987      0.189561071      -78.2557987      0.979165904      10.9260422       
