! Coilcraft 1008HT-12N Chip Inductor				
! 16 July 2002			
# MHZ S MA R 50
!Freq             MagS11           AngS11           MagS21           AngS21           MagS12           AngS12           MagS22           AngS22
1                0.00124611176    37.8751711       0.999016674      -0.043876818     0.999016674      -0.043876818     0.00124611176    37.8751711       
15.46            0.0119667996     80.606969        0.998116776      -0.677746089     0.998116776      -0.677746089     0.0119667996     80.606969        
29.92            0.0229884799     83.0774873       0.997490356      -1.31094508      0.997490356      -1.31094508      0.0229884799     83.0774873       
44.38            0.0340126557     83.699353        0.996840703      -1.9435221       0.996840703      -1.9435221       0.0340126557     83.699353        
58.84            0.045025843      83.7727228       0.996122072      -2.57541965      0.996122072      -2.57541965      0.045025843      83.7727228       
73.3             0.0560225203     83.6031856       0.995316619      -3.20655306      0.995316619      -3.20655306      0.0560225203     83.6031856       
87.76            0.0669986718     83.3029292       0.994415435      -3.83682587      0.994415435      -3.83682587      0.0669986718     83.3029292       
102.22           0.0779507354     82.9236274       0.993413541      -4.46613553      0.993413541      -4.46613553      0.0779507354     82.9236274       
116.68           0.0888753322     82.4926913       0.992308031      -5.0943762       0.992308031      -5.0943762       0.0888753322     82.4926913       
131.14           0.0997691795     82.0261511       0.991097224      -5.7214403       0.991097224      -5.7214403       0.0997691795     82.0261511       
145.6            0.110629061      81.5340807       0.989780241      -6.34721952      0.989780241      -6.34721952      0.110629061      81.5340807       
160.06           0.121451816      81.0231729       0.988356757      -6.97160547      0.988356757      -6.97160547      0.121451816      81.0231729       
174.52           0.13223434       80.4980768       0.986826855      -7.59449019      0.986826855      -7.59449019      0.13223434       80.4980768       
188.98           0.142973584      79.9621423       0.985190938      -8.21576655      0.985190938      -8.21576655      0.142973584      79.9621423       
203.44           0.153666558      79.4178588       0.983449659      -8.83532851      0.983449659      -8.83532851      0.153666558      79.4178588       
217.9            0.164310336      78.8671256       0.981603879      -9.4530714       0.981603879      -9.4530714       0.164310336      78.8671256       
232.36           0.174902059      78.3114257       0.979654637      -10.0688921      0.979654637      -10.0688921      0.174902059      78.3114257       
246.82           0.185438937      77.7519403       0.977603125      -10.6826894      0.977603125      -10.6826894      0.185438937      77.7519403       
261.28           0.195918257      77.1896273       0.975450665      -11.2943638      0.975450665      -11.2943638      0.195918257      77.1896273       
275.74           0.20633738       76.6252761       0.9731987        -11.903818       0.9731987        -11.903818       0.20633738       76.6252761       
290.2            0.216693751      76.0595463       0.970848775      -12.5109569      0.970848775      -12.5109569      0.216693751      76.0595463       
304.66           0.226984895      75.4929965       0.968402531      -13.1156877      0.968402531      -13.1156877      0.226984895      75.4929965       
319.12           0.237208424      74.926105        0.965861693      -13.71792        0.965861693      -13.71792        0.237208424      74.926105        
333.58           0.247362039      74.3592856       0.963228063      -14.3175658      0.963228063      -14.3175658      0.247362039      74.3592856       
348.04           0.257443528      73.7928999       0.960503509      -14.9145399      0.960503509      -14.9145399      0.257443528      73.7928999       
362.5            0.267450773      73.227266        0.957689963      -15.5087596      0.957689963      -15.5087596      0.267450773      73.227266        
376.96           0.277381746      72.6626666       0.95478941       -16.1001449      0.95478941       -16.1001449      0.277381746      72.6626666       
391.42           0.287234513      72.0993536       0.951803888      -16.6886186      0.951803888      -16.6886186      0.287234513      72.0993536       
405.88           0.297007237      71.5375536       0.948735473      -17.2741063      0.948735473      -17.2741063      0.297007237      71.5375536       
420.34           0.306698174      70.9774711       0.945586283      -17.8565365      0.945586283      -17.8565365      0.306698174      70.9774711       
434.8            0.316305673      70.4192915       0.942358467      -18.4358405      0.942358467      -18.4358405      0.316305673      70.4192915       
449.26           0.325828183      69.8631835       0.939054201      -19.0119524      0.939054201      -19.0119524      0.325828183      69.8631835       
463.72           0.335264243      69.3093013       0.935675686      -19.5848095      0.935675686      -19.5848095      0.335264243      69.3093013       
478.18           0.344612492      68.757786        0.93222514       -20.1543516      0.93222514       -20.1543516      0.344612492      68.757786        
492.64           0.353871658      68.208767        0.928704797      -20.7205217      0.928704797      -20.7205217      0.353871658      68.208767        
507.1            0.363040565      67.6623635       0.925116899      -21.2832656      0.925116899      -21.2832656      0.363040565      67.6623635       
521.56           0.372118129      67.1186848       0.921463695      -21.8425322      0.921463695      -21.8425322      0.372118129      67.1186848       
536.02           0.381103357      66.5778321       0.917747436      -22.3982729      0.917747436      -22.3982729      0.381103357      66.5778321       
550.48           0.389995346      66.0398983       0.913970374      -22.9504422      0.913970374      -22.9504422      0.389995346      66.0398983       
564.94           0.39879328       65.5049691       0.910134753      -23.4989975      0.910134753      -23.4989975      0.39879328       65.5049691       
579.4            0.407496431      64.9731236       0.906242811      -24.0438988      0.906242811      -24.0438988      0.407496431      64.9731236       
593.86           0.416104157      64.4444346       0.902296775      -24.585109       0.902296775      -24.585109       0.416104157      64.4444346       
608.32           0.424615896      63.918969        0.898298857      -25.1225938      0.898298857      -25.1225938      0.424615896      63.918969        
622.78           0.43303117       63.3967884       0.894251253      -25.6563214      0.894251253      -25.6563214      0.43303117       63.3967884       
637.24           0.441349578      62.877949        0.89015614       -26.1862628      0.89015614       -26.1862628      0.441349578      62.877949        
651.7            0.4495708        62.3625025       0.886015672      -26.7123915      0.886015672      -26.7123915      0.4495708        62.3625025       
666.16           0.457694585      61.8504959       0.88183198       -27.2346836      0.88183198       -27.2346836      0.457694585      61.8504959       
680.62           0.465720759      61.341972        0.877607169      -27.7531177      0.877607169      -27.7531177      0.465720759      61.341972        
695.08           0.473649216      60.8369694       0.873343314      -28.2676748      0.873343314      -28.2676748      0.473649216      60.8369694       
709.54           0.48147992       60.3355229       0.869042462      -28.7783383      0.869042462      -28.7783383      0.48147992       60.3355229       
724              0.489212897      59.8376638       0.864706629      -29.2850939      0.864706629      -29.2850939      0.489212897      59.8376638       
738.46           0.49684824       59.3434198       0.860337796      -29.7879297      0.860337796      -29.7879297      0.49684824       59.3434198       
752.92           0.5043861        58.8528152       0.855937909      -30.2868357      0.855937909      -30.2868357      0.5043861        58.8528152       
767.38           0.511826686      58.3658713       0.851508881      -30.7818044      0.851508881      -30.7818044      0.511826686      58.3658713       
781.84           0.519170266      57.8826065       0.847052585      -31.27283        0.847052585      -31.27283        0.519170266      57.8826065       
796.3            0.526417157      57.4030361       0.84257086       -31.759909       0.84257086       -31.759909       0.526417157      57.4030361       
810.76           0.533567729      56.9271728       0.838065502      -32.2430398      0.838065502      -32.2430398      0.533567729      56.9271728       
825.22           0.540622401      56.4550268       0.83353827       -32.7222224      0.83353827       -32.7222224      0.540622401      56.4550268       
839.68           0.547581637      55.9866057       0.828990883      -33.197459       0.828990883      -33.197459       0.547581637      55.9866057       
854.14           0.554445945      55.5219149       0.824425018      -33.6687533      0.824425018      -33.6687533      0.554445945      55.5219149       
868.6            0.561215876      55.0609573       0.819842314      -34.1361107      0.819842314      -34.1361107      0.561215876      55.0609573       
883.06           0.567892016      54.603734        0.815244364      -34.5995383      0.815244364      -34.5995383      0.567892016      54.603734        
897.52           0.574474993      54.1502439       0.810632724      -35.0590447      0.810632724      -35.0590447      0.574474993      54.1502439       
911.98           0.580965467      53.7004839       0.806008907      -35.5146401      0.806008907      -35.5146401      0.580965467      53.7004839       
926.44           0.587364129      53.2544493       0.801374382      -35.9663358      0.801374382      -35.9663358      0.587364129      53.2544493       
940.9            0.593671704      52.8121334       0.796730579      -36.4141448      0.796730579      -36.4141448      0.593671704      52.8121334       
955.36           0.599888944      52.373528        0.792078885      -36.8580812      0.792078885      -36.8580812      0.599888944      52.373528        
969.82           0.606016626      51.9386232       0.787420647      -37.2981605      0.787420647      -37.2981605      0.606016626      51.9386232       
984.28           0.612055553      51.5074079       0.782757171      -37.7343992      0.782757171      -37.7343992      0.612055553      51.5074079       
998.74           0.61800655       51.0798693       0.778089719      -38.1668151      0.778089719      -38.1668151      0.61800655       51.0798693       
1013.2           0.623870464      50.6559933       0.773419516      -38.5954269      0.773419516      -38.5954269      0.623870464      50.6559933       
1027.66          0.629648159      50.2357647       0.768747745      -39.0202545      0.768747745      -39.0202545      0.629648159      50.2357647       
1042.12          0.635340519      49.819167        0.764075552      -39.4413184      0.764075552      -39.4413184      0.635340519      49.819167        
1056.58          0.64094844       49.4061826       0.759404039      -39.8586404      0.759404039      -39.8586404      0.64094844       49.4061826       
1071.04          0.646472837      48.9967928       0.754734275      -40.2722429      0.754734275      -40.2722429      0.646472837      48.9967928       
1085.5           0.651914632      48.590978        0.750067286      -40.6821493      0.750067286      -40.6821493      0.651914632      48.590978        
1099.96          0.657274764      48.1887177       0.745404065      -41.0883834      0.745404065      -41.0883834      0.657274764      48.1887177       
1114.42          0.662554177      47.7899904       0.740745565      -41.4909701      0.740745565      -41.4909701      0.662554177      47.7899904       
1128.88          0.667753826      47.3947737       0.736092704      -41.8899347      0.736092704      -41.8899347      0.667753826      47.3947737       
1143.34          0.672874673      47.0030448       0.731446364      -42.2853032      0.731446364      -42.2853032      0.672874673      47.0030448       
1157.8           0.677917685      46.6147799       0.726807394      -42.6771021      0.726807394      -42.6771021      0.677917685      46.6147799       
1172.26          0.682883835      46.2299546       0.722176606      -43.0653585      0.722176606      -43.0653585      0.682883835      46.2299546       
1186.72          0.687774098      45.8485439       0.717554783      -43.4500998      0.717554783      -43.4500998      0.687774098      45.8485439       
1201.18          0.692589453      45.4705222       0.71294267       -43.8313542      0.71294267       -43.8313542      0.692589453      45.4705222       
1215.64          0.697330881      45.0958635       0.708340984      -44.2091499      0.708340984      -44.2091499      0.697330881      45.0958635       
1230.1           0.701999363      44.7245412       0.703750411      -44.5835158      0.703750411      -44.5835158      0.701999363      44.7245412       
1244.56          0.706595879      44.3565284       0.699171604      -44.9544809      0.699171604      -44.9544809      0.706595879      44.3565284       
1259.02          0.711121409      43.9917977       0.694605189      -45.3220745      0.694605189      -45.3220745      0.711121409      43.9917977       
1273.48          0.715576931      43.6303213       0.690051762      -45.6863264      0.690051762      -45.6863264      0.715576931      43.6303213       
1287.94          0.719963421      43.2720711       0.68551189       -46.0472664      0.68551189       -46.0472664      0.719963421      43.2720711       
1302.4           0.724281849      42.9170189       0.680986116      -46.4049246      0.680986116      -46.4049246      0.724281849      42.9170189       
1316.86          0.728533186      42.5651359       0.676474953      -46.7593312      0.676474953      -46.7593312      0.728533186      42.5651359       
1331.32          0.732718392      42.2163935       0.671978889      -47.1105167      0.671978889      -47.1105167      0.732718392      42.2163935       
1345.78          0.736838428      41.8707625       0.667498389      -47.4585115      0.667498389      -47.4585115      0.736838428      41.8707625       
1360.24          0.740894245      41.5282137       0.663033892      -47.8033463      0.663033892      -47.8033463      0.740894245      41.5282137       
1374.7           0.74488679       41.188718        0.658585813      -48.1450517      0.658585813      -48.1450517      0.74488679       41.188718        
1389.16          0.748817002      40.8522457       0.654154545      -48.4836586      0.654154545      -48.4836586      0.748817002      40.8522457       
1403.62          0.752685814      40.5187674       0.649740459      -48.8191977      0.649740459      -48.8191977      0.752685814      40.5187674       
1418.08          0.75649415       40.1882534       0.645343905      -49.1516997      0.645343905      -49.1516997      0.75649415       40.1882534       
1432.54          0.760242927      39.8606743       0.640965211      -49.4811954      0.640965211      -49.4811954      0.760242927      39.8606743       
1447             0.763933054      39.5360002       0.636604685      -49.8077155      0.636604685      -49.8077155      0.763933054      39.5360002       
1461.46          0.767565431      39.2142015       0.632262616      -50.1312908      0.632262616      -50.1312908      0.767565431      39.2142015       
1475.92          0.771140949      38.8952487       0.627939275      -50.4519518      0.627939275      -50.4519518      0.771140949      38.8952487       
1490.38          0.774660489      38.579112        0.623634915      -50.7697291      0.623634915      -50.7697291      0.774660489      38.579112        
1504.84          0.778124926      38.265762        0.61934977       -51.084653       0.61934977       -51.084653       0.778124926      38.265762        
1519.3           0.781535121      37.9551691       0.615084057      -51.396754       0.615084057      -51.396754       0.781535121      37.9551691       
1533.76          0.784891928      37.647304        0.610837979      -51.7060622      0.610837979      -51.7060622      0.784891928      37.647304        
1548.22          0.78819619       37.3421373       0.606611722      -52.0126076      0.606611722      -52.0126076      0.78819619       37.3421373       
1562.68          0.791448741      37.0396398       0.602405457      -52.3164202      0.602405457      -52.3164202      0.791448741      37.0396398       
1577.14          0.794650403      36.7397826       0.598219339      -52.6175298      0.598219339      -52.6175298      0.794650403      36.7397826       
1591.6           0.797801989      36.4425366       0.594053512      -52.9159658      0.594053512      -52.9159658      0.797801989      36.4425366       
1606.06          0.800904302      36.147873        0.589908104      -53.2117577      0.589908104      -53.2117577      0.800904302      36.147873        
1620.52          0.803958133      35.8557632       0.585783232      -53.5049347      0.585783232      -53.5049347      0.803958133      35.8557632       
1634.98          0.806964264      35.5661789       0.581678998      -53.7955258      0.581678998      -53.7955258      0.806964264      35.5661789       
1649.44          0.809923465      35.2790915       0.577595495      -54.0835598      0.577595495      -54.0835598      0.809923465      35.2790915       
1663.9           0.812836496      34.9944731       0.573532802      -54.3690653      0.573532802      -54.3690653      0.812836496      34.9944731       
1678.36          0.815704107      34.7122958       0.569490989      -54.6520706      0.569490989      -54.6520706      0.815704107      34.7122958       
1692.82          0.818527036      34.4325318       0.565470113      -54.9326039      0.565470113      -54.9326039      0.818527036      34.4325318       
1707.28          0.821306012      34.1551535       0.561470225      -55.210693       0.561470225      -55.210693       0.821306012      34.1551535       
1721.74          0.824041751      33.8801338       0.557491361      -55.4863657      0.557491361      -55.4863657      0.824041751      33.8801338       
1736.2           0.82673496       33.6074455       0.553533552      -55.7596494      0.553533552      -55.7596494      0.82673496       33.6074455       
1750.66          0.829386336      33.3370617       0.549596818      -56.0305712      0.549596818      -56.0305712      0.829386336      33.3370617       
1765.12          0.831996565      33.0689559       0.545681171      -56.299158       0.545681171      -56.299158       0.831996565      33.0689559       
1779.58          0.83456632       32.8031016       0.541786615      -56.5654365      0.541786615      -56.5654365      0.83456632       32.8031016       
1794.04          0.837096269      32.5394726       0.537913146      -56.8294332      0.537913146      -56.8294332      0.837096269      32.5394726       
1808.5           0.839587063      32.278043        0.534060752      -57.0911741      0.534060752      -57.0911741      0.839587063      32.278043        
1822.96          0.842039348      32.0187871       0.530229415      -57.3506851      0.530229415      -57.3506851      0.842039348      32.0187871       
1837.42          0.844453758      31.7616796       0.52641911       -57.6079919      0.52641911       -57.6079919      0.844453758      31.7616796       
