! Coilcraft 1008HT-3N3 Chip Inductor				
! 16 July 2002			
# MHZ S MA R 50
!Freq             MagS11           AngS11           MagS21           AngS21           MagS12           AngS12           MagS22           AngS22
1                0.000632548257   19.111142        0.999402336      -0.0118728999    0.999402336      -0.0118728999    0.000632548257   19.111142        
36.41            0.00761943197    81.3422821       0.998881439      -0.432074176     0.998881439      -0.432074176     0.00761943197    81.3422821       
71.82            0.0149297504     84.0422496       0.998560778      -0.852049002     0.998560778      -0.852049002     0.0149297504     84.0422496       
107.23           0.0222473676     84.8304577       0.998241368      -1.27183638      0.998241368      -1.27183638      0.0222473676     84.8304577       
142.64           0.0295638392     85.0757945       0.997897103      -1.69143336      0.997897103      -1.69143336      0.0295638392     85.0757945       
178.05           0.0368766762     85.0857255       0.997517818      -2.11082666      0.997517818      -2.11082666      0.0368766762     85.0857255       
213.46           0.0441844917     84.970501        0.997098331      -2.52999844      0.997098331      -2.52999844      0.0441844917     84.970501        
248.87           0.0514862262     84.7800936       0.996635613      -2.94892835      0.996635613      -2.94892835      0.0514862262     84.7800936       
284.28           0.0587809445     84.5406792       0.996127742      -3.36759451      0.996127742      -3.36759451      0.0587809445     84.5406792       
319.69           0.066067766      84.2673992       0.995573439      -3.78597411      0.995573439      -3.78597411      0.066067766      84.2673992       
355.1            0.0733458384     83.969672        0.994971827      -4.20404363      0.994971827      -4.20404363      0.0733458384     83.969672        
390.51           0.0806143248     83.6536918       0.9943223        -4.62177915      0.9943223        -4.62177915      0.0806143248     83.6536918       
425.92           0.0878723988     83.3237162       0.993624443      -5.03915643      0.993624443      -5.03915643      0.0878723988     83.3237162       
461.33           0.0951192423     82.9827791       0.992877978      -5.45615105      0.992877978      -5.45615105      0.0951192423     82.9827791       
496.74           0.102354043      82.6331083       0.992082738      -5.87273847      0.992082738      -5.87273847      0.102354043      82.6331083       
532.15           0.109575997      82.2763813       0.991238638      -6.28889409      0.991238638      -6.28889409      0.109575997      82.2763813       
567.56           0.116784305      81.9138894       0.99034566       -6.70459332      0.99034566       -6.70459332      0.116784305      81.9138894       
602.97           0.123978174      81.5466458       0.989403844      -7.11981159      0.989403844      -7.11981159      0.123978174      81.5466458       
638.38           0.13115682       81.1754588       0.988413279      -7.53452443      0.988413279      -7.53452443      0.13115682       81.1754588       
673.79           0.138319466      80.8009829       0.987374092      -7.94870743      0.987374092      -7.94870743      0.138319466      80.8009829       
709.2            0.145465341      80.4237553       0.986286448      -8.36233633      0.986286448      -8.36233633      0.145465341      80.4237553       
744.61           0.152593683      80.0442225       0.985150543      -8.77538703      0.985150543      -8.77538703      0.152593683      80.0442225       
780.02           0.15970374       79.6627594       0.983966601      -9.18783556      0.983966601      -9.18783556      0.15970374       79.6627594       
815.43           0.166794768      79.279684        0.982734873      -9.59965817      0.982734873      -9.59965817      0.166794768      79.279684        
850.84           0.173866031      78.895269        0.981455634      -10.0108313      0.981455634      -10.0108313      0.173866031      78.895269        
886.25           0.180916806      78.5097497       0.980129179      -10.4213316      0.980129179      -10.4213316      0.180916806      78.5097497       
921.66           0.187946378      78.1233312       0.978755824      -10.831136       0.978755824      -10.831136       0.187946378      78.1233312       
957.07           0.194954042      77.7361933       0.977335906      -11.2402216      0.977335906      -11.2402216      0.194954042      77.7361933       
992.48           0.201939105      77.348495        0.975869776      -11.6485657      0.975869776      -11.6485657      0.201939105      77.348495        
1027.89          0.208900886      76.9603775       0.974357804      -12.0561461      0.974357804      -12.0561461      0.208900886      76.9603775       
1063.3           0.215838713      76.5719672       0.972800375      -12.4629408      0.972800375      -12.4629408      0.215838713      76.5719672       
1098.71          0.222751929      76.1833779       0.971197887      -12.8689278      0.971197887      -12.8689278      0.222751929      76.1833779       
1134.12          0.229639885      75.7947122       0.969550755      -13.2740858      0.969550755      -13.2740858      0.229639885      75.7947122       
1169.53          0.236501948      75.4060637       0.967859404      -13.6783936      0.967859404      -13.6783936      0.236501948      75.4060637       
1204.94          0.243337496      75.0175175       0.966124273      -14.0818303      0.966124273      -14.0818303      0.243337496      75.0175175       
1240.35          0.250145919      74.6291519       0.964345813      -14.4843754      0.964345813      -14.4843754      0.250145919      74.6291519       
1275.76          0.256926621      74.2410389       0.962524486      -14.8860086      0.962524486      -14.8860086      0.256926621      74.2410389       
1311.17          0.263679019      73.8532449       0.960660762      -15.2867103      0.960660762      -15.2867103      0.263679019      73.8532449       
1346.58          0.270402544      73.4658314       0.958755125      -15.6864607      0.958755125      -15.6864607      0.270402544      73.4658314       
1381.99          0.277096638      73.078856        0.956808065      -16.0852407      0.956808065      -16.0852407      0.277096638      73.078856        
1417.4           0.28376076       72.6923718       0.954820083      -16.4830316      0.954820083      -16.4830316      0.28376076       72.6923718       
1452.81          0.290394379      72.3064291       0.952791686      -16.8798147      0.952791686      -16.8798147      0.290394379      72.3064291       
1488.22          0.296996981      71.9210746       0.950723392      -17.2755721      0.950723392      -17.2755721      0.296996981      71.9210746       
1523.63          0.303568066      71.5363524       0.948615723      -17.6702861      0.948615723      -17.6702861      0.303568066      71.5363524       
1559.04          0.310107144      71.1523039       0.946469211      -18.0639391      0.946469211      -18.0639391      0.310107144      71.1523039       
1594.45          0.316613744      70.7689683       0.944284391      -18.4565143      0.944284391      -18.4565143      0.316613744      70.7689683       
1629.86          0.323087407      70.3863826       0.942061806      -18.847995       0.942061806      -18.847995       0.323087407      70.3863826       
1665.27          0.329527687      70.0045818       0.939802005      -19.238365       0.939802005      -19.238365       0.329527687      70.0045818       
1700.68          0.335934155      69.623599        0.93750554       -19.6276084      0.93750554       -19.6276084      0.335934155      69.623599        
1736.09          0.342306394      69.2434658       0.93517297       -20.0157097      0.93517297       -20.0157097      0.342306394      69.2434658       
1771.5           0.348644003      68.8642122       0.932804855      -20.4026539      0.932804855      -20.4026539      0.348644003      68.8642122       
1806.91          0.354946592      68.4858666       0.930401763      -20.7884263      0.930401763      -20.7884263      0.354946592      68.4858666       
1842.32          0.36121379       68.1084561       0.927964262      -21.1730125      0.927964262      -21.1730125      0.36121379       68.1084561       
1877.73          0.367445237      67.7320066       0.925492923      -21.5563986      0.925492923      -21.5563986      0.367445237      67.7320066       
1913.14          0.373640587      67.3565428       0.922988323      -21.9385711      0.922988323      -21.9385711      0.373640587      67.3565428       
1948.55          0.379799509      66.9820881       0.920451037      -22.3195168      0.920451037      -22.3195168      0.379799509      66.9820881       
1983.96          0.385921688      66.6086651       0.917881644      -22.699223       0.917881644      -22.699223       0.385921688      66.6086651       
2019.37          0.392006818      66.236295        0.915280725      -23.0776772      0.915280725      -23.0776772      0.392006818      66.236295        
2054.78          0.398054613      65.8649985       0.912648861      -23.4548675      0.912648861      -23.4548675      0.398054613      65.8649985       
2090.19          0.404064795      65.4947949       0.909986635      -23.8307823      0.909986635      -23.8307823      0.404064795      65.4947949       
2125.6           0.410037103      65.1257031       0.907294628      -24.2054103      0.907294628      -24.2054103      0.410037103      65.1257031       
2161.01          0.415971289      64.7577409       0.904573424      -24.5787407      0.904573424      -24.5787407      0.415971289      64.7577409       
2196.42          0.421867119      64.3909253       0.901823605      -24.9507631      0.901823605      -24.9507631      0.421867119      64.3909253       
2231.83          0.427724371      64.0252725       0.899045755      -25.3214673      0.899045755      -25.3214673      0.427724371      64.0252725       
2267.24          0.433542836      63.6607982       0.896240453      -25.6908436      0.896240453      -25.6908436      0.433542836      63.6607982       
2302.65          0.43932232       63.2975171       0.89340828       -26.0588828      0.89340828       -26.0588828      0.43932232       63.2975171       
2338.06          0.445062641      62.9354434       0.890549816      -26.4255758      0.890549816      -26.4255758      0.445062641      62.9354434       
2373.47          0.450763628      62.5745905       0.887665638      -26.790914       0.887665638      -26.790914       0.450763628      62.5745905       
2408.88          0.456425124      62.2149714       0.88475632       -27.1548893      0.88475632       -27.1548893      0.456425124      62.2149714       
2444.29          0.462046985      61.8565983       0.881822437      -27.5174937      0.881822437      -27.5174937      0.462046985      61.8565983       
2479.7           0.467629079      61.4994828       0.878864559      -27.8787197      0.878864559      -27.8787197      0.467629079      61.4994828       
2515.11          0.473171285      61.1436361       0.875883255      -28.2385603      0.875883255      -28.2385603      0.473171285      61.1436361       
2550.52          0.478673494      60.7890685       0.87287909       -28.5970085      0.87287909       -28.5970085      0.478673494      60.7890685       
2585.93          0.48413561       60.4357901       0.869852626      -28.9540579      0.869852626      -28.9540579      0.48413561       60.4357901       
2621.34          0.489557547      60.0838104       0.866804421      -29.3097024      0.866804421      -29.3097024      0.489557547      60.0838104       
2656.75          0.49493923       59.7331383       0.863735033      -29.6639363      0.863735033      -29.6639363      0.49493923       59.7331383       
2692.16          0.500280597      59.3837821       0.860645011      -30.016754       0.860645011      -30.016754       0.500280597      59.3837821       
2727.57          0.505581596      59.03575         0.857534905      -30.3681505      0.857534905      -30.3681505      0.505581596      59.03575         
2762.98          0.510842184      58.6890494       0.854405257      -30.718121       0.854405257      -30.718121       0.510842184      58.6890494       
2798.39          0.51606233       58.3436874       0.851256607      -31.0666611      0.851256607      -31.0666611      0.51606233       58.3436874       
2833.8           0.521242014      57.9996705       0.84808949       -31.4137665      0.84808949       -31.4137665      0.521242014      57.9996705       
2869.21          0.526381225      57.6570049       0.844904437      -31.7594335      0.844904437      -31.7594335      0.526381225      57.6570049       
2904.62          0.53147996       57.3156964       0.841701973      -32.1036584      0.841701973      -32.1036584      0.53147996       57.3156964       
2940.03          0.53653823       56.9757504       0.838482619      -32.4464382      0.838482619      -32.4464382      0.53653823       56.9757504       
2975.44          0.54155605       56.6371717       0.835246891      -32.7877699      0.835246891      -32.7877699      0.54155605       56.6371717       
3010.85          0.546533449      56.2999649       0.831995298      -33.1276507      0.831995298      -33.1276507      0.546533449      56.2999649       
3046.26          0.551470462      55.9641343       0.828728348      -33.4660785      0.828728348      -33.4660785      0.551470462      55.9641343       
3081.67          0.556367134      55.6296835       0.825446539      -33.8030511      0.825446539      -33.8030511      0.556367134      55.6296835       
3117.08          0.561223517      55.2966162       0.822150366      -34.1385667      0.822150366      -34.1385667      0.561223517      55.2966162       
3152.49          0.566039673      54.9649354       0.818840319      -34.4726238      0.818840319      -34.4726238      0.566039673      54.9649354       
3187.9           0.57081567       54.6346439       0.81551688       -34.8052211      0.81551688       -34.8052211      0.57081567       54.6346439       
3223.31          0.575551588      54.305744        0.812180526      -35.1363577      0.812180526      -35.1363577      0.575551588      54.305744        
3258.72          0.580247509      53.978238        0.80883173       -35.4660329      0.80883173       -35.4660329      0.580247509      53.978238        
3294.13          0.584903526      53.6521277       0.805470958      -35.7942461      0.805470958      -35.7942461      0.584903526      53.6521277       
3329.54          0.589519738      53.3274145       0.802098669      -36.1209971      0.802098669      -36.1209971      0.589519738      53.3274145       
3364.95          0.594096252      53.0040996       0.798715316      -36.4462859      0.798715316      -36.4462859      0.594096252      53.0040996       
3400.36          0.598633181      52.682184        0.795321349      -36.7701127      0.795321349      -36.7701127      0.598633181      52.682184        
3435.77          0.603130644      52.3616682       0.791917207      -37.092478       0.791917207      -37.092478       0.603130644      52.3616682       
3471.18          0.607588767      52.0425527       0.788503328      -37.4133826      0.788503328      -37.4133826      0.607588767      52.0425527       
3506.59          0.612007682      51.7248376       0.785080139      -37.7328272      0.785080139      -37.7328272      0.612007682      51.7248376       
3542             0.616387527      51.4085226       0.781648065      -38.050813       0.781648065      -38.050813       0.616387527      51.4085226       
3577.41          0.620728446      51.0936073       0.778207521      -38.3673414      0.778207521      -38.3673414      0.620728446      51.0936073       
3612.82          0.625030588      50.7800912       0.774758919      -38.6824139      0.774758919      -38.6824139      0.625030588      50.7800912       
3648.23          0.629294107      50.4679732       0.771302662      -38.9960322      0.771302662      -38.9960322      0.629294107      50.4679732       
3683.64          0.633519164      50.1572523       0.767839148      -39.3081983      0.767839148      -39.3081983      0.633519164      50.1572523       
3719.05          0.637705921      49.847927        0.76436877       -39.6189141      0.76436877       -39.6189141      0.637705921      49.847927        
3754.46          0.64185455       49.5399959       0.760891912      -39.9281821      0.760891912      -39.9281821      0.64185455       49.5399959       
3789.87          0.645965223      49.2334571       0.757408953      -40.2360047      0.757408953      -40.2360047      0.645965223      49.2334571       
3825.28          0.65003812       48.9283086       0.753920266      -40.5423846      0.753920266      -40.5423846      0.65003812       48.9283086       
3860.69          0.654073421      48.6245483       0.750426218      -40.8473245      0.750426218      -40.8473245      0.654073421      48.6245483       
3896.1           0.658071315      48.3221737       0.746927168      -41.1508275      0.746927168      -41.1508275      0.658071315      48.3221737       
3931.51          0.66203199       48.0211822       0.743423471      -41.4528966      0.743423471      -41.4528966      0.66203199       48.0211822       
3966.92          0.665955642      47.7215712       0.739915473      -41.7535352      0.739915473      -41.7535352      0.665955642      47.7215712       
4002.33          0.669842467      47.4233377       0.736403518      -42.0527466      0.736403518      -42.0527466      0.669842467      47.4233377       
4037.74          0.673692666      47.1264786       0.732887939      -42.3505345      0.732887939      -42.3505345      0.673692666      47.1264786       
4073.15          0.677506444      46.8309906       0.729369066      -42.6469026      0.729369066      -42.6469026      0.677506444      46.8309906       
4108.56          0.681284007      46.5368703       0.725847222      -42.9418546      0.725847222      -42.9418546      0.681284007      46.5368703       
4143.97          0.685025564      46.2441141       0.722322724      -43.2353947      0.722322724      -43.2353947      0.685025564      46.2441141       
4179.38          0.688731329      45.9527183       0.718795883      -43.5275269      0.718795883      -43.5275269      0.688731329      45.9527183       
4214.79          0.692401517      45.662679        0.715267003      -43.8182554      0.715267003      -43.8182554      0.692401517      45.662679        
4250.2           0.696036344      45.3739922       0.711736384      -44.1075845      0.711736384      -44.1075845      0.696036344      45.3739922       
4285.61          0.699636031      45.0866538       0.708204319      -44.3955188      0.708204319      -44.3955188      0.699636031      45.0866538       
4321.02          0.7032008        44.8006594       0.704671095      -44.6820627      0.704671095      -44.6820627      0.7032008        44.8006594       
4356.43          0.706730875      44.5160048       0.701136992      -44.967221       0.701136992      -44.967221       0.706730875      44.5160048       
4391.84          0.71022648       44.2326853       0.697602287      -45.2509984      0.697602287      -45.2509984      0.71022648       44.2326853       
4427.25          0.713687844      43.9506964       0.69406725       -45.5333997      0.69406725       -45.5333997      0.713687844      43.9506964       
4462.66          0.717115196      43.6700333       0.690532145      -45.81443        0.690532145      -45.81443        0.717115196      43.6700333       
4498.07          0.720508766      43.3906912       0.68699723       -46.0940943      0.68699723       -46.0940943      0.720508766      43.3906912       
