! Coilcraft 1008HT-R10 Chip Inductor				
! 16 July 2002			
# MHZ S MA R 50
!Freq             MagS11           AngS11           MagS21           AngS21           MagS12           AngS12           MagS22           AngS22
1                0.0100915066     37.7888926       0.992044219      -0.357138342     0.992044219      -0.357138342     0.0100915066     37.7888926       
5.99             0.0385996573     72.5385865       0.989103251      -2.1334203       0.989103251      -2.1334203       0.0385996573     72.5385865       
10.98            0.0690078311     76.472121        0.986142823      -3.90119395      0.986142823      -3.90119395      0.0690078311     76.472121        
15.97            0.0993985714     77.0752256       0.982555243      -5.65857665      0.982555243      -5.65857665      0.0993985714     77.0752256       
20.96            0.129545902      76.6470988       0.978235841      -7.40302969      0.978235841      -7.40302969      0.129545902      76.6470988       
25.95            0.15933885       75.7683326       0.973161927      -9.13191765      0.973161927      -9.13191765      0.15933885       75.7683326       
30.94            0.188694292      74.6570923       0.967341866      -10.842655       0.967341866      -10.842655       0.188694292      74.6570923       
35.93            0.217541825      73.4152652       0.960800291      -12.5327751      0.960800291      -12.5327751      0.217541825      73.4152652       
40.92            0.245819955      72.0976419       0.953571925      -14.1999719      0.953571925      -14.1999719      0.245819955      72.0976419       
45.91            0.273474987      70.7367872       0.945698263      -15.8421263      0.945698263      -15.8421263      0.273474987      70.7367872       
50.9             0.300460663      69.3535521       0.937225443      -17.457324       0.937225443      -17.457324       0.300460663      69.3535521       
55.89            0.326737972      67.9620651       0.928202674      -19.0438662      0.928202674      -19.0438662      0.326737972      67.9620651       
60.88            0.352274976      66.5723194       0.918680999      -20.6002747      0.918680999      -20.6002747      0.352274976      66.5723194       
65.87            0.377046565      65.1916133       0.908712265      -22.1252919      0.908712265      -22.1252919      0.377046565      65.1916133       
70.86            0.401034142      63.8253982       0.898348257      -23.6178771      0.898348257      -23.6178771      0.401034142      63.8253982       
75.85            0.42422523       62.4778059       0.887639978      -25.0772         0.887639978      -25.0772         0.42422523       62.4778059       
80.84            0.446613025      61.1519889       0.876637049      -26.5026302      0.876637049      -26.5026302      0.446613025      61.1519889       
85.83            0.468195906      59.8503518       0.865387223      -27.8937263      0.865387223      -27.8937263      0.468195906      59.8503518       
90.82            0.488976921      58.5747124       0.853936003      -29.2502223      0.853936003      -29.2502223      0.488976921      58.5747124       
95.81            0.508963256      57.3264196       0.842326358      -30.5720137      0.842326358      -30.5720137      0.508963256      57.3264196       
100.8            0.528165712      56.1064411       0.830598521      -31.8591425      0.830598521      -31.8591425      0.528165712      56.1064411       
105.79           0.546598195      54.9154321       0.818789865      -33.1117825      0.818789865      -33.1117825      0.546598195      54.9154321       
110.78           0.564277229      53.7537889       0.806934841      -34.3302248      0.806934841      -34.3302248      0.564277229      53.7537889       
115.77           0.581221495      52.6216925       0.795064977      -35.5148631      0.795064977      -35.5148631      0.581221495      52.6216925       
120.76           0.597451412      51.5191451       0.783208916      -36.6661801      0.783208916      -36.6661801      0.597451412      51.5191451       
125.75           0.612988744      50.4459997       0.771392497      -37.7847347      0.771392497      -37.7847347      0.612988744      50.4459997       
130.74           0.627856257      49.401986        0.759638861      -38.8711499      0.759638861      -38.8711499      0.627856257      49.401986        
135.73           0.642077407      48.3867316       0.74796858       -39.9261016      0.74796858       -39.9261016      0.642077407      48.3867316       
140.72           0.655676067      47.3997809       0.736399801      -40.9503081      0.736399801      -40.9503081      0.655676067      47.3997809       
145.71           0.668676293      46.4406108       0.7249484        -41.9445215      0.7249484        -41.9445215      0.668676293      46.4406108       
150.7            0.681102118      45.5086445       0.713628143      -42.9095188      0.713628143      -42.9095188      0.681102118      45.5086445       
155.69           0.692977383      44.6032632       0.702450844      -43.846095       0.702450844      -43.846095       0.692977383      44.6032632       
160.68           0.704325594      43.7238162       0.691426524      -44.7550561      0.691426524      -44.7550561      0.704325594      43.7238162       
165.67           0.715169802      42.8696297       0.68056357       -45.6372138      0.68056357       -45.6372138      0.715169802      42.8696297       
170.66           0.725532512      42.0400142       0.669868881      -46.4933803      0.669868881      -46.4933803      0.725532512      42.0400142       
175.65           0.735435604      41.2342706       0.659348012      -47.3243641      0.659348012      -47.3243641      0.735435604      41.2342706       
180.64           0.744900281      40.4516959       0.649005308      -48.1309665      0.649005308      -48.1309665      0.744900281      40.4516959       
185.63           0.753947024      39.6915874       0.638844029      -48.9139784      0.638844029      -48.9139784      0.753947024      39.6915874       
190.62           0.762595566      38.9532467       0.628866472      -49.6741776      0.628866472      -49.6741776      0.762595566      38.9532467       
195.61           0.770864871      38.2359829       0.619074074      -50.4123272      0.619074074      -50.4123272      0.770864871      38.2359829       
200.6            0.778773134      37.539115        0.609467516      -51.1291732      0.609467516      -51.1291732      0.778773134      37.539115        
205.59           0.786337771      36.8619741       0.600046811      -51.8254439      0.600046811      -51.8254439      0.786337771      36.8619741       
210.58           0.793575433      36.2039051       0.590811393      -52.5018483      0.590811393      -52.5018483      0.793575433      36.2039051       
215.57           0.800502015      35.5642681       0.581760186      -53.1590758      0.581760186      -53.1590758      0.800502015      35.5642681       
220.56           0.807132672      34.9424392       0.572891678      -53.7977951      0.572891678      -53.7977951      0.807132672      34.9424392       
225.55           0.813481837      34.3378116       0.564203979      -54.4186546      0.564203979      -54.4186546      0.813481837      34.3378116       
230.54           0.819563246      33.7497959       0.555694882      -55.0222817      0.555694882      -55.0222817      0.819563246      33.7497959       
235.53           0.825389957      33.1778204       0.547361905      -55.6092831      0.547361905      -55.6092831      0.825389957      33.1778204       
240.52           0.830974379      32.6213315       0.539202342      -56.1802447      0.539202342      -56.1802447      0.830974379      32.6213315       
245.51           0.836328296      32.0797934       0.531213299      -56.7357319      0.531213299      -56.7357319      0.836328296      32.0797934       
250.5            0.841462892      31.5526885       0.523391732      -57.2762902      0.523391732      -57.2762902      0.841462892      31.5526885       
255.49           0.846388777      31.0395167       0.515734475      -57.802445       0.515734475      -57.802445       0.846388777      31.0395167       
260.48           0.851116016      30.5397956       0.508238269      -58.3147025      0.508238269      -58.3147025      0.851116016      30.5397956       
265.47           0.855654151      30.05306         0.500899786      -58.8135501      0.500899786      -58.8135501      0.855654151      30.05306         
270.46           0.86001223       29.5788614       0.493715652      -59.2994567      0.493715652      -59.2994567      0.86001223       29.5788614       
275.45           0.864198826      29.1167679       0.486682461      -59.7728734      0.486682461      -59.7728734      0.864198826      29.1167679       
280.44           0.868222068      28.6663635       0.479796795      -60.234234       0.479796795      -60.234234       0.868222068      28.6663635       
285.43           0.872089656      28.2272478       0.473055239      -60.6839556      0.473055239      -60.6839556      0.872089656      28.2272478       
290.42           0.875808892      27.7990355       0.466454388      -61.1224391      0.466454388      -61.1224391      0.875808892      27.7990355       
295.41           0.879386691      27.381356        0.459990862      -61.5500698      0.459990862      -61.5500698      0.879386691      27.381356        
300.4            0.882829611      26.9738526       0.453661312      -61.967218       0.453661312      -61.967218       0.882829611      26.9738526       
305.39           0.886143866      26.5761824       0.44746243       -62.3742394      0.44746243       -62.3742394      0.886143866      26.5761824       
310.38           0.889335347      26.1880158       0.441390952      -62.7714759      0.441390952      -62.7714759      0.889335347      26.1880158       
315.37           0.892409639      25.8090357       0.435443669      -63.1592558      0.435443669      -63.1592558      0.892409639      25.8090357       
320.36           0.895372038      25.4389371       0.429617423      -63.5378948      0.429617423      -63.5378948      0.895372038      25.4389371       
325.35           0.898227566      25.077427        0.423909119      -63.907696       0.423909119      -63.907696       0.898227566      25.077427        
330.34           0.900980987      24.7242236       0.418315721      -64.2689507      0.418315721      -64.2689507      0.900980987      24.7242236       
335.33           0.903636823      24.379056        0.41283426       -64.6219388      0.41283426       -64.6219388      0.903636823      24.379056        
340.32           0.906199361      24.0416635       0.407461831      -64.9669294      0.407461831      -64.9669294      0.906199361      24.0416635       
345.31           0.908672675      23.7117958       0.402195596      -65.3041808      0.402195596      -65.3041808      0.908672675      23.7117958       
350.3            0.91106063       23.3892119       0.397032784      -65.6339417      0.397032784      -65.6339417      0.91106063       23.3892119       
355.29           0.913366896      23.0736801       0.391970694      -65.9564508      0.391970694      -65.9564508      0.913366896      23.0736801       
360.28           0.915594963      22.7649776       0.387006691      -66.2719378      0.387006691      -66.2719378      0.915594963      22.7649776       
365.27           0.917748143      22.46289         0.382138209      -66.5806236      0.382138209      -66.5806236      0.917748143      22.46289         
370.26           0.919829586      22.167211        0.377362749      -66.8827203      0.377362749      -66.8827203      0.919829586      22.167211        
375.25           0.921842286      21.8777422       0.372677878      -67.1784324      0.372677878      -67.1784324      0.921842286      21.8777422       
380.24           0.923789092      21.5942926       0.368081231      -67.4679563      0.368081231      -67.4679563      0.923789092      21.5942926       
385.23           0.925672712      21.3166784       0.363570506      -67.7514809      0.363570506      -67.7514809      0.925672712      21.3166784       
390.22           0.927495724      21.0447226       0.359143464      -68.0291884      0.359143464      -68.0291884      0.927495724      21.0447226       
395.21           0.929260582      20.7782548       0.354797933      -68.3012537      0.354797933      -68.3012537      0.929260582      20.7782548       
400.2            0.930969622      20.5171109       0.350531797      -68.5678455      0.350531797      -68.5678455      0.930969622      20.5171109       
405.19           0.932625071      20.2611329       0.346343005      -68.8291261      0.346343005      -68.8291261      0.932625071      20.2611329       
410.18           0.934229047      20.0101686       0.342229561      -69.0852518      0.342229561      -69.0852518      0.934229047      20.0101686       
415.17           0.935783571      19.7640711       0.338189529      -69.3363733      0.338189529      -69.3363733      0.935783571      19.7640711       
420.16           0.937290571      19.5226992       0.334221029      -69.5826356      0.334221029      -69.5826356      0.937290571      19.5226992       
425.15           0.938751882      19.2859164       0.330322234      -69.8241786      0.330322234      -69.8241786      0.938751882      19.2859164       
430.14           0.940169257      19.0535914       0.326491371      -70.061137       0.326491371      -70.061137       0.940169257      19.0535914       
435.13           0.941544369      18.8255975       0.322726719      -70.2936408      0.322726719      -70.2936408      0.941544369      18.8255975       
440.12           0.942878813      18.6018125       0.319026609      -70.5218154      0.319026609      -70.5218154      0.942878813      18.6018125       
445.11           0.944174114      18.3821183       0.315389417      -70.7457814      0.315389417      -70.7457814      0.944174114      18.3821183       
450.1            0.945431728      18.1664014       0.311813571      -70.9656556      0.311813571      -70.9656556      0.945431728      18.1664014       
455.09           0.946653044      17.9545517       0.308297541      -71.1815504      0.308297541      -71.1815504      0.946653044      17.9545517       
460.08           0.947839394      17.7464633       0.304839846      -71.3935744      0.304839846      -71.3935744      0.947839394      17.7464633       
465.07           0.948992046      17.5420339       0.301439046      -71.6018323      0.301439046      -71.6018323      0.948992046      17.5420339       
470.06           0.950112217      17.3411647       0.298093742      -71.8064254      0.298093742      -71.8064254      0.950112217      17.3411647       
475.05           0.951201069      17.14376         0.29480258       -72.0074514      0.29480258       -72.0074514      0.951201069      17.14376         
480.04           0.952259715      16.9497277       0.291564242      -72.2050047      0.291564242      -72.2050047      0.952259715      16.9497277       
485.03           0.953289219      16.7589786       0.288377449      -72.3991764      0.288377449      -72.3991764      0.953289219      16.7589786       
490.02           0.954290601      16.5714266       0.285240962      -72.5900547      0.285240962      -72.5900547      0.954290601      16.5714266       
495.01           0.955264837      16.3869883       0.282153575      -72.7777248      0.282153575      -72.7777248      0.955264837      16.3869883       
500              0.956212862      16.2055832       0.279114118      -72.962269       0.279114118      -72.962269       0.956212862      16.2055832       
504.99           0.957135574      16.0271334       0.276121455      -73.143767       0.276121455      -73.143767       0.957135574      16.0271334       
509.98           0.958033831      15.8515634       0.273174483      -73.3222956      0.273174483      -73.3222956      0.958033831      15.8515634       
514.97           0.958908458      15.6788005       0.27027213       -73.4979295      0.27027213       -73.4979295      0.958908458      15.6788005       
519.96           0.959760245      15.508774        0.267413356      -73.6707407      0.267413356      -73.6707407      0.959760245      15.508774        
524.95           0.960589949      15.3414155       0.26459715       -73.8407989      0.26459715       -73.8407989      0.960589949      15.3414155       
529.94           0.961398299      15.176659        0.26182253       -74.0081717      0.26182253       -74.0081717      0.961398299      15.176659        
534.93           0.962185994      15.0144404       0.259088541      -74.1729244      0.259088541      -74.1729244      0.962185994      15.0144404       
539.92           0.962953703      14.8546977       0.256394256      -74.3351203      0.256394256      -74.3351203      0.962953703      14.8546977       
544.91           0.963702072      14.6973707       0.253738775      -74.4948206      0.253738775      -74.4948206      0.963702072      14.6973707       
549.9            0.96443172       14.5424013       0.251121222      -74.6520849      0.251121222      -74.6520849      0.96443172       14.5424013       
554.89           0.96514324       14.3897329       0.248540745      -74.8069705      0.248540745      -74.8069705      0.96514324       14.3897329       
559.88           0.965837205      14.2393109       0.245996518      -74.9595332      0.245996518      -74.9595332      0.965837205      14.2393109       
564.87           0.966514165      14.0910823       0.243487736      -75.1098271      0.243487736      -75.1098271      0.966514165      14.0910823       
569.86           0.967174649      13.9449956       0.241013616      -75.2579046      0.241013616      -75.2579046      0.967174649      13.9449956       
574.85           0.967819165      13.8010009       0.238573399      -75.4038163      0.238573399      -75.4038163      0.967819165      13.8010009       
579.84           0.968448202      13.6590499       0.236166344      -75.5476117      0.236166344      -75.5476117      0.968448202      13.6590499       
584.83           0.969062232      13.5190955       0.233791733      -75.6893384      0.233791733      -75.6893384      0.969062232      13.5190955       
589.82           0.969661709      13.3810923       0.231448865      -75.8290427      0.231448865      -75.8290427      0.969661709      13.3810923       
594.81           0.970247068      13.2449959       0.22913706       -75.9667697      0.22913706       -75.9667697      0.970247068      13.2449959       
599.8            0.970818732      13.1107634       0.226855654      -76.102563       0.226855654      -76.102563       0.970818732      13.1107634       
604.79           0.971377104      12.9783532       0.224604004      -76.2364649      0.224604004      -76.2364649      0.971377104      12.9783532       
609.78           0.971922577      12.8477248       0.222381481      -76.3685165      0.222381481      -76.3685165      0.971922577      12.8477248       
614.77           0.972455526      12.7188387       0.220187475      -76.4987579      0.220187475      -76.4987579      0.972455526      12.7188387       
619.76           0.972976315      12.5916569       0.218021392      -76.6272276      0.218021392      -76.6272276      0.972976315      12.5916569       
624.75           0.973485293      12.4661422       0.215882652      -76.7539634      0.215882652      -76.7539634      0.973485293      12.4661422       
629.74           0.973982798      12.3422584       0.213770692      -76.8790019      0.213770692      -76.8790019      0.973982798      12.3422584       
634.73           0.974469157      12.2199706       0.211684962      -77.0023786      0.211684962      -77.0023786      0.974469157      12.2199706       
