! Coilcraft 1008HT-27N Chip Inductor				
! 16 July 2002			
# MHZ S MA R 50
!Freq             MagS11           AngS11           MagS21           AngS21           MagS12           AngS12           MagS22           AngS22
1                0.00248716405    42.8125013       0.998176893      -0.0970228465    0.998176893      -0.0970228465    0.00248716405    42.8125013       
11.47            0.0196363739     79.8997682       0.996743848      -1.1113335       0.996743848      -1.1113335       0.0196363739     79.8997682       
21.94            0.0372452152     82.1091672       0.995570544      -2.12367861      0.995570544      -2.12367861      0.0372452152     82.1091672       
32.41            0.0548356138     82.4057309       0.99423996       -3.13389611      0.99423996       -3.13389611      0.0548356138     82.4057309       
42.88            0.0723742664     82.1317809       0.992684577      -4.14157742      0.992684577      -4.14157742      0.0723742664     82.1317809       
53.35            0.089842615      81.6063632       0.990879647      -5.14625369      0.990879647      -5.14625369      0.089842615      81.6063632       
63.82            0.107225067      80.9471309       0.98881464       -6.14743448      0.98881464       -6.14743448      0.107225067      80.9471309       
74.29            0.124507125      80.2084996       0.986485598      -7.14462334      0.986485598      -7.14462334      0.124507125      80.2084996       
84.76            0.141674946      79.4194972       0.983892257      -8.13732589      0.983892257      -8.13732589      0.141674946      79.4194972       
95.23            0.158715236      78.597236        0.981036723      -9.12505497      0.981036723      -9.12505497      0.158715236      78.597236        
105.7            0.175615235      77.7525877       0.977922772      -10.1073342      0.977922772      -10.1073342      0.175615235      77.7525877       
116.17           0.192362745      76.8928765       0.974555439      -11.0837006      0.974555439      -11.0837006      0.192362745      76.8928765       
126.64           0.208946151      76.0232773       0.970940748      -12.0537068      0.970940748      -12.0537068      0.208946151      76.0232773       
137.11           0.225354456      75.1475925       0.967085529      -13.0169226      0.967085529      -13.0169226      0.225354456      75.1475925       
147.58           0.241577306      74.2687097       0.962997272      -13.9729366      0.962997272      -13.9729366      0.241577306      74.2687097       
158.05           0.257605016      73.3888837       0.958684015      -14.9213572      0.958684015      -14.9213572      0.257605016      73.3888837       
168.52           0.27342858       72.5099162       0.954154252      -15.8618133      0.954154252      -15.8618133      0.27342858       72.5099162       
178.99           0.289039691      71.6332759       0.949416844      -16.7939555      0.949416844      -16.7939555      0.289039691      71.6332759       
189.46           0.304430746      70.7601792       0.944480951      -17.7174561      0.944480951      -17.7174561      0.304430746      70.7601792       
199.93           0.319594846      69.8916474       0.939355964      -18.6320098      0.939355964      -18.6320098      0.319594846      69.8916474       
210.4            0.334525797      69.028547        0.934051443      -19.5373338      0.934051443      -19.5373338      0.334525797      69.028547        
220.87           0.349218102      68.1716192       0.928577058      -20.4331677      0.928577058      -20.4331677      0.349218102      68.1716192       
231.34           0.363666952      67.3215024       0.922942543      -21.3192739      0.922942543      -21.3192739      0.363666952      67.3215024       
241.81           0.377868207      66.4787482       0.917157646      -22.1954368      0.917157646      -22.1954368      0.377868207      66.4787482       
252.28           0.391818387      65.6438349       0.91123208       -23.0614629      0.91123208       -23.0614629      0.391818387      65.6438349       
262.75           0.405514641      64.8171771       0.905175491      -23.9171803      0.905175491      -23.9171803      0.405514641      64.8171771       
273.22           0.418954735      63.9991341       0.898997415      -24.7624381      0.898997415      -24.7624381      0.418954735      63.9991341       
283.69           0.432137018      63.1900162       0.892707249      -25.5971061      0.892707249      -25.5971061      0.432137018      63.1900162       
294.16           0.445060402      62.3900903       0.886314219      -26.4210739      0.886314219      -26.4210739      0.445060402      62.3900903       
304.63           0.457724328      61.599584        0.879827353      -27.2342504      0.879827353      -27.2342504      0.457724328      61.599584        
315.1            0.470128744      60.8186901       0.873255461      -28.0365629      0.873255461      -28.0365629      0.470128744      60.8186901       
325.57           0.48227407       60.047569        0.866607114      -28.8279564      0.866607114      -28.8279564      0.48227407       60.047569        
336.04           0.494161168      59.2863526       0.859890625      -29.6083929      0.859890625      -29.6083929      0.494161168      59.2863526       
346.51           0.505791315      58.5351459       0.853114036      -30.3778504      0.853114036      -30.3778504      0.505791315      58.5351459       
356.98           0.51716617       57.7940298       0.846285109      -31.1363223      0.846285109      -31.1363223      0.51716617       57.7940298       
367.45           0.528287748      57.0630632       0.839411312      -31.8838162      0.839411312      -31.8838162      0.528287748      57.0630632       
377.92           0.539158384      56.3422845       0.832499818      -32.6203533      0.832499818      -32.6203533      0.539158384      56.3422845       
388.39           0.549780712      55.6317136       0.825557496      -33.3459676      0.825557496      -33.3459676      0.549780712      55.6317136       
398.86           0.560157631      54.9313531       0.81859091       -34.060705       0.81859091       -34.060705       0.560157631      54.9313531       
409.33           0.570292285      54.2411903       0.811606318      -34.7646222      0.811606318      -34.7646222      0.570292285      54.2411903       
419.8            0.580188028      53.5611981       0.804609674      -35.4577865      0.804609674      -35.4577865      0.580188028      53.5611981       
430.27           0.58984841       52.8913362       0.797606628      -36.1402743      0.797606628      -36.1402743      0.58984841       52.8913362       
440.74           0.599277145      52.2315527       0.790602533      -36.8121709      0.790602533      -36.8121709      0.599277145      52.2315527       
451.21           0.608478092      51.5817848       0.783602445      -37.4735697      0.783602445      -37.4735697      0.608478092      51.5817848       
461.68           0.617455236      50.9419598       0.776611133      -38.124571       0.776611133      -38.124571       0.617455236      50.9419598       
472.15           0.626212665      50.3119963       0.769633082      -38.7652819      0.769633082      -38.7652819      0.626212665      50.3119963       
482.62           0.634754553      49.6918048       0.762672504      -39.3958155      0.762672504      -39.3958155      0.634754553      49.6918048       
493.09           0.643085143      49.0812887       0.755733343      -40.0162899      0.755733343      -40.0162899      0.643085143      49.0812887       
503.56           0.651208732      48.4803452       0.748819285      -40.6268283      0.748819285      -40.6268283      0.651208732      48.4803452       
514.03           0.659129651      47.8888656       0.741933763      -41.2275578      0.741933763      -41.2275578      0.659129651      47.8888656       
524.5            0.666852259      47.3067363       0.735079971      -41.8186092      0.735079971      -41.8186092      0.666852259      47.3067363       
534.97           0.674380925      46.7338393       0.728260873      -42.4001164      0.728260873      -42.4001164      0.674380925      46.7338393       
545.44           0.681720018      46.1700529       0.721479206      -42.972216       0.721479206      -42.972216       0.681720018      46.1700529       
555.91           0.688873897      45.6152519       0.714737497      -43.5350468      0.714737497      -43.5350468      0.688873897      45.6152519       
566.38           0.6958469        45.0693087       0.708038069      -44.0887495      0.708038069      -44.0887495      0.6958469        45.0693087       
576.85           0.702643339      44.5320931       0.701383048      -44.6334662      0.701383048      -44.6334662      0.702643339      44.5320931       
587.32           0.709267487      44.0034731       0.694774379      -45.1693399      0.694774379      -45.1693399      0.709267487      44.0034731       
597.79           0.715723575      43.4833154       0.688213826      -45.6965146      0.688213826      -45.6965146      0.715723575      43.4833154       
608.26           0.722015786      42.9714853       0.681702989      -46.2151347      0.681702989      -46.2151347      0.722015786      42.9714853       
618.73           0.728148247      42.4678475       0.67524331       -46.7253447      0.67524331       -46.7253447      0.728148247      42.4678475       
629.2            0.734125026      41.9722661       0.668836079      -47.2272889      0.668836079      -47.2272889      0.734125026      41.9722661       
639.67           0.739950128      41.4846052       0.662482444      -47.7211116      0.662482444      -47.7211116      0.739950128      41.4846052       
650.14           0.74562749       41.0047288       0.656183423      -48.2069562      0.656183423      -48.2069562      0.74562749       41.0047288       
660.61           0.751160981      40.5325012       0.649939904      -48.6849656      0.649939904      -48.6849656      0.751160981      40.5325012       
671.08           0.756554397      40.0677872       0.643752658      -49.1552817      0.643752658      -49.1552817      0.756554397      40.0677872       
681.55           0.761811457      39.6104523       0.637622346      -49.6180453      0.637622346      -49.6180453      0.761811457      39.6104523       
692.02           0.766935808      39.160363        0.631549522      -50.0733959      0.631549522      -50.0733959      0.766935808      39.160363        
702.49           0.771931016      38.7173865       0.625534646      -50.5214719      0.625534646      -50.5214719      0.771931016      38.7173865       
712.96           0.77680057       38.2813916       0.619578083      -50.9624099      0.619578083      -50.9624099      0.77680057       38.2813916       
723.43           0.781547882      37.852248        0.613680113      -51.3963451      0.613680113      -51.3963451      0.781547882      37.852248        
733.9            0.786176283      37.4298269       0.607840939      -51.8234111      0.607840939      -51.8234111      0.786176283      37.4298269       
744.37           0.790689023      37.0140013       0.602060687      -52.2437394      0.602060687      -52.2437394      0.790689023      37.0140013       
754.84           0.795089276      36.6046453       0.596339415      -52.6574602      0.596339415      -52.6574602      0.795089276      36.6046453       
765.31           0.799380135      36.2016349       0.590677118      -53.0647013      0.590677118      -53.0647013      0.799380135      36.2016349       
775.78           0.803564616      35.8048479       0.585073729      -53.4655889      0.585073729      -53.4655889      0.803564616      35.8048479       
786.25           0.807645657      35.4141638       0.579529128      -53.8602472      0.579529128      -53.8602472      0.807645657      35.4141638       
796.72           0.811626119      35.0294638       0.574043145      -54.2487981      0.574043145      -54.2487981      0.811626119      35.0294638       
807.19           0.815508787      34.6506312       0.56861556       -54.6313619      0.56861556       -54.6313619      0.815508787      34.6506312       
817.66           0.819296373      34.277551        0.563246114      -55.0080565      0.563246114      -55.0080565      0.819296373      34.277551        
828.13           0.822991512      33.9101101       0.557934505      -55.3789978      0.557934505      -55.3789978      0.822991512      33.9101101       
838.6            0.826596771      33.5481976       0.552680397      -55.7442997      0.552680397      -55.7442997      0.826596771      33.5481976       
849.07           0.830114643      33.1917043       0.547483419      -56.104074       0.547483419      -56.104074       0.830114643      33.1917043       
859.54           0.833547551      32.8405231       0.542343172      -56.4584303      0.542343172      -56.4584303      0.833547551      32.8405231       
870.01           0.836897852      32.4945487       0.537259227      -56.8074762      0.537259227      -56.8074762      0.836897852      32.4945487       
880.48           0.840167834      32.1536779       0.532231134      -57.1513171      0.532231134      -57.1513171      0.840167834      32.1536779       
890.95           0.843359721      31.8178095       0.527258416      -57.4900566      0.527258416      -57.4900566      0.843359721      31.8178095       
901.42           0.846475673      31.486844        0.522340579      -57.8237959      0.522340579      -57.8237959      0.846475673      31.486844        
911.89           0.849517787      31.1606843       0.51747711       -58.1526345      0.51747711       -58.1526345      0.849517787      31.1606843       
922.36           0.852488099      30.8392346       0.512667479      -58.4766695      0.512667479      -58.4766695      0.852488099      30.8392346       
932.83           0.855388587      30.5224016       0.507911145      -58.7959964      0.507911145      -58.7959964      0.855388587      30.5224016       
943.3            0.858221169      30.2100936       0.503207551      -59.1107084      0.503207551      -59.1107084      0.858221169      30.2100936       
953.77           0.860987708      29.9022208       0.498556131      -59.4208968      0.498556131      -59.4208968      0.860987708      29.9022208       
964.24           0.863690013      29.5986952       0.493956308      -59.7266513      0.493956308      -59.7266513      0.863690013      29.5986952       
974.71           0.866329838      29.2994308       0.4894075        -60.0280591      0.4894075        -60.0280591      0.866329838      29.2994308       
985.18           0.868908885      29.0043432       0.484909116      -60.3252061      0.484909116      -60.3252061      0.868908885      29.0043432       
995.65           0.871428807      28.7133499       0.480460559      -60.6181761      0.480460559      -60.6181761      0.871428807      28.7133499       
1006.12          0.873891206      28.4263702       0.476061231      -60.907051       0.476061231      -60.907051       0.873891206      28.4263702       
1016.59          0.876297639      28.1433249       0.471710527      -61.1919111      0.471710527      -61.1919111      0.876297639      28.1433249       
1027.06          0.878649613      27.8641368       0.467407842      -61.4728348      0.467407842      -61.4728348      0.878649613      27.8641368       
1037.53          0.880948592      27.5887301       0.463152569      -61.7498989      0.463152569      -61.7498989      0.880948592      27.5887301       
1048             0.883195999      27.3170308       0.458944099      -62.0231784      0.458944099      -62.0231784      0.883195999      27.3170308       
1058.47          0.885393209      27.0489664       0.454781826      -62.2927467      0.454781826      -62.2927467      0.885393209      27.0489664       
1068.94          0.887541561      26.784466        0.450665142      -62.5586755      0.450665142      -62.5586755      0.887541561      26.784466        
1079.41          0.88964235       26.5234604       0.446593443      -62.8210351      0.446593443      -62.8210351      0.88964235       26.5234604       
1089.88          0.891696837      26.2658816       0.442566124      -63.079894       0.442566124      -63.079894       0.891696837      26.2658816       
1100.35          0.89370624       26.0116634       0.438582586      -63.3353193      0.438582586      -63.3353193      0.89370624       26.0116634       
1110.82          0.895671746      25.760741        0.434642231      -63.5873765      0.434642231      -63.5873765      0.895671746      25.760741        
1121.29          0.897594503      25.5130508       0.430744464      -63.8361297      0.430744464      -63.8361297      0.897594503      25.5130508       
1131.76          0.899475626      25.2685308       0.426888695      -64.0816417      0.426888695      -64.0816417      0.899475626      25.2685308       
1142.23          0.901316198      25.0271204       0.42307434       -64.3239736      0.42307434       -64.3239736      0.901316198      25.0271204       
1152.7           0.903117267      24.7887602       0.419300816      -64.5631853      0.419300816      -64.5631853      0.903117267      24.7887602       
1163.17          0.904879854      24.5533923       0.415567547      -64.7993353      0.415567547      -64.7993353      0.904879854      24.5533923       
1173.64          0.906604947      24.3209598       0.411873963      -65.0324808      0.411873963      -65.0324808      0.906604947      24.3209598       
1184.11          0.908293504      24.0914073       0.408219497      -65.2626778      0.408219497      -65.2626778      0.908293504      24.0914073       
1194.58          0.909946459      23.8646806       0.404603591      -65.4899809      0.404603591      -65.4899809      0.909946459      23.8646806       
1205.05          0.911564714      23.6407265       0.40102569       -65.7144434      0.40102569       -65.7144434      0.911564714      23.6407265       
1215.52          0.913149147      23.4194933       0.397485246      -65.9361177      0.397485246      -65.9361177      0.913149147      23.4194933       
1225.99          0.914700609      23.2009301       0.393981717      -66.1550547      0.393981717      -66.1550547      0.914700609      23.2009301       
1236.46          0.916219929      22.9849873       0.390514569      -66.3713043      0.390514569      -66.3713043      0.916219929      22.9849873       
1246.93          0.917707907      22.7716165       0.387083271      -66.5849153      0.387083271      -66.5849153      0.917707907      22.7716165       
1257.4           0.919165324      22.5607701       0.383687302      -66.7959354      0.383687302      -66.7959354      0.919165324      22.5607701       
1267.87          0.920592937      22.3524018       0.380326146      -67.0044111      0.380326146      -67.0044111      0.920592937      22.3524018       
1278.34          0.92199148       22.1464661       0.376999293      -67.210388       0.376999293      -67.210388       0.92199148       22.1464661       
1288.81          0.923361667      21.9429188       0.373706241      -67.4139106      0.373706241      -67.4139106      0.923361667      21.9429188       
1299.28          0.924704192      21.7417162       0.370446494      -67.6150224      0.370446494      -67.6150224      0.924704192      21.7417162       
1309.75          0.926019727      21.5428161       0.367219563      -67.813766       0.367219563      -67.813766       0.926019727      21.5428161       
1320.22          0.927308927      21.3461768       0.364024966      -68.0101829      0.364024966      -68.0101829      0.927308927      21.3461768       
1330.69          0.928572427      21.1517577       0.360862227      -68.2043139      0.360862227      -68.2043139      0.928572427      21.1517577       
