! Coilcraft 1008HT-R18 Chip Inductor				
! 16 July 2002			
# MHZ S MA R 50
!Freq             MagS11           AngS11           MagS21           AngS21           MagS12           AngS12           MagS22           AngS22
1                0.017092107      41.5188373       0.987267505      -0.657534933     0.987267505      -0.657534933     0.017092107      41.5188373       
4.74             0.0563715298     70.7737119       0.982879174      -3.10434869      0.982879174      -3.10434869      0.0563715298     70.7737119       
8.48             0.0979631798     74.1992488       0.977879049      -5.53155318      0.977879049      -5.53155318      0.0979631798     74.1992488       
12.22            0.139299576      74.2920881       0.971585447      -7.93323607      0.971585447      -7.93323607      0.139299576      74.2920881       
15.96            0.179958311      73.328527        0.963914322      -10.3026479      0.963914322      -10.3026479      0.179958311      73.328527        
19.7             0.219704795      71.9103497       0.954898655      -12.6332337      0.954898655      -12.6332337      0.219704795      71.9103497       
23.44            0.258362879      70.2696733       0.944620614      -14.9189541      0.944620614      -14.9189541      0.258362879      70.2696733       
27.18            0.295792065      68.5171755       0.933188966      -17.1544449      0.933188966      -17.1544449      0.295792065      68.5171755       
30.92            0.331881508      66.7134034       0.92072769       -19.3351017      0.92072769       -19.3351017      0.331881508      66.7134034       
34.66            0.366547516      64.8947508       0.907368598      -21.4571171      0.907368598      -21.4571171      0.366547516      64.8947508       
38.4             0.399731613      63.0845536       0.89324591       -23.5174817      0.89324591       -23.5174817      0.399731613      63.0845536       
42.14            0.431398442      61.2984177       0.878492105      -25.5139591      0.878492105      -25.5139591      0.431398442      61.2984177       
45.88            0.461533396      59.5470261       0.863234736      -27.4450387      0.863234736      -27.4450387      0.461533396      59.5470261       
49.62            0.490140019      57.8377373       0.847594078      -29.309876       0.847594078      -29.309876       0.490140019      57.8377373       
53.36            0.517237326      56.1755602       0.831681495      -31.1082228      0.831681495      -31.1082228      0.517237326      56.1755602       
57.1             0.54285714       54.5637853       0.815598421      -32.8403532      0.815598421      -32.8403532      0.54285714       54.5637853       
60.84            0.567041547      53.0044162       0.799435854      -34.506989       0.799435854      -34.506989       0.567041547      53.0044162       
64.58            0.589840547      51.4984772       0.783274273      -36.1092272      0.783274273      -36.1092272      0.589840547      51.4984772       
68.32            0.611309951      50.0462422       0.767183865      -37.6484714      0.767183865      -37.6484714      0.611309951      50.0462422       
72.06            0.631509532      48.6474088       0.751225001      -39.1263689      0.751225001      -39.1263689      0.631509532      48.6474088       
75.8             0.650501453      47.3012342       0.735448867      -40.5447545      0.735448867      -40.5447545      0.650501453      47.3012342       
79.54            0.668348952      46.0066426       0.719898199      -41.9056002      0.719898199      -41.9056002      0.668348952      46.0066426       
83.28            0.685115267      44.7623108       0.704608073      -43.2109721      0.704608073      -43.2109721      0.685115267      44.7623108       
87.02            0.700862792      43.5667367       0.689606701      -44.4629937      0.689606701      -44.4629937      0.700862792      43.5667367       
90.76            0.715652405      42.4182947       0.674916222      -45.6638149      0.674916222      -45.6638149      0.715652405      42.4182947       
94.5             0.729542985      41.3152793       0.660553447      -46.8155862      0.660553447      -46.8155862      0.729542985      41.3152793       
98.24            0.742591051      40.2559409       0.646530565      -47.9204386      0.646530565      -47.9204386      0.742591051      40.2559409       
101.98           0.754850527      39.2385129       0.632855786      -48.9804662      0.632855786      -48.9804662      0.754850527      39.2385129       
105.72           0.766372598      38.2612343       0.619533927      -49.9977144      0.619533927      -49.9977144      0.766372598      38.2612343       
109.46           0.777205639      37.322366        0.606566939      -50.9741691      0.606566939      -50.9741691      0.777205639      37.322366        
113.2            0.78739521       36.4202043       0.593954369      -51.9117506      0.593954369      -51.9117506      0.78739521       36.4202043       
116.94           0.796984091      35.5530903       0.581693775      -52.8123078      0.581693775      -52.8123078      0.796984091      35.5530903       
120.68           0.806012351      34.719417        0.569781082      -53.6776156      0.569781082      -53.6776156      0.806012351      34.719417        
124.42           0.814517444      33.9176341       0.558210891      -54.5093731      0.558210891      -54.5093731      0.814517444      33.9176341       
128.16           0.82253432       33.1462512       0.546976752      -55.3092029      0.546976752      -55.3092029      0.82253432       33.1462512       
131.9            0.830095548      32.4038397       0.536071387      -56.078652       0.536071387      -56.078652       0.830095548      32.4038397       
135.64           0.837231446      31.6890332       0.525486892      -56.8191925      0.525486892      -56.8191925      0.837231446      31.6890332       
139.38           0.843970211      31.0005278       0.515214897      -57.5322236      0.515214897      -57.5322236      0.843970211      31.0005278       
143.12           0.850338051      30.3370808       0.505246708      -58.2190737      0.505246708      -58.2190737      0.850338051      30.3370808       
146.86           0.856359313      29.6975098       0.495573425      -58.8810029      0.495573425      -58.8810029      0.856359313      29.6975098       
150.6            0.862056608      29.0806908       0.486186036      -59.5192053      0.486186036      -59.5192053      0.862056608      29.0806908       
154.34           0.86745093       28.4855562       0.477075501      -60.1348125      0.477075501      -60.1348125      0.86745093       28.4855562       
158.08           0.872561771      27.911093        0.468232813      -60.7288956      0.468232813      -60.7288956      0.872561771      27.911093        
161.82           0.877407229      27.3563402       0.459649055      -61.3024688      0.459649055      -61.3024688      0.877407229      27.3563402       
165.56           0.882004108      26.8203869       0.451315444      -61.8564916      0.451315444      -61.8564916      0.882004108      26.8203869       
169.3            0.886368016      26.3023695       0.443223359      -62.391872       0.443223359      -62.391872       0.886368016      26.3023695       
173.04           0.89051345       25.8014697       0.435364375      -62.9094694      0.435364375      -62.9094694      0.89051345       25.8014697       
176.78           0.894453884      25.3169124       0.427730276      -63.4100966      0.427730276      -63.4100966      0.894453884      25.3169124       
180.52           0.898201841      24.8479629       0.420313075      -63.8945228      0.420313075      -63.8945228      0.898201841      24.8479629       
184.26           0.901768968      24.3939254       0.413105023      -64.3634761      0.413105023      -64.3634761      0.901768968      24.3939254       
188              0.9051661        23.9541405       0.406098613      -64.8176455      0.406098613      -64.8176455      0.9051661        23.9541405       
191.74           0.908403323      23.5279834       0.39928659       -65.2576833      0.39928659       -65.2576833      0.908403323      23.5279834       
195.48           0.91149003       23.1148617       0.392661943      -65.6842073      0.392661943      -65.6842073      0.91149003       23.1148617       
199.22           0.914434971      22.7142143       0.386217915      -66.0978026      0.386217915      -66.0978026      0.914434971      22.7142143       
202.96           0.917246305      22.3255086       0.379947991      -66.4990236      0.379947991      -66.4990236      0.917246305      22.3255086       
206.7            0.919931642      21.9482399       0.373845899      -66.8883956      0.373845899      -66.8883956      0.919931642      21.9482399       
210.44           0.922498083      21.5819293       0.367905606      -67.2664169      0.367905606      -67.2664169      0.922498083      21.5819293       
214.18           0.924952261      21.2261221       0.362121311      -67.6335598      0.362121311      -67.6335598      0.924952261      21.2261221       
217.92           0.927300371      20.880387        0.356487437      -67.9902727      0.356487437      -67.9902727      0.927300371      20.880387        
221.66           0.929548207      20.544314        0.350998626      -68.336981       0.350998626      -68.336981       0.929548207      20.544314        
225.4            0.931701188      20.2175141       0.345649736      -68.6740886      0.345649736      -68.6740886      0.931701188      20.2175141       
229.14           0.933764387      19.8996173       0.340435827      -69.0019792      0.340435827      -69.0019792      0.933764387      19.8996173       
232.88           0.935742555      19.590272        0.335352157      -69.3210174      0.335352157      -69.3210174      0.935742555      19.590272        
236.62           0.937640144      19.2891437       0.330394176      -69.63155        0.330394176      -69.63155        0.937640144      19.2891437       
240.36           0.93946133       18.9959143       0.325557517      -69.9339064      0.325557517      -69.9339064      0.93946133       18.9959143       
244.1            0.941210028      18.7102809       0.32083799       -70.2284003      0.32083799       -70.2284003      0.941210028      18.7102809       
247.84           0.942889918      18.4319553       0.316231574      -70.5153303      0.316231574      -70.5153303      0.942889918      18.4319553       
251.58           0.944504453      18.1606627       0.311734411      -70.7949806      0.311734411      -70.7949806      0.944504453      18.1606627       
255.32           0.946056881      17.8961416       0.307342799      -71.0676219      0.307342799      -71.0676219      0.946056881      17.8961416       
259.06           0.947550256      17.6381424       0.303053183      -71.3335123      0.303053183      -71.3335123      0.947550256      17.6381424       
262.8            0.948987451      17.3864273       0.298862155      -71.5928979      0.298862155      -71.5928979      0.948987451      17.3864273       
266.54           0.950371173      17.1407692       0.294766441      -71.8460131      0.294766441      -71.8460131      0.950371173      17.1407692       
270.28           0.95170397       16.9009516       0.290762899      -72.0930821      0.290762899      -72.0930821      0.95170397       16.9009516       
274.02           0.952988246      16.6667676       0.286848513      -72.3343184      0.286848513      -72.3343184      0.952988246      16.6667676       
277.76           0.954226267      16.4380196       0.283020387      -72.5699262      0.283020387      -72.5699262      0.954226267      16.4380196       
281.5            0.955420172      16.2145189       0.279275739      -72.8001005      0.279275739      -72.8001005      0.955420172      16.2145189       
285.24           0.95657198       15.996085        0.275611896      -73.0250276      0.275611896      -73.0250276      0.95657198       15.996085        
288.98           0.957683599      15.7825454       0.272026293      -73.2448856      0.272026293      -73.2448856      0.957683599      15.7825454       
292.72           0.958756833      15.5737349       0.268516462      -73.4598451      0.268516462      -73.4598451      0.958756833      15.5737349       
296.46           0.959793386      15.3694955       0.265080033      -73.670069       0.265080033      -73.670069       0.959793386      15.3694955       
300.2            0.960794871      15.1696759       0.261714726      -73.8757135      0.261714726      -73.8757135      0.960794871      15.1696759       
303.94           0.961762818      14.9741313       0.258418351      -74.076928       0.258418351      -74.076928       0.961762818      14.9741313       
307.68           0.962698672      14.7827229       0.255188801      -74.2738558      0.255188801      -74.2738558      0.962698672      14.7827229       
311.42           0.963603805      14.5953175       0.252024047      -74.4666339      0.252024047      -74.4666339      0.963603805      14.5953175       
315.16           0.964479516      14.4117876       0.248922141      -74.655394       0.248922141      -74.655394       0.964479516      14.4117876       
318.9            0.965327039      14.2320109       0.245881204      -74.8402622      0.245881204      -74.8402622      0.965327039      14.2320109       
322.64           0.966147544      14.0558699       0.24289943       -75.0213595      0.24289943       -75.0213595      0.966147544      14.0558699       
326.38           0.966942142      13.8832519       0.23997508       -75.1988021      0.23997508       -75.1988021      0.966942142      13.8832519       
330.12           0.967711887      13.7140487       0.237106478      -75.3727015      0.237106478      -75.3727015      0.967711887      13.7140487       
333.86           0.968457785      13.5481564       0.23429201       -75.5431646      0.23429201       -75.5431646      0.968457785      13.5481564       
337.6            0.969180787      13.385475        0.231530122      -75.7102945      0.231530122      -75.7102945      0.969180787      13.385475        
341.34           0.969881801      13.2259087       0.228819314      -75.87419        0.228819314      -75.87419        0.969881801      13.2259087       
345.08           0.970561691      13.069365        0.226158142      -76.034946       0.226158142      -76.034946       0.970561691      13.069365        
348.82           0.971221278      12.9157553       0.223545214      -76.1926541      0.223545214      -76.1926541      0.971221278      12.9157553       
352.56           0.971861345      12.7649941       0.220979186      -76.347402       0.220979186      -76.347402       0.971861345      12.7649941       
356.3            0.972482637      12.6169991       0.218458762      -76.4992744      0.218458762      -76.4992744      0.972482637      12.6169991       
360.04           0.973085867      12.4716913       0.215982691      -76.6483527      0.215982691      -76.6483527      0.973085867      12.4716913       
363.78           0.973671711      12.3289945       0.213549768      -76.7947153      0.213549768      -76.7947153      0.973671711      12.3289945       
367.52           0.974240816      12.1888352       0.211158826      -76.9384377      0.211158826      -76.9384377      0.974240816      12.1888352       
371.26           0.974793801      12.0511426       0.208808741      -77.0795927      0.208808741      -77.0795927      0.974793801      12.0511426       
375              0.975331254      11.9158487       0.206498426      -77.2182504      0.206498426      -77.2182504      0.975331254      11.9158487       
378.74           0.975853738      11.7828875       0.204226832      -77.3544783      0.204226832      -77.3544783      0.975853738      11.7828875       
382.48           0.976361792      11.6521958       0.201992944      -77.4883417      0.201992944      -77.4883417      0.976361792      11.6521958       
386.22           0.976855929      11.5237122       0.199795783      -77.6199033      0.199795783      -77.6199033      0.976855929      11.5237122       
389.96           0.977336641      11.3973779       0.1976344        -77.7492239      0.1976344        -77.7492239      0.977336641      11.3973779       
393.7            0.977804399      11.2731357       0.19550788       -77.876362       0.19550788       -77.876362       0.977804399      11.2731357       
397.44           0.978259652      11.1509306       0.193415336      -78.001374       0.193415336      -78.001374       0.978259652      11.1509306       
401.18           0.978702832      11.0307095       0.191355911      -78.1243145      0.191355911      -78.1243145      0.978702832      11.0307095       
404.92           0.97913435       10.912421        0.189328775      -78.2452363      0.189328775      -78.2452363      0.97913435       10.912421        
408.66           0.979554603      10.7960155       0.187333125      -78.3641901      0.187333125      -78.3641901      0.979554603      10.7960155       
412.4            0.979963969      10.681445        0.185368185      -78.4812253      0.185368185      -78.4812253      0.979963969      10.681445        
416.14           0.98036281       10.5686631       0.183433202      -78.5963894      0.183433202      -78.5963894      0.98036281       10.5686631       
419.88           0.980751475      10.4576251       0.181527446      -78.7097283      0.181527446      -78.7097283      0.980751475      10.4576251       
423.62           0.981130299      10.3482874       0.179650213      -78.8212864      0.179650213      -78.8212864      0.981130299      10.3482874       
427.36           0.9814996        10.2406081       0.177800818      -78.9311069      0.177800818      -78.9311069      0.9814996        10.2406081       
431.1            0.981859688      10.1345466       0.175978599      -79.0392312      0.175978599      -79.0392312      0.981859688      10.1345466       
434.84           0.982210856      10.0300635       0.174182913      -79.1456997      0.174182913      -79.1456997      0.982210856      10.0300635       
438.58           0.982553388      9.92712078       0.172413137      -79.2505513      0.172413137      -79.2505513      0.982553388      9.92712078       
442.32           0.982887558      9.82568148       0.170668667      -79.3538238      0.170668667      -79.3538238      0.982887558      9.82568148       
446.06           0.983213626      9.72570988       0.168948918      -79.4555536      0.168948918      -79.4555536      0.983213626      9.72570988       
449.8            0.983531845      9.62717134       0.167253322      -79.5557761      0.167253322      -79.5557761      0.983531845      9.62717134       
453.54           0.983842456      9.53003232       0.165581327      -79.6545257      0.165581327      -79.6545257      0.983842456      9.53003232       
457.28           0.984145692      9.43426025       0.163932398      -79.7518356      0.163932398      -79.7518356      0.984145692      9.43426025       
461.02           0.984441777      9.3398236        0.162306016      -79.8477379      0.162306016      -79.8477379      0.984441777      9.3398236        
464.76           0.984730926      9.24669176       0.160701677      -79.9422638      0.160701677      -79.9422638      0.984730926      9.24669176       
468.5            0.985013347      9.15483505       0.159118891      -80.0354436      0.159118891      -80.0354436      0.985013347      9.15483505       
472.24           0.98528924       9.06422466       0.157557183      -80.1273067      0.157557183      -80.1273067      0.98528924       9.06422466       
475.98           0.985558797      8.97483265       0.156016091      -80.2178814      0.156016091      -80.2178814      0.985558797      8.97483265       
