! Coilcraft 1008HT-56N Chip Inductor				
! 16 July 2002			
# MHZ S MA R 50
!Freq             MagS11           AngS11           MagS21           AngS21           MagS12           AngS12           MagS22           AngS22
1                0.00441654555    52.4108702       0.99731207       -0.201058566     0.99731207       -0.201058566     0.00441654555    52.4108702       
6.98             0.0247975873     79.0108147       0.995570643      -1.40108914      0.995570643      -1.40108914      0.0247975873     79.0108147       
12.96            0.045600634      81.1440752       0.994001484      -2.59804581      0.994001484      -2.59804581      0.045600634      81.1440752       
18.94            0.0663650881     81.3461489       0.992186038      -3.79152201      0.992186038      -3.79152201      0.0663650881     81.3461489       
24.92            0.0870412557     80.9497422       0.990046902      -4.98079383      0.990046902      -4.98079383      0.0870412557     80.9497422       
30.9             0.107599381      80.2863592       0.987556794      -6.16505961      0.987556794      -6.16505961      0.107599381      80.2863592       
36.88            0.128014147      79.4807839       0.984705917      -7.34349558      0.984705917      -7.34349558      0.128014147      79.4807839       
42.86            0.148262137      78.5914944       0.9814929        -8.51527937      0.9814929        -8.51527937      0.148262137      78.5914944       
48.84            0.168321246      77.6500154       0.977921288      -9.67960308      0.977921288      -9.67960308      0.168321246      77.6500154       
54.82            0.188170565      76.6751107       0.973997892      -10.8356817      0.973997892      -10.8356817      0.188170565      76.6751107       
60.8             0.207790386      75.6788152       0.969731877      -11.9827593      0.969731877      -11.9827593      0.207790386      75.6788152       
66.78            0.227162255      74.669314        0.965134195      -13.1201135      0.965134195      -13.1201135      0.227162255      74.669314        
72.76            0.246269015      73.6524434       0.960217196      -14.2470589      0.960217196      -14.2470589      0.246269015      73.6524434       
78.74            0.265094861      72.6325288       0.95499434       -15.3629504      0.95499434       -15.3629504      0.265094861      72.6325288       
84.72            0.283625368      71.6128788       0.949479959      -16.4671846      0.949479959      -16.4671846      0.283625368      71.6128788       
90.7             0.301847512      70.5960904       0.943689061      -17.5592016      0.943689061      -17.5592016      0.301847512      70.5960904       
96.68            0.31974968       69.5842448       0.93763716       -18.6384861      0.93763716       -18.6384861      0.31974968       69.5842448       
102.66           0.337321664      68.5790374       0.931340121      -19.704568       0.931340121      -19.704568       0.337321664      68.5790374       
108.64           0.354554642      67.5818673       0.924814026      -20.7570222      0.924814026      -20.7570222      0.354554642      67.5818673       
114.62           0.371441152      66.5938991       0.918075048      -21.7954685      0.918075048      -21.7954685      0.371441152      66.5938991       
120.6            0.387975052      65.6161085       0.911139341      -22.8195713      0.911139341      -22.8195713      0.387975052      65.6161085       
126.58           0.404151475      64.6493154       0.904022941      -23.8290382      0.904022941      -23.8290382      0.404151475      64.6493154       
132.56           0.419966776      63.694209        0.896741674      -24.8236193      0.896741674      -24.8236193      0.419966776      63.694209        
138.54           0.435418468      62.7513672       0.889311081      -25.8031057      0.889311081      -25.8031057      0.435418468      62.7513672       
144.52           0.450505164      61.8212719       0.881746347      -26.767328       0.881746347      -26.767328       0.450505164      61.8212719       
150.5            0.465226505      60.9043213       0.874062241      -27.7161544      0.874062241      -27.7161544      0.465226505      60.9043213       
156.48           0.47958309       60.0008401       0.866273068      -28.6494892      0.866273068      -28.6494892      0.47958309       60.0008401       
162.46           0.493576406      59.1110875       0.858392626      -29.5672706      0.858392626      -29.5672706      0.493576406      59.1110875       
168.44           0.507208758      58.2352652       0.850434173      -30.4694689      0.850434173      -30.4694689      0.507208758      58.2352652       
174.42           0.520483192      57.3735228       0.842410398      -31.3560845      0.842410398      -31.3560845      0.520483192      57.3735228       
180.4            0.533403432      56.5259637       0.83433341       -32.2271457      0.83433341       -32.2271457      0.533403432      56.5259637       
186.38           0.545973804      55.6926496       0.826214715      -33.0827069      0.826214715      -33.0827069      0.545973804      55.6926496       
192.36           0.558199176      54.873605        0.818065216      -33.9228465      0.818065216      -33.9228465      0.558199176      54.873605        
198.34           0.570084891      54.068821        0.809895207      -34.7476648      0.809895207      -34.7476648      0.570084891      54.068821        
204.32           0.581636707      53.2782586       0.801714381      -35.5572823      0.801714381      -35.5572823      0.581636707      53.2782586       
210.3            0.592860741      52.5018522       0.79353183       -36.3518377      0.79353183       -36.3518377      0.592860741      52.5018522       
216.28           0.603763412      51.7395122       0.785356058      -37.1314864      0.785356058      -37.1314864      0.603763412      51.7395122       
222.26           0.614351393      50.9911276       0.777194995      -37.8963981      0.777194995      -37.8963981      0.614351393      50.9911276       
228.24           0.624631564      50.256569        0.769056011      -38.6467561      0.769056011      -38.6467561      0.624631564      50.256569        
234.22           0.634610966      49.5356899       0.760945933      -39.3827549      0.760945933      -39.3827549      0.634610966      49.5356899       
240.2            0.644296764      48.8283297       0.752871067      -40.1045993      0.752871067      -40.1045993      0.644296764      48.8283297       
246.18           0.65369621       48.1343149       0.744837212      -40.8125029      0.744837212      -40.8125029      0.65369621       48.1343149       
252.16           0.662816608      47.453461        0.736849688      -41.5066868      0.736849688      -41.5066868      0.662816608      47.453461        
258.14           0.671665284      46.7855742       0.728913354      -42.187378       0.728913354      -42.187378       0.671665284      46.7855742       
264.12           0.680249562      46.1304527       0.721032631      -42.8548092      0.721032631      -42.8548092      0.680249562      46.1304527       
270.1            0.688576735      45.4878883       0.713211524      -43.5092168      0.713211524      -43.5092168      0.688576735      45.4878883       
276.08           0.696654049      44.857667        0.705453645      -44.1508407      0.705453645      -44.1508407      0.696654049      44.857667        
282.06           0.70448868       44.2395708       0.697762234      -44.7799229      0.697762234      -44.7799229      0.70448868       44.2395708       
288.04           0.712087716      43.633378        0.69014018       -45.396707       0.69014018       -45.396707       0.712087716      43.633378        
294.02           0.71945815       43.0388649       0.682590046      -46.0014374      0.682590046      -46.0014374      0.71945815       43.0388649       
300              0.726606859      42.4558057       0.675114084      -46.5943587      0.675114084      -46.5943587      0.726606859      42.4558057       
305.98           0.733540597      41.8839739       0.667714258      -47.1757149      0.667714258      -47.1757149      0.733540597      41.8839739       
311.96           0.740265989      41.3231429       0.660392265      -47.7457492      0.660392265      -47.7457492      0.740265989      41.3231429       
317.94           0.746789518      40.7730862       0.653149549      -48.3047032      0.653149549      -48.3047032      0.746789518      40.7730862       
323.92           0.753117525      40.2335782       0.645987322      -48.8528166      0.645987322      -48.8528166      0.753117525      40.2335782       
329.9            0.759256197      39.7043948       0.638906579      -49.3903268      0.638906579      -49.3903268      0.759256197      39.7043948       
335.88           0.765211571      39.1853134       0.631908117      -49.9174689      0.631908117      -49.9174689      0.765211571      39.1853134       
341.86           0.770989528      38.6761137       0.624992545      -50.4344746      0.624992545      -50.4344746      0.770989528      38.6761137       
347.84           0.776595791      38.1765777       0.618160305      -50.9415728      0.618160305      -50.9415728      0.776595791      38.1765777       
353.82           0.782035924      37.6864902       0.611411678      -51.4389888      0.611411678      -51.4389888      0.782035924      37.6864902       
359.8            0.787315333      37.2056389       0.604746806      -51.9269446      0.604746806      -51.9269446      0.787315333      37.2056389       
365.78           0.792439268      36.7338145       0.598165694      -52.4056582      0.598165694      -52.4056582      0.792439268      36.7338145       
371.76           0.797412821      36.2708113       0.591668229      -52.8753439      0.591668229      -52.8753439      0.797412821      36.2708113       
377.74           0.802240927      35.816427        0.58525419       -53.3362121      0.58525419       -53.3362121      0.802240927      35.816427        
383.72           0.806928371      35.3704626       0.578923251      -53.7884688      0.578923251      -53.7884688      0.806928371      35.3704626       
389.7            0.811479786      34.9327232       0.572675         -54.2323164      0.572675         -54.2323164      0.811479786      34.9327232       
395.68           0.815899655      34.5030175       0.56650894       -54.6679526      0.56650894       -54.6679526      0.815899655      34.5030175       
401.66           0.820192319      34.0811578       0.560424501      -55.0955715      0.560424501      -55.0955715      0.820192319      34.0811578       
407.64           0.824361972      33.6669605       0.554421048      -55.5153624      0.554421048      -55.5153624      0.824361972      33.6669605       
413.62           0.828412674      33.260246        0.548497885      -55.9275109      0.548497885      -55.9275109      0.828412674      33.260246        
419.6            0.832348344      32.8608382       0.542654262      -56.332198       0.542654262      -56.332198       0.832348344      32.8608382       
425.58           0.836172773      32.4685653       0.536889384      -56.7296008      0.536889384      -56.7296008      0.836172773      32.4685653       
431.56           0.83988962       32.0832592       0.531202415      -57.1198921      0.531202415      -57.1198921      0.83988962       32.0832592       
437.54           0.843502421      31.7047555       0.52559248       -57.5032407      0.52559248       -57.5032407      0.843502421      31.7047555       
443.52           0.847014587      31.3328941       0.520058675      -57.8798113      0.520058675      -57.8798113      0.847014587      31.3328941       
449.5            0.850429415      30.9675182       0.514600069      -58.2497644      0.514600069      -58.2497644      0.850429415      30.9675182       
455.48           0.853750084      30.608475        0.509215705      -58.6132568      0.509215705      -58.6132568      0.853750084      30.608475        
461.46           0.856979663      30.2556155       0.503904609      -58.9704414      0.503904609      -58.9704414      0.856979663      30.2556155       
467.44           0.860121114      29.9087941       0.49866579       -59.3214669      0.49866579       -59.3214669      0.860121114      29.9087941       
473.42           0.863177294      29.567869        0.493498246      -59.6664787      0.493498246      -59.6664787      0.863177294      29.567869        
479.4            0.866150961      29.2327019       0.488400961      -60.0056181      0.488400961      -60.0056181      0.866150961      29.2327019       
485.38           0.869044774      28.903158        0.483372915      -60.3390231      0.483372915      -60.3390231      0.869044774      28.903158        
491.36           0.871861299      28.5791058       0.478413082      -60.6668279      0.478413082      -60.6668279      0.871861299      28.5791058       
497.34           0.87460301       28.2604172       0.473520431      -60.9891634      0.473520431      -60.9891634      0.87460301       28.2604172       
503.32           0.877272295      27.9469675       0.468693934      -61.3061569      0.468693934      -61.3061569      0.877272295      27.9469675       
509.3            0.879871457      27.6386351       0.463932559      -61.6179325      0.463932559      -61.6179325      0.879871457      27.6386351       
515.28           0.882402717      27.3353015       0.459235279      -61.924611       0.459235279      -61.924611       0.882402717      27.3353015       
521.26           0.884868217      27.0368513       0.454601072      -62.2263101      0.454601072      -62.2263101      0.884868217      27.0368513       
527.24           0.887270024      26.7431722       0.450028919      -62.5231442      0.450028919      -62.5231442      0.887270024      26.7431722       
533.22           0.889610132      26.4541547       0.445517808      -62.815225       0.445517808      -62.815225       0.889610132      26.4541547       
539.2            0.891890464      26.1696921       0.441066735      -63.1026609      0.441066735      -63.1026609      0.891890464      26.1696921       
545.18           0.894112876      25.8896808       0.436674703      -63.3855577      0.436674703      -63.3855577      0.894112876      25.8896808       
551.16           0.896279157      25.6140196       0.432340726      -63.6640182      0.432340726      -63.6640182      0.896279157      25.6140196       
557.14           0.898391035      25.34261         0.428063826      -63.9381426      0.428063826      -63.9381426      0.898391035      25.34261         
563.12           0.900450176      25.0753563       0.423843036      -64.2080283      0.423843036      -64.2080283      0.900450176      25.0753563       
569.1            0.902458188      24.8121649       0.419677403      -64.4737703      0.419677403      -64.4737703      0.902458188      24.8121649       
575.08           0.904416624      24.5529452       0.415565981      -64.7354609      0.415565981      -64.7354609      0.904416624      24.5529452       
581.06           0.90632698       24.2976085       0.41150784       -64.9931901      0.41150784       -64.9931901      0.90632698       24.2976085       
587.04           0.908190702      24.0460686       0.407502059      -65.2470455      0.407502059      -65.2470455      0.908190702      24.0460686       
593.02           0.910009187      23.7982416       0.403547734      -65.4971121      0.403547734      -65.4971121      0.910009187      23.7982416       
599              0.91178378       23.5540458       0.399643971      -65.7434731      0.399643971      -65.7434731      0.91178378       23.5540458       
604.98           0.913515784      23.3134016       0.395789889      -65.9862092      0.395789889      -65.9862092      0.913515784      23.3134016       
610.96           0.915206453      23.0762314       0.391984621      -66.2253991      0.391984621      -66.2253991      0.915206453      23.0762314       
616.94           0.916857001      22.8424597       0.388227316      -66.4611192      0.388227316      -66.4611192      0.916857001      22.8424597       
622.92           0.918468598      22.6120131       0.384517133      -66.6934443      0.384517133      -66.6934443      0.918468598      22.6120131       
628.9            0.920042378      22.3848199       0.380853247      -66.9224468      0.380853247      -66.9224468      0.920042378      22.3848199       
634.88           0.921579432      22.1608102       0.377234845      -67.1481975      0.377234845      -67.1481975      0.921579432      22.1608102       
640.86           0.923080816      21.9399162       0.373661129      -67.3707652      0.373661129      -67.3707652      0.923080816      21.9399162       
646.84           0.924547552      21.7220716       0.370131315      -67.590217       0.370131315      -67.590217       0.924547552      21.7220716       
652.82           0.925980625      21.507212        0.366644631      -67.8066182      0.366644631      -67.8066182      0.925980625      21.507212        
658.8            0.927380989      21.2952745       0.36320032       -68.0200323      0.36320032       -68.0200323      0.927380989      21.2952745       
664.78           0.928749564      21.0861978       0.359797639      -68.2305214      0.359797639      -68.2305214      0.928749564      21.0861978       
670.76           0.930087242      20.8799223       0.356435856      -68.4381458      0.356435856      -68.4381458      0.930087242      20.8799223       
676.74           0.931394884      20.6763898       0.353114255      -68.6429643      0.353114255      -68.6429643      0.931394884      20.6763898       
682.72           0.932673322      20.4755436       0.349832132      -68.8450342      0.349832132      -68.8450342      0.932673322      20.4755436       
688.7            0.933923363      20.2773286       0.346588795      -69.0444113      0.346588795      -69.0444113      0.933923363      20.2773286       
694.68           0.935145784      20.0816908       0.343383567      -69.24115        0.343383567      -69.24115        0.935145784      20.0816908       
700.66           0.936341341      19.8885779       0.340215781      -69.4353033      0.340215781      -69.4353033      0.936341341      19.8885779       
706.64           0.937510762      19.6979385       0.337084786      -69.6269228      0.337084786      -69.6269228      0.937510762      19.6979385       
712.62           0.938654754      19.5097229       0.333989941      -69.816059       0.333989941      -69.816059       0.938654754      19.5097229       
718.6            0.939773998      19.3238824       0.330930618      -70.0027608      0.330930618      -70.0027608      0.939773998      19.3238824       
724.58           0.940869157      19.1403695       0.327906201      -70.1870762      0.327906201      -70.1870762      0.940869157      19.1403695       
730.56           0.941940871      18.959138        0.324916085      -70.3690516      0.324916085      -70.3690516      0.941940871      18.959138        
736.54           0.942989758      18.7801427       0.321959678      -70.5487328      0.321959678      -70.5487328      0.942989758      18.7801427       
742.52           0.94401642       18.6033397       0.319036399      -70.7261638      0.319036399      -70.7261638      0.94401642       18.6033397       
748.5            0.945021437      18.4286861       0.316145678      -70.9013881      0.316145678      -70.9013881      0.945021437      18.4286861       
754.48           0.946005372      18.2561398       0.313286957      -71.0744476      0.313286957      -71.0744476      0.946005372      18.2561398       
760.46           0.946968771      18.0856602       0.310459688      -71.2453837      0.310459688      -71.2453837      0.946968771      18.0856602       
