! Coilcraft 1008HT-R14 Chip Inductor				
! 16 July 2002			
# MHZ S MA R 50
!Freq             MagS11           AngS11           MagS21           AngS21           MagS12           AngS12           MagS22           AngS22
1                0.0125139464     43.6549863       0.990983691      -0.499462317     0.990983691      -0.499462317     0.0125139464     43.6549863       
5.24             0.046960136      73.1305532       0.987395741      -2.6086055       0.987395741      -2.6086055       0.046960136      73.1305532       
9.48             0.0830616437     76.2050176       0.983507703      -4.70459384      0.983507703      -4.70459384      0.0830616437     76.2050176       
13.72            0.11898897       76.3041555       0.978679156      -6.78385603      0.978679156      -6.78385603      0.11898897       76.3041555       
17.96            0.154471161      75.4717943       0.972810941      -8.8420515       0.972810941      -8.8420515       0.154471161      75.4717943       
22.2             0.189353215      74.2353155       0.965901125      -10.8748297      0.965901125      -10.8748297      0.189353215      74.2353155       
26.44            0.223513435      72.7959899       0.957986912      -12.8780493      0.957986912      -12.8780493      0.223513435      72.7959899       
30.68            0.25684941       71.2491789       0.949126743      -14.8478869      0.949126743      -14.8478869      0.25684941       71.2491789       
34.92            0.289274699      69.6468898       0.939392117      -16.7809004      0.939392117      -16.7809004      0.289274699      69.6468898       
39.16            0.320717824      68.0204263       0.928862713      -18.6740672      0.928862713      -18.6740672      0.320717824      68.0204263       
43.4             0.351121733      66.3900188       0.917622951      -20.5248029      0.917622951      -20.5248029      0.351121733      66.3900188       
47.64            0.380443204      64.7694219       0.905759335      -22.3309648      0.905759335      -22.3309648      0.380443204      64.7694219       
51.88            0.408652076      63.1683166       0.893358317      -24.0908449      0.893358317      -24.0908449      0.408652076      63.1683166       
56.12            0.435730286      61.5936603       0.880504582      -25.8031522      0.880504582      -25.8031522      0.435730286      61.5936603       
60.36            0.46167076       60.0504965       0.867279687      -27.4669884      0.867279687      -27.4669884      0.46167076       60.0504965       
64.6             0.486476208      58.542467        0.853761017      -29.081818       0.853761017      -29.081818       0.486476208      58.542467        
68.84            0.510157873      57.0721544       0.840021032      -30.6474357      0.840021032      -30.6474357      0.510157873      57.0721544       
73.08            0.532734272      55.6413212       0.826126754      -32.1639311      0.826126754      -32.1639311      0.532734272      55.6413212       
77.32            0.554229984      54.2510842       0.812139479      -33.6316533      0.812139479      -33.6316533      0.554229984      54.2510842       
81.56            0.574674507      52.9020461       0.798114666      -35.051176       0.798114666      -35.051176       0.574674507      52.9020461       
85.8             0.594101198      51.5943979       0.784101977      -36.423264       0.784101977      -36.423264       0.594101198      51.5943979       
90.04            0.612546319      50.3280006       0.770145428      -37.7488415      0.770145428      -37.7488415      0.612546319      50.3280006       
94.28            0.630048191      49.1024513       0.756283639      -39.0289631      0.756283639      -39.0289631      0.630048191      49.1024513       
98.52            0.646646455      47.9171372       0.742550132      -40.264787       0.742550132      -40.264787       0.646646455      47.9171372       
102.76           0.662381442      46.7712807       0.728973684      -41.4575509      0.728973684      -41.4575509      0.662381442      46.7712807       
107              0.677293641      45.6639769       0.715578699      -42.6085515      0.715578699      -42.6085515      0.677293641      45.6639769       
111.24           0.69142326       44.5942242       0.702385585      -43.7191252      0.702385585      -43.7191252      0.69142326       44.5942242       
115.48           0.704809869      43.5609508       0.689411137      -44.7906328      0.689411137      -44.7906328      0.704809869      43.5609508       
119.72           0.71749212       42.563036        0.676668908      -45.8244451      0.676668908      -45.8244451      0.71749212       42.563036        
123.96           0.729507524      41.5993279       0.664169555      -46.8219319      0.664169555      -46.8219319      0.729507524      41.5993279       
128.2            0.740892295      40.6686585       0.651921178      -47.7844521      0.651921178      -47.7844521      0.740892295      40.6686585       
132.44           0.751681231      39.7698555       0.639929627      -48.7133459      0.639929627      -48.7133459      0.751681231      39.7698555       
136.68           0.761907637      38.9017522       0.628198787      -49.6099281      0.628198787      -49.6099281      0.761907637      38.9017522       
140.92           0.771603287      38.0631957       0.616730835      -50.4754834      0.616730835      -50.4754834      0.771603287      38.0631957       
145.16           0.7807984        37.2530524       0.605526481      -51.3112621      0.605526481      -51.3112621      0.7807984        37.2530524       
149.4            0.789521652      36.4702137       0.594585175      -52.1184777      0.594585175      -52.1184777      0.789521652      36.4702137       
153.64           0.797800192      35.7135995       0.583905299      -52.898304       0.583905299      -52.898304       0.797800192      35.7135995       
157.88           0.805659683      34.9821609       0.573484333      -53.6518743      0.573484333      -53.6518743      0.805659683      34.9821609       
162.12           0.813124339      34.274882        0.563319007      -54.3802804      0.563319007      -54.3802804      0.813124339      34.274882        
166.36           0.820216983      33.5907819       0.553405429      -55.0845722      0.553405429      -55.0845722      0.820216983      33.5907819       
170.6            0.826959104      32.9289147       0.543739203      -55.7657578      0.543739203      -55.7657578      0.826959104      32.9289147       
174.84           0.83337091       32.2883703       0.534315524      -56.4248042      0.534315524      -56.4248042      0.83337091       32.2883703       
179.08           0.8394714        31.6682743       0.525129273      -57.0626373      0.525129273      -57.0626373      0.8394714        31.6682743       
183.32           0.845278418      31.0677876       0.516175085      -57.6801436      0.516175085      -57.6801436      0.845278418      31.0677876       
187.56           0.850808717      30.4861058       0.507447419      -58.2781706      0.507447419      -58.2781706      0.850808717      30.4861058       
191.8            0.856078024      29.9224587       0.498940613      -58.8575283      0.498940613      -58.8575283      0.856078024      29.9224587       
196.04           0.861101095      29.3761092       0.490648927      -59.41899        0.490648927      -59.41899        0.861101095      29.3761092       
200.28           0.865891773      28.8463524       0.482566591      -59.9632944      0.482566591      -59.9632944      0.865891773      28.8463524       
204.52           0.870463044      28.3325146       0.474687834      -60.4911461      0.474687834      -60.4911461      0.870463044      28.3325146       
208.76           0.874827092      27.833952        0.467006915      -61.0032173      0.467006915      -61.0032173      0.874827092      27.833952        
213              0.878995343      27.35005         0.459518145      -61.5001493      0.459518145      -61.5001493      0.878995343      27.35005         
217.24           0.88297852       26.8802215       0.452215908      -61.9825536      0.452215908      -61.9825536      0.88297852       26.8802215       
221.48           0.886786684      26.4239063       0.445094679      -62.4510132      0.445094679      -62.4510132      0.886786684      26.4239063       
225.72           0.890429275      25.9805695       0.438149034      -62.9060842      0.438149034      -62.9060842      0.890429275      25.9805695       
229.96           0.893915156      25.5497008       0.431373662      -63.3482967      0.431373662      -63.3482967      0.893915156      25.5497008       
234.2            0.897252649      25.1308129       0.424763372      -63.7781561      0.424763372      -63.7781561      0.897252649      25.1308129       
238.44           0.900449568      24.7234411       0.418313101      -64.1961446      0.418313101      -64.1961446      0.900449568      24.7234411       
242.68           0.903513256      24.3271417       0.412017918      -64.6027217      0.412017918      -64.6027217      0.903513256      24.3271417       
246.92           0.906450613      23.9414911       0.405873023      -64.998326       0.405873023      -64.998326       0.906450613      23.9414911       
251.16           0.909268126      23.5660851       0.399873757      -65.3833758      0.399873757      -65.3833758      0.909268126      23.5660851       
255.4            0.911971894      23.2005378       0.394015594      -65.7582702      0.394015594      -65.7582702      0.911971894      23.2005378       
259.64           0.914567658      22.8444808       0.388294146      -66.12339        0.388294146      -66.12339        0.914567658      22.8444808       
263.88           0.917060819      22.4975621       0.382705162      -66.4790987      0.382705162      -66.4790987      0.917060819      22.4975621       
268.12           0.919456464      22.1594455       0.377244523      -66.8257434      0.377244523      -66.8257434      0.919456464      22.1594455       
272.36           0.921759382      21.82981         0.371908246      -67.1636555      0.371908246      -67.1636555      0.921759382      21.82981         
276.6            0.923974089      21.5083486       0.366692476      -67.4931516      0.366692476      -67.4931516      0.923974089      21.5083486       
280.84           0.92610484       21.194768        0.361593486      -67.8145342      0.361593486      -67.8145342      0.92610484       21.194768        
285.08           0.92815565       20.8887879       0.356607674      -68.1280923      0.356607674      -68.1280923      0.92815565       20.8887879       
289.32           0.930130306      20.5901399       0.35173156       -68.4341022      0.35173156       -68.4341022      0.930130306      20.5901399       
293.56           0.932032383      20.2985675       0.346961781      -68.7328282      0.346961781      -68.7328282      0.932032383      20.2985675       
297.8            0.933865258      20.0138254       0.342295092      -69.0245231      0.342295092      -69.0245231      0.933865258      20.0138254       
302.04           0.935632121      19.7356786       0.337728357      -69.3094285      0.337728357      -69.3094285      0.935632121      19.7356786       
306.28           0.937335988      19.4639022       0.333258551      -69.587776       0.333258551      -69.587776       0.937335988      19.4639022       
310.52           0.938979709      19.1982808       0.328882752      -69.8597871      0.328882752      -69.8597871      0.938979709      19.1982808       
314.76           0.940565983      18.9386082       0.324598141      -70.125674       0.324598141      -70.125674       0.940565983      18.9386082       
319              0.942097363      18.6846866       0.320401995      -70.3856399      0.320401995      -70.3856399      0.942097363      18.6846866       
323.24           0.943576266      18.4363266       0.316291689      -70.6398795      0.316291689      -70.6398795      0.943576266      18.4363266       
327.48           0.945004983      18.1933466       0.312264688      -70.8885796      0.312264688      -70.8885796      0.945004983      18.1933466       
331.72           0.946385686      17.9555723       0.308318544      -71.1319191      0.308318544      -71.1319191      0.946385686      17.9555723       
335.96           0.94772043       17.7228367       0.304450898      -71.3700697      0.304450898      -71.3700697      0.94772043       17.7228367       
340.2            0.94901117       17.4949793       0.300659469      -71.6031961      0.300659469      -71.6031961      0.94901117       17.4949793       
344.44           0.950259758      17.2718463       0.296942057      -71.8314564      0.296942057      -71.8314564      0.950259758      17.2718463       
348.68           0.951467952      17.0532898       0.29329654       -72.0550021      0.29329654       -72.0550021      0.951467952      17.0532898       
352.92           0.952637423      16.8391678       0.289720866      -72.2739792      0.289720866      -72.2739792      0.952637423      16.8391678       
357.16           0.953769758      16.629344        0.286213056      -72.4885275      0.286213056      -72.4885275      0.953769758      16.629344        
361.4            0.954866466      16.4236874       0.282771199      -72.6987814      0.282771199      -72.6987814      0.954866466      16.4236874       
365.64           0.955928981      16.2220718       0.27939345       -72.9048703      0.27939345       -72.9048703      0.955928981      16.2220718       
369.88           0.956958669      16.0243761       0.276078024      -73.1069184      0.276078024      -73.1069184      0.956958669      16.0243761       
374.12           0.957956829      15.8304837       0.272823201      -73.3050452      0.272823201      -73.3050452      0.957956829      15.8304837       
378.36           0.958924697      15.6402826       0.269627316      -73.4993657      0.269627316      -73.4993657      0.958924697      15.6402826       
382.6            0.959863452      15.4536648       0.266488763      -73.6899905      0.266488763      -73.6899905      0.959863452      15.4536648       
386.84           0.960774216      15.2705263       0.263405987      -73.877026       0.263405987      -73.877026       0.960774216      15.2705263       
391.08           0.961658059      15.0907672       0.260377487      -74.0605748      0.260377487      -74.0605748      0.961658059      15.0907672       
395.32           0.962516001      14.9142909       0.257401813      -74.2407357      0.257401813      -74.2407357      0.962516001      14.9142909       
399.56           0.963349016      14.7410047       0.254477561      -74.4176037      0.254477561      -74.4176037      0.963349016      14.7410047       
403.8            0.964158033      14.5708191       0.251603373      -74.5912704      0.251603373      -74.5912704      0.964158033      14.5708191       
408.04           0.964943939      14.4036477       0.248777939      -74.7618243      0.248777939      -74.7618243      0.964943939      14.4036477       
412.28           0.96570758       14.2394074       0.245999989      -74.9293506      0.245999989      -74.9293506      0.96570758       14.2394074       
416.52           0.966449766      14.0780177       0.243268295      -75.0939312      0.243268295      -75.0939312      0.966449766      14.0780177       
420.76           0.96717127       13.9194014       0.240581668      -75.2556456      0.240581668      -75.2556456      0.96717127       13.9194014       
425              0.967872831      13.7634837       0.23793896       -75.4145702      0.23793896       -75.4145702      0.967872831      13.7634837       
429.24           0.968555157      13.6101924       0.235339056      -75.5707787      0.235339056      -75.5707787      0.968555157      13.6101924       
433.48           0.969218923      13.4594578       0.23278088       -75.7243423      0.23278088       -75.7243423      0.969218923      13.4594578       
437.72           0.969864777      13.3112126       0.230263387      -75.87533        0.230263387      -75.87533        0.969864777      13.3112126       
441.96           0.970493339      13.1653918       0.227785568      -76.0238081      0.227785568      -76.0238081      0.970493339      13.1653918       
446.2            0.971105203      13.0219327       0.225346444      -76.1698408      0.225346444      -76.1698408      0.971105203      13.0219327       
450.44           0.971700937      12.8807744       0.222945066      -76.3134902      0.222945066      -76.3134902      0.971700937      12.8807744       
454.68           0.972281085      12.7418582       0.220580516      -76.4548162      0.220580516      -76.4548162      0.972281085      12.7418582       
458.92           0.972846171      12.6051274       0.218251903      -76.5938769      0.218251903      -76.5938769      0.972846171      12.6051274       
463.16           0.973396695      12.4705271       0.215958364      -76.7307281      0.215958364      -76.7307281      0.973396695      12.4705271       
467.4            0.973933138      12.3380041       0.213699062      -76.8654243      0.213699062      -76.8654243      0.973933138      12.3380041       
471.64           0.97445596       12.2075069       0.211473186      -76.9980177      0.211473186      -76.9980177      0.97445596       12.2075069       
475.88           0.974965605      12.0789859       0.209279948      -77.1285593      0.209279948      -77.1285593      0.974965605      12.0789859       
480.12           0.975462496      11.9523927       0.207118586      -77.2570982      0.207118586      -77.2570982      0.975462496      11.9523927       
484.36           0.975947042      11.8276808       0.204988358      -77.3836818      0.204988358      -77.3836818      0.975947042      11.8276808       
488.6            0.976419635      11.7048049       0.202888546      -77.5083563      0.202888546      -77.5083563      0.976419635      11.7048049       
492.84           0.976880651      11.5837213       0.200818452      -77.6311663      0.200818452      -77.6311663      0.976880651      11.5837213       
497.08           0.977330453      11.4643874       0.1987774        -77.752155       0.1987774        -77.752155       0.977330453      11.4643874       
501.32           0.977769389      11.3467622       0.196764732      -77.8713642      0.196764732      -77.8713642      0.977769389      11.3467622       
505.56           0.978197793      11.2308057       0.19477981       -77.9888346      0.19477981       -77.9888346      0.978197793      11.2308057       
509.8            0.978615987      11.1164792       0.192822013      -78.1046055      0.192822013      -78.1046055      0.978615987      11.1164792       
514.04           0.979024281      11.0037454       0.19089074       -78.218715       0.19089074       -78.218715       0.979024281      11.0037454       
518.28           0.979422974      10.8925677       0.188985406      -78.3312001      0.188985406      -78.3312001      0.979422974      10.8925677       
522.52           0.979812353      10.7829108       0.187105442      -78.4420966      0.187105442      -78.4420966      0.979812353      10.7829108       
526.76           0.980192694      10.6747405       0.185250296      -78.5514394      0.185250296      -78.5514394      0.980192694      10.6747405       
531              0.980564264      10.5680235       0.183419431      -78.6592621      0.183419431      -78.6592621      0.980564264      10.5680235       
535.24           0.980927319      10.4627276       0.181612325      -78.7655976      0.181612325      -78.7655976      0.980927319      10.4627276       
539.48           0.981282108      10.3588213       0.17982847       -78.8704776      0.17982847       -78.8704776      0.981282108      10.3588213       
