! Coilcraft 1008HT-68N Chip Inductor				
! 16 July 2002			
# MHZ S MA R 50
!Freq             MagS11           AngS11           MagS21           AngS21           MagS12           AngS12           MagS22           AngS22
1                0.00542946398    51.4087295       0.99662235       -0.243973946     0.99662235       -0.243973946     0.00542946398    51.4087295       
6.48             0.0279911728     78.0864009       0.994598768      -1.57795202      0.994598768      -1.57795202      0.0279911728     78.0864009       
11.96            0.0510823305     80.3565572       0.992721088      -2.90784924      0.992721088      -2.90784924      0.0510823305     80.3565572       
17.44            0.0741208936     80.5447566       0.990525705      -4.23303651      0.990525705      -4.23303651      0.0741208936     80.5447566       
22.92            0.0970388266     80.0848623       0.987926326      -5.55249256      0.987926326      -5.55249256      0.0970388266     80.0848623       
28.4             0.11979536       79.3364182       0.984894197      -6.8651051       0.984894197      -6.8651051       0.11979536       79.3364182       
33.88            0.142356075      78.4351976       0.981421044      -8.16974317      0.981421044      -8.16974317      0.142356075      78.4351976       
39.36            0.164689457      77.4449807       0.977508675      -9.4652886       0.977508675      -9.4652886       0.164689457      77.4449807       
44.84            0.186766109      76.4002385       0.973164907      -10.7506539      0.973164907      -10.7506539      0.186766109      76.4002385       
50.32            0.208558599      75.3215503       0.968401593      -12.024794       0.968401593      -12.024794       0.208558599      75.3215503       
55.8             0.230041476      74.2221594       0.963233516      -13.2867148      0.963233516      -13.2867148      0.230041476      74.2221594       
61.28            0.251191334      73.1111037       0.95767766       -14.5354795      0.95767766       -14.5354795      0.251191334      73.1111037       
66.76            0.271986871      71.9948466       0.951752697      -15.7702133      0.951752697      -15.7702133      0.271986871      71.9948466       
72.24            0.292408932      70.8781884       0.945478582      -16.9901067      0.945478582      -16.9901067      0.292408932      70.8781884       
77.72            0.312440536      69.7648027       0.938876223      -18.1944179      0.938876223      -18.1944179      0.312440536      69.7648027       
83.2             0.332066871      68.657569        0.931967188      -19.3824744      0.931967188      -19.3824744      0.332066871      68.657569        
88.68            0.351275275      67.5587858       0.924773462      -20.5536729      0.924773462      -20.5536729      0.351275275      67.5587858       
94.16            0.370055185      66.4703129       0.917317222      -21.7074799      0.917317222      -21.7074799      0.370055185      66.4703129       
99.64            0.388398079      65.3936689       0.909620638      -22.8434301      0.909620638      -22.8434301      0.388398079      65.3936689       
105.12           0.406297394      64.3301004       0.901705704      -23.9611252      0.901705704      -23.9611252      0.406297394      64.3301004       
110.6            0.423748433      63.2806323       0.893594081      -25.0602321      0.893594081      -25.0602321      0.423748433      63.2806323       
116.08           0.44074826       62.2461051       0.885306964      -26.1404801      0.885306964      -26.1404801      0.44074826       62.2461051       
121.56           0.45729559       61.227204        0.876864972      -27.2016584      0.876864972      -27.2016584      0.45729559       61.227204        
127.04           0.473390666      60.2244809       0.86828805       -28.2436134      0.86828805       -28.2436134      0.473390666      60.2244809       
132.52           0.489035145      59.2383733       0.859595392      -29.2662447      0.859595392      -29.2662447      0.489035145      59.2383733       
138              0.504231966      58.2692185       0.850805376      -30.2695026      0.850805376      -30.2695026      0.504231966      58.2692185       
143.48           0.518985235      57.3172661       0.841935519      -31.2533839      0.841935519      -31.2533839      0.518985235      57.3172661       
148.96           0.533300098      56.382689        0.833002444      -32.2179291      0.833002444      -32.2179291      0.533300098      56.382689        
154.44           0.547182629      55.4655919       0.824021853      -33.1632185      0.824021853      -33.1632185      0.547182629      55.4655919       
159.92           0.560639714      54.5660197       0.815008519      -34.0893687      0.815008519      -34.0893687      0.560639714      54.5660197       
165.4            0.573678942      53.6839646       0.805976286      -34.9965295      0.805976286      -34.9965295      0.573678942      53.6839646       
170.88           0.586308505      52.8193718       0.796938074      -35.8848806      0.796938074      -35.8848806      0.586308505      52.8193718       
176.36           0.5985371        51.9721458       0.787905891      -36.7546283      0.787905891      -36.7546283      0.5985371        51.9721458       
181.84           0.610373845      51.1421548       0.778890857      -37.6060025      0.778890857      -37.6060025      0.610373845      51.1421548       
187.32           0.621828189      50.3292357       0.769903229      -38.4392543      0.769903229      -38.4392543      0.621828189      50.3292357       
192.8            0.63290984       49.5331981       0.760952424      -39.2546525      0.760952424      -39.2546525      0.63290984       49.5331981       
198.28           0.6436287        48.7538277       0.752047061      -40.0524818      0.752047061      -40.0524818      0.6436287        48.7538277       
203.76           0.653994794      47.9908902       0.743194986      -40.8330403      0.743194986      -40.8330403      0.653994794      47.9908902       
209.24           0.66401822       47.2441339       0.734403316      -41.5966368      0.734403316      -41.5966368      0.66401822       47.2441339       
214.72           0.673709099      46.5132926       0.725678473      -42.3435897      0.725678473      -42.3435897      0.673709099      46.5132926       
220.2            0.683077525      45.7980883       0.717026221      -43.0742243      0.717026221      -43.0742243      0.683077525      45.7980883       
225.68           0.692133532      45.098233        0.708451706      -43.7888714      0.708451706      -43.7888714      0.692133532      45.098233        
231.16           0.700887058      44.413431        0.699959494      -44.487866       0.699959494      -44.487866       0.700887058      44.413431        
236.64           0.709347911      43.7433807       0.691553608      -45.1715455      0.691553608      -45.1715455      0.709347911      43.7433807       
242.12           0.717525752      43.0877763       0.683237561      -45.8402489      0.683237561      -45.8402489      0.717525752      43.0877763       
247.6            0.725430064      42.446309        0.675014398      -46.494315       0.675014398      -46.494315       0.725430064      42.446309        
253.08           0.733070142      41.8186684       0.666886724      -47.1340821      0.666886724      -47.1340821      0.733070142      41.8186684       
258.56           0.740455076      41.2045436       0.658856738      -47.7598866      0.658856738      -47.7598866      0.740455076      41.2045436       
264.04           0.747593735      40.6036245       0.650926266      -48.3720624      0.650926266      -48.3720624      0.747593735      40.6036245       
269.52           0.754494764      40.0156023       0.643096789      -48.9709402      0.643096789      -48.9709402      0.754494764      40.0156023       
275              0.761166573      39.4401703       0.635369472      -49.5568469      0.635369472      -49.5568469      0.761166573      39.4401703       
280.48           0.767617333      38.8770251       0.627745191      -50.1301049      0.627745191      -50.1301049      0.767617333      38.8770251       
285.96           0.773854975      38.3258662       0.620224554      -50.691032       0.620224554      -50.691032       0.773854975      38.3258662       
291.44           0.779887183      37.7863977       0.612807932      -51.2399405      0.612807932      -51.2399405      0.779887183      37.7863977       
296.92           0.7857214        37.2583277       0.605495472      -51.7771374      0.605495472      -51.7771374      0.7857214        37.2583277       
302.4            0.791364826      36.7413692       0.598287126      -52.3029238      0.598287126      -52.3029238      0.791364826      36.7413692       
307.88           0.796824421      36.2352404       0.591182663      -52.8175949      0.591182663      -52.8175949      0.796824421      36.2352404       
313.36           0.802106905      35.7396647       0.584181693      -53.3214395      0.584181693      -53.3214395      0.802106905      35.7396647       
318.84           0.807218767      35.254371        0.577283679      -53.8147404      0.577283679      -53.8147404      0.807218767      35.254371        
324.32           0.812166264      34.7790939       0.570487953      -54.2977737      0.570487953      -54.2977737      0.812166264      34.7790939       
329.8            0.816955428      34.3135739       0.563793732      -54.7708092      0.563793732      -54.7708092      0.816955428      34.3135739       
335.28           0.821592073      33.8575572       0.55720013       -55.2341102      0.55720013       -55.2341102      0.821592073      33.8575572       
340.76           0.826081796      33.4107961       0.55070617       -55.6879334      0.55070617       -55.6879334      0.826081796      33.4107961       
346.24           0.830429987      32.9730488       0.544310795      -56.132529       0.544310795      -56.132529       0.830429987      32.9730488       
351.72           0.834641833      32.5440793       0.538012878      -56.568141       0.538012878      -56.568141       0.834641833      32.5440793       
357.2            0.838722325      32.1236578       0.531811231      -56.9950068      0.531811231      -56.9950068      0.838722325      32.1236578       
362.68           0.842676261      31.7115601       0.525704615      -57.4133574      0.525704615      -57.4133574      0.842676261      31.7115601       
368.16           0.846508256      31.3075682       0.519691747      -57.8234178      0.519691747      -57.8234178      0.846508256      31.3075682       
373.64           0.850222749      30.9114695       0.513771305      -58.2254067      0.513771305      -58.2254067      0.850222749      30.9114695       
379.12           0.853824002      30.5230574       0.507941938      -58.6195367      0.507941938      -58.6195367      0.853824002      30.5230574       
384.6            0.857316114      30.1421309       0.502202271      -59.0060146      0.502202271      -59.0060146      0.857316114      30.1421309       
390.08           0.860703024      29.7684942       0.496550907      -59.3850413      0.496550907      -59.3850413      0.860703024      29.7684942       
395.56           0.863988515      29.4019574       0.490986436      -59.7568119      0.490986436      -59.7568119      0.863988515      29.4019574       
401.04           0.867176224      29.0423355       0.485507438      -60.1215161      0.485507438      -60.1215161      0.867176224      29.0423355       
406.52           0.870269641      28.689449        0.480112486      -60.4793381      0.480112486      -60.4793381      0.870269641      28.689449        
412              0.873272123      28.3431233       0.47480015       -60.8304566      0.47480015       -60.8304566      0.873272123      28.3431233       
417.48           0.876186891      28.003189        0.469569001      -61.1750454      0.469569001      -61.1750454      0.876186891      28.003189        
422.96           0.879017043      27.6694812       0.464417614      -61.5132729      0.464417614      -61.5132729      0.879017043      27.6694812       
428.44           0.881765551      27.34184         0.459344567      -61.8453029      0.459344567      -61.8453029      0.881765551      27.34184         
433.92           0.884435273      27.0201102       0.454348451      -62.1712942      0.454348451      -62.1712942      0.884435273      27.0201102       
439.4            0.887028954      26.7041409       0.449427861      -62.491401       0.449427861      -62.491401       0.887028954      26.7041409       
444.88           0.889549229      26.3937855       0.444581409      -62.8057728      0.444581409      -62.8057728      0.889549229      26.3937855       
450.36           0.891998633      26.088902        0.439807717      -63.114555       0.439807717      -63.114555       0.891998633      26.088902        
455.84           0.894379599      25.7893522       0.435105425      -63.4178885      0.435105425      -63.4178885      0.894379599      25.7893522       
461.32           0.896694467      25.4950021       0.430473187      -63.71591        0.430473187      -63.71591        0.896694467      25.4950021       
466.8            0.898945484      25.2057216       0.425909673      -64.0087523      0.425909673      -64.0087523      0.898945484      25.2057216       
472.28           0.90113481       24.9213842       0.421413573      -64.2965442      0.421413573      -64.2965442      0.90113481       24.9213842       
477.76           0.903264522      24.6418675       0.416983596      -64.5794108      0.416983596      -64.5794108      0.903264522      24.6418675       
483.24           0.905336617      24.3670523       0.412618468      -64.8574733      0.412618468      -64.8574733      0.905336617      24.3670523       
488.72           0.907353012      24.0968229       0.408316938      -65.1308496      0.408316938      -65.1308496      0.907353012      24.0968229       
494.2            0.909315554      23.8310672       0.404077772      -65.3996538      0.404077772      -65.3996538      0.909315554      23.8310672       
499.68           0.911226016      23.5696761       0.399899758      -65.663997       0.399899758      -65.663997       0.911226016      23.5696761       
505.16           0.913086106      23.3125439       0.395781707      -65.9239869      0.395781707      -65.9239869      0.913086106      23.3125439       
510.64           0.914897465      23.0595677       0.391722447      -66.1797279      0.391722447      -66.1797279      0.914897465      23.0595677       
516.12           0.916661673      22.8106478       0.38772083       -66.4313216      0.38772083       -66.4313216      0.916661673      22.8106478       
521.6            0.918380249      22.5656873       0.383775729      -66.6788665      0.383775729      -66.6788665      0.918380249      22.5656873       
527.08           0.920054655      22.324592        0.379886038      -66.9224582      0.379886038      -66.9224582      0.920054655      22.324592        
532.56           0.9216863        22.0872706       0.376050671      -67.1621896      0.376050671      -67.1621896      0.9216863        22.0872706       
538.04           0.923276537      21.8536342       0.372268564      -67.3981508      0.372268564      -67.3981508      0.923276537      21.8536342       
543.52           0.924826672      21.6235966       0.368538675      -67.6304296      0.368538675      -67.6304296      0.924826672      21.6235966       
549              0.926337961      21.397074        0.364859982      -67.8591109      0.364859982      -67.8591109      0.926337961      21.397074        
554.48           0.927811613      21.173985        0.361231483      -68.0842774      0.361231483      -68.0842774      0.927811613      21.173985        
559.96           0.929248794      20.9542504       0.357652197      -68.3060094      0.357652197      -68.3060094      0.929248794      20.9542504       
565.44           0.930650627      20.7377933       0.354121163      -68.5243847      0.354121163      -68.5243847      0.930650627      20.7377933       
570.92           0.932018194      20.5245391       0.350637442      -68.7394793      0.350637442      -68.7394793      0.932018194      20.5245391       
576.4            0.933352536      20.314415        0.34720011       -68.9513667      0.34720011       -68.9513667      0.933352536      20.314415        
581.88           0.93465466       20.1073505       0.343808268      -69.1601184      0.343808268      -69.1601184      0.93465466       20.1073505       
587.36           0.935925533      19.903277        0.340461032      -69.365804       0.340461032      -69.365804       0.935925533      19.903277        
592.84           0.937166091      19.7021277       0.337157538      -69.5684911      0.337157538      -69.5684911      0.937166091      19.7021277       
598.32           0.938377234      19.5038377       0.333896942      -69.7682453      0.333896942      -69.7682453      0.938377234      19.5038377       
603.8            0.939559832      19.3083438       0.330678417      -69.9651305      0.330678417      -69.9651305      0.939559832      19.3083438       
609.28           0.940714722      19.1155848       0.327501153      -70.1592088      0.327501153      -70.1592088      0.940714722      19.1155848       
614.76           0.941842714      18.9255009       0.324364358      -70.3505405      0.324364358      -70.3505405      0.941842714      18.9255009       
620.24           0.942944588      18.7380341       0.321267259      -70.5391845      0.321267259      -70.5391845      0.942944588      18.7380341       
625.72           0.944021098      18.5531277       0.318209098      -70.7251978      0.318209098      -70.7251978      0.944021098      18.5531277       
631.2            0.945072973      18.3707269       0.315189134      -70.9086359      0.315189134      -70.9086359      0.945072973      18.3707269       
636.68           0.946100913      18.1907781       0.312206641      -71.0895529      0.312206641      -71.0895529      0.946100913      18.1907781       
642.16           0.947105598      18.0132292       0.309260913      -71.2680014      0.309260913      -71.2680014      0.947105598      18.0132292       
647.64           0.948087683      17.8380295       0.306351254      -71.4440325      0.306351254      -71.4440325      0.948087683      17.8380295       
653.12           0.949047801      17.6651297       0.303476987      -71.6176959      0.303476987      -71.6176959      0.949047801      17.6651297       
658.6            0.949986564      17.4944818       0.30063745       -71.7890402      0.30063745       -71.7890402      0.949986564      17.4944818       
664.08           0.950904564      17.3260388       0.297831992      -71.9581125      0.297831992      -71.9581125      0.950904564      17.3260388       
669.56           0.951802371      17.1597554       0.295059981      -72.1249586      0.295059981      -72.1249586      0.951802371      17.1597554       
675.04           0.952680538      16.995587        0.292320795      -72.2896233      0.292320795      -72.2896233      0.952680538      16.995587        
680.52           0.9535396        16.8334904       0.289613828      -72.4521501      0.289613828      -72.4521501      0.9535396        16.8334904       
686              0.954380072      16.6734237       0.286938487      -72.6125813      0.286938487      -72.6125813      0.954380072      16.6734237       
691.48           0.955202456      16.5153456       0.284294191      -72.7709581      0.284294191      -72.7709581      0.955202456      16.5153456       
696.96           0.956007234      16.3592162       0.281680373      -72.9273208      0.281680373      -72.9273208      0.956007234      16.3592162       
