! Coilcraft 1008HT-R56 Chip Inductor				
! 16 July 2002			
# MHZ S MA R 50
!Freq             MagS11           AngS11           MagS21           AngS21           MagS12           AngS12           MagS22           AngS22
1                0.0442770545     53.2508155       0.974154693      -2.08710454      0.974154693      -2.08710454      0.0442770545     53.2508155       
3.24             0.120486753      68.7994316       0.963002019      -6.69868684      0.963002019      -6.69868684      0.120486753      68.7994316       
5.48             0.196996483      69.0988887       0.947759576      -11.1966824      0.947759576      -11.1966824      0.196996483      69.0988887       
7.72             0.270217823      66.9534898       0.928142707      -15.5394451      0.928142707      -15.5394451      0.270217823      66.9534898       
9.96             0.338951955      64.0830851       0.904764483      -19.6913453      0.904764483      -19.6913453      0.338951955      64.0830851       
12.2             0.402540693      60.9969153       0.878458821      -23.6262934      0.878458821      -23.6262934      0.402540693      60.9969153       
14.44            0.460681411      57.9032898       0.850094867      -27.3281995      0.850094867      -27.3281995      0.460681411      57.9032898       
16.68            0.513344923      54.9013678       0.820482181      -30.7900824      0.820482181      -30.7900824      0.513344923      54.9013678       
18.92            0.560703666      52.0405496       0.790320748      -34.0125026      0.790320748      -34.0125026      0.560703666      52.0405496       
21.16            0.603065798      49.3440619       0.7601811        -37.0017717      0.7601811        -37.0017717      0.603065798      49.3440619       
23.4             0.640819305      46.8201976       0.730504469      -39.7682354      0.730504469      -39.7682354      0.640819305      46.8201976       
25.64            0.674388503      44.4684291       0.701614765      -42.3247939      0.701614765      -42.3247939      0.674388503      44.4684291       
27.88            0.704202826      42.2830355       0.673736149      -44.685721       0.673736149      -44.685721       0.704202826      42.2830355       
30.12            0.730676212      40.2553656       0.647012006      -46.8657809      0.647012006      -46.8657809      0.730676212      40.2553656       
32.36            0.754194791      38.3752805       0.621522822      -48.8796038      0.621522822      -48.8796038      0.754194791      38.3752805       
34.6             0.775110635      36.632075        0.597301759      -50.7412738      0.597301759      -50.7412738      0.775110635      36.632075        
36.84            0.793739615      35.0150584       0.574347518      -52.4640754      0.574347518      -52.4640754      0.793739615      35.0150584       
39.08            0.810361899      33.513907        0.552634576      -54.0603585      0.552634576      -54.0603585      0.810361899      33.513907        
41.32            0.825223992      32.1188668       0.532121082      -55.5414844      0.532121082      -55.5414844      0.825223992      32.1188668       
43.56            0.838541586      30.8208574       0.512754819      -56.9178262      0.512754819      -56.9178262      0.838541586      30.8208574       
45.8             0.850502725      29.6115102       0.494477592      -58.1988044      0.494477592      -58.1988044      0.850502725      29.6115102       
48.04            0.861270986      28.4831674       0.4772284        -59.3929423      0.4772284        -59.3929423      0.861270986      28.4831674       
50.28            0.87098851       27.4288556       0.460945677      -60.5079324      0.460945677      -60.5079324      0.87098851       27.4288556       
52.52            0.879778774      26.4422454       0.445568831      -61.5507066      0.445568831      -61.5507066      0.879778774      26.4422454       
54.76            0.887749084      25.5176041       0.431039263      -62.5275068      0.431039263      -62.5275068      0.887749084      25.5176041       
57               0.894992776      24.649746        0.417301013      -63.4439522      0.417301013      -63.4439522      0.894992776      24.649746        
59.24            0.901591134      23.8339827       0.404301126      -64.3051023      0.404301126      -64.3051023      0.901591134      23.8339827       
61.48            0.907615055      23.066076        0.391989835      -65.1155154      0.391989835      -65.1155154      0.907615055      23.066076        
63.72            0.913126484      22.3421933       0.380320603      -65.8793017      0.380320603      -65.8793017      0.913126484      22.3421933       
65.96            0.918179647      21.6588667       0.369250075      -66.600171       0.369250075      -66.600171       0.918179647      21.6588667       
68.2             0.92282211       21.0129557       0.358737973      -67.2814758      0.358737973      -67.2814758      0.92282211       21.0129557       
70.44            0.927095682      20.4016134       0.348746948      -67.9262493      0.348746948      -67.9262493      0.927095682      20.4016134       
72.68            0.93103719       19.8222562       0.33924242       -68.5372401      0.33924242       -68.5372401      0.93103719       19.8222562       
74.92            0.934679144      19.2725362       0.330192395      -69.1169419      0.330192395      -69.1169419      0.934679144      19.2725362       
77.16            0.938050303      18.7503176       0.321567294      -69.6676212      0.321567294      -69.6676212      0.938050303      18.7503176       
79.4             0.941176163      18.2536543       0.313339771      -70.1913401      0.313339771      -70.1913401      0.941176163      18.2536543       
81.64            0.94407938       17.7807709       0.305484546      -70.6899785      0.305484546      -70.6899785      0.94407938       17.7807709       
83.88            0.94678012       17.3300452       0.297978249      -71.1652524      0.297978249      -71.1652524      0.94678012       17.3300452       
86.12            0.949296379      16.8999933       0.290799259      -71.6187304      0.290799259      -71.6187304      0.949296379      16.8999933       
88.36            0.951644243      16.4892555       0.283927571      -72.0518486      0.283927571      -72.0518486      0.951644243      16.4892555       
90.6             0.953838124      16.0965844       0.277344661      -72.465924       0.277344661      -72.465924       0.953838124      16.0965844       
92.84            0.955890956      15.720834        0.271033367      -72.8621656      0.271033367      -72.8621656      0.955890956      15.720834        
95.08            0.957814371      15.36095         0.264977776      -73.2416855      0.264977776      -73.2416855      0.957814371      15.36095         
97.32            0.959618848      15.015961        0.259163123      -73.6055075      0.259163123      -73.6055075      0.959618848      15.015961        
99.56            0.961313847      14.684971        0.253575695      -73.9545757      0.253575695      -73.9545757      0.961313847      14.684971        
101.8            0.962907921      14.3671524       0.248202749      -74.2897618      0.248202749      -74.2897618      0.962907921      14.3671524       
104.04           0.964408817      14.0617399       0.24303243       -74.6118718      0.24303243       -74.6118718      0.964408817      14.0617399       
106.28           0.965823563      13.7680246       0.238053703      -74.9216519      0.238053703      -74.9216519      0.965823563      13.7680246       
108.52           0.96715855       13.4853494       0.233256284      -75.2197935      0.233256284      -75.2197935      0.96715855       13.4853494       
110.76           0.96841959       13.2131044       0.228630582      -75.5069385      0.228630582      -75.5069385      0.96841959       13.2131044       
113              0.969611986      12.9507226       0.224167646      -75.7836833      0.224167646      -75.7836833      0.969611986      12.9507226       
115.24           0.970740578      12.6976767       0.219859113      -76.0505824      0.219859113      -76.0505824      0.970740578      12.6976767       
117.48           0.971809792      12.4534753       0.215697161      -76.3081526      0.215697161      -76.3081526      0.971809792      12.4534753       
119.72           0.972823681      12.2176604       0.211674472      -76.5568754      0.211674472      -76.5568754      0.972823681      12.2176604       
121.96           0.973785962      11.9898044       0.207784192      -76.7972004      0.207784192      -76.7972004      0.973785962      11.9898044       
124.2            0.974700047      11.7695078       0.204019895      -77.0295475      0.204019895      -77.0295475      0.974700047      11.7695078       
126.44           0.975569075      11.5563967       0.200375551      -77.2543094      0.200375551      -77.2543094      0.975569075      11.5563967       
128.68           0.976395935      11.3501214       0.196845499      -77.4718541      0.196845499      -77.4718541      0.976395935      11.3501214       
130.92           0.977183288      11.1503538       0.193424419      -77.6825259      0.193424419      -77.6825259      0.977183288      11.1503538       
133.16           0.977933594      10.9567863       0.190107308      -77.8866481      0.190107308      -77.8866481      0.977933594      10.9567863       
135.4            0.978649123      10.7691302       0.186889456      -78.0845241      0.186889456      -78.0845241      0.978649123      10.7691302       
137.64           0.979331976      10.5871139       0.183766426      -78.2764392      0.183766426      -78.2764392      0.979331976      10.5871139       
139.88           0.979984097      10.4104822       0.180734039      -78.4626614      0.180734039      -78.4626614      0.979984097      10.4104822       
142.12           0.980607292      10.2389947       0.177788347      -78.6434433      0.177788347      -78.6434433      0.980607292      10.2389947       
144.36           0.981203235      10.0724249       0.174925628      -78.8190226      0.174925628      -78.8190226      0.981203235      10.0724249       
146.6            0.98177348       9.91055947       0.172142364      -78.9896235      0.172142364      -78.9896235      0.98177348       9.91055947       
148.84           0.982319474      9.75319675       0.169435227      -79.1554577      0.169435227      -79.1554577      0.982319474      9.75319675       
151.08           0.982842565      9.6001465        0.166801072      -79.316725       0.166801072      -79.316725       0.982842565      9.6001465        
153.32           0.983344006      9.45122889       0.164236919      -79.4736142      0.164236919      -79.4736142      0.983344006      9.45122889       
155.56           0.983824969      9.30627382       0.161739947      -79.6263039      0.161739947      -79.6263039      0.983824969      9.30627382       
157.8            0.984286546      9.1651203        0.159307481      -79.7749632      0.159307481      -79.7749632      0.984286546      9.1651203        
160.04           0.984729758      9.02761584       0.156936985      -79.919752       0.156936985      -79.919752       0.984729758      9.02761584       
162.28           0.985155561      8.89361592       0.154626049      -80.0608221      0.154626049      -80.0608221      0.985155561      8.89361592       
164.52           0.985564848      8.76298348       0.152372387      -80.1983173      0.152372387      -80.1983173      0.985564848      8.76298348       
166.76           0.985958457      8.63558843       0.150173827      -80.3323743      0.150173827      -80.3323743      0.985958457      8.63558843       
169              0.986337172      8.51130723       0.148028302      -80.4631226      0.148028302      -80.4631226      0.986337172      8.51130723       
171.24           0.98670173       8.39002251       0.145933847      -80.5906854      0.145933847      -80.5906854      0.98670173       8.39002251       
173.48           0.987052824      8.27162264       0.14388859       -80.7151799      0.14388859       -80.7151799      0.987052824      8.27162264       
175.72           0.987391103      8.15600144       0.141890749      -80.8367174      0.141890749      -80.8367174      0.987391103      8.15600144       
177.96           0.987717178      8.04305781       0.139938628      -80.955404       0.139938628      -80.955404       0.987717178      8.04305781       
180.2            0.988031626      7.93269548       0.138030605      -81.0713407      0.138030605      -81.0713407      0.988031626      7.93269548       
182.44           0.988334987      7.82482269       0.136165138      -81.1846237      0.136165138      -81.1846237      0.988334987      7.82482269       
184.68           0.988627773      7.71935193       0.134340751      -81.2953448      0.134340751      -81.2953448      0.988627773      7.71935193       
186.92           0.988910466      7.61619973       0.132556038      -81.4035915      0.132556038      -81.4035915      0.988910466      7.61619973       
189.16           0.989183519      7.5152864        0.130809653      -81.5094473      0.130809653      -81.5094473      0.989183519      7.5152864        
191.4            0.989447362      7.41653584       0.129100311      -81.612992       0.129100311      -81.612992       0.989447362      7.41653584       
193.64           0.989702401      7.31987534       0.127426783      -81.7143019      0.127426783      -81.7143019      0.989702401      7.31987534       
195.88           0.989949019      7.22523539       0.125787894      -81.8134496      0.125787894      -81.8134496      0.989949019      7.22523539       
198.12           0.990187579      7.13254948       0.124182516      -81.910505       0.124182516      -81.910505       0.990187579      7.13254948       
200.36           0.990418424      7.041754         0.122609573      -82.0055346      0.122609573      -82.0055346      0.990418424      7.041754         
202.6            0.990641881      6.95278804       0.121068033      -82.0986022      0.121068033      -82.0986022      0.990641881      6.95278804       
204.84           0.990858256      6.86559326       0.119556904      -82.1897689      0.119556904      -82.1897689      0.990858256      6.86559326       
207.08           0.991067843      6.78011375       0.118075239      -82.2790932      0.118075239      -82.2790932      0.991067843      6.78011375       
209.32           0.991270919      6.69629594       0.116622127      -82.3666311      0.116622127      -82.3666311      0.991270919      6.69629594       
211.56           0.991467747      6.61408844       0.115196695      -82.4524363      0.115196695      -82.4524363      0.991467747      6.61408844       
213.8            0.991658578      6.53344193       0.113798105      -82.5365605      0.113798105      -82.5365605      0.991658578      6.53344193       
216.04           0.991843649      6.45430909       0.11242555       -82.6190531      0.11242555       -82.6190531      0.991843649      6.45430909       
218.28           0.992023186      6.37664447       0.111078258      -82.6999616      0.111078258      -82.6999616      0.992023186      6.37664447       
220.52           0.992197404      6.30040443       0.109755484      -82.7793316      0.109755484      -82.7793316      0.992197404      6.30040443       
222.76           0.992366508      6.22554701       0.108456514      -82.8572067      0.108456514      -82.8572067      0.992366508      6.22554701       
225              0.992530692      6.1520319        0.107180661      -82.9336293      0.107180661      -82.9336293      0.992530692      6.1520319        
227.24           0.992690143      6.0798203        0.105927262      -83.0086395      0.105927262      -83.0086395      0.992690143      6.0798203        
229.48           0.992845037      6.00887491       0.104695681      -83.0822765      0.104695681      -83.0822765      0.992845037      6.00887491       
231.72           0.992995543      5.93915982       0.103485305      -83.1545775      0.103485305      -83.1545775      0.992995543      5.93915982       
233.96           0.993141821      5.87064046       0.102295543      -83.2255786      0.102295543      -83.2255786      0.993141821      5.87064046       
236.2            0.993284026      5.80328355       0.101125827      -83.2953143      0.101125827      -83.2953143      0.993284026      5.80328355       
238.44           0.993422303      5.737057         0.0999756075     -83.3638181      0.0999756075     -83.3638181      0.993422303      5.737057         
240.68           0.993556794      5.67192991       0.0988443564     -83.4311221      0.0988443564     -83.4311221      0.993556794      5.67192991       
242.92           0.993687631      5.60787249       0.0977315638     -83.4972572      0.0977315638     -83.4972572      0.993687631      5.60787249       
245.16           0.993814942      5.54485598       0.0966367377     -83.5622533      0.0966367377     -83.5622533      0.993814942      5.54485598       
247.4            0.993938851      5.48285268       0.0955594035     -83.626139       0.0955594035     -83.626139       0.993938851      5.48285268       
249.64           0.994059474      5.42183584       0.094499103      -83.688942       0.094499103      -83.688942       0.994059474      5.42183584       
251.88           0.994176922      5.36177963       0.0934553938     -83.7506892      0.0934553938     -83.7506892      0.994176922      5.36177963       
254.12           0.994291304      5.30265913       0.0924278485     -83.8114062      0.0924278485     -83.8114062      0.994291304      5.30265913       
256.36           0.994402721      5.24445025       0.0914160542     -83.8711179      0.0914160542     -83.8711179      0.994402721      5.24445025       
258.6            0.994511273      5.18712974       0.090419612      -83.9298484      0.090419612      -83.9298484      0.994511273      5.18712974       
260.84           0.994617053      5.13067511       0.089438136      -83.9876208      0.089438136      -83.9876208      0.994617053      5.13067511       
263.08           0.994720153      5.07506464       0.0884712534     -84.0444575      0.0884712534     -84.0444575      0.994720153      5.07506464       
265.32           0.994820658      5.0202773        0.0875186032     -84.10038        0.0875186032     -84.10038        0.994820658      5.0202773        
267.56           0.994918653      4.96629277       0.0865798365     -84.1554092      0.0865798365     -84.1554092      0.994918653      4.96629277       
269.8            0.995014216      4.9130914        0.0856546155     -84.2095654      0.0856546155     -84.2095654      0.995014216      4.9130914        
272.04           0.995107425      4.86065414       0.0847426132     -84.2628679      0.0847426132     -84.2628679      0.995107425      4.86065414       
274.28           0.995198353      4.80896259       0.083843513      -84.3153356      0.083843513      -84.3153356      0.995198353      4.80896259       
276.52           0.995287072      4.75799891       0.0829570083     -84.3669866      0.0829570083     -84.3669866      0.995287072      4.75799891       
278.76           0.995373648      4.70774582       0.0820828022     -84.4178387      0.0820828022     -84.4178387      0.995373648      4.70774582       
281              0.995458148      4.6581866        0.0812206066     -84.4679087      0.0812206066     -84.4679087      0.995458148      4.6581866        
283.24           0.995540635      4.60930503       0.0803701429     -84.5172132      0.0803701429     -84.5172132      0.995540635      4.60930503       
285.48           0.995621168      4.56108539       0.0795311404     -84.565768       0.0795311404     -84.565768       0.995621168      4.56108539       
