! Coilcraft 1606-7 Micro Spring Air Core Inductor				
! 16 May 2003
# MHZ S MA R 50
!Freq             MagS11           AngS11           MagS21           AngS21           MagS12           AngS12           MagS22           AngS22
100              0.0396161067     83.1317006       0.996376001      -2.75466704      0.996376001      -2.75466704      0.039664451      83.136722        
110              0.0435522771     83.2293204       0.996212369      -3.02993458      0.996212369      -3.02993458      0.043605472      83.2338891       
120              0.0474882866     83.265096        0.996033226      -3.30514529      0.996033226      -3.30514529      0.0475463281     83.2692866       
130              0.0514236278     83.2532512       0.995838591      -3.58029405      0.995838591      -3.58029405      0.0514865121     83.2571212       
140              0.0553578946     83.2039683       0.995628484      -3.85537574      0.995628484      -3.85537574      0.055425618      83.2075631       
150              0.0592907485     83.1247276       0.99540293       -4.13038525      0.99540293       -4.13038525      0.0593633073     83.1280836       
160              0.0632218978     83.0211481       0.995161953      -4.40531747      0.995161953      -4.40531747      0.0632992884     83.024295        
170              0.067151084      82.8975323       0.994905578      -4.68016732      0.994905578      -4.68016732      0.0672333026     82.9004945       
180              0.0710780727     82.7572306       0.994633834      -4.95492974      0.994633834      -4.95492974      0.0711651155     82.7600285       
190              0.0750026475     82.6028909       0.994346751      -5.22959964      0.994346751      -5.22959964      0.0750945105     82.6055416       
200              0.0789246057     82.4366338       0.994044359      -5.504172        0.994044359      -5.504172        0.0790212848     82.4391521       
210              0.0828437549     82.2601779       0.993726692      -5.77864178      0.993726692      -5.77864178      0.0829452459     82.2625763       
220              0.0867599113     82.0749308       0.993393783      -6.05300396      0.993393783      -6.05300396      0.0868662099     82.0772202       
230              0.0906728975     81.8820565       0.99304567       -6.32725353      0.99304567       -6.32725353      0.0907839992     81.8842463       
240              0.0945825418     81.6825263       0.992682389      -6.60138553      0.992682389      -6.60138553      0.0946984419     81.6846247       
250              0.0984886767     81.477157        0.992303979      -6.87539497      0.992303979      -6.87539497      0.0986093703     81.4791714       
260              0.102391139      81.2666407       0.991910483      -7.14927693      0.991910483      -7.14927693      0.102516621      81.2685774       
270              0.106289767      81.0515676       0.991501941      -7.42302645      0.991501941      -7.42302645      0.106420033      81.0534324       
280              0.110184405      80.8324447       0.991078398      -7.69663865      0.991078398      -7.69663865      0.110319448      80.8342428       
290              0.114074896      80.6097097       0.990639898      -7.97010863      0.990639898      -7.97010863      0.114214713      80.6114455       
300              0.117961089      80.3837424       0.99018649       -8.24343152      0.99018649       -8.24343152      0.118105672      80.3854202       
310              0.121842832      80.1548746       0.989718222      -8.51660249      0.989718222      -8.51660249      0.121992176      80.156498        
320              0.125719976      79.923397        0.989235143      -8.7896167       0.989235143      -8.7896167       0.125874075      79.9249695       
330              0.129592374      79.6895657       0.988737304      -9.06246937      0.988737304      -9.06246937      0.129751222      79.6910903       
340              0.13345988       79.4536072       0.988224759      -9.33515571      0.988224759      -9.33515571      0.13362347       79.4550867       
350              0.13732235       79.2157229       0.987697562      -9.60767097      0.987697562      -9.60767097      0.137490676      79.2171599       
360              0.141179641      78.9760919       0.987155768      -9.88001044      0.987155768      -9.88001044      0.141352696      78.9774888       
370              0.145031612      78.7348749       0.986599435      -10.1521694      0.986599435      -10.1521694      0.145209389      78.7362337       
380              0.148878122      78.4922158       0.986028621      -10.4241432      0.986028621      -10.4241432      0.149060615      78.4935387       
390              0.152719034      78.2482445       0.985443386      -10.6959272      0.985443386      -10.6959272      0.152906235      78.2495331       
400              0.15655421       78.003078        0.984843791      -10.9675167      0.984843791      -10.9675167      0.156746111      78.0043342       
410              0.160383513      77.7568227       0.984229899      -11.2389073      0.984229899      -11.2389073      0.160580107      77.758048        
420              0.16420681       77.509575        0.983601774      -11.5100942      0.983601774      -11.5100942      0.164408089      77.5107708       
430              0.168023967      77.2614228       0.982959481      -11.781073       0.982959481      -11.781073       0.168229923      77.2625906       
440              0.171834851      77.0124465       0.982303086      -12.0518392      0.982303086      -12.0518392      0.172045477      77.0135875       
450              0.175639331      76.7627196       0.981632657      -12.3223884      0.981632657      -12.3223884      0.175854618      76.763835        
460              0.179437279      76.5123097       0.980948263      -12.5927159      0.980948263      -12.5927159      0.179657219      76.5134005       
470              0.183228565      76.2612788       0.980249975      -12.8628176      0.980249975      -12.8628176      0.183453149      76.2623461       
480              0.187013063      76.0096842       0.979537863      -13.1326889      0.979537863      -13.1326889      0.187242283      76.010729        
490              0.190790647      75.7575788       0.978812001      -13.4023256      0.978812001      -13.4023256      0.191024493      75.7586021       
500              0.194561192      75.5050117       0.978072462      -13.6717233      0.978072462      -13.6717233      0.194799656      75.5060143       
510              0.198324575      75.2520283       0.977319321      -13.9408778      0.977319321      -13.9408778      0.198567647      75.2530109       
520              0.202080674      74.9986709       0.976552655      -14.2097848      0.976552655      -14.2097848      0.202328346      74.9996344       
530              0.205829369      74.7449789       0.97577254       -14.4784401      0.97577254       -14.4784401      0.20608163       74.7459239       
540              0.20957054       74.4909889       0.974979054      -14.7468395      0.974979054      -14.7468395      0.209827381      74.4919161       
550              0.213304069      74.2367353       0.974172278      -15.0149789      0.974172278      -15.0149789      0.213565481      74.2376455       
560              0.21702984       73.9822503       0.973352291      -15.2828542      0.973352291      -15.2828542      0.217295812      73.9831439       
570              0.220747738      73.7275639       0.972519175      -15.5504614      0.972519175      -15.5504614      0.22101826       73.7284416       
580              0.224457648      73.4727045       0.971673012      -15.8177963      0.971673012      -15.8177963      0.224732711      73.4735668       
590              0.228159459      73.2176987       0.970813885      -16.084855       0.970813885      -16.084855       0.228439051      73.218546        
600              0.231853058      72.9625715       0.96994188       -16.3516336      0.96994188       -16.3516336      0.232137169      72.9634044       
610              0.235538336      72.7073465       0.96905708       -16.6181281      0.96905708       -16.6181281      0.235826956      72.7081656       
620              0.239215185      72.4520462       0.968159573      -16.8843347      0.968159573      -16.8843347      0.239508302      72.4528518       
630              0.242883497      72.1966917       0.967249446      -17.1502494      0.967249446      -17.1502494      0.243181102      72.1974842       
640              0.246543167      71.9413028       0.966326785      -17.4158686      0.966326785      -17.4158686      0.246845248      71.9420827       
650              0.250194092      71.6858987       0.965391681      -17.6811885      0.965391681      -17.6811885      0.250500637      71.6866663       
660              0.253836167      71.4304973       0.964444223      -17.9462052      0.964444223      -17.9462052      0.254147166      71.431253        
670              0.257469292      71.1751158       0.963484501      -18.2109152      0.963484501      -18.2109152      0.257784733      71.1758599       
680              0.261093367      70.9197703       0.962512606      -18.4753148      0.962512606      -18.4753148      0.261413238      70.9205032       
690              0.264708292      70.6644765       0.96152863       -18.7394004      0.96152863       -18.7394004      0.265032583      70.6651985       
700              0.268313973      70.4092491       0.960532667      -19.0031685      0.960532667      -19.0031685      0.26864267       70.4099605       
710              0.271910312      70.1541023       0.959524809      -19.2666154      0.959524809      -19.2666154      0.272243404      70.1548034       
720              0.275497215      69.8990495       0.95850515       -19.5297378      0.95850515       -19.5297378      0.27583469       69.8997406       
730              0.27907459       69.6441036       0.957473786      -19.7925322      0.957473786      -19.7925322      0.279416436      69.6447849       
740              0.282642346      69.3892769       0.956430812      -20.0549951      0.956430812      -20.0549951      0.28298855       69.3899488       
750              0.286200393      69.1345814       0.955376323      -20.3171234      0.955376323      -20.3171234      0.286550943      69.135244        
760              0.289748642      68.8800282       0.954310416      -20.5789135      0.954310416      -20.5789135      0.290103526      68.8806819       
770              0.293287007      68.6256284       0.953233189      -20.8403623      0.953233189      -20.8403623      0.293646212      68.6262733       
780              0.296815403      68.3713924       0.95214474       -21.1014666      0.95214474       -21.1014666      0.297178916      68.3720287       
790              0.300333745      68.1173301       0.951045165      -21.362223       0.951045165      -21.362223       0.300701554      68.1179581       
800              0.303841951      67.8634513       0.949934566      -21.6226286      0.949934566      -21.6226286      0.304214043      67.8640712       
810              0.307339941      67.6097652       0.94881304       -21.8826802      0.94881304       -21.8826802      0.307716302      67.6103771       
820              0.310827635      67.3562807       0.947680687      -22.1423747      0.947680687      -22.1423747      0.311208252      67.356885        
830              0.314304955      67.1030066       0.946537608      -22.4017091      0.946537608      -22.4017091      0.314689816      67.1036033       
840              0.317771825      66.849951        0.945383903      -22.6606805      0.945383903      -22.6606805      0.318160915      66.8505403       
850              0.32122817       66.5971221       0.944219673      -22.9192859      0.944219673      -22.9192859      0.321621476      66.5977042       
860              0.324673916      66.3445275       0.94304502       -23.1775225      0.94304502       -23.1775225      0.325071424      66.3451025       
870              0.328108991      66.0921747       0.941860046      -23.4353873      0.941860046      -23.4353873      0.328510689      66.0927428       
880              0.331533325      65.8400709       0.940664852      -23.6928776      0.940664852      -23.6928776      0.331939198      65.8406323       
890              0.334946849      65.5882231       0.93945954       -23.9499907      0.93945954       -23.9499907      0.335356884      65.588778        
900              0.338349496      65.336638        0.938244215      -24.2067238      0.938244215      -24.2067238      0.338763678      65.3371864       
910              0.341741198      65.0853222       0.937018978      -24.4630742      0.937018978      -24.4630742      0.342159514      65.0858643       
920              0.345121893      64.8342819       0.935783933      -24.7190394      0.935783933      -24.7190394      0.345544328      64.8348179       
930              0.348491516      64.5835233       0.934539183      -24.9746167      0.934539183      -24.9746167      0.348918057      64.5840532       
940              0.351850007      64.3330523       0.933284832      -25.2298037      0.933284832      -25.2298037      0.352280639      64.3335763       
950              0.355197304      64.0828746       0.932020984      -25.4845977      0.932020984      -25.4845977      0.355632013      64.0833928       
960              0.358533349      63.8329957       0.930747743      -25.7389964      0.930747743      -25.7389964      0.358972121      63.8335082       
970              0.361858086      63.583421        0.929465213      -25.9929974      0.929465213      -25.9929974      0.362300905      63.583928        
980              0.365171458      63.3341558       0.928173499      -26.2465983      0.928173499      -26.2465983      0.36561831       63.3346573       
990              0.36847341       63.085205        0.926872704      -26.4997967      0.926872704      -26.4997967      0.368924282      63.0857012       
1000             0.371763891      62.8365737       0.925562934      -26.7525904      0.925562934      -26.7525904      0.372218767      62.8370646       
1010             0.375042848      62.5882665       0.924244292      -27.0049772      0.924244292      -27.0049772      0.375501714      62.5887523       
1020             0.378310232      62.340288        0.922916885      -27.2569549      0.922916885      -27.2569549      0.378773072      62.3407688       
1030             0.381565993      62.0926428       0.921580815      -27.5085212      0.921580815      -27.5085212      0.382032794      62.0931186       
1040             0.384810086      61.8453351       0.920236189      -27.7596742      0.920236189      -27.7596742      0.385280831      61.8458061       
1050             0.388042463      61.5983693       0.91888311       -28.0104118      0.91888311       -28.0104118      0.388517138      61.5988355       
1060             0.391263081      61.3517493       0.917521684      -28.2607318      0.917521684      -28.2607318      0.391741671      61.3522108       
1070             0.394471897      61.1054791       0.916152015      -28.5106324      0.916152015      -28.5106324      0.394954387      61.1059361       
1080             0.397668869      60.8595627       0.914774208      -28.7601116      0.914774208      -28.7601116      0.398155243      60.8600151       
1090             0.400853957      60.6140036       0.913388367      -29.0091676      0.913388367      -29.0091676      0.4013442        60.6144517       
1100             0.404027121      60.3688057       0.911994597      -29.2577984      0.911994597      -29.2577984      0.404521219      60.3692494       
1110             0.407188326      60.1239723       0.910593002      -29.5060023      0.910593002      -29.5060023      0.407686262      60.1244118       
1120             0.410337533      59.879507        0.909183686      -29.7537775      0.909183686      -29.7537775      0.410839294      59.8799422       
1130             0.41347471       59.635413        0.907766754      -30.0011222      0.907766754      -30.0011222      0.413980278      59.6358441       
1140             0.416599822      59.3916935       0.906342309      -30.2480349      0.906342309      -30.2480349      0.417109183      59.3921206       
1150             0.419712837      59.1483518       0.904910455      -30.4945138      0.904910455      -30.4945138      0.420225975      59.1487748       
1160             0.422813724      58.9053907       0.903471296      -30.7405574      0.903471296      -30.7405574      0.423330624      58.9058098       
1170             0.425902455      58.6628133       0.902024935      -30.986164       0.902024935      -30.986164       0.426423101      58.6632286       
1180             0.428979         58.4206224       0.900571475      -31.2313322      0.900571475      -31.2313322      0.429503376      58.4210339       
1190             0.432043333      58.1788209       0.89911102       -31.4760605      0.89911102       -31.4760605      0.432571424      58.1792286       
1200             0.435095429      57.9374113       0.897643672      -31.7203475      0.897643672      -31.7203475      0.435627219      57.9378153       
1210             0.438135262      57.6963962       0.896169533      -31.9641917      0.896169533      -31.9641917      0.438670736      57.6967967       
1220             0.44116281       57.4557783       0.894688706      -32.2075918      0.894688706      -32.2075918      0.441701952      57.4561752       
1230             0.444178052      57.21556         0.893201292      -32.4505465      0.893201292      -32.4505465      0.444720845      57.2159534       
1240             0.447180966      56.9757436       0.891707394      -32.6930545      0.891707394      -32.6930545      0.447727395      56.9761335       
1250             0.450171533      56.7363314       0.890207112      -32.9351146      0.890207112      -32.9351146      0.450721582      56.736718        
1260             0.453149734      56.4973257       0.888700548      -33.1767255      0.888700548      -33.1767255      0.453703389      56.4977089       
1270             0.456115554      56.2587285       0.887187801      -33.4178862      0.887187801      -33.4178862      0.456672797      56.2591085       
1280             0.459068976      56.0205421       0.885668973      -33.6585954      0.885668973      -33.6585954      0.459629792      56.0209188       
1290             0.462009986      55.7827684       0.884144164      -33.8988521      0.884144164      -33.8988521      0.462574358      55.7831419       
1300             0.464938569      55.5454093       0.882613472      -34.1386553      0.882613472      -34.1386553      0.465506483      55.5457797       
1310             0.467854715      55.3084668       0.881076998      -34.3780039      0.881076998      -34.3780039      0.468426153      55.3088341       
1320             0.470758411      55.0719427       0.879534839      -34.616897       0.879534839      -34.616897       0.471333358      55.0723069       
1330             0.473649648      54.8358386       0.877987095      -34.8553336      0.877987095      -34.8553336      0.474228088      54.8361998       
1340             0.476528417      54.6001564       0.876433863      -35.0933128      0.876433863      -35.0933128      0.477110334      54.6005147       
1350             0.47939471       54.3648977       0.87487524       -35.3308338      0.87487524       -35.3308338      0.479980088      54.365253        
1360             0.48224852       54.1300639       0.873311325      -35.5678958      0.873311325      -35.5678958      0.482837343      54.1304164       
1370             0.485089842      53.8956568       0.871742213      -35.8044979      0.871742213      -35.8044979      0.485682094      53.8960063       
