! Coilcraft 0906-3 Micro Spring Air Core Inductor				
! 16 May 2003
# MHZ S MA R 50
!Freq             MagS11           AngS11           MagS21           AngS21           MagS12           AngS12           MagS22           AngS22
100              0.0134239866     84.8382521       0.998943392      -1.03175387      0.998943392      -1.03175387      0.0134328808     84.8409914       
110              0.0147596427     85.109394        0.998924558      -1.13492976      0.998924558      -1.13492976      0.0147694306     85.1118864       
120              0.0160957971     85.3183955       0.99890393       -1.23810579      0.99890393       -1.23810579      0.0161064784     85.3206817       
130              0.0174323266     85.4795296       0.998881508      -1.34128198      0.998881508      -1.34128198      0.017443901      85.481641        
140              0.0187691423     85.6030125       0.998857293      -1.44445834      0.998857293      -1.44445834      0.0187816095     85.604974        
150              0.0201061782     85.6963486       0.998831285      -1.54763488      0.998831285      -1.54763488      0.0201195381     85.6981799       
160              0.0214433843     85.7651732       0.998803483      -1.65081161      0.998803483      -1.65081161      0.0214576366     85.7668905       
170              0.0227807215     85.8138005       0.998773888      -1.75398856      0.998773888      -1.75398856      0.0227958662     85.8154171       
180              0.0241181591     85.8455887       0.998742499      -1.85716572      0.998742499      -1.85716572      0.024134196      85.8471158       
190              0.0254556722     85.863191        0.998709318      -1.96034312      0.998709318      -1.96034312      0.0254726011     85.8646379       
200              0.0267932404     85.8687313       0.998674343      -2.06352076      0.998674343      -2.06352076      0.0268110613     85.870106        
210              0.0281308467     85.8639296       0.998637575      -2.16669867      0.998637575      -2.16669867      0.0281495594     85.865239        
220              0.0294684767     85.8501941       0.998599014      -2.26987684      0.998599014      -2.26987684      0.0294880811     85.851444        
230              0.0308061181     85.8286883       0.99855866       -2.3730553       0.99855866       -2.3730553       0.0308266142     85.829884        
240              0.0321437603     85.8003822       0.998516513      -2.47623406      0.998516513      -2.47623406      0.0321651479     85.8015281       
250              0.0334813939     85.7660909       0.998472573      -2.57941313      0.998472573      -2.57941313      0.033503673      85.767191        
260              0.0348190107     85.7265041       0.998426841      -2.68259252      0.998426841      -2.68259252      0.0348421812     85.7275619       
270              0.0361566032     85.6822095       0.998379316      -2.78577225      0.998379316      -2.78577225      0.036180665      85.6832282       
280              0.0374941646     85.6337112       0.998329998      -2.88895232      0.998329998      -2.88895232      0.0375191177     85.6346935       
290              0.038831689      85.5814434       0.998278889      -2.99213275      0.998278889      -2.99213275      0.0388575331     85.5823919       
300              0.0401691705     85.5257828       0.998225986      -3.09531356      0.998225986      -3.09531356      0.0401959057     85.5266997       
310              0.041506604      85.4670575       0.998171292      -3.19849475      0.998171292      -3.19849475      0.0415342301     85.4679448       
320              0.0428439846     85.4055545       0.998114805      -3.30167634      0.998114805      -3.30167634      0.0428725016     85.406414        
330              0.0441813076     85.3415261       0.998056527      -3.40485834      0.998056527      -3.40485834      0.0442107154     85.3423595       
340              0.0455185688     85.2751949       0.997996456      -3.50804076      0.997996456      -3.50804076      0.0455488673     85.2760038       
350              0.046855764      85.2067581       0.997934594      -3.61122362      0.997934594      -3.61122362      0.0468869531     85.207544        
360              0.0481928892     85.1363912       0.997870941      -3.71440692      0.997870941      -3.71440692      0.0482249688     85.1371551       
370              0.0495299406     85.0642503       0.997805495      -3.81759068      0.997805495      -3.81759068      0.0495629106     85.0649937       
380              0.0508669146     84.9904756       0.997738259      -3.92077491      0.997738259      -3.92077491      0.050900775      84.9911993       
390              0.0522038077     84.9151925       0.997669231      -4.02395963      0.997669231      -4.02395963      0.0522385583     84.9158976       
400              0.0535406164     84.8385141       0.997598412      -4.12714484      0.997598412      -4.12714484      0.0535762571     84.8392016       
410              0.0548773374     84.7605423       0.997525802      -4.23033055      0.997525802      -4.23033055      0.0549138682     84.761213        
420              0.0562139674     84.6813695       0.997451401      -4.33351679      0.997451401      -4.33351679      0.0562513881     84.6820243       
430              0.0575505033     84.6010794       0.997375209      -4.43670355      0.997375209      -4.43670355      0.0575888138     84.6017189       
440              0.0588869419     84.5197481       0.997297227      -4.53989086      0.997297227      -4.53989086      0.0589261422     84.520373        
450              0.0602232802     84.437445        0.997217455      -4.64307872      0.997217455      -4.64307872      0.06026337       84.438056        
460              0.061559515      84.3542332       0.997135893      -4.74626714      0.997135893      -4.74626714      0.0616004944     84.3548309       
470              0.0628956436     84.2701709       0.99705254       -4.84945615      0.99705254       -4.84945615      0.0629375124     84.2707558       
480              0.0642316629     84.185311        0.996967398      -4.95264574      0.996967398      -4.95264574      0.064274421      84.1858837       
490              0.0655675701     84.0997023       0.996880466      -5.05583593      0.996880466      -5.05583593      0.0656112173     84.1002634       
500              0.0669033622     84.0133898       0.996791744      -5.15902673      0.996791744      -5.15902673      0.0669478986     84.0139396       
510              0.0682390365     83.9264147       0.996701233      -5.26221815      0.996701233      -5.26221815      0.0682844618     83.9269537       
520              0.0695745902     83.8388152       0.996608933      -5.36541021      0.996608933      -5.36541021      0.0696209042     83.8393438       
530              0.0709100204     83.7506267       0.996514844      -5.46860291      0.996514844      -5.46860291      0.0709572231     83.7511452       
540              0.0722453243     83.6618817       0.996418966      -5.57179626      0.996418966      -5.57179626      0.0722934157     83.6623906       
550              0.0735804994     83.5726105       0.996321299      -5.67499029      0.996321299      -5.67499029      0.0736294792     83.5731102       
560              0.0749155427     83.4828414       0.996221844      -5.77818499      0.996221844      -5.77818499      0.0749654108     83.4833321       
570              0.0762504517     83.3926005       0.996120601      -5.88138038      0.996120601      -5.88138038      0.076301208      83.3930825       
580              0.0775852235     83.301912        0.99601757       -5.98457646      0.99601757       -5.98457646      0.0776368679     83.3023857       
590              0.0789198556     83.2107988       0.995912752      -6.08777326      0.995912752      -6.08777326      0.0789723878     83.2112645       
600              0.0802543452     83.119282        0.995806145      -6.19097078      0.995806145      -6.19097078      0.0803077652     83.1197399       
610              0.0815886897     83.0273814       0.995697752      -6.29416902      0.995697752      -6.29416902      0.0816429974     83.0278317       
620              0.0829228864     82.9351155       0.995587571      -6.39736801      0.995587571      -6.39736801      0.0829780816     82.9355586       
630              0.0842569328     82.8425017       0.995475603      -6.50056775      0.995475603      -6.50056775      0.0843130153     82.8429377       
640              0.085590826      82.7495563       0.995361849      -6.60376825      0.995361849      -6.60376825      0.0856477957     82.7499854       
650              0.0869245636     82.6562944       0.995246308      -6.70696952      0.995246308      -6.70696952      0.0869824203     82.6567169       
660              0.0882581428     82.5627305       0.995128981      -6.81017157      0.995128981      -6.81017157      0.0883168865     82.5631465       
670              0.0895915611     82.468878        0.995009868      -6.91337442      0.995009868      -6.91337442      0.0896511916     82.4692878       
680              0.0909248159     82.3747495       0.994888969      -7.01657806      0.994888969      -7.01657806      0.0909853329     82.3751533       
690              0.0922579046     82.2803571       0.994766285      -7.11978252      0.994766285      -7.11978252      0.092319308      82.280755        
700              0.0935908244     82.1857121       0.994641816      -7.22298779      0.994641816      -7.22298779      0.0936531141     82.1861042       
710              0.094923573      82.0908249       0.994515561      -7.3261939       0.994515561      -7.3261939       0.0949867488     82.0912115       
720              0.0962561475     81.9957058       0.994387522      -7.42940084      0.994387522      -7.42940084      0.0963202093     81.9960869       
730              0.0975885456     81.9003641       0.994257699      -7.53260864      0.994257699      -7.53260864      0.0976534931     81.90074         
740              0.0989207645     81.8048088       0.994126091      -7.63581729      0.994126091      -7.63581729      0.0989865976     81.8051796       
750              0.100252802      81.7090485       0.9939927        -7.7390268       0.9939927        -7.7390268       0.10031952       81.7094144       
760              0.101584655      81.6130912       0.993857525      -7.8422372       0.993857525      -7.8422372       0.101652258      81.6134522       
770              0.102916321      81.5169446       0.993720566      -7.94544847      0.993720566      -7.94544847      0.102984809      81.5173008       
780              0.104247797      81.4206158       0.993581825      -8.04866065      0.993581825      -8.04866065      0.104317171      81.4209674       
790              0.105579082      81.3241117       0.993441301      -8.15187372      0.993441301      -8.15187372      0.10564934       81.3244589       
800              0.106910171      81.2274389       0.993298994      -8.2550877       0.993298994      -8.2550877       0.106981315      81.2277817       
810              0.108241064      81.1306036       0.993154905      -8.35830261      0.993154905      -8.35830261      0.108313092      81.1309421       
820              0.109571757      81.0336117       0.993009035      -8.46151844      0.993009035      -8.46151844      0.109644669      81.033946        
830              0.110902247      80.9364687       0.992861382      -8.5647352       0.992861382      -8.5647352       0.110976043      80.936799        
840              0.112232533      80.8391801       0.992711949      -8.66795291      0.992711949      -8.66795291      0.112307212      80.8395065       
850              0.113562611      80.741751        0.992560734      -8.77117157      0.992560734      -8.77117157      0.113638174      80.7420735       
860              0.114892479      80.6441862       0.992407739      -8.87439119      0.992407739      -8.87439119      0.114968926      80.6445049       
870              0.116222134      80.5464903       0.992252964      -8.97761178      0.992252964      -8.97761178      0.116299464      80.5468053       
880              0.117551575      80.4486678       0.992096409      -9.08083334      0.992096409      -9.08083334      0.117629787      80.4489792       
890              0.118880797      80.3507229       0.991938074      -9.18405588      0.991938074      -9.18405588      0.118959892      80.3510307       
900              0.120209799      80.2526596       0.99177796       -9.28727941      0.99177796       -9.28727941      0.120289777      80.252964        
910              0.121538578      80.1544818       0.991616067      -9.39050394      0.991616067      -9.39050394      0.121619438      80.1547829       
920              0.122867132      80.0561933       0.991452395      -9.49372948      0.991452395      -9.49372948      0.122948874      80.056491        
930              0.124195457      79.9577974       0.991286945      -9.59695602      0.991286945      -9.59695602      0.124278082      79.9580919       
940              0.125523552      79.8592977       0.991119717      -9.70018358      0.991119717      -9.70018358      0.125607058      79.859589        
950              0.126851413      79.7606974       0.990950712      -9.80341217      0.990950712      -9.80341217      0.126935801      79.7609856       
960              0.128179039      79.6619995       0.990779929      -9.90664178      0.990779929      -9.90664178      0.128264308      79.6622846       
970              0.129506426      79.563207        0.990607369      -10.0098724      0.990607369      -10.0098724      0.129592577      79.5634892       
980              0.130833573      79.4643228       0.990433034      -10.1131041      0.990433034      -10.1131041      0.130920604      79.4646021       
990              0.132160475      79.3653497       0.990256922      -10.2163369      0.990256922      -10.2163369      0.132248387      79.3656262       
1000             0.133487132      79.2662903       0.990079034      -10.3195707      0.990079034      -10.3195707      0.133575924      79.2665639       
1010             0.13481354       79.167147        0.989899371      -10.4228055      0.989899371      -10.4228055      0.134903212      79.1674179       
1020             0.136139697      79.0679224       0.989717933      -10.5260415      0.989717933      -10.5260415      0.136230249      79.0681906       
1030             0.1374656        78.9686187       0.989534721      -10.6292785      0.989534721      -10.6292785      0.137557032      78.9688843       
1040             0.138791246      78.8692383       0.989349734      -10.7325165      0.989349734      -10.7325165      0.138883557      78.8695012       
1050             0.140116633      78.7697831       0.989162974      -10.8357557      0.989162974      -10.8357557      0.140209824      78.7700436       
1060             0.141441759      78.6702555       0.98897444       -10.938996       0.98897444       -10.938996       0.141535829      78.6705134       
1070             0.14276662       78.5706572       0.988784134      -11.0422373      0.988784134      -11.0422373      0.142861569      78.5709127       
1080             0.144091215      78.4709904       0.988592055      -11.1454797      0.988592055      -11.1454797      0.144187042      78.4712435       
1090             0.14541554       78.3712567       0.988398203      -11.2487233      0.988398203      -11.2487233      0.145512246      78.3715074       
1100             0.146739594      78.271458        0.988202581      -11.3519679      0.988202581      -11.3519679      0.146837177      78.2717065       
1110             0.148063373      78.1715961       0.988005187      -11.4552137      0.988005187      -11.4552137      0.148161833      78.1718423       
1120             0.149386874      78.0716725       0.987806022      -11.5584606      0.987806022      -11.5584606      0.149486213      78.0719165       
1130             0.150710096      77.971689        0.987605087      -11.6617086      0.987605087      -11.6617086      0.150810312      77.9719307       
1140             0.152033035      77.8716469       0.987402382      -11.7649577      0.987402382      -11.7649577      0.152134128      77.8718865       
1150             0.15335569       77.7715479       0.987197908      -11.8682079      0.987197908      -11.8682079      0.153457659      77.7717854       
1160             0.154678057      77.6713934       0.986991664      -11.9714593      0.986991664      -11.9714593      0.154780903      77.6716288       
1170             0.156000134      77.5711847       0.986783652      -12.0747118      0.986783652      -12.0747118      0.156103855      77.571418        
1180             0.157321918      77.4709232       0.986573872      -12.1779655      0.986573872      -12.1779655      0.157426515      77.4711545       
1190             0.158643406      77.3706102       0.986362325      -12.2812203      0.986362325      -12.2812203      0.15874888       77.3708396       
1200             0.159964597      77.270247        0.98614901       -12.3844762      0.98614901       -12.3844762      0.160070946      77.2704744       
1210             0.161285487      77.1698347       0.985933929      -12.4877333      0.985933929      -12.4877333      0.161392711      77.1700602       
1220             0.162606074      77.0693746       0.985717081      -12.5909915      0.985717081      -12.5909915      0.162714173      77.0695982       
1230             0.163926355      76.9688678       0.985498468      -12.6942509      0.985498468      -12.6942509      0.164035328      76.9690895       
1240             0.165246328      76.8683153       0.985278089      -12.7975115      0.985278089      -12.7975115      0.165356175      76.8685353       
1250             0.166565989      76.7677183       0.985055946      -12.9007731      0.985055946      -12.9007731      0.166676711      76.7679365       
1260             0.167885337      76.6670778       0.984832039      -13.004036       0.984832039      -13.004036       0.167996932      76.6672942       
1270             0.169204369      76.5663948       0.984606368      -13.1073         0.984606368      -13.1073         0.169316837      76.5666094       
1280             0.170523082      76.4656702       0.984378934      -13.2105652      0.984378934      -13.2105652      0.170636423      76.4658831       
1290             0.171841473      76.364905        0.984149737      -13.3138315      0.984149737      -13.3138315      0.171955687      76.3651162       
1300             0.17315954       76.2641          0.983918778      -13.417099       0.983918778      -13.417099       0.173274627      76.2643096       
1310             0.174477281      76.1632563       0.983686058      -13.5203677      0.983686058      -13.5203677      0.174593239      76.1634642       
1320             0.175794692      76.0623746       0.983451576      -13.6236375      0.983451576      -13.6236375      0.175911522      76.0625809       
1330             0.177111771      75.9614557       0.983215334      -13.7269085      0.983215334      -13.7269085      0.177229473      75.9616605       
1340             0.178428515      75.8605005       0.982977332      -13.8301806      0.982977332      -13.8301806      0.178547088      75.8607037       
1350             0.179744922      75.7595098       0.98273757       -13.9334539      0.98273757       -13.9334539      0.179864366      75.7597114       
1360             0.181060989      75.6584842       0.98249605       -14.0367284      0.98249605       -14.0367284      0.181181304      75.6586844       
1370             0.182376713      75.5574246       0.982252771      -14.1400041      0.982252771      -14.1400041      0.182497898      75.5576233       
