! Coilcraft 0906-4 Micro Spring Air Core Inductor				
! 16 May 2003
# MHZ S MA R 50
!Freq             MagS11           AngS11           MagS21           AngS21           MagS12           AngS12           MagS22           AngS22
100              0.0215197602     84.4209273       0.998247788      -1.52472283      0.998247788      -1.52472283      0.0215353448     84.4238659       
110              0.0236608709     84.6359472       0.998199394      -1.67718416      0.998199394      -1.67718416      0.0236780209     84.6386209       
120              0.0258026237     84.7899542       0.998146394      -1.82964235      0.998146394      -1.82964235      0.0258213385     84.7924067       
130              0.0279448167     84.8969659       0.998088789      -1.98209713      0.998088789      -1.98209713      0.0279650954     84.8992308       
140              0.0300873006     84.9670148       0.998026579      -2.13454821      0.998026579      -2.13454821      0.030109143      84.9691187       
150              0.0322299622     85.00747         0.997959766      -2.28699531      0.997959766      -2.28699531      0.0322533676     85.0094343       
160              0.0343727122     85.0238653       0.99788835       -2.43943814      0.99788835       -2.43943814      0.0343976803     85.0257073       
170              0.0365154791     85.0204367       0.997812333      -2.59187642      0.997812333      -2.59187642      0.0365420095     85.0221706       
180              0.0386582035     85.0004818       0.997731716      -2.74430986      0.997731716      -2.74430986      0.0386862958     85.0021196       
190              0.0408008355     84.9666057       0.9976465        -2.89673818      0.9976465        -2.89673818      0.0408304893     84.9681575       
200              0.0429433319     84.9208939       0.997556685      -3.04916109      0.997556685      -3.04916109      0.0429745469     84.9223683       
210              0.0450856548     84.8650355       0.997462275      -3.20157832      0.997462275      -3.20157832      0.0451184307     84.8664398       
220              0.0472277707     84.8004131       0.997363269      -3.35398957      0.997363269      -3.35398957      0.047262107      84.8017536       
230              0.0493696488     84.7281693       0.997259669      -3.50639456      0.997259669      -3.50639456      0.0494055453     84.7294515       
240              0.0515112613     84.6492566       0.997151478      -3.658793        0.997151478      -3.658793        0.0515487175     84.6504855       
250              0.0536525821     84.5644756       0.997038695      -3.81118462      0.997038695      -3.81118462      0.0536915977     84.5656554       
260              0.0557935869     84.4745036       0.996921325      -3.96356913      0.996921325      -3.96356913      0.0558341616     84.475638        
270              0.0579342526     84.379918        0.996799367      -4.11594625      0.996799367      -4.11594625      0.057976386      84.3810104       
280              0.0600745575     84.2812136       0.996672823      -4.26831568      0.996672823      -4.26831568      0.0601182491     84.282267        
290              0.0622144805     84.1788173       0.996541697      -4.42067716      0.996541697      -4.42067716      0.06225973       84.1798344       
300              0.0643540014     84.0730991       0.996405989      -4.57303038      0.996405989      -4.57303038      0.0644008084     84.0740822       
310              0.0664931006     83.9643812       0.996265701      -4.72537508      0.996265701      -4.72537508      0.0665414647     83.9653325       
320              0.0686317591     83.8529457       0.996120836      -4.87771095      0.996120836      -4.87771095      0.0686816799     83.8538674       
330              0.0707699584     83.7390407       0.995971396      -5.03003773      0.995971396      -5.03003773      0.0708214353     83.7399344       
340              0.0729076802     83.622885        0.995817383      -5.18235513      0.995817383      -5.18235513      0.0729607129     83.6237523       
350              0.0750449067     83.5046724       0.995658799      -5.33466286      0.995658799      -5.33466286      0.0750994948     83.5055149       
360              0.0771816205     83.3845754       0.995495647      -5.48696064      0.995495647      -5.48696064      0.0772377635     83.3853945       
370              0.0793178042     83.2627477       0.995327929      -5.63924819      0.995327929      -5.63924819      0.0793755016     83.2635446       
380              0.0814534408     83.1393271       0.995155648      -5.79152522      0.995155648      -5.79152522      0.0815126921     83.140103        
390              0.0835885134     83.014437        0.994978805      -5.94379145      0.994978805      -5.94379145      0.0836493181     83.0151929       
400              0.0857230055     82.8881887       0.994797405      -6.09604659      0.994797405      -6.09604659      0.0857853631     82.8889257       
410              0.0878569004     82.7606827       0.994611449      -6.24829037      0.994611449      -6.24829037      0.0879208103     82.7614016       
420              0.0899901817     82.6320097       0.99442094       -6.4005225       0.99442094       -6.4005225       0.0900556436     82.6327115       
430              0.0921228333     82.5022524       0.99422588       -6.55274269      0.99422588       -6.55274269      0.0921898465     82.5029379       
440              0.0942548391     82.3714857       0.994026274      -6.70495066      0.994026274      -6.70495066      0.094323403      82.3721555       
450              0.0963861829     82.2397779       0.993822124      -6.85714614      0.993822124      -6.85714614      0.096456297      82.2404328       
460              0.0985168488     82.1071916       0.993613432      -7.00932883      0.993613432      -7.00932883      0.0985885125     82.1078322       
470              0.100646821      81.9737838       0.993400203      -7.16149845      0.993400203      -7.16149845      0.100720034      81.9744107       
480              0.102776084      81.8396069       0.993182439      -7.31365472      0.993182439      -7.31365472      0.102850845      81.8402207       
490              0.104904621      81.7047092       0.992960142      -7.46579737      0.992960142      -7.46579737      0.10498093       81.7053104       
500              0.107032418      81.569135        0.992733318      -7.61792609      0.992733318      -7.61792609      0.107110274      81.5697241       
510              0.109159458      81.4329251       0.992501968      -7.77004062      0.992501968      -7.77004062      0.109238861      81.4335026       
520              0.111285726      81.2961173       0.992266097      -7.92214067      0.992266097      -7.92214067      0.111366675      81.2966836       
530              0.113411207      81.1587465       0.992025708      -8.07422595      0.992025708      -8.07422595      0.113493701      81.1593021       
540              0.115535885      81.0208451       0.991780804      -8.22629619      0.991780804      -8.22629619      0.115619923      81.0213904       
550              0.117659745      80.8824432       0.991531389      -8.3783511       0.991531389      -8.3783511       0.117745327      80.8829785       
560              0.119782771      80.7435686       0.991277467      -8.53039041      0.991277467      -8.53039041      0.119869896      80.7440943       
570              0.121904948      80.6042473       0.991019042      -8.68241382      0.991019042      -8.68241382      0.121993616      80.6047637       
580              0.124026262      80.4645034       0.990756116      -8.83442105      0.990756116      -8.83442105      0.124116471      80.4650109       
590              0.126146696      80.3243597       0.990488695      -8.98641183      0.990488695      -8.98641183      0.126238446      80.3248585       
600              0.128266236      80.1838371       0.990216782      -9.13838587      0.990216782      -9.13838587      0.128359526      80.1843275       
610              0.130384866      80.0429554       0.989940381      -9.29034289      0.989940381      -9.29034289      0.130479696      80.0434377       
620              0.132502571      79.9017331       0.989659497      -9.44228261      0.989659497      -9.44228261      0.13259894       79.9022076       
630              0.134619337      79.7601874       0.989374132      -9.59420474      0.989374132      -9.59420474      0.134717244      79.7606543       
640              0.136735148      79.6183346       0.989084293      -9.74610901      0.989084293      -9.74610901      0.136834593      79.6187942       
650              0.13884999       79.4761901       0.988789982      -9.89799514      0.988789982      -9.89799514      0.13895097       79.4766425       
660              0.140963847      79.3337681       0.988491204      -10.0498628      0.988491204      -10.0498628      0.141066363      79.3342136       
670              0.143076704      79.1910821       0.988187964      -10.2017118      0.988187964      -10.2017118      0.143180755      79.191521        
680              0.145188547      79.048145        0.987880266      -10.3535418      0.987880266      -10.3535418      0.145294132      79.0485773       
690              0.147299361      78.9049687       0.987568115      -10.5053525      0.987568115      -10.5053525      0.147406478      78.9053947       
700              0.14940913       78.7615646       0.987251514      -10.6571437      0.987251514      -10.6571437      0.14951778       78.7619845       
710              0.151517841      78.6179434       0.98693047       -10.8089151      0.98693047       -10.8089151      0.151628021      78.6183573       
720              0.153625478      78.4741153       0.986604986      -10.9606663      0.986604986      -10.9606663      0.153737189      78.4745233       
730              0.155732026      78.3300897       0.986275067      -11.1123971      0.986275067      -11.1123971      0.155845267      78.3304922       
740              0.157837471      78.185876        0.985940719      -11.2641073      0.985940719      -11.2641073      0.15795224       78.1862729       
750              0.159941799      78.0414826       0.985601946      -11.4157965      0.985601946      -11.4157965      0.160058095      78.0418742       
760              0.162044994      77.8969178       0.985258753      -11.5674645      0.985258753      -11.5674645      0.162162817      77.8973042       
770              0.164147042      77.7521893       0.984911145      -11.7191109      0.984911145      -11.7191109      0.164266391      77.7525706       
780              0.166247928      77.6073046       0.984559127      -11.8707356      0.984559127      -11.8707356      0.166368801      77.6076809       
790              0.168347638      77.4622706       0.984202704      -12.0223382      0.984202704      -12.0223382      0.168470035      77.4626421       
800              0.170446157      77.3170941       0.983841883      -12.1739184      0.983841883      -12.1739184      0.170570077      77.3174609       
810              0.172543471      77.1717815       0.983476667      -12.325476       0.983476667      -12.325476       0.172668913      77.1721437       
820              0.174639565      77.0263387       0.983107063      -12.4770107      0.983107063      -12.4770107      0.174766528      77.0266965       
830              0.176734425      76.8807717       0.982733075      -12.6285222      0.982733075      -12.6285222      0.176862907      76.8811251       
840              0.178828036      76.735086        0.982354709      -12.7800102      0.982354709      -12.7800102      0.178958037      76.7354351       
850              0.180920384      76.5892868       0.981971972      -12.9314744      0.981971972      -12.9314744      0.181051903      76.5896317       
860              0.183011455      76.4433792       0.981584867      -13.0829147      0.981584867      -13.0829147      0.183144491      76.4437201       
870              0.185101234      76.297368        0.981193402      -13.2343306      0.981193402      -13.2343306      0.185235786      76.2977049       
880              0.187189708      76.151258        0.980797581      -13.385722       0.980797581      -13.385722       0.187325773      76.151591        
890              0.189276861      76.0050534       0.980397411      -13.5370884      0.980397411      -13.5370884      0.18941444       76.0053826       
900              0.191362679      75.8587586       0.979992897      -13.6884298      0.979992897      -13.6884298      0.19150177       75.8590841       
910              0.193447149      75.7123776       0.979584046      -13.8397457      0.979584046      -13.8397457      0.193587751      75.7126995       
920              0.195530256      75.5659144       0.979170863      -13.9910359      0.979170863      -13.9910359      0.195672368      75.5662327       
930              0.197611986      75.4193726       0.978753354      -14.1423002      0.978753354      -14.1423002      0.197755607      75.4196875       
940              0.199692324      75.272756        0.978331526      -14.2935381      0.978331526      -14.2935381      0.199837453      75.2730674       
950              0.201771258      75.1260679       0.977905385      -14.4447496      0.977905385      -14.4447496      0.201917893      75.126376        
960              0.203848772      74.9793117       0.977474936      -14.5959342      0.977474936      -14.5959342      0.203996913      74.9796165       
970              0.205924853      74.8324905       0.977040186      -14.7470918      0.977040186      -14.7470918      0.206074498      74.8327922       
980              0.207999486      74.6856076       0.976601142      -14.898222       0.976601142      -14.898222       0.208150634      74.6859061       
990              0.210072659      74.5386658       0.976157809      -15.0493245      0.976157809      -15.0493245      0.210225308      74.5389613       
1000             0.212144356      74.3916681       0.975710195      -15.2003992      0.975710195      -15.2003992      0.212298506      74.3919605       
1010             0.214214564      74.2446171       0.975258306      -15.3514456      0.975258306      -15.3514456      0.214370213      74.2449065       
1020             0.216283269      74.0975155       0.974802148      -15.5024636      0.974802148      -15.5024636      0.216440417      74.0978021       
1030             0.218350457      73.9503659       0.974341728      -15.6534528      0.974341728      -15.6534528      0.218509102      73.9506497       
1040             0.220416115      73.8031709       0.973877053      -15.804413       0.973877053      -15.804413       0.220576255      73.8034518       
1050             0.222480228      73.6559327       0.97340813       -15.9553439      0.97340813       -15.9553439      0.222641863      73.6562109       
1060             0.224542783      73.5086537       0.972934965      -16.1062452      0.972934965      -16.1062452      0.224705911      73.5089292       
1070             0.226603767      73.3613362       0.972457565      -16.2571167      0.972457565      -16.2571167      0.226768386      73.3616091       
1080             0.228663165      73.2139823       0.971975937      -16.4079581      0.971975937      -16.4079581      0.228829275      73.2142526       
1090             0.230720964      73.066594        0.971490088      -16.558769       0.971490088      -16.558769       0.230888563      73.0668618       
1100             0.23277715       72.9191736       0.971000026      -16.7095493      0.971000026      -16.7095493      0.232946237      72.9194388       
1110             0.234831711      72.7717228       0.970505756      -16.8602987      0.970505756      -16.8602987      0.235002283      72.7719856       
1120             0.236884631      72.6242436       0.970007288      -17.0110168      0.970007288      -17.0110168      0.237056689      72.624504        
1130             0.238935898      72.4767379       0.969504626      -17.1617034      0.969504626      -17.1617034      0.239109439      72.476996        
1140             0.240985498      72.3292075       0.96899778       -17.3123582      0.96899778       -17.3123582      0.241160522      72.3294632       
1150             0.243033419      72.181654        0.968486757      -17.462981       0.968486757      -17.462981       0.243209923      72.1819075       
1160             0.245079645      72.0340792       0.967971563      -17.6135715      0.967971563      -17.6135715      0.24525763       72.0343305       
1170             0.247124165      71.8864848       0.967452206      -17.7641294      0.967452206      -17.7641294      0.247303627      71.8867338       
1180             0.249166965      71.7388722       0.966928693      -17.9146544      0.966928693      -17.9146544      0.249347904      71.7391191       
1190             0.251208031      71.5912432       0.966401033      -18.0651463      0.966401033      -18.0651463      0.251390445      71.5914879       
1200             0.253247351      71.4435991       0.965869233      -18.2156048      0.965869233      -18.2156048      0.253431239      71.4438417       
1210             0.25528491       71.2959414       0.965333301      -18.3660296      0.965333301      -18.3660296      0.255470271      71.296182        
1220             0.257320697      71.1482716       0.964793243      -18.5164204      0.964793243      -18.5164204      0.257507528      71.1485102       
1230             0.259354697      71.0005911       0.964249069      -18.666777       0.964249069      -18.666777       0.259542998      71.0008276       
1240             0.261386898      70.8529012       0.963700786      -18.8170991      0.963700786      -18.8170991      0.261576667      70.8531357       
1250             0.263417287      70.7052032       0.963148401      -18.9673865      0.963148401      -18.9673865      0.263608522      70.7054358       
1260             0.26544585       70.5574984       0.962591924      -19.1176388      0.962591924      -19.1176388      0.26563855       70.5577291       
1270             0.267472575      70.409788        0.962031361      -19.2678557      0.962031361      -19.2678557      0.267666738      70.4100169       
1280             0.269497448      70.2620733       0.96146672       -19.4180371      0.96146672       -19.4180371      0.269693073      70.2623003       
1290             0.271520458      70.1143555       0.960898011      -19.5681827      0.960898011      -19.5681827      0.271717543      70.1145807       
1300             0.27354159       69.9666357       0.960325241      -19.7182921      0.960325241      -19.7182921      0.273740134      69.9668591       
1310             0.275560832      69.8189151       0.959748418      -19.8683651      0.959748418      -19.8683651      0.275760834      69.8191368       
1320             0.277578172      69.6711948       0.959167551      -20.0184014      0.959167551      -20.0184014      0.277779629      69.6714147       
1330             0.279593596      69.5234758       0.958582648      -20.1684008      0.958582648      -20.1684008      0.279796507      69.523694        
1340             0.281607093      69.3757592       0.957993718      -20.318363       0.957993718      -20.318363       0.281811456      69.3759757       
1350             0.283618648      69.228046        0.957400768      -20.4682878      0.957400768      -20.4682878      0.283824462      69.2282609       
1360             0.28562825       69.0803374       0.956803807      -20.6181747      0.956803807      -20.6181747      0.285835513      69.0805506       
1370             0.287635886      68.9326341       0.956202844      -20.7680237      0.956202844      -20.7680237      0.287844597      68.9328457       
