! Coilcraft 0906-2 Micro Spring Air Core Inductor				
! 16 May 2003
# MHZ S MA R 50
!Freq             MagS11           AngS11           MagS21           AngS21           MagS12           AngS12           MagS22           AngS22
100              0.00857524823    84.5565373       0.999265973      -0.778860496     0.999265973      -0.778860496     0.00858225704    84.560355        
110              0.00942736653    84.901083        0.999258295      -0.856748888     0.999258295      -0.856748888     0.00943508063    84.9045576       
120              0.0102799147     85.175578        0.999249885      -0.934637949     0.999249885      -0.934637949     0.0102883338     85.1787658       
130              0.0111327948     85.3960911       0.999240743      -1.01252774      0.999240743      -1.01252774      0.0111419185     85.3990357       
140              0.0119859367     85.5741308       0.99923087       -1.09041832      0.99923087       -1.09041832      0.0119957649     85.5768664       
150              0.0128392891     85.718154        0.999220266      -1.16830976      0.999220266      -1.16830976      0.0128498215     85.7207084       
160              0.0136928133     85.8345143       0.99920893       -1.2462021       0.99920893       -1.2462021       0.0137040499     85.8369098       
170              0.0145464799     85.9280765       0.999196863      -1.32409542      0.999196863      -1.32409542      0.0145584205     85.9303317       
180              0.0154002661     86.0026288       0.999184064      -1.40198978      0.999184064      -1.40198978      0.0154129106     86.0047592       
190              0.0162541537     86.0611645       0.999170533      -1.47988523      0.999170533      -1.47988523      0.016267502      86.0631831       
200              0.0171081285     86.10608         0.999156271      -1.55778183      0.999156271      -1.55778183      0.0171221806     86.107998        
210              0.0179621787     86.1393166       0.999141277      -1.63567965      0.999141277      -1.63567965      0.0179769345     86.1411436       
220              0.0188162949     86.1624637       0.999125551      -1.71357875      0.999125551      -1.71357875      0.0188317544     86.1642078       
230              0.0196704694     86.1768345       0.999109094      -1.79147918      0.999109094      -1.79147918      0.0196866324     86.1785029       
240              0.0205246957     86.1835241       0.999091904      -1.86938102      0.999091904      -1.86938102      0.0205415622     86.1851231       
250              0.0213789683     86.1834526       0.999073983      -1.94728431      0.999073983      -1.94728431      0.0213965383     86.1849878       
260              0.0222332828     86.1773989       0.999055329      -2.02518912      0.999055329      -2.02518912      0.0222515563     86.1788751       
270              0.0230876353     86.1660264       0.999035944      -2.10309552      0.999035944      -2.10309552      0.0231066122     86.167448        
280              0.0239420226     86.1499043       0.999015826      -2.18100355      0.999015826      -2.18100355      0.0239617029     86.1512751       
290              0.0247964419     86.129523        0.998994977      -2.25891329      0.998994977      -2.25891329      0.0248168255     86.1308466       
300              0.0256508909     86.1053078       0.998973395      -2.33682479      0.998973395      -2.33682479      0.0256719777     86.1065873       
310              0.0265053673     86.0776291       0.998951081      -2.41473811      0.998951081      -2.41473811      0.0265271575     86.0788674       
320              0.0273598697     86.0468111       0.998928034      -2.49265332      0.998928034      -2.49265332      0.0273823631     86.0480107       
330              0.0282143963     86.0131387       0.998904255      -2.57057047      0.998904255      -2.57057047      0.0282375929     86.014302        
340              0.0290689458     85.9768634       0.998879743      -2.64848963      0.998879743      -2.64848963      0.0290928457     85.9779924       
350              0.0299235172     85.9382078       0.998854499      -2.72641085      0.998854499      -2.72641085      0.0299481203     85.9393046       
360              0.0307781095     85.8973699       0.998828522      -2.80433419      0.998828522      -2.80433419      0.0308034157     85.8984362       
370              0.0316327217     85.8545264       0.998801812      -2.88225973      0.998801812      -2.88225973      0.031658731      85.8555638       
380              0.0324873531     85.8098351       0.99877437       -2.96018751      0.99877437       -2.96018751      0.0325140655     85.8108453       
390              0.0333420031     85.763438        0.998746194      -3.0381176       0.998746194      -3.0381176       0.0333694185     85.7644222       
400              0.034196671      85.7154627       0.998717286      -3.11605006      0.998717286      -3.11605006      0.0342247896     85.7164223       
410              0.0350513565     85.6660243       0.998687644      -3.19398494      0.998687644      -3.19398494      0.035080178      85.6669605       
420              0.035906059      85.6152271       0.998657269      -3.27192232      0.998657269      -3.27192232      0.0359355836     85.6161409       
430              0.0367607782     85.5631655       0.998626161      -3.34986224      0.998626161      -3.34986224      0.0367910058     85.5640581       
440              0.0376155138     85.5099256       0.99859432       -3.42780477      0.99859432       -3.42780477      0.0376464443     85.5107978       
450              0.0384702654     85.4555856       0.998561744      -3.50574998      0.998561744      -3.50574998      0.0385018989     85.4564384       
460              0.039325033      85.4002169       0.998528436      -3.58369791      0.998528436      -3.58369791      0.0393573694     85.4010512       
470              0.0401798162     85.343885        0.998494393      -3.66164863      0.998494393      -3.66164863      0.0402128555     85.3447015       
480              0.041034615      85.2866499       0.998459617      -3.73960221      0.998459617      -3.73960221      0.0410683572     85.2874493       
490              0.0418894291     85.2285665       0.998424107      -3.8175587       0.998424107      -3.8175587       0.0419238742     85.2293496       
500              0.0427442585     85.1696855       0.998387862      -3.89551815      0.998387862      -3.89551815      0.0427794064     85.1704529       
510              0.0435991031     85.1100536       0.998350884      -3.97348064      0.998350884      -3.97348064      0.0436349538     85.1108059       
520              0.0444539629     85.0497138       0.998313171      -4.05144622      0.998313171      -4.05144622      0.0444905163     85.0504517       
530              0.0453088377     84.988706        0.998274724      -4.12941496      0.998274724      -4.12941496      0.0453460939     84.9894299       
540              0.0461637276     84.927067        0.998235542      -4.2073869       0.998235542      -4.2073869       0.0462016865     84.9277775       
550              0.0470186325     84.8648311       0.998195625      -4.28536212      0.998195625      -4.28536212      0.0470572941     84.8655286       
560              0.0478735524     84.8020298       0.998154974      -4.36334067      0.998154974      -4.36334067      0.0479129168     84.8027148       
570              0.0487284875     84.7386929       0.998113588      -4.44132262      0.998113588      -4.44132262      0.0487685545     84.7393658       
580              0.0495834376     84.6748476       0.998071467      -4.51930801      0.998071467      -4.51930801      0.0496242072     84.6755089       
590              0.0504384029     84.6105197       0.99802861       -4.59729692      0.99802861       -4.59729692      0.0504798751     84.6111698       
600              0.0512933833     84.545733        0.997985019      -4.6752894       0.997985019      -4.6752894       0.0513355581     84.5463722       
610              0.052148379      84.4805098       0.997940691      -4.75328551      0.997940691      -4.75328551      0.0521912563     84.4811385       
620              0.0530033899     84.4148711       0.997895629      -4.83128532      0.997895629      -4.83128532      0.0530469698     84.4154896       
630              0.0538584163     84.3488363       0.99784983       -4.90928887      0.99784983       -4.90928887      0.0539026987     84.349445        
640              0.0547134581     84.2824238       0.997803296      -4.98729624      0.997803296      -4.98729624      0.0547584429     84.2830229       
650              0.0555685154     84.2156508       0.997756025      -5.06530748      0.997756025      -5.06530748      0.0556142027     84.2162406       
660              0.0564235883     84.1485334       0.997708019      -5.14332265      0.997708019      -5.14332265      0.056469978      84.1491143       
670              0.057278677      84.0810868       0.997659276      -5.22134181      0.997659276      -5.22134181      0.0573257691     84.081659        
680              0.0581337814     84.0133254       0.997609796      -5.29936503      0.997609796      -5.29936503      0.0581815759     84.0138891       
690              0.0589889018     83.9452624       0.99755958       -5.37739235      0.99755958       -5.37739235      0.0590373986     83.9458179       
700              0.0598440382     83.8769107       0.997508627      -5.45542384      0.997508627      -5.45542384      0.0598932373     83.8774583       
710              0.0606991907     83.8082822       0.997456937      -5.53345957      0.997456937      -5.53345957      0.0607490921     83.808822        
720              0.0615543595     83.7393882       0.99740451       -5.61149958      0.99740451       -5.61149958      0.0616049631     83.7399204       
730              0.0624095446     83.6702393       0.997351346      -5.68954394      0.997351346      -5.68954394      0.0624608505     83.6707642       
740              0.0632647462     83.6008457       0.997297444      -5.76759271      0.997297444      -5.76759271      0.0633167543     83.6013635       
750              0.0641199644     83.5312169       0.997242805      -5.84564595      0.997242805      -5.84564595      0.0641726746     83.5317278       
760              0.0649751993     83.461362        0.997187428      -5.92370371      0.997187428      -5.92370371      0.0650286116     83.4618661       
770              0.0658304511     83.3912895       0.997131313      -6.00176607      0.997131313      -6.00176607      0.0658845655     83.391787        
780              0.0666857198     83.3210075       0.997074459      -6.07983306      0.997074459      -6.07983306      0.0667405363     83.3214986       
790              0.0675410056     83.2505238       0.997016868      -6.15790476      0.997016868      -6.15790476      0.0675965241     83.2510086       
800              0.0683963086     83.1798457       0.996958537      -6.23598123      0.996958537      -6.23598123      0.0684525291     83.1803245       
810              0.069251629      83.1089802       0.996899469      -6.31406252      0.996899469      -6.31406252      0.0693085514     83.109453        
820              0.0701069668     83.0379339       0.996839661      -6.39214869      0.996839661      -6.39214869      0.0701645912     83.0384009       
830              0.0709623223     82.9667131       0.996779114      -6.47023981      0.996779114      -6.47023981      0.0710206486     82.9671743       
840              0.0718176954     82.8953237       0.996717828      -6.54833592      0.996717828      -6.54833592      0.0718767236     82.8957795       
850              0.0726730865     82.8237715       0.996655802      -6.62643709      0.996655802      -6.62643709      0.0727328165     82.8242219       
860              0.0735284956     82.752062        0.996593037      -6.70454339      0.996593037      -6.70454339      0.0735889273     82.7525071       
870              0.0743839227     82.6802003       0.996529532      -6.78265486      0.996529532      -6.78265486      0.0744450563     82.6806402       
880              0.0752393682     82.6081913       0.996465287      -6.86077157      0.996465287      -6.86077157      0.0753012034     82.6086262       
890              0.0760948321     82.5360399       0.996400302      -6.93889357      0.996400302      -6.93889357      0.076157369      82.5364699       
900              0.0769503144     82.4637505       0.996334576      -7.01702093      0.996334576      -7.01702093      0.077013553      82.4641756       
910              0.0778058155     82.3913274       0.99626811       -7.0951537       0.99626811       -7.0951537       0.0778697556     82.3917478       
920              0.0786613353     82.3187748       0.996200903      -7.17329194      0.996200903      -7.17329194      0.078725977      82.3191906       
930              0.079516874      82.2460965       0.996132954      -7.25143571      0.996132954      -7.25143571      0.0795822173     82.2465079       
940              0.0803724319     82.1732965       0.996064265      -7.32958507      0.996064265      -7.32958507      0.0804384766     82.1737034       
950              0.0812280088     82.1003782       0.995994834      -7.40774008      0.995994834      -7.40774008      0.0812947551     82.1007808       
960              0.0820836051     82.0273451       0.995924661      -7.48590079      0.995924661      -7.48590079      0.0821510528     82.0277435       
970              0.0829392209     81.9542007       0.995853746      -7.56406727      0.995853746      -7.56406727      0.0830073699     81.9545948       
980              0.0837948562     81.8809479       0.99578209       -7.64223957      0.99578209       -7.64223957      0.0838637066     81.881338        
990              0.0846505113     81.8075899       0.99570969       -7.72041776      0.99570969       -7.72041776      0.0847200629     81.807976        
1000             0.0855061861     81.7341296       0.995636549      -7.79860188      0.995636549      -7.79860188      0.085576439      81.7345119       
1010             0.0863618809     81.6605698       0.995562664      -7.876792        0.995562664      -7.876792        0.086432835      81.6609482       
1020             0.0872175958     81.5869132       0.995488037      -7.95498818      0.995488037      -7.95498818      0.0872892511     81.5872879       
1030             0.0880733309     81.5131624       0.995412666      -8.03319047      0.995412666      -8.03319047      0.0881456873     81.5135334       
1040             0.0889290864     81.4393198       0.995336551      -8.11139893      0.995336551      -8.11139893      0.0890021438     81.4396872       
1050             0.0897848623     81.3653879       0.995259693      -8.18961362      0.995259693      -8.18961362      0.0898586208     81.3657518       
1060             0.0906406587     81.2913689       0.995182091      -8.2678346       0.995182091      -8.2678346       0.0907151182     81.2917293       
1070             0.0914964759     81.2172651       0.995103745      -8.34606193      0.995103745      -8.34606193      0.0915716363     81.2176221       
1080             0.0923523139     81.1430785       0.995024655      -8.42429566      0.995024655      -8.42429566      0.0924281752     81.1434321       
1090             0.0932081728     81.0688113       0.994944819      -8.50253585      0.994944819      -8.50253585      0.093284735      81.0691616       
1100             0.0940640528     80.9944653       0.994864239      -8.58078257      0.994864239      -8.58078257      0.0941413158     80.9948124       
1110             0.094919954      80.9200425       0.994782913      -8.65903586      0.994782913      -8.65903586      0.0949979177     80.9203864       
1120             0.0957758764     80.8455447       0.994700843      -8.73729578      0.994700843      -8.73729578      0.0958545409     80.8458855       
1130             0.0966318202     80.7709736       0.994618026      -8.8155624       0.994618026      -8.8155624       0.0967111854     80.7713114       
1140             0.0974877856     80.696331        0.994534464      -8.89383577      0.994534464      -8.89383577      0.0975678514     80.6966658       
1150             0.0983437726     80.6216185       0.994450155      -8.97211594      0.994450155      -8.97211594      0.098424539      80.6219503       
1160             0.0991997813     80.5468376       0.9943651        -9.05040298      0.9943651        -9.05040298      0.0992812483     80.5471665       
1170             0.100055812      80.4719899       0.994279298      -9.12869694      0.994279298      -9.12869694      0.100137979      80.4723159       
1180             0.100911864      80.3970768       0.994192749      -9.20699788      0.994192749      -9.20699788      0.100994732      80.3974          
1190             0.101767939      80.3220998       0.994105453      -9.28530586      0.994105453      -9.28530586      0.101851507      80.3224203       
1200             0.102624036      80.2470602       0.99401741       -9.36362093      0.99401741       -9.36362093      0.102708304      80.2473779       
1210             0.103480155      80.1719593       0.993928618      -9.44194316      0.993928618      -9.44194316      0.103565124      80.1722744       
1220             0.104336296      80.0967984       0.993839079      -9.52027259      0.993839079      -9.52027259      0.104421965      80.0971109       
1230             0.10519246       80.0215788       0.993748792      -9.59860928      0.993748792      -9.59860928      0.105278829      80.0218887       
1240             0.106048646      79.9463016       0.993657756      -9.6769533       0.993657756      -9.6769533       0.106135716      79.946609        
1250             0.106904856      79.870968        0.993565971      -9.7553047       0.993565971      -9.7553047       0.106992625      79.8712728       
1260             0.107761087      79.795579        0.993473437      -9.83366353      0.993473437      -9.83366353      0.107849557      79.7958814       
1270             0.108617342      79.7201358       0.993380153      -9.91202985      0.993380153      -9.91202985      0.108706511      79.7204358       
1280             0.10947362       79.6446394       0.99328612       -9.99040372      0.99328612       -9.99040372      0.109563489      79.6449371       
1290             0.11032992       79.5690909       0.993191337      -10.0687852      0.993191337      -10.0687852      0.11042049       79.5693861       
1300             0.111186244      79.4934911       0.993095803      -10.1471743      0.993095803      -10.1471743      0.111277513      79.493784        
1310             0.112042591      79.417841        0.99299952       -10.2255712      0.99299952       -10.2255712      0.11213456       79.4181317       
1320             0.112898961      79.3421415       0.992902485      -10.3039758      0.992902485      -10.3039758      0.11299163       79.34243         
1330             0.113755355      79.2663936       0.992804699      -10.3823883      0.992804699      -10.3823883      0.113848723      79.2666798       
1340             0.114611772      79.190598        0.992706162      -10.4608086      0.992706162      -10.4608086      0.11470584       79.190882        
1350             0.115468213      79.1147556       0.992606873      -10.5392369      0.992606873      -10.5392369      0.11556298       79.1150375       
1360             0.116324677      79.0388672       0.992506832      -10.6176732      0.992506832      -10.6176732      0.116420144      79.039147        
1370             0.117181165      78.9629336       0.992406039      -10.6961176      0.992406039      -10.6961176      0.117277331      78.9632113       
