! Coilcraft 1606-10 Micro Spring Air Core Inductor				
! 16 May 2003
# MHZ S MA R 50
!Freq             MagS11           AngS11           MagS21           AngS21           MagS12           AngS12           MagS22           AngS22
100              0.070452448      81.6958104       0.992861031      -4.51001955      0.992861031      -4.51001955      0.0705298333     81.699978        
110              0.0774310297     81.5902563       0.99234529       -4.95966836      0.99234529       -4.95966836      0.0775161445     81.5940475       
120              0.0844014018     81.4279326       0.99178126       -5.40893251      0.99178126       -5.40893251      0.0844942318     81.4314096       
130              0.0913620983     81.2220108       0.991169162      -5.85777789      0.991169162      -5.85777789      0.0914626289     81.2252214       
140              0.0983118142     80.9819249       0.990509239      -6.30617066      0.990509239      -6.30617066      0.0984200299     80.9849069       
150              0.105249355      80.7146117       0.98980175       -6.75407718      0.98980175       -6.75407718      0.105365239      80.7173954       
160              0.112173604      80.4252875       0.989046973      -7.20146409      0.989046973      -7.20146409      0.112297141      80.4278974       
170              0.119083506      80.1179524       0.988245202      -7.64829831      0.988245202      -7.64829831      0.119214677      80.1204089       
180              0.125978049      79.7957268       0.987396749      -8.09454705      0.987396749      -8.09454705      0.126116837      79.7980468       
190              0.132856262      79.4610823       0.986501943      -8.54017782      0.986501943      -8.54017782      0.133002646      79.4632802       
200              0.139717199      79.1160035       0.98556113       -8.98515847      0.98556113       -8.98515847      0.13987116       79.1180913       
210              0.146559946      78.7621031       0.984574671      -9.42945718      0.984574671      -9.42945718      0.146721463      78.7640914       
220              0.153383611      78.4007068       0.983542943      -9.87304249      0.983542943      -9.87304249      0.153552661      78.4026046       
230              0.160187321      78.0329151       0.982466338      -10.3158833      0.982466338      -10.3158833      0.160363882      78.0347301       
240              0.166970228      77.65965         0.981345263      -10.7579489      0.981345263      -10.7579489      0.167154275      77.6613892       
250              0.173731498      77.2816909       0.98018014       -11.199209       0.98018014       -11.199209       0.173923008      77.2833602       
260              0.18047032       76.8997014       0.978971405      -11.6396337      0.978971405      -11.6396337      0.180669266      76.9013062       
270              0.187185897      76.5142511       0.977719508      -12.0791935      0.977719508      -12.0791935      0.187392254      76.5157962       
280              0.193877453      76.125832        0.976424911      -12.5178594      0.976424911      -12.5178594      0.194091193      76.1273217       
290              0.200544227      75.7348719       0.975088089      -12.9556027      0.975088089      -12.9556027      0.200765322      75.7363099       
300              0.207185476      75.341745        0.973709529      -13.3923953      0.973709529      -13.3923953      0.207413898      75.3431347       
310              0.213800474      74.9467802       0.972289731      -13.8282096      0.972289731      -13.8282096      0.214036194      74.9481247       
320              0.220388514      74.5502685       0.970829206      -14.2630183      0.970829206      -14.2630183      0.220631501      74.5515707       
330              0.226948905      74.1524684       0.969328474      -14.6967946      0.969328474      -14.6967946      0.227199127      74.1537308       
340              0.233480972      73.7536107       0.967788068      -15.1295125      0.967788068      -15.1295125      0.233738398      73.7548356       
350              0.239984059      73.3539022       0.966208528      -15.5611462      0.966208528      -15.5611462      0.240248657      73.3550918       
360              0.246457529      72.9535292       0.964590405      -15.9916704      0.964590405      -15.9916704      0.246729265      72.9546854       
370              0.252900759      72.55266         0.962934258      -16.4210604      0.962934258      -16.4210604      0.2531796        72.5537847       
380              0.259313146      72.1514474       0.961240656      -16.8492921      0.961240656      -16.8492921      0.259599057      72.1525421       
390              0.265694104      71.7500302       0.959510175      -17.2763419      0.959510175      -17.2763419      0.265987051      71.7510966       
400              0.272043066      71.3485355       0.957743395      -17.7021866      0.957743395      -17.7021866      0.272343012      71.3495749       
410              0.278359481      70.9470795       0.955940909      -18.1268037      0.955940909      -18.1268037      0.278666389      70.9480932       
420              0.284642817      70.545769        0.95410331       -18.550171       0.95410331       -18.550171       0.284956651      70.5467581       
430              0.290892559      70.1447023       0.952231202      -18.9722673      0.952231202      -18.9722673      0.291213281      70.1456681       
440              0.297108211      69.7439702       0.950325191      -19.3930714      0.950325191      -19.3930714      0.297435784      69.7449137       
450              0.303289293      69.3436569       0.94838589       -19.8125632      0.94838589       -19.8125632      0.303623678      69.3445791       
460              0.309435346      68.9438402       0.946413913      -20.2307226      0.946413913      -20.2307226      0.309776504      68.944742        
470              0.315545926      68.5445926       0.944409882      -20.6475305      0.944409882      -20.6475305      0.315893817      68.5454748       
480              0.321620608      68.1459816       0.942374421      -21.0629682      0.942374421      -21.0629682      0.321975191      68.1468451       
490              0.327658985      67.7480701       0.940308155      -21.4770175      0.940308155      -21.4770175      0.32802022       67.7489156       
500              0.333660665      67.3509168       0.938211713      -21.8896608      0.938211713      -21.8896608      0.334028512      67.3517451       
510              0.339625278      66.9545768       0.936085727      -22.3008811      0.936085727      -22.3008811      0.339999695      66.9553884       
520              0.345552468      66.5591015       0.933930828      -22.710662       0.933930828      -22.710662       0.345933413      66.5598972       
530              0.351441898      66.1645393       0.931747652      -23.1189874      0.931747652      -23.1189874      0.351829329      66.1653196       
540              0.357293247      65.7709355       0.929536832      -23.5258422      0.929536832      -23.5258422      0.357687121      65.771701        
550              0.363106212      65.3783326       0.927299002      -23.9312114      0.927299002      -23.9312114      0.363506487      65.3790839       
560              0.368880507      64.9867708       0.925034798      -24.3350809      0.925034798      -24.3350809      0.36928714       64.9875083       
570              0.374615862      64.5962878       0.922744853      -24.7374369      0.922744853      -24.7374369      0.375028808      64.597012        
580              0.380312024      64.206919        0.920429802      -25.1382662      0.920429802      -25.1382662      0.380731241      64.2076304       
590              0.385968756      63.818698        0.918090275      -25.5375563      0.918090275      -25.5375563      0.386394199      63.8193969       
600              0.391585838      63.4316561       0.915726903      -25.9352951      0.915726903      -25.9352951      0.392017463      63.4323431       
610              0.397163065      63.0458232       0.913340315      -26.331471       0.913340315      -26.331471       0.397600828      63.0464985       
620              0.402700249      62.6612272       0.910931137      -26.7260731      0.910931137      -26.7260731      0.403144104      62.6618912       
630              0.408197216      62.2778944       0.908499991      -27.1190908      0.908499991      -27.1190908      0.408647119      62.2785476       
640              0.413653808      61.8958499       0.906047499      -27.5105142      0.906047499      -27.5105142      0.414109714      61.8964925       
650              0.419069882      61.5151169       0.903574277      -27.9003339      0.903574277      -27.9003339      0.419531746      61.5157493       
660              0.424445311      61.1357177       0.901080939      -28.2885408      0.901080939      -28.2885408      0.424913088      61.1363401       
670              0.429779981      60.7576729       0.898568095      -28.6751266      0.898568095      -28.6751266      0.430253624      60.7582856       
680              0.435073791      60.3810021       0.89603635       -29.0600834      0.89603635       -29.0600834      0.435553256      60.3816055       
690              0.440326658      60.0057238       0.893486304      -29.4434036      0.893486304      -29.4434036      0.440811898      60.0063181       
700              0.44553851       59.6318553       0.890918556      -29.8250803      0.890918556      -29.8250803      0.44602948       59.6324407       
710              0.450709288      59.2594127       0.888333694      -30.2051071      0.888333694      -30.2051071      0.451205942      59.2599895       
720              0.455838948      58.8884112       0.885732308      -30.5834779      0.885732308      -30.5834779      0.456341239      58.8889797       
730              0.460927458      58.5188651       0.883114976      -30.9601871      0.883114976      -30.9601871      0.461435341      58.5194255       
740              0.465974797      58.1507878       0.880482274      -31.3352297      0.880482274      -31.3352297      0.466488227      58.1513402       
750              0.47098096       57.7841916       0.877834772      -31.708601       0.877834772      -31.708601       0.47149989       57.7847363       
760              0.475945952      57.4190882       0.875173033      -32.0802968      0.875173033      -32.0802968      0.476470335      57.4196253       
770              0.480869788      57.0554881       0.872497616      -32.4503133      0.872497616      -32.4503133      0.481399579      57.056018        
780              0.485752498      56.6934016       0.86980907       -32.8186472      0.86980907       -32.8186472      0.486287651      56.6939242       
790              0.49059412       56.3328377       0.867107941      -33.1852956      0.867107941      -33.1852956      0.491134589      56.3333534       
800              0.495394704      55.9738049       0.864394767      -33.5502559      0.864394767      -33.5502559      0.495940444      55.9743138       
810              0.500154312      55.616311        0.861670078      -33.9135261      0.861670078      -33.9135261      0.500705276      55.6168133       
820              0.504873014      55.2603632       0.8589344        -34.2751043      0.8589344        -34.2751043      0.505429157      55.2608589       
830              0.509550891      54.9059678       0.85618825       -34.6349894      0.85618825       -34.6349894      0.510112167      54.9064573       
840              0.514188033      54.5531308       0.853432138      -34.9931802      0.853432138      -34.9931802      0.514754398      54.5536141       
850              0.518784542      54.2018574       0.850666568      -35.3496763      0.850666568      -35.3496763      0.519355948      54.2023347       
860              0.523340524      53.8521523       0.847892035      -35.7044774      0.847892035      -35.7044774      0.523916928      53.8526236       
870              0.527856099      53.5040194       0.845109029      -36.0575836      0.845109029      -36.0575836      0.528437455      53.504485        
880              0.532331393      53.1574625       0.84231803       -36.4089954      0.84231803       -36.4089954      0.532917655      53.1579224       
890              0.53676654       52.8124846       0.839519511      -36.7587136      0.839519511      -36.7587136      0.537357664      52.8129389       
900              0.541161682      52.4690881       0.83671394       -37.1067394      0.83671394       -37.1067394      0.541757623      52.4695371       
910              0.545516969      52.1272751       0.833901775      -37.4530742      0.833901775      -37.4530742      0.546117684      52.1277188       
920              0.54983256       51.7870473       0.831083467      -37.7977197      0.831083467      -37.7977197      0.550438002      51.7874858       
930              0.554108617      51.4484058       0.82825946       -38.1406782      0.82825946       -38.1406782      0.554718744      51.4488392       
940              0.558345314      51.1113512       0.825430188      -38.4819519      0.825430188      -38.4819519      0.55896008       51.1117797       
950              0.562542826      50.7758839       0.822596081      -38.8215435      0.822596081      -38.8215435      0.563162189      50.7763075       
960              0.56670134       50.4420037       0.819757559      -39.1594559      0.819757559      -39.1594559      0.567325255      50.4424225       
970              0.570821043      50.1097101       0.816915034      -39.4956924      0.816915034      -39.4956924      0.571449468      50.1101243       
980              0.574902134      49.7790022       0.814068911      -39.8302565      0.814068911      -39.8302565      0.575535025      49.7794118       
990              0.578944813      49.4498788       0.811219588      -40.1631518      0.811219588      -40.1631518      0.579582127      49.4502839       
1000             0.582949286      49.1223383       0.808367455      -40.4943824      0.808367455      -40.4943824      0.58359098       49.122739        
1010             0.586915766      48.7963787       0.805512894      -40.8239525      0.805512894      -40.8239525      0.587561798      48.7967751       
1020             0.590844469      48.4719978       0.802656279      -41.1518666      0.802656279      -41.1518666      0.591494796      48.4723899       
1030             0.594735616      48.1491929       0.799797977      -41.4781293      0.799797977      -41.4781293      0.595390197      48.1495809       
1040             0.598589432      47.8279613       0.796938348      -41.8027456      0.796938348      -41.8027456      0.599248225      47.8283451       
1050             0.602406148      47.5082996       0.794077743      -42.1257205      0.794077743      -42.1257205      0.603069111      47.5086795       
1060             0.606185996      47.1902045       0.791216507      -42.4470595      0.791216507      -42.4470595      0.606853088      47.1905805       
1070             0.609929213      46.8736723       0.788354978      -42.766768       0.788354978      -42.766768       0.610600393      46.8740444       
1080             0.613636041      46.5586989       0.785493484      -43.0848518      0.785493484      -43.0848518      0.614311267      46.5590672       
1090             0.617306722      46.2452801       0.782632349      -43.4013167      0.782632349      -43.4013167      0.617985955      46.2456447       
1100             0.620941503      45.9334115       0.779771887      -43.7161689      0.779771887      -43.7161689      0.621624703      45.9337724       
1110             0.624540635      45.6230884       0.776912406      -44.0294145      0.776912406      -44.0294145      0.625227761      45.6234456       
1120             0.628104369      45.3143057       0.774054208      -44.3410601      0.774054208      -44.3410601      0.628795382      45.3146595       
1130             0.631632961      45.0070585       0.771197586      -44.6511121      0.771197586      -44.6511121      0.632327821      45.0074087       
1140             0.635126667      44.7013413       0.768342828      -44.9595773      0.768342828      -44.9595773      0.635825335      44.7016881       
1150             0.638585746      44.3971486       0.765490213      -45.2664625      0.765490213      -45.2664625      0.639288184      44.397492        
1160             0.642010461      44.0944746       0.762640014      -45.5717749      0.762640014      -45.5717749      0.642716629      44.0948148       
1170             0.645401072      43.7933136       0.759792499      -45.8755214      0.759792499      -45.8755214      0.646110934      43.7936505       
1180             0.648757847      43.4936594       0.756947926      -46.1777094      0.756947926      -46.1777094      0.649471363      43.4939931       
1190             0.652081049      43.1955058       0.75410655       -46.4783463      0.75410655       -46.4783463      0.652798182      43.1958363       
1200             0.655370947      42.8988463       0.751268616      -46.7774396      0.751268616      -46.7774396      0.65609166       42.8991738       
1210             0.658627809      42.6036745       0.748434366      -47.0749969      0.748434366      -47.0749969      0.659352065      42.6039989       
1220             0.661851905      42.3099837       0.745604033      -47.3710259      0.745604033      -47.3710259      0.662579666      42.3103051       
1230             0.665043505      42.0177669       0.742777845      -47.6655345      0.742777845      -47.6655345      0.665774735      42.0180854       
1240             0.668202879      41.7270174       0.739956024      -47.9585305      0.739956024      -47.9585305      0.668937543      41.7273329       
1250             0.671330301      41.437728        0.737138785      -48.2500221      0.737138785      -48.2500221      0.672068362      41.4380406       
1260             0.674426041      41.1498915       0.734326339      -48.5400172      0.734326339      -48.5400172      0.675167464      41.1502013       
1270             0.677490373      40.8635006       0.731518888      -48.8285241      0.731518888      -48.8285241      0.678235123      40.8638076       
1280             0.68052357       40.5785479       0.728716632      -49.115551       0.728716632      -49.115551       0.681271611      40.5788522       
1290             0.683525903      40.295026        0.725919761      -49.4011062      0.725919761      -49.4011062      0.684277201      40.2953276       
1300             0.686497647      40.0129272       0.723128464      -49.6851982      0.723128464      -49.6851982      0.687252168      40.0132261       
1310             0.689439074      39.7322437       0.72034292       -49.9678353      0.72034292       -49.9678353      0.690196784      39.73254         
1320             0.692350458      39.452968        0.717563307      -50.2490262      0.717563307      -50.2490262      0.693111321      39.4532617       
1330             0.695232069      39.175092        0.714789794      -50.5287794      0.714789794      -50.5287794      0.695996054      39.1753832       
1340             0.698084181      38.898608        0.712022547      -50.8071034      0.712022547      -50.8071034      0.698851254      38.8988966       
1350             0.700907064      38.6235078       0.709261725      -51.084007       0.709261725      -51.084007       0.701677193      38.623794        
1360             0.703700991      38.3497835       0.706507485      -51.3594989      0.706507485      -51.3594989      0.704474142      38.3500672       
1370             0.706466231      38.0774269       0.703759976      -51.6335877      0.703759976      -51.6335877      0.707242372      38.0777082       
