! Coilcraft 1606-6 Micro Spring Air Core Inductor				
! 16 May 2003
# MHZ S MA R 50
!Freq             MagS11           AngS11           MagS21           AngS21           MagS12           AngS12           MagS22           AngS22
100              0.0312675906     83.8697383       0.997348542      -2.16121676      0.997348542      -2.16121676      0.0312956892     83.8733071       
110              0.0343770075     84.0135669       0.997246533      -2.37723455      0.997246533      -2.37723455      0.034407926      84.016814        
120              0.0374866904     84.097672        0.997134838      -2.59322268      0.997134838      -2.59322268      0.0375204269     84.1006502       
130              0.0405963006     84.1357856       0.997013465      -2.80917847      0.997013465      -2.80917847      0.0406328535     84.138536        
140              0.0437055739     84.1377363       0.996882423      -3.02509924      0.996882423      -3.02509924      0.0437449417     84.1402911       
150              0.0468142958     84.1107433       0.996741721      -3.24098231      0.996741721      -3.24098231      0.0468564769     84.1131284       
160              0.0499222856     84.060228        0.996591369      -3.45682501      0.996591369      -3.45682501      0.0499672786     84.0624644       
170              0.0530293872     83.9903409       0.996431378      -3.67262467      0.996431378      -3.67262467      0.0530771905     83.9924462       
180              0.056135462      83.9043136       0.996261758      -3.88837863      0.996261758      -3.88837863      0.0561860741     83.9063022       
190              0.0592403842     83.8046992       0.996082523      -4.10408421      0.996082523      -4.10408421      0.0592938036     83.8065833       
200              0.062344038      83.6935422       0.995893685      -4.31973878      0.995893685      -4.31973878      0.0624002631     83.6953322       
210              0.0654463151     83.5724988       0.995695256      -4.53533967      0.995695256      -4.53533967      0.0655053443     83.5742036       
220              0.068547113      83.442925        0.995487252      -4.75088424      0.995487252      -4.75088424      0.0686089446     83.4445524       
230              0.0716463339     83.305942        0.995269687      -4.96636985      0.995269687      -4.96636985      0.0717109661     83.3074987       
240              0.0747438837     83.1624848       0.995042576      -5.18179387      0.995042576      -5.18179387      0.0748113148     83.1639766       
250              0.0778396714     83.0133393       0.994805936      -5.39715366      0.994805936      -5.39715366      0.0779098995     83.0147714       
260              0.0809336083     82.8591712       0.994559782      -5.61244661      0.994559782      -5.61244661      0.0810066316     82.8605482       
270              0.0840256081     82.700548        0.994304133      -5.8276701       0.994304133      -5.8276701       0.0841014246     82.7018739       
280              0.087115586      82.5379566       0.994039006      -6.04282151      0.994039006      -6.04282151      0.0871941936     82.5392351       
290              0.0902034589     82.3718171       0.99376442       -6.25789825      0.99376442       -6.25789825      0.0902848556     82.3730515       
300              0.0932891449     82.2024941       0.993480395      -6.47289773      0.993480395      -6.47289773      0.0933733285     82.2036873       
310              0.0963725632     82.0303054       0.993186949      -6.68781735      0.993186949      -6.68781735      0.0964595315     82.03146         
320              0.0994536343     81.8555295       0.992884104      -6.90265454      0.992884104      -6.90265454      0.099543385      81.856648        
330              0.102532279      81.6784115       0.992571882      -7.11740671      0.992571882      -7.11740671      0.10262481       81.6794959       
340              0.10560842       81.4991678       0.992250302      -7.33207132      0.992250302      -7.33207132      0.105703729      81.5002203       
350              0.10868198       81.3179905       0.991919389      -7.54664581      0.991919389      -7.54664581      0.108780064      81.3190129       
360              0.111752882      81.1350508       0.991579165      -7.76112762      0.991579165      -7.76112762      0.111853738      81.1360446       
370              0.11482105       80.9505013       0.991229653      -7.97551422      0.991229653      -7.97551422      0.114924677      80.9514681       
380              0.11788641       80.7644791       0.990870879      -8.18980308      0.990870879      -8.18980308      0.117992804      80.7654204       
390              0.120948887      80.5771073       0.990502867      -8.40399169      0.990502867      -8.40399169      0.121058045      80.5780244       
400              0.124008406      80.3884972       0.990125641      -8.61807753      0.990125641      -8.61807753      0.124120326      80.3893913       
410              0.127064895      80.1987492       0.98973923       -8.8320581       0.98973923       -8.8320581       0.127179574      80.1996213       
420              0.13011828       80.0079545       0.989343658      -9.04593091      0.989343658      -9.04593091      0.130235715      80.0088058       
430              0.133168488      79.816196        0.988938953      -9.25969349      0.988938953      -9.25969349      0.133288677      79.8170274       
440              0.136215449      79.6235493       0.988525144      -9.47334336      0.988525144      -9.47334336      0.136338387      79.6243617       
450              0.139259091      79.4300836       0.988102258      -9.68687806      0.988102258      -9.68687806      0.139384776      79.4308778       
460              0.142299342      79.235862        0.987670324      -9.90029516      0.987670324      -9.90029516      0.142427771      79.2366389       
470              0.145336132      79.0409428       0.987229372      -10.1135922      0.987229372      -10.1135922      0.145467302      79.041703        
480              0.148369392      78.8453793       0.986779432      -10.3267668      0.986779432      -10.3267668      0.148503299      78.8461235       
490              0.151399052      78.6492208       0.986320534      -10.5398164      0.986320534      -10.5398164      0.151535692      78.6499497       
500              0.154425043      78.4525128       0.985852711      -10.7527388      0.985852711      -10.7527388      0.154564413      78.4532271       
510              0.157447297      78.2552974       0.985375992      -10.9655315      0.985375992      -10.9655315      0.157589394      78.2559976       
520              0.160465745      78.0576138       0.984890411      -11.1781922      0.984890411      -11.1781922      0.160610565      78.0583004       
530              0.16348032       77.8594981       0.984396001      -11.3907184      0.984396001      -11.3907184      0.16362786       77.8601716       
540              0.166490956      77.6609841       0.983892794      -11.6031078      0.983892794      -11.6031078      0.166641211      77.661645        
550              0.169497585      77.4621032       0.983380824      -11.8153581      0.983380824      -11.8153581      0.169650552      77.462752        
560              0.172500141      77.2628848       0.982860127      -12.027467       0.982860127      -12.027467       0.172655817      77.263522        
570              0.17549856       77.0633564       0.982330736      -12.2394321      0.982330736      -12.2394321      0.175656941      77.0639823       
580              0.178492776      76.8635436       0.981792686      -12.4512511      0.981792686      -12.4512511      0.178653857      76.8641586       
590              0.181482724      76.6634706       0.981246015      -12.6629218      0.981246015      -12.6629218      0.181646502      76.664075        
600              0.184468341      76.4631599       0.980690757      -12.8744418      0.980690757      -12.8744418      0.184634811      76.4637542       
610              0.187449563      76.2626329       0.98012695       -13.0858089      0.98012695       -13.0858089      0.187618722      76.2632173       
620              0.190426328      76.0619096       0.979554631      -13.2970209      0.979554631      -13.2970209      0.19059817       76.0624844       
630              0.193398571      75.8610088       0.978973837      -13.5080755      0.978973837      -13.5080755      0.193573094      75.8615744       
640              0.196366233      75.6599485       0.978384607      -13.7189705      0.978384607      -13.7189705      0.196543431      75.6605052       
650              0.199329251      75.4587454       0.977786979      -13.9297037      0.977786979      -13.9297037      0.19950912       75.4592934       
660              0.202287564      75.2574156       0.977180993      -14.1402729      0.977180993      -14.1402729      0.2024701        75.2579552       
670              0.205241112      75.0559741       0.976566688      -14.3506759      0.976566688      -14.3506759      0.205426311      75.0565055       
680              0.208189835      74.8544353       0.975944103      -14.5609106      0.975944103      -14.5609106      0.208377692      74.8549588       
690              0.211133673      74.6528129       0.975313279      -14.7709748      0.975313279      -14.7709748      0.211324184      74.6533287       
700              0.214072569      74.4511197       0.974674257      -14.9808664      0.974674257      -14.9808664      0.214265728      74.451628        
710              0.217006464      74.2493681       0.974027078      -15.1905832      0.974027078      -15.1905832      0.217202267      74.2498691       
720              0.2199353        74.0475698       0.973371784      -15.4001232      0.973371784      -15.4001232      0.220133742      74.0480638       
730              0.222859019      73.845736        0.972708416      -15.6094843      0.972708416      -15.6094843      0.223060097      73.8462231       
740              0.225777567      73.6438775       0.972037017      -15.8186644      0.972037017      -15.8186644      0.225981274      73.6443579       
750              0.228690885      73.4420043       0.97135763       -16.0276615      0.97135763       -16.0276615      0.228897217      73.4424782       
760              0.23159892       73.2401264       0.970670297      -16.2364735      0.970670297      -16.2364735      0.231807872      73.2405939       
770              0.234501615      73.038253        0.969975062      -16.4450983      0.969975062      -16.4450983      0.234713182      73.0387144       
780              0.237398917      72.8363931       0.969271969      -16.6535341      0.969271969      -16.6535341      0.237613094      72.8368484       
790              0.240290773      72.6345552       0.968561062      -16.8617787      0.968561062      -16.8617787      0.240507554      72.6350047       
800              0.243177127      72.4327477       0.967842386      -17.0698302      0.967842386      -17.0698302      0.243396509      72.4331914       
810              0.246057929      72.2309783       0.967115985      -17.2776867      0.967115985      -17.2776867      0.246279906      72.2314165       
820              0.248933127      72.0292548       0.966381905      -17.4853463      0.966381905      -17.4853463      0.249157692      72.0296875       
830              0.251802667      71.8275845       0.965640191      -17.6928069      0.965640191      -17.6928069      0.252029817      71.8280119       
840              0.254666501      71.6259743       0.964890888      -17.9000667      0.964890888      -17.9000667      0.254896229      71.6263965       
850              0.257524577      71.424431        0.964134044      -18.1071237      0.964134044      -18.1071237      0.257756878      71.4248482       
860              0.260376846      71.2229613       0.963369705      -18.3139762      0.963369705      -18.3139762      0.260611715      71.2233735       
870              0.263223258      71.0215714       0.962597917      -18.5206223      0.962597917      -18.5206223      0.26346069       71.0219787       
880              0.266063765      70.8202673       0.961818726      -18.72706        0.961818726      -18.72706        0.266303754      70.8206699       
890              0.26889832       70.619055        0.961032182      -18.9332877      0.961032182      -18.9332877      0.26914086       70.6194529       
900              0.271726874      70.4179401       0.960238331      -19.1393034      0.960238331      -19.1393034      0.27197196       70.4183335       
910              0.274549381      70.2169281       0.95943722       -19.3451054      0.95943722       -19.3451054      0.274797007      70.2173171       
920              0.277365795      70.0160244       0.958628898      -19.550692       0.958628898      -19.550692       0.277615956      70.0164091       
930              0.280176071      69.815234        0.957813414      -19.7560613      0.957813414      -19.7560613      0.28042876       69.8156144       
940              0.282980163      69.614562        0.956990816      -19.9612116      0.956990816      -19.9612116      0.283235375      69.6149382       
950              0.285778026      69.4140131       0.956161152      -20.1661412      0.956161152      -20.1661412      0.286035755      69.4143853       
960              0.288569618      69.2135921       0.955324473      -20.3708484      0.955324473      -20.3708484      0.288829859      69.2139603       
970              0.291354895      69.0133034       0.954480826      -20.5753316      0.954480826      -20.5753316      0.291617641      69.0136677       
980              0.294133815      68.8131516       0.953630261      -20.779589       0.953630261      -20.779589       0.29439906       68.813512        
990              0.296906335      68.6131407       0.952772829      -20.983619       0.952772829      -20.983619       0.297174073      68.6134974       
1000             0.299672414      68.4132751       0.951908579      -21.18742        0.951908579      -21.18742        0.29994264       68.4136281       
1010             0.302432012      68.2135586       0.95103756       -21.3909903      0.95103756       -21.3909903      0.302704719      68.2139081       
1020             0.305185088      68.0139953       0.950159824      -21.5943284      0.950159824      -21.5943284      0.30546027       68.0143412       
1030             0.307931603      67.8145889       0.949275421      -21.7974326      0.949275421      -21.7974326      0.308209254      67.8149314       
1040             0.310671517      67.6153432       0.948384401      -22.0003015      0.948384401      -22.0003015      0.310951632      67.6156823       
1050             0.313404793      67.4162617       0.947486816      -22.2029334      0.947486816      -22.2029334      0.313687365      67.4165975       
1060             0.316131393      67.217348        0.946582715      -22.4053269      0.946582715      -22.4053269      0.316416415      67.2176804       
1070             0.31885128       67.0186054       0.94567215       -22.6074805      0.94567215       -22.6074805      0.319138746      67.0189346       
1080             0.321564417      66.8200373       0.944755173      -22.8093925      0.944755173      -22.8093925      0.321854321      66.8203634       
1090             0.324270768      66.6216469       0.943831834      -23.0110617      0.943831834      -23.0110617      0.324563104      66.6219699       
1100             0.326970298      66.4234374       0.942902185      -23.2124865      0.942902185      -23.2124865      0.327265059      66.4237574       
1110             0.329662973      66.2254118       0.941966278      -23.4136655      0.941966278      -23.4136655      0.329960153      66.2257288       
1120             0.332348757      66.0275732       0.941024164      -23.6145973      0.941024164      -23.6145973      0.33264835       66.0278873       
1130             0.335027619      65.8299244       0.940075895      -23.8152805      0.940075895      -23.8152805      0.335329617      65.8302356       
1140             0.337699524      65.6324684       0.939121523      -24.0157136      0.939121523      -24.0157136      0.338003922      65.6327767       
1150             0.340364441      65.4352079       0.938161101      -24.2158955      0.938161101      -24.2158955      0.340671231      65.4355134       
1160             0.343022338      65.2381455       0.937194679      -24.4158246      0.937194679      -24.4158246      0.343331514      65.2384483       
1170             0.345673183      65.041284        0.936222311      -24.6154996      0.936222311      -24.6154996      0.34598474       65.0415842       
1180             0.348316947      64.844626        0.935244049      -24.8149194      0.935244049      -24.8149194      0.348630877      64.8449235       
1190             0.350953599      64.6481739       0.934259944      -25.0140825      0.934259944      -25.0140825      0.351269896      64.6484688       
1200             0.353583111      64.4519302       0.93327005       -25.2129877      0.93327005       -25.2129877      0.353901767      64.4522225       
1210             0.356205453      64.2558973       0.932274418      -25.4116337      0.932274418      -25.4116337      0.356526462      64.2561871       
1220             0.358820597      64.0600777       0.931273102      -25.6100194      0.931273102      -25.6100194      0.359143952      64.060365        
1230             0.361428516      63.8644734       0.930266153      -25.8081434      0.930266153      -25.8081434      0.361754211      63.8647583       
1240             0.364029183      63.6690869       0.929253624      -26.0060047      0.929253624      -26.0060047      0.364357211      63.6693694       
1250             0.366622571      63.4739202       0.928235568      -26.2036019      0.928235568      -26.2036019      0.366952925      63.4742004       
1260             0.369208655      63.2789756       0.927212038      -26.400934       0.927212038      -26.400934       0.369541328      63.2792534       
1270             0.37178741       63.0842551       0.926183085      -26.5979998      0.926183085      -26.5979998      0.372122396      63.0845306       
1280             0.374358811      62.8897607       0.925148764      -26.7947982      0.925148764      -26.7947982      0.374696102      62.890034        
1290             0.376922834      62.6954945       0.924109125      -26.9913281      0.924109125      -26.9913281      0.377262423      62.6957656       
1300             0.379479455      62.5014584       0.923064223      -27.1875883      0.923064223      -27.1875883      0.379821336      62.5017273       
1310             0.382028652      62.3076542       0.922014109      -27.3835778      0.922014109      -27.3835778      0.382372818      62.307921        
1320             0.384570403      62.1140839       0.920958837      -27.5792955      0.920958837      -27.5792955      0.384916846      62.1143485       
1330             0.387104685      61.9207493       0.919898458      -27.7747405      0.919898458      -27.7747405      0.387453399      61.9210118       
1340             0.389631477      61.7276521       0.918833025      -27.9699116      0.918833025      -27.9699116      0.389982455      61.7279126       
1350             0.392150759      61.5347941       0.917762592      -28.1648079      0.917762592      -28.1648079      0.392503994      61.5350525       
1360             0.394662512      61.3421769       0.91668721       -28.3594284      0.91668721       -28.3594284      0.395017996      61.3424334       
1370             0.397166714      61.1498023       0.915606932      -28.5537721      0.915606932      -28.5537721      0.397524441      61.1500568       
