! Coilcraft 1606-8 Micro Spring Air Core Inductor				
! 16 May 2003
# MHZ S MA R 50
!Freq             MagS11           AngS11           MagS21           AngS21           MagS12           AngS12           MagS22           AngS22
100              0.0504415785     82.7218463       0.995219756      -3.28568698      0.995219756      -3.28568698      0.0504904855     82.7257192       
110              0.0554483893     82.755789        0.994954967      -3.61374135      0.994954967      -3.61374135      0.0555021959     82.7593125       
120              0.0604530704     82.729774        0.994665187      -3.94164916      0.994665187      -3.94164916      0.0605117709     82.7330058       
130              0.0654548409     82.6576242       0.994350474      -4.26939727      0.994350474      -4.26939727      0.0655184297     82.6606086       
140              0.0704530425     82.5492357       0.994010898      -4.59697257      0.994010898      -4.59697257      0.0705215139     82.5520079       
150              0.0754470997     82.4118805       0.993646528      -4.92436201      0.993646528      -4.92436201      0.0755204478     82.4144685       
160              0.0804364939     82.2510222       0.993257441      -5.25155259      0.993257441      -5.25155259      0.0805147128     82.2534489       
170              0.0854207483     82.0708462       0.992843719      -5.57853136      0.992843719      -5.57853136      0.0855038317     82.0731305       
180              0.0903994161     81.8746131       0.992405448      -5.90528546      0.992405448      -5.90528546      0.0904873576     81.8767706       
190              0.095372074      81.6649015       0.99194272       -6.23180205      0.99194272       -6.23180205      0.0954648668     81.6669456       
200              0.100338316      81.4437778       0.991455632      -6.55806838      0.991455632      -6.55806838      0.100435953      81.4457198       
210              0.105297752      81.2129182       0.990944284      -6.88407178      0.990944284      -6.88407178      0.105400226      81.2147677       
220              0.110250002      80.9736968       0.990408782      -7.20979964      0.990408782      -7.20979964      0.110357305      80.9754622       
230              0.115194696      80.7272511       0.989849238      -7.53523942      0.989849238      -7.53523942      0.115306821      80.7289397       
240              0.120131474      80.4745316       0.989265766      -7.86037869      0.989265766      -7.86037869      0.120248412      80.4761497       
250              0.125059981      80.2163386       0.988658487      -8.18520506      0.988658487      -8.18520506      0.125181724      80.2178919       
260              0.129979871      79.9533514       0.988027525      -8.50970627      0.988027525      -8.50970627      0.13010641       79.9548448       
270              0.134890802      79.6861504       0.987373008      -8.83387011      0.987373008      -8.83387011      0.135022129      79.6875884       
280              0.13979244       79.4152349       0.986695071      -9.15768451      0.986695071      -9.15768451      0.139928544      79.4166214       
290              0.144684454      79.141037        0.985993851      -9.48113745      0.985993851      -9.48113745      0.144825325      79.1423755       
300              0.149566518      78.8639326       0.985269489      -9.80421704      0.985269489      -9.80421704      0.149712147      78.8652264       
310              0.154438313      78.5842507       0.984522131      -10.1269115      0.984522131      -10.1269115      0.15458869       78.5855026       
320              0.159299522      78.3022806       0.983751928      -10.4492091      0.983751928      -10.4492091      0.159454636      78.3034932       
330              0.164149835      78.0182777       0.982959034      -10.7710982      0.982959034      -10.7710982      0.164309675      78.0194534       
340              0.168988945      77.7324688       0.982143605      -11.0925674      0.982143605      -11.0925674      0.1691535        77.7336098       
350              0.173816549      77.445056        0.981305805      -11.4136054      0.981305805      -11.4136054      0.173985808      77.4461641       
360              0.178632351      77.1562199       0.980445798      -11.7342008      0.980445798      -11.7342008      0.178806301      77.1572971       
370              0.183436056      76.866123        0.979563754      -12.0543425      0.979563754      -12.0543425      0.183614686      76.8671709       
380              0.188227376      76.5749114       0.978659845      -12.3740196      0.978659845      -12.3740196      0.188410674      76.5759316       
390              0.193006027      76.2827176       0.977734247      -12.693221       0.977734247      -12.693221       0.19319398       76.2837114       
400              0.197771728      75.9896615       0.97678714       -13.0119362      0.97678714       -13.0119362      0.197964323      75.9906302       
410              0.202524205      75.6958524       0.975818706      -13.3301543      0.975818706      -13.3301543      0.202721428      75.6967973       
420              0.207263185      75.40139         0.974829132      -13.6478649      0.974829132      -13.6478649      0.207465024      75.4023123       
430              0.211988402      75.1063658       0.973818606      -13.9650577      0.973818606      -13.9650577      0.212194843      75.1072664       
440              0.216699595      74.8108634       0.97278732       -14.2817223      0.97278732       -14.2817223      0.216910624      74.8117434       
450              0.221396505      74.5149601       0.97173547       -14.5978486      0.97173547       -14.5978486      0.221612109      74.5158204       
460              0.226078881      74.2187271       0.970663252      -14.9134267      0.970663252      -14.9134267      0.226299044      74.2195685       
470              0.230746473      73.9222303       0.969570868      -15.2284468      0.969570868      -15.2284468      0.230971181      73.9230535       
480              0.235399039      73.6255305       0.96845852       -15.542899       0.96845852       -15.542899       0.235628277      73.6263364       
490              0.240036338      73.3286847       0.967326414      -15.8567739      0.967326414      -15.8567739      0.240270091      73.3294739       
500              0.244658137      73.0317456       0.966174758      -16.1700619      0.966174758      -16.1700619      0.24489639       73.0325188       
510              0.249264207      72.7347624       0.965003761      -16.482754       0.965003761      -16.482754       0.249506944      72.7355203       
520              0.253854321      72.4377811       0.963813638      -16.7948408      0.963813638      -16.7948408      0.254101527      72.4385243       
530              0.258428261      72.140845        0.962604601      -17.1063134      0.962604601      -17.1063134      0.25867992       72.1415739       
540              0.262985811      71.8439945       0.961376868      -17.417163       0.961376868      -17.417163       0.263241906      71.8447097       
550              0.26752676       71.5472674       0.960130657      -17.7273808      0.960130657      -17.7273808      0.267787275      71.5479694       
560              0.272050902      71.2506996       0.958866189      -18.0369584      0.958866189      -18.0369584      0.27231582       71.2513889       
570              0.276558037      70.9543248       0.957583685      -18.3458872      0.957583685      -18.3458872      0.276827342      70.9550018       
580              0.281047968      70.6581748       0.95628337       -18.6541591      0.95628337       -18.6541591      0.281321643      70.6588399       
590              0.285520504      70.3622796       0.954965468      -18.961766       0.954965468      -18.961766       0.285798531      70.3629332       
600              0.289975458      70.0666677       0.953630206      -19.2686999      0.953630206      -19.2686999      0.290257821      70.0673102       
610              0.294412649      69.7713659       0.952277812      -19.574953       0.952277812      -19.574953       0.294699329      69.7719977       
620              0.2988319        69.4763999       0.950908516      -19.8805177      0.950908516      -19.8805177      0.29912288       69.4770213       
630              0.303233038      69.1817939       0.949522548      -20.1853865      0.949522548      -20.1853865      0.303528301      69.1824053       
640              0.307615897      68.8875711       0.948120139      -20.4895521      0.948120139      -20.4895521      0.307915424      68.8881726       
650              0.311980314      68.5937532       0.946701521      -20.7930072      0.946701521      -20.7930072      0.312284086      68.5943453       
660              0.316326131      68.3003612       0.945266929      -21.0957448      0.945266929      -21.0957448      0.316634131      68.3009442       
670              0.320653196      68.0074151       0.943816595      -21.3977581      0.943816595      -21.3977581      0.320965405      68.0079891       
680              0.32496136       67.7149337       0.942350756      -21.6990404      0.942350756      -21.6990404      0.325277759      67.7154991       
690              0.32925048       67.4229353       0.940869645      -21.999585       0.940869645      -21.999585       0.329571051      67.4234923       
700              0.333520418      67.1314372       0.9393735        -22.2993856      0.9393735        -22.2993856      0.333845142      67.131986        
710              0.33777104       66.8404558       0.937862555      -22.5984358      0.937862555      -22.5984358      0.338099897      66.8409967       
720              0.342002216      66.550007        0.936337049      -22.8967297      0.936337049      -22.8967297      0.342335187      66.5505403       
730              0.346213822      66.260106        0.934797218      -23.1942612      0.934797218      -23.1942612      0.346550888      66.2606317       
740              0.350405738      65.9707672       0.933243298      -23.4910246      0.933243298      -23.4910246      0.350746881      65.9712856       
750              0.354577849      65.6820045       0.931675528      -23.7870141      0.931675528      -23.7870141      0.354923048      65.6825158       
760              0.358730045      65.3938311       0.930094144      -24.0822243      0.930094144      -24.0822243      0.359079281      65.3943355       
770              0.36286222       65.1062599       0.928499383      -24.3766499      0.928499383      -24.3766499      0.363215472      65.1067575       
780              0.366974271      64.8193029       0.926891483      -24.6702856      0.926891483      -24.6702856      0.36733152       64.8197939       
790              0.371066102      64.5329719       0.92527068       -24.9631265      0.92527068       -24.9631265      0.371427329      64.5334565       
800              0.375137621      64.2472781       0.923637211      -25.2551676      0.923637211      -25.2551676      0.375502805      64.2477564       
810              0.37918874       63.9622322       0.921991311      -25.5464041      0.921991311      -25.5464041      0.37955786       63.9627045       
820              0.383219374      63.6778446       0.920333216      -25.8368315      0.920333216      -25.8368315      0.383592411      63.6783109       
830              0.387229444      63.3941251       0.918663162      -26.1264454      0.918663162      -26.1264454      0.387606378      63.3945855       
840              0.391218876      63.1110832       0.916981382      -26.4152414      0.916981382      -26.4152414      0.391599686      63.111538        
850              0.395187598      62.828728        0.915288112      -26.7032153      0.915288112      -26.7032153      0.395572264      62.8291772       
860              0.399135545      62.5470682       0.913583584      -26.9903633      0.913583584      -26.9903633      0.399524045      62.547512        
870              0.403062652      62.2661122       0.91186803       -27.2766813      0.91186803       -27.2766813      0.403454968      62.2665506       
880              0.406968864      61.9858679       0.910141682      -27.5621657      0.910141682      -27.5621657      0.407364973      61.9863012       
890              0.410854124      61.7063431       0.908404772      -27.8468129      0.908404772      -27.8468129      0.411254006      61.7067713       
900              0.414718383      61.427545        0.906657527      -28.1306194      0.906657527      -28.1306194      0.415122018      61.4279683       
910              0.418561596      61.1494808       0.904900178      -28.4135819      0.904900178      -28.4135819      0.418968963      61.1498992       
920              0.422383718      60.8721572       0.903132952      -28.6956974      0.903132952      -28.6956974      0.422794796      60.8725708       
930              0.426184714      60.5955805       0.901356075      -28.9769627      0.901356075      -28.9769627      0.426599482      60.5959895       
940              0.429964546      60.3197571       0.899569772      -29.2573749      0.899569772      -29.2573749      0.430382984      60.3201615       
950              0.433723186      60.0446927       0.897774269      -29.5369313      0.897774269      -29.5369313      0.434145272      60.0450927       
960              0.437460606      59.7703931       0.895969787      -29.8156293      0.895969787      -29.8156293      0.437886319      59.7707887       
970              0.441176782      59.4968635       0.894156549      -30.0934664      0.894156549      -30.0934664      0.441606102      59.4972548       
980              0.444871696      59.2241091       0.892334773      -30.3704402      0.892334773      -30.3704402      0.445304601      59.2244962       
990              0.448545329      58.9521348       0.89050468       -30.6465484      0.89050468       -30.6465484      0.448981799      58.9525178       
1000             0.452197671      58.6809452       0.888666486      -30.9217891      0.888666486      -30.9217891      0.452637685      58.6813242       
1010             0.455828712      58.4105448       0.886820407      -31.1961601      0.886820407      -31.1961601      0.456272248      58.4109199       
1020             0.459438445      58.1409378       0.884966658      -31.4696597      0.884966658      -31.4696597      0.459885483      58.141309        
1030             0.463026869      57.8721281       0.88310545       -31.7422861      0.88310545       -31.7422861      0.463477387      57.8724955       
1040             0.466593984      57.6041196       0.881236995      -32.0140376      0.881236995      -32.0140376      0.467047961      57.6044832       
1050             0.470139794      57.3369158       0.879361503      -32.2849129      0.879361503      -32.2849129      0.47059721       57.3372757       
1060             0.473664306      57.0705201       0.87747918       -32.5549105      0.87747918       -32.5549105      0.474125139      57.0708764       
1070             0.477167531      56.8049356       0.875590234      -32.8240292      0.875590234      -32.8240292      0.47763176       56.8052884       
1080             0.480649481      56.5401654       0.873694868      -33.0922678      0.873694868      -33.0922678      0.481117085      56.5405148       
1090             0.484110173      56.2762124       0.871793285      -33.3596254      0.871793285      -33.3596254      0.484581132      56.2765583       
1100             0.487549626      56.013079        0.869885685      -33.6261009      0.869885685      -33.6261009      0.488023918      56.0134216       
1110             0.490967862      55.7507679       0.867972268      -33.8916936      0.867972268      -33.8916936      0.491445467      55.7511072       
1120             0.494364906      55.4892812       0.866053229      -34.1564029      0.866053229      -34.1564029      0.494845802      55.4896173       
1130             0.497740785      55.2286212       0.864128766      -34.4202281      0.864128766      -34.4202281      0.498224952      55.2289541       
1140             0.501095531      54.9687898       0.862199069      -34.6831687      0.862199069      -34.6831687      0.501582947      54.9691196       
1150             0.504429175      54.7097888       0.860264332      -34.9452244      0.860264332      -34.9452244      0.50491982       54.7101155       
1160             0.507741753      54.4516199       0.858324743      -35.2063949      0.858324743      -35.2063949      0.508235607      54.4519435       
1170             0.511033303      54.1942845       0.85638049       -35.4666801      0.85638049       -35.4666801      0.511530344      54.1946052       
1180             0.514303867      53.9377842       0.854431757      -35.7260797      0.854431757      -35.7260797      0.514804074      53.938102        
1190             0.517553485      53.68212         0.85247873       -35.984594       0.85247873       -35.984594       0.518056839      53.6824349       
1200             0.520782204      53.4272931       0.850521588      -36.242223       0.850521588      -36.242223       0.521288683      53.4276052       
1210             0.523990072      53.1733044       0.848560512      -36.498967       0.848560512      -36.498967       0.524499655      53.1736137       
1220             0.527177138      52.9201548       0.846595679      -36.7548261      0.846595679      -36.7548261      0.527689805      52.9204614       
1230             0.530343453      52.6678449       0.844627264      -37.0098009      0.844627264      -37.0098009      0.530859184      52.6681488       
1240             0.533489073      52.4163754       0.842655441      -37.2638919      0.842655441      -37.2638919      0.534007847      52.4166766       
1250             0.536614052      52.1657466       0.840680381      -37.5170996      0.840680381      -37.5170996      0.537135849      52.1660452       
1260             0.53971845       51.9159589       0.838702253      -37.7694246      0.838702253      -37.7694246      0.540243249      51.9162549       
1270             0.542802325      51.6670124       0.836721224      -38.0208678      0.836721224      -38.0208678      0.543330107      51.6673059       
1280             0.545865741      51.4189074       0.83473746       -38.27143        0.83473746       -38.27143        0.546396485      51.4191984       
1290             0.548908761      51.1716438       0.832751123      -38.521112       0.832751123      -38.521112       0.549442446      51.1719323       
1300             0.551931451      50.9252214       0.830762374      -38.769915       0.830762374      -38.769915       0.552468058      50.9255075       
1310             0.554933878      50.6796401       0.828771373      -39.0178399      0.828771373      -39.0178399      0.555473386      50.6799238       
1320             0.55791611       50.4348994       0.826778276      -39.2648879      0.826778276      -39.2648879      0.5584585        50.4351808       
1330             0.56087822       50.1909991       0.824783237      -39.5110603      0.824783237      -39.5110603      0.561423471      50.1912781       
1340             0.563820279      49.9479384       0.82278641       -39.7563583      0.82278641       -39.7563583      0.564368372      49.9482152       
1350             0.56674236       49.7057169       0.820787945      -40.0007833      0.820787945      -40.0007833      0.567293276      49.7059915       
1360             0.56964454       49.4643338       0.818787989      -40.2443368      0.818787989      -40.2443368      0.570198258      49.4646061       
1370             0.572526895      49.2237883       0.816786691      -40.4870203      0.816786691      -40.4870203      0.573083396      49.2240585       
