! Coilcraft 0906-5 Micro Spring Air Core Inductor				
! 16 May 2003
# MHZ S MA R 50
!Freq             MagS11           AngS11           MagS21           AngS21           MagS12           AngS12           MagS22           AngS22
100              0.0295573542     83.674195        0.99736908       -2.06531762      0.99736908       -2.06531762      0.02958604       83.6783325       
110              0.0324960499     83.8536905       0.997277815      -2.27182486      0.997277815      -2.27182486      0.0325276177     83.8574553       
120              0.0354355582     83.9691228       0.997177867      -2.47832509      0.997177867      -2.47832509      0.0354700065     83.9725762       
130              0.0383755582     84.0352042       0.997069239      -2.68481768      0.997069239      -2.68481768      0.0384128855     84.0383937       
140              0.0413158095     84.0624672       0.996951932      -2.89130198      0.996951932      -2.89130198      0.0413560145     84.0654301       
150              0.0442561256     84.0586491       0.996825951      -3.09777736      0.996825951      -3.09777736      0.0442992071     84.0614153       
160              0.0471963568     84.0295612       0.996691298      -3.30424318      0.996691298      -3.30424318      0.0472423139     84.0321551       
170              0.0501363799     83.9796524       0.996547977      -3.51069881      0.996547977      -3.51069881      0.0501852114     83.9820942       
180              0.0530760906     83.9123864       0.996395991      -3.7171436       0.996395991      -3.7171436       0.0531277954     83.9146929       
190              0.0560153984     83.8304999       0.996235344      -3.92357692      0.996235344      -3.92357692      0.0560699756     83.8326852       
200              0.0589542235     83.7361838       0.996066039      -4.12999813      0.996066039      -4.12999813      0.059011672      83.7382601       
210              0.0618924941     83.6312128       0.995888081      -4.33640659      0.995888081      -4.33640659      0.0619528128     83.6331903       
220              0.0648301444     83.5170397       0.995701475      -4.54280167      0.995701475      -4.54280167      0.0648933324     83.5189274       
230              0.0677671137     83.3948651       0.995506225      -4.74918272      0.995506225      -4.74918272      0.0678331698     83.3966708       
240              0.0707033451     83.2656902       0.995302335      -4.95554911      0.995302335      -4.95554911      0.0707722682     83.2674206       
250              0.0736387847     83.1303562       0.995089811      -5.16190019      0.995089811      -5.16190019      0.0737105738     83.1320174       
260              0.0765733813     82.9895752       0.994868658      -5.36823533      0.994868658      -5.36823533      0.0766480351     82.9911724       
270              0.0795070854     82.843954        0.994638881      -5.57455389      0.994638881      -5.57455389      0.0795846028     82.845492        
280              0.0824398496     82.6940129       0.994400487      -5.78085523      0.994400487      -5.78085523      0.0825202293     82.695496        
290              0.0853716275     82.5402008       0.99415348       -5.98713871      0.99415348       -5.98713871      0.0854548684     82.5416326       
300              0.0883023744     82.3829066       0.993897868      -6.19340369      0.993897868      -6.19340369      0.0883884751     82.3842906       
310              0.091232046      82.2224694       0.993633655      -6.39964953      0.993633655      -6.39964953      0.0913210052     82.2238087       
320              0.0941605993     82.0591858       0.99336085       -6.60587559      0.99336085       -6.60587559      0.0942524156     82.0604832       
330              0.0970879917     81.8933168       0.993079458      -6.81208122      0.993079458      -6.81208122      0.0971826639     81.8945747       
340              0.100014182      81.7250926       0.992789486      -7.0182658       0.992789486      -7.0182658       0.100111708      81.7263134       
350              0.102939127      81.5547173       0.992490942      -7.22442867      0.992490942      -7.22442867      0.103039507      81.5559031       
360              0.105862789      81.3823723       0.992183833      -7.4305692       0.992183833      -7.4305692       0.105966019      81.3835251       
370              0.108785125      81.2082195       0.991868167      -7.63668675      0.991868167      -7.63668675      0.108891205      81.209341        
380              0.111706096      81.0324039       0.99154395       -7.84278067      0.99154395       -7.84278067      0.111815025      81.0334958       
390              0.114625662      80.8550556       0.991211192      -8.04885032      0.991211192      -8.04885032      0.114737437      80.8561194       
400              0.117543784      80.676292        0.990869901      -8.25489506      0.990869901      -8.25489506      0.117658404      80.677329        
410              0.120460422      80.4962187       0.990520084      -8.46091424      0.990520084      -8.46091424      0.120577886      80.4972303       
420              0.123375538      80.3149316       0.99016175       -8.66690724      0.99016175       -8.66690724      0.123495844      80.315919        
430              0.126289093      80.1325177       0.989794909      -8.87287339      0.989794909      -8.87287339      0.126412239      80.1334821       
440              0.129201049      79.9490562       0.989419569      -9.07881206      0.989419569      -9.07881206      0.129327032      79.9499985       
450              0.132111367      79.7646191       0.989035739      -9.28472261      0.989035739      -9.28472261      0.132240186      79.7655403       
460              0.135020009      79.5792723       0.988643429      -9.4906044       0.988643429      -9.4906044       0.135151663      79.5801734       
470              0.137926937      79.3930764       0.988242649      -9.69645676      0.988242649      -9.69645676      0.138061423      79.3939582       
480              0.140832114      79.2060866       0.987833408      -9.90227908      0.987833408      -9.90227908      0.14096943       79.2069499       
490              0.143735501      79.0183539       0.987415717      -10.1080707      0.987415717      -10.1080707      0.143875645      79.0191994       
500              0.146637061      78.8299251       0.986989585      -10.313831       0.986989585      -10.313831       0.146780032      78.8307536       
510              0.149536757      78.6408436       0.986555024      -10.5195592      0.986555024      -10.5195592      0.149682552      78.6416558       
520              0.152434551      78.4511494       0.986112043      -10.7252549      0.986112043      -10.7252549      0.152583168      78.4519458       
530              0.155330407      78.2608794       0.985660654      -10.9309172      0.985660654      -10.9309172      0.155481843      78.2616606       
540              0.158224286      78.070068        0.985200868      -11.1365457      0.985200868      -11.1365457      0.15837854       78.0708346       
550              0.161116153      77.8787471       0.984732696      -11.3421395      0.984732696      -11.3421395      0.161273222      77.8794996       
560              0.164005969      77.6869462       0.98425615       -11.5476981      0.98425615       -11.5476981      0.164165852      77.6876852       
570              0.1668937        77.494693        0.983771241      -11.7532209      0.983771241      -11.7532209      0.167056393      77.4954189       
580              0.169779307      77.3020133       0.983277982      -11.9587072      0.983277982      -11.9587072      0.169944809      77.3027265       
590              0.172662754      77.1089311       0.982776383      -12.1641563      0.982776383      -12.1641563      0.172831062      77.1096321       
600              0.175544006      76.9154688       0.982266459      -12.3695675      0.982266459      -12.3695675      0.175715117      76.916158        
610              0.178423024      76.7216475       0.98174822       -12.5749403      0.98174822       -12.5749403      0.178596937      76.7223252       
620              0.181299774      76.5274869       0.981221681      -12.7802741      0.981221681      -12.7802741      0.181476485      76.5281536       
630              0.184174219      76.3330056       0.980686853      -12.985568       0.980686853      -12.985568       0.184353726      76.3336616       
640              0.187046323      76.1382209       0.980143751      -13.1908216      0.980143751      -13.1908216      0.187228623      76.1388665       
650              0.18991605       75.9431492       0.979592387      -13.396034       0.979592387      -13.396034       0.190101141      75.9437847       
660              0.192783364      75.7478059       0.979032774      -13.6012048      0.979032774      -13.6012048      0.192971243      75.7484317       
670              0.195648229      75.5522055       0.978464928      -13.8063333      0.978464928      -13.8063333      0.195838893      75.5528218       
680              0.19851061       75.3563618       0.97788886       -14.0114187      0.97788886       -14.0114187      0.198704057      75.3569689       
690              0.201370471      75.1602876       0.977304587      -14.2164605      0.977304587      -14.2164605      0.201566697      75.1608858       
700              0.204227776      74.9639953       0.976712121      -14.4214579      0.976712121      -14.4214579      0.204426779      74.9645848       
710              0.207082491      74.7674964       0.976111478      -14.6264104      0.976111478      -14.6264104      0.207284268      74.7680774       
720              0.209934579      74.5708018       0.975502672      -14.8313173      0.975502672      -14.8313173      0.210139127      74.5713747       
730              0.212784005      74.3739221       0.974885718      -15.0361779      0.974885718      -15.0361779      0.212991321      74.374487        
740              0.215630735      74.1768671       0.974260632      -15.2409916      0.974260632      -15.2409916      0.215840816      74.1774242       
750              0.218474733      73.9796461       0.973627428      -15.4457577      0.973627428      -15.4457577      0.218687576      73.9801957       
760              0.221315964      73.7822681       0.972986122      -15.6504756      0.972986122      -15.6504756      0.221531566      73.7828104       
770              0.224154393      73.5847417       0.97233673       -15.8551446      0.97233673       -15.8551446      0.224372752      73.5852767       
780              0.226989987      73.3870748       0.971679268      -16.0597641      0.971679268      -16.0597641      0.227211098      73.3876028       
790              0.229822709      73.1892752       0.971013751      -16.2643334      0.971013751      -16.2643334      0.23004657       73.1897964       
800              0.232652526      72.9913502       0.970340197      -16.4688519      0.970340197      -16.4688519      0.232879133      72.9918648       
810              0.235479403      72.793307        0.969658621      -16.6733189      0.969658621      -16.6733189      0.235708753      72.7938151       
820              0.238303305      72.5951521       0.968969041      -16.8777337      0.968969041      -16.8777337      0.238535395      72.5956539       
830              0.241124198      72.396892        0.968271473      -17.0820957      0.968271473      -17.0820957      0.241359025      72.3973877       
840              0.243942049      72.1985329       0.967565934      -17.2864042      0.967565934      -17.2864042      0.244179609      72.1990225       
850              0.246756823      72.0000807       0.966852441      -17.4906586      0.966852441      -17.4906586      0.246997112      72.0005644       
860              0.249568486      71.8015409       0.966131013      -17.6948583      0.966131013      -17.6948583      0.249811502      71.8020188       
870              0.252377004      71.602919        0.965401666      -17.8990025      0.965401666      -17.8990025      0.252622742      71.6033913       
880              0.255182344      71.4042201       0.964664419      -18.1030906      0.964664419      -18.1030906      0.255430801      71.404687        
890              0.257984471      71.2054493       0.963919289      -18.3071219      0.963919289      -18.3071219      0.258235645      71.2059108       
900              0.260783353      71.0066114       0.963166294      -18.5110959      0.963166294      -18.5110959      0.261037238      71.0070676       
910              0.263578956      70.8077109       0.962405454      -18.7150117      0.962405454      -18.7150117      0.26383555       70.808162        
920              0.266371246      70.6087523       0.961636786      -18.9188689      0.961636786      -18.9188689      0.266630544      70.6091984       
930              0.269160191      70.4097398       0.96086031       -19.1226666      0.96086031       -19.1226666      0.26942219       70.410181        
940              0.271945756      70.2106777       0.960076044      -19.3264044      0.960076044      -19.3264044      0.272210453      70.211114        
950              0.27472791       70.0115697       0.959284008      -19.5300814      0.959284008      -19.5300814      0.2749953        70.0120013       
960              0.277506619      69.8124199       0.95848422       -19.733697       0.95848422       -19.733697       0.277776699      69.8128469       
970              0.280281851      69.6132317       0.957676701      -19.9372506      0.957676701      -19.9372506      0.280554617      69.6136542       
980              0.283053572      69.414009        0.95686147       -20.1407415      0.95686147       -20.1407415      0.28332902       69.414427        
990              0.285821751      69.214755        0.956038547      -20.3441691      0.956038547      -20.3441691      0.286099877      69.2151687       
1000             0.288586355      69.0154731       0.955207951      -20.5475327      0.955207951      -20.5475327      0.288867155      69.0158826       
1010             0.291347351      68.8161666       0.954369704      -20.7508316      0.954369704      -20.7508316      0.291630822      68.8165719       
1020             0.294104708      68.6168385       0.953523826      -20.9540651      0.953523826      -20.9540651      0.294390844      68.6172397       
1030             0.296858393      68.417492        0.952670337      -21.1572327      0.952670337      -21.1572327      0.297147191      68.4178892       
1040             0.299608374      68.2181299       0.951809258      -21.3603336      0.951809258      -21.3603336      0.299899831      68.2185232       
1050             0.30235462       68.0187552       0.950940609      -21.5633672      0.950940609      -21.5633672      0.30264873       68.0191445       
1060             0.305097099      67.8193704       0.950064413      -21.7663328      0.950064413      -21.7663328      0.305393858      67.819756        
1070             0.307835779      67.6199785       0.949180691      -21.9692297      0.949180691      -21.9692297      0.308135184      67.6203603       
1080             0.310570628      67.4205819       0.948289463      -22.1720574      0.948289463      -22.1720574      0.310872674      67.4209601       
1090             0.313301616      67.2211832       0.947390751      -22.374815       0.947390751      -22.374815       0.313606299      67.2215578       
1100             0.316028711      67.0217848       0.946484579      -22.5775021      0.946484579      -22.5775021      0.316336027      67.0221559       
1110             0.318751882      66.8223892       0.945570966      -22.7801178      0.945570966      -22.7801178      0.319061826      66.8227569       
1120             0.321471098      66.6229987       0.944649936      -22.9826615      0.944649936      -22.9826615      0.321783666      66.623363        
1130             0.324186329      66.4236156       0.943721511      -23.1851326      0.943721511      -23.1851326      0.324501516      66.4239765       
1140             0.326897543      66.2242421       0.942785714      -23.3875305      0.942785714      -23.3875305      0.327215346      66.2245997       
1150             0.32960471       66.0248803       0.941842567      -23.5898543      0.941842567      -23.5898543      0.329925123      66.0252347       
1160             0.3323078        65.8255324       0.940892092      -23.7921035      0.940892092      -23.7921035      0.332630819      65.8258837       
1170             0.335006782      65.6262004       0.939934314      -23.9942774      0.939934314      -23.9942774      0.335332403      65.6265486       
1180             0.337701626      65.4268864       0.938969255      -24.1963754      0.938969255      -24.1963754      0.338029844      65.4272314       
1190             0.340392303      65.2275922       0.937996939      -24.3983967      0.937996939      -24.3983967      0.340723112      65.2279343       
1200             0.343078781      65.0283199       0.937017388      -24.6003408      0.937017388      -24.6003408      0.343412178      65.028659        
1210             0.345761032      64.8290712       0.936030628      -24.8022069      0.936030628      -24.8022069      0.346097012      64.8294074       
1220             0.348439026      64.629848        0.935036682      -25.0039943      0.935036682      -25.0039943      0.348777584      64.6301814       
1230             0.351112733      64.4306522       0.934035573      -25.2057025      0.934035573      -25.2057025      0.351453865      64.4309827       
1240             0.353782124      64.2314854       0.933027326      -25.4073307      0.933027326      -25.4073307      0.354125825      64.2318132       
1250             0.35644717       64.0323494       0.932011965      -25.6088783      0.932011965      -25.6088783      0.356793434      64.0326745       
1260             0.359107841      63.8332459       0.930989515      -25.8103445      0.930989515      -25.8103445      0.359456665      63.8335683       
1270             0.361764109      63.6341765       0.929960001      -26.0117289      0.929960001      -26.0117289      0.362115488      63.6344962       
1280             0.364415946      63.4351429       0.928923447      -26.2130306      0.928923447      -26.2130306      0.364769873      63.43546         
1290             0.367063322      63.2361466       0.927879878      -26.414249       0.927879878      -26.414249       0.367419793      63.2364611       
1300             0.369706208      63.0371892       0.92682932       -26.6153834      0.92682932       -26.6153834      0.37006522       63.0375012       
1310             0.372344578      62.8382722       0.925771797      -26.8164332      0.925771797      -26.8164332      0.372706124      62.8385817       
1320             0.374978401      62.6393971       0.924707335      -27.0173977      0.924707335      -27.0173977      0.375342477      62.6397041       
1330             0.377607652      62.4405654       0.923635961      -27.2182762      0.923635961      -27.2182762      0.377974251      62.44087         
1340             0.3802323        62.2417785       0.922557698      -27.4190681      0.922557698      -27.4190681      0.380601419      62.2420808       
1350             0.38285232       62.0430379       0.921472575      -27.6197727      0.921472575      -27.6197727      0.383223953      62.0433378       
1360             0.385467682      61.844345        0.920380615      -27.8203894      0.920380615      -27.8203894      0.385841825      61.8446426       
1370             0.388078361      61.6457011       0.919281847      -28.0209174      0.919281847      -28.0209174      0.388455007      61.6459964       
