! Coilcraft 1606-9 Micro Spring Air Core Inductor				
! 16 May 2003
# MHZ S MA R 50
!Freq             MagS11           AngS11           MagS21           AngS21           MagS12           AngS12           MagS22           AngS22
100              0.0551027884     82.5605677       0.994823339      -3.628711        0.994823339      -3.628711        0.0551633882     82.564759        
110              0.0605723524     82.5439121       0.994507188      -3.99095713      0.994507188      -3.99095713      0.0606390182     82.5477251       
120              0.0660387921     82.4700342       0.99416123       -4.35302524      0.99416123       -4.35302524      0.0661115163     82.4735311       
130              0.0715012409     82.3521432       0.993785548      -4.71489939      0.993785548      -4.71489939      0.0715800159     82.3553723       
140              0.0769589553     82.1996956       0.99338023       -5.0765637       0.99338023       -5.0765637       0.0770437733     82.2026949       
150              0.0824112745     82.0196402       0.992945371      -5.43800237      0.992945371      -5.43800237      0.0825021275     82.0224401       
160              0.0878575959     81.817198        0.992481075      -5.79919965      0.992481075      -5.79919965      0.0879544756     81.8198232       
170              0.0932973586     81.5963688       0.99198745       -6.16013988      0.99198745       -6.16013988      0.0934002562     81.5988398       
180              0.0987300327     81.3602693       0.991464613      -6.52080751      0.991464613      -6.52080751      0.0988389392     81.3626032       
190              0.104155113      81.1113647       0.990912686      -6.88118702      0.990912686      -6.88118702      0.104270019      81.1135757       
200              0.109572111      80.8516312       0.990331797      -7.24126305      0.990331797      -7.24126305      0.109693007      80.8537316       
210              0.114980557      80.5826719       0.989722083      -7.60102027      0.989722083      -7.60102027      0.115107432      80.5846722       
220              0.120379992      80.305802        0.989083683      -7.96044351      0.989083683      -7.96044351      0.120512835      80.3077113       
230              0.125769966      80.0221105       0.988416747      -8.31951766      0.988416747      -8.31951766      0.125908767      80.0239366       
240              0.131150042      79.7325077       0.987721428      -8.67822775      0.987721428      -8.67822775      0.131294789      79.7342575       
250              0.13651979       79.4377607       0.986997887      -9.03655892      0.986997887      -9.03655892      0.136670471      79.4394404       
260              0.141878787      79.1385209       0.986246288      -9.39449641      0.986246288      -9.39449641      0.14203539       79.1401357       
270              0.147226619      78.8353453       0.985466803      -9.75202561      0.985466803      -9.75202561      0.14738913       78.8369001       
280              0.152562877      78.5287134       0.984659611      -10.109132       0.984659611      -10.109132       0.152731283      78.5302125       
290              0.157887159      78.2190405       0.983824893      -10.4658013      0.983824893      -10.4658013      0.158061447      78.2204877       
300              0.163199071      77.9066884       0.982962839      -10.8220191      0.982962839      -10.8220191      0.163379227      77.9080871       
310              0.168498222      77.5919739       0.982073641      -11.1777715      0.982073641      -11.1777715      0.168684231      77.5933272       
320              0.17378423       77.2751758       0.981157499      -11.5330445      0.981157499      -11.5330445      0.173976078      77.2764866       
330              0.179056719      76.9565407       0.980214618      -11.8878242      0.980214618      -11.8878242      0.179254389      76.9578115       
340              0.184315315      76.6362878       0.979245206      -12.2420971      0.979245206      -12.2420971      0.184518793      76.6375209       
350              0.189559654      76.3146124       0.978249477      -12.5958496      0.978249477      -12.5958496      0.189768923      76.3158101       
360              0.194789378      75.9916898       0.97722765       -12.9490683      0.97722765       -12.9490683      0.195004421      75.9928539       
370              0.200004131      75.6676773       0.976179948      -13.3017402      0.976179948      -13.3017402      0.200224932      75.6688097       
380              0.205203567      75.3427171       0.9751066        -13.6538521      0.9751066        -13.6538521      0.205430108      75.3438194       
390              0.210387344      75.016938        0.974007837      -14.0053912      0.974007837      -14.0053912      0.210619608      75.0180118       
400              0.215555126      74.6904568       0.972883896      -14.3563449      0.972883896      -14.3563449      0.215793094      74.6915035       
410              0.220706585      74.3633803       0.971735017      -14.7067005      0.971735017      -14.7067005      0.220950239      74.3644012       
420              0.225841395      74.035806        0.970561445      -15.0564458      0.970561445      -15.0564458      0.226090717      74.0368022       
430              0.230959241      73.7078232       0.969363428      -15.4055686      0.969363428      -15.4055686      0.231214211      73.708796        
440              0.236059811      73.3795141       0.968141218      -15.7540568      0.968141218      -15.7540568      0.236320409      73.3804645       
450              0.241142799      73.0509546       0.96689507       -16.1018987      0.96689507       -16.1018987      0.241409006      73.0518836       
460              0.246207906      72.7222147       0.965625244      -16.4490827      0.965625244      -16.4490827      0.246479703      72.7231232       
470              0.251254841      72.3933592       0.964332001      -16.7955972      0.964332001      -16.7955972      0.251532206      72.3942482       
480              0.256283317      72.0644485       0.963015607      -17.1414311      0.963015607      -17.1414311      0.25656623       72.0653186       
490              0.261293054      71.7355386       0.96167633       -17.4865732      0.96167633       -17.4865732      0.261581493      71.7363907       
500              0.266283777      71.4066818       0.96031444       -17.8310126      0.96031444       -17.8310126      0.266577722      71.4075165       
510              0.271255221      71.0779268       0.958930212      -18.1747387      0.958930212      -18.1747387      0.271554649      71.0787449       
520              0.276207123      70.7493195       0.957523922      -18.517741       0.957523922      -18.517741       0.276512012      70.7501216       
530              0.281139229      70.4209027       0.956095848      -18.8600091      0.956095848      -18.8600091      0.281449557      70.4216894       
540              0.28605129       70.0927167       0.954646271      -19.201533       0.954646271      -19.201533       0.286367036      70.0934885       
550              0.290943066      69.7647992       0.953175475      -19.5423026      0.953175475      -19.5423026      0.291264205      69.7655567       
560              0.295814321      69.4371861       0.951683744      -19.8823084      0.951683744      -19.8823084      0.296140831      69.4379298       
570              0.300664825      69.1099109       0.950171366      -20.2215406      0.950171366      -20.2215406      0.300996683      69.1106412       
580              0.305494357      68.7830054       0.948638628      -20.5599901      0.948638628      -20.5599901      0.305831538      68.7837229       
590              0.3103027        68.4564998       0.947085822      -20.8976477      0.947085822      -20.8976477      0.310645181      68.4572048       
600              0.315089644      68.1304225       0.945513239      -21.2345044      0.945513239      -21.2345044      0.315437401      68.1311155       
610              0.319854987      67.8048005       0.943921172      -21.5705516      0.943921172      -21.5705516      0.320207996      67.8054818       
620              0.324598531      67.4796593       0.942309915      -21.9057806      0.942309915      -21.9057806      0.324956767      67.4803294       
630              0.329320086      67.1550235       0.940679763      -22.2401831      0.940679763      -22.2401831      0.329683524      67.1556826       
640              0.334019467      66.830916        0.939031013      -22.5737511      0.939031013      -22.5737511      0.334388083      66.8315645       
650              0.338696498      66.5073589       0.937363961      -22.9064765      0.937363961      -22.9064765      0.339070267      66.5079971       
660              0.343351006      66.1843731       0.935678906      -23.2383517      0.935678906      -23.2383517      0.343729902      66.1850014       
670              0.347982827      65.8619787       0.933976145      -23.569369       0.933976145      -23.569369       0.348366824      65.8625973       
680              0.352591801      65.5401946       0.932255977      -23.8995212      0.932255977      -23.8995212      0.352980874      65.5408038       
690              0.357177776      65.219039        0.930518701      -24.2288011      0.930518701      -24.2288011      0.357571899      65.2196391       
700              0.361740605      64.8985292       0.928764616      -24.5572018      0.928764616      -24.5572018      0.362139752      64.8991205       
710              0.366280148      64.5786819       0.926994021      -24.8847164      0.926994021      -24.8847164      0.366684293      64.5792645       
720              0.370796271      64.2595127       0.925207216      -25.2113386      0.925207216      -25.2113386      0.371205387      64.260087        
730              0.375288844      63.9410368       0.9234045        -25.5370619      0.9234045        -25.5370619      0.375702906      63.941603        
740              0.379757747      63.6232687       0.921586171      -25.8618801      0.921586171      -25.8618801      0.380176727      63.6238269       
750              0.384202863      63.306222        0.919752527      -26.1857873      0.919752527      -26.1857873      0.384626734      63.3067725       
760              0.388624081      62.9899101       0.917903868      -26.5087778      0.917903868      -26.5087778      0.389052817      62.9904531       
770              0.393021297      62.6743455       0.91604049       -26.8308459      0.91604049       -26.8308459      0.39345487       62.6748811       
780              0.397394412      62.3595403       0.91416269       -27.1519863      0.91416269       -27.1519863      0.397832796      62.3600688       
790              0.401743333      62.045506        0.912270763      -27.4721937      0.912270763      -27.4721937      0.4021865        62.0460275       
800              0.406067972      61.7322537       0.910365006      -27.7914632      0.910365006      -27.7914632      0.406515896      61.7327683       
810              0.410368249      61.4197938       0.908445712      -28.10979        0.908445712      -28.10979        0.410820902      61.4203018       
820              0.414644087      61.1081364       0.906513174      -28.4271693      0.906513174      -28.4271693      0.41510144       61.1086379       
830              0.418895415      60.7972912       0.904567684      -28.7435968      0.904567684      -28.7435968      0.419357442      60.7977864       
840              0.423122167      60.4872674       0.902609533      -29.0590682      0.902609533      -29.0590682      0.42358884       60.4877564       
850              0.427324284      60.1780738       0.900639011      -29.3735794      0.900639011      -29.3735794      0.427795575      60.1785567       
860              0.431501711      59.8697186       0.898656404      -29.6871264      0.898656404      -29.6871264      0.431977593      59.8701957       
870              0.435654399      59.5622101       0.896662001      -29.9997057      0.896662001      -29.9997057      0.436134843      59.5626813       
880              0.439782302      59.2555556       0.894656086      -30.3113135      0.894656086      -30.3113135      0.440267281      59.2560213       
890              0.443885383      58.9497626       0.892638942      -30.6219466      0.892638942      -30.6219466      0.444374868      58.9502227       
900              0.447963605      58.6448379       0.890610852      -30.9316017      0.890610852      -30.9316017      0.44845757       58.6452927       
910              0.45201694       58.3407882       0.888572094      -31.2402758      0.888572094      -31.2402758      0.452515356      58.3412376       
920              0.456045364      58.0376197       0.886522948      -31.5479661      0.886522948      -31.5479661      0.456548202      58.0380639       
930              0.460048855      57.7353383       0.884463689      -31.8546698      0.884463689      -31.8546698      0.460556088      57.7357775       
940              0.464027399      57.4339497       0.882394593      -32.1603844      0.882394593      -32.1603844      0.464538998      57.4343839       
950              0.467980985      57.1334592       0.88031593       -32.4651075      0.88031593       -32.4651075      0.468496923      57.1338886       
960              0.471909607      56.8338719       0.878227973      -32.768837       0.878227973      -32.768837       0.472429855      56.8342966       
970              0.475813262      56.5351927       0.876130988      -33.0715708      0.876130988      -33.0715708      0.476337792      56.5356126       
980              0.479691954      56.2374259       0.874025241      -33.3733069      0.874025241      -33.3733069      0.480220738      56.2378413       
990              0.483545689      55.9405759       0.871910998      -33.6740437      0.871910998      -33.6740437      0.484078699      55.9409868       
1000             0.487374477      55.6446466       0.869788518      -33.9737796      0.869788518      -33.9737796      0.487911686      55.6450531       
1010             0.491178335      55.3496419       0.867658062      -34.2725131      0.867658062      -34.2725131      0.491719713      55.350044        
1020             0.49495728       55.0555651       0.865519885      -34.570243       0.865519885      -34.570243       0.4955028        55.0559631       
1030             0.498711336      54.7624197       0.863374244      -34.8669681      0.863374244      -34.8669681      0.49926097       54.7628135       
1040             0.502440529      54.4702086       0.861221389      -35.1626874      0.861221389      -35.1626874      0.502994249      54.4705984       
1050             0.506144891      54.1789347       0.859061571      -35.4574001      0.859061571      -35.4574001      0.506702668      54.1793205       
1060             0.509824454      53.8886007       0.856895036      -35.7511054      0.856895036      -35.7511054      0.510386261      53.8889825       
1070             0.513479257      53.5992088       0.854722029      -36.0438029      0.854722029      -36.0438029      0.514045066      53.5995867       
1080             0.517109341      53.3107613       0.852542792      -36.335492       0.852542792      -36.335492       0.517679124      53.3111355       
1090             0.520714751      53.0232603       0.850357565      -36.6261724      0.850357565      -36.6261724      0.521288479      53.0236307       
1100             0.524295534      52.7367075       0.848166584      -36.915844       0.848166584      -36.915844       0.524873181      52.7370743       
1110             0.527851741      52.4511045       0.845970084      -37.2045067      0.845970084      -37.2045067      0.528433279      52.4514677       
1120             0.531383428      52.1664528       0.843768296      -37.4921606      0.843768296      -37.4921606      0.531968829      52.1668125       
1130             0.534890652      51.8827537       0.841561449      -37.7788059      0.841561449      -37.7788059      0.535479888      51.8831099       
1140             0.538373472      51.6000082       0.839349769      -38.0644429      0.839349769      -38.0644429      0.538966517      51.600361        
1150             0.541831954      51.3182173       0.83713348       -38.3490721      0.83713348       -38.3490721      0.542428778      51.3185668       
1160             0.545266162      51.0373817       0.834912802      -38.6326941      0.834912802      -38.6326941      0.54586674       51.0377279       
1170             0.548676166      50.7575021       0.832687954      -38.9153094      0.832687954      -38.9153094      0.54928047       50.757845        
1180             0.552062038      50.4785787       0.830459151      -39.1969189      0.830459151      -39.1969189      0.55267004       50.4789185       
1190             0.555423852      50.200612        0.828226605      -39.4775236      0.828226605      -39.4775236      0.556035525      50.2009486       
1200             0.558761685      49.9236021       0.825990526      -39.7571243      0.825990526      -39.7571243      0.559377003      49.9239356       
1210             0.562075617      49.647549        0.823751121      -40.0357222      0.823751121      -40.0357222      0.562694552      49.6478794       
1220             0.565365729      49.3724524       0.821508595      -40.3133186      0.821508595      -40.3133186      0.565988254      49.3727799       
1230             0.568632105      49.0983122       0.819263149      -40.5899148      0.819263149      -40.5899148      0.569258194      49.0986367       
1240             0.571874832      48.8251279       0.817014981      -40.8655121      0.817014981      -40.8655121      0.572504458      48.8254495       
1250             0.575093999      48.552899        0.814764287      -41.1401121      0.814764287      -41.1401121      0.575727135      48.5532178       
1260             0.578289695      48.2816248       0.812511261      -41.4137164      0.812511261      -41.4137164      0.578926315      48.2819407       
1270             0.581462014      48.0113044       0.810256093      -41.6863267      0.810256093      -41.6863267      0.582102092      48.0116176       
1280             0.584611051      47.741937        0.80799897       -41.9579448      0.80799897       -41.9579448      0.585254559      47.7422475       
1290             0.587736901      47.4735216       0.805740078      -42.2285725      0.805740078      -42.2285725      0.588383815      47.4738294       
1300             0.590839664      47.206057        0.803479598      -42.498212       0.803479598      -42.498212       0.591489956      47.2063621       
1310             0.593919439      46.9395419       0.80121771       -42.7668651      0.80121771       -42.7668651      0.594573084      46.9398444       
1320             0.596976328      46.673975        0.79895459       -43.0345341      0.79895459       -43.0345341      0.5976333        46.6742749       
1330             0.600010435      46.4093547       0.796690412      -43.3012211      0.796690412      -43.3012211      0.600670709      46.4096521       
1340             0.603021865      46.1456796       0.794425347      -43.5669285      0.794425347      -43.5669285      0.603685414      46.1459745       
1350             0.606010724      45.882948        0.792159563      -43.8316586      0.792159563      -43.8316586      0.606677523      45.8832404       
1360             0.60897712       45.6211581       0.789893227      -44.095414       0.789893227      -44.095414       0.609647143      45.6214481       
1370             0.611921163      45.360308        0.7876265        -44.358197       0.7876265        -44.358197       0.612594385      45.3605956       
