! Coilcraft 0805HS-180 Chip Inductor				
! 13 June 2002			
# MHZ S MA R 50
!Freq             MagS11           AngS11           MagS21           AngS21           MagS12           AngS12           MagS22           AngS22
1                0.00261891544    25.4554144       0.997635964      -0.0646468266    0.997635964      -0.0646468266    0.00261891544    25.4554144       
14.71            0.0169235672     77.4493342       0.996459396      -0.94988499      0.996459396      -0.94988499      0.0169235672     77.4493342       
28.42            0.0322427316     81.1300891       0.995538287      -1.8337731       0.995538287      -1.8337731       0.0322427316     81.1300891       
42.13            0.0475907299     82.0136174       0.994505194      -2.7162385       0.994505194      -2.7162385       0.0475907299     82.0136174       
55.84            0.0629164743     82.0948947       0.993303742      -3.5970255       0.993303742      -3.5970255       0.0629164743     82.0948947       
69.55            0.0782010213     81.8307716       0.991912842      -4.47583337      0.991912842      -4.47583337      0.0782010213     81.8307716       
83.26            0.0934316283     81.3853168       0.990322907      -5.35234391      0.990322907      -5.35234391      0.0934316283     81.3853168       
96.97            0.108597536      80.8327847       0.988529567      -6.22623212      0.988529567      -6.22623212      0.108597536      80.8327847       
110.68           0.123688869      80.2120211       0.986531318      -7.09717173      0.986531318      -7.09717173      0.123688869      80.2120211       
124.39           0.138696281      79.5455018       0.984328451      -7.96483846      0.984328451      -7.96483846      0.138696281      79.5455018       
138.1            0.15361082       78.847242        0.981922501      -8.82891231      0.981922501      -8.82891231      0.15361082       78.847242        
151.81           0.168423889      78.1265059       0.979315922      -9.68907927      0.979315922      -9.68907927      0.168423889      78.1265059       
165.52           0.183127228      77.3897124       0.97651189       -10.5450326      0.97651189       -10.5450326      0.183127228      77.3897124       
179.23           0.197712924      76.6414855       0.973514165      -11.3964738      0.973514165      -11.3964738      0.197712924      76.6414855       
192.94           0.212173413      75.8852674       0.970326995      -12.2431139      0.970326995      -12.2431139      0.212173413      75.8852674       
206.65           0.226501493      75.1236937       0.966955038      -13.0846736      0.966955038      -13.0846736      0.226501493      75.1236937       
220.36           0.240690335      74.3588321       0.963403306      -13.9208844      0.963403306      -13.9208844      0.240690335      74.3588321       
234.07           0.254733491      73.5923386       0.959677108      -14.751489       0.959677108      -14.751489       0.254733491      73.5923386       
247.78           0.268624905      72.8255645       0.955782012      -15.5762415      0.955782012      -15.5762415      0.268624905      72.8255645       
261.49           0.282358913      72.0596292       0.951723803      -16.3949081      0.951723803      -16.3949081      0.282358913      72.0596292       
275.2            0.295930253      71.2954732       0.947508446      -17.2072674      0.947508446      -17.2072674      0.295930253      71.2954732       
288.91           0.309334064      70.5338954       0.943142056      -18.0131101      0.943142056      -18.0131101      0.309334064      70.5338954       
302.62           0.322565887      69.7755815       0.938630864      -18.8122398      0.938630864      -18.8122398      0.322565887      69.7755815       
316.33           0.335621664      69.0211242       0.93398119       -19.6044726      0.93398119       -19.6044726      0.335621664      69.0211242       
330.04           0.348497732      68.2710396       0.929199417      -20.3896374      0.929199417      -20.3896374      0.348497732      68.2710396       
343.75           0.361190821      67.5257795       0.924291965      -21.1675758      0.924291965      -21.1675758      0.361190821      67.5257795       
357.46           0.373698045      66.7857406       0.919265266      -21.9381418      0.919265266      -21.9381418      0.373698045      66.7857406       
371.17           0.386016894      66.0512722       0.914125745      -22.701202       0.914125745      -22.701202       0.386016894      66.0512722       
384.88           0.398145228      65.3226828       0.908879797      -23.4566353      0.908879797      -23.4566353      0.398145228      65.3226828       
398.59           0.41008126       64.6002441       0.903533772      -24.2043327      0.903533772      -24.2043327      0.41008126       64.6002441       
412.3            0.421823552      63.8841961       0.89809395       -24.9441969      0.89809395       -24.9441969      0.421823552      63.8841961       
426.01           0.433370996      63.1747499       0.892566535      -25.6761422      0.892566535      -25.6761422      0.433370996      63.1747499       
439.72           0.444722806      62.4720907       0.886957632      -26.4000942      0.886957632      -26.4000942      0.444722806      62.4720907       
453.43           0.455878501      61.77638         0.881273239      -27.1159894      0.881273239      -27.1159894      0.455878501      61.77638         
467.14           0.466837893      61.0877584       0.875519233      -27.8237748      0.875519233      -27.8237748      0.466837893      61.0877584       
480.85           0.477601071      60.4063466       0.86970136       -28.5234076      0.86970136       -28.5234076      0.477601071      60.4063466       
494.56           0.488168386      59.7322475       0.863825226      -29.2148548      0.863825226      -29.2148548      0.488168386      59.7322475       
508.27           0.498540438      59.0655477       0.857896291      -29.898093       0.857896291      -29.898093       0.498540438      59.0655477       
521.98           0.508718061      58.4063184       0.851919858      -30.5731075      0.851919858      -30.5731075      0.508718061      58.4063184       
535.69           0.518702307      57.7546168       0.84590107       -31.2398925      0.84590107       -31.2398925      0.518702307      57.7546168       
549.4            0.528494431      57.1104871       0.839844906      -31.8984502      0.839844906      -31.8984502      0.528494431      57.1104871       
563.11           0.538095877      56.4739616       0.833756178      -32.5487906      0.833756178      -32.5487906      0.538095877      56.4739616       
576.82           0.547508266      55.8450614       0.827639523      -33.1909312      0.827639523      -33.1909312      0.547508266      55.8450614       
590.53           0.55673338       55.2237974       0.82149941       -33.8248962      0.82149941       -33.8248962      0.55673338       55.2237974       
604.24           0.565773146      54.6101707       0.815340132      -34.4507167      0.815340132      -34.4507167      0.565773146      54.6101707       
617.95           0.57462963       54.0041739       0.809165806      -35.0684296      0.809165806      -35.0684296      0.57462963       54.0041739       
631.66           0.583305018      53.4057913       0.80298038       -35.6780778      0.80298038       -35.6780778      0.583305018      53.4057913       
645.37           0.591801605      52.8149995       0.796787626      -36.2797096      0.796787626      -36.2797096      0.591801605      52.8149995       
659.08           0.600121786      52.2317684       0.790591147      -36.8733781      0.790591147      -36.8733781      0.600121786      52.2317684       
672.79           0.608268044      51.6560615       0.784394376      -37.4591412      0.784394376      -37.4591412      0.608268044      51.6560615       
686.5            0.616242937      51.0878362       0.778200582      -38.037061       0.778200582      -38.037061       0.616242937      51.0878362       
700.21           0.624049091      50.5270446       0.772012868      -38.6072037      0.772012868      -38.6072037      0.624049091      50.5270446       
713.92           0.631689188      49.9736339       0.76583418       -39.169639       0.76583418       -39.169639       0.631689188      49.9736339       
727.63           0.63916596       49.4275469       0.759667306      -39.7244401      0.759667306      -39.7244401      0.63916596       49.4275469       
741.34           0.646482177      48.888722        0.753514881      -40.2716828      0.753514881      -40.2716828      0.646482177      48.888722        
755.05           0.653640641      48.3570941       0.747379395      -40.811446       0.747379395      -40.811446       0.653640641      48.3570941       
768.76           0.660644178      47.8325948       0.741263189      -41.3438111      0.741263189      -41.3438111      0.660644178      47.8325948       
782.47           0.667495634      47.3151524       0.735168469      -41.8688613      0.735168469      -41.8688613      0.667495634      47.3151524       
796.18           0.674197863      46.8046928       0.729097302      -42.386682       0.729097302      -42.386682       0.674197863      46.8046928       
809.89           0.680753725      46.3011392       0.723051627      -42.8973602      0.723051627      -42.8973602      0.680753725      46.3011392       
823.6            0.687166078      45.804413        0.717033255      -43.4009846      0.717033255      -43.4009846      0.687166078      45.804413        
837.31           0.693437777      45.3144334       0.711043877      -43.8976449      0.711043877      -43.8976449      0.693437777      45.3144334       
851.02           0.699571665      44.8311183       0.705085065      -44.3874318      0.705085065      -44.3874318      0.699571665      44.8311183       
864.73           0.70557057       44.354384        0.69915828       -44.8704371      0.69915828       -44.8704371      0.70557057       44.354384        
878.44           0.711437301      43.8841457       0.693264876      -45.3467533      0.693264876      -45.3467533      0.711437301      43.8841457       
892.15           0.717174646      43.4203177       0.687406103      -45.8164732      0.687406103      -45.8164732      0.717174646      43.4203177       
905.86           0.722785367      42.9628133       0.681583111      -46.2796901      0.681583111      -46.2796901      0.722785367      42.9628133       
919.57           0.728272196      42.5115453       0.675796958      -46.7364975      0.675796958      -46.7364975      0.728272196      42.5115453       
933.28           0.733637837      42.0664263       0.67004861       -47.1869891      0.67004861       -47.1869891      0.733637837      42.0664263       
946.99           0.738884959      41.6273682       0.664338948      -47.6312584      0.664338948      -47.6312584      0.738884959      41.6273682       
960.7            0.744016194      41.194283        0.658668771      -48.0693988      0.658668771      -48.0693988      0.744016194      41.194283        
974.41           0.74903414       40.7670826       0.653038799      -48.5015036      0.653038799      -48.5015036      0.74903414       40.7670826       
988.12           0.753941354      40.345679        0.647449679      -48.9276654      0.647449679      -48.9276654      0.753941354      40.345679        
1001.83          0.758740353      39.9299843       0.641901989      -49.3479767      0.641901989      -49.3479767      0.758740353      39.9299843       
1015.54          0.763433614      39.519911        0.636396239      -49.7625293      0.636396239      -49.7625293      0.763433614      39.519911        
1029.25          0.76802357       39.1153721       0.630932874      -50.1714143      0.630932874      -50.1714143      0.76802357       39.1153721       
1042.96          0.772512612      38.7162808       0.625512283      -50.5747222      0.625512283      -50.5747222      0.772512612      38.7162808       
1056.67          0.776903087      38.3225511       0.620134796      -50.9725429      0.620134796      -50.9725429      0.776903087      38.3225511       
1070.38          0.781197298      37.9340975       0.614800691      -51.3649652      0.614800691      -51.3649652      0.781197298      37.9340975       
1084.09          0.785397503      37.5508351       0.609510195      -51.7520772      0.609510195      -51.7520772      0.785397503      37.5508351       
1097.8           0.789505914      37.1726801       0.604263487      -52.1339661      0.604263487      -52.1339661      0.789505914      37.1726801       
1111.51          0.793524702      36.7995491       0.599060703      -52.5107181      0.599060703      -52.5107181      0.793524702      36.7995491       
1125.22          0.797455988      36.4313596       0.593901935      -52.8824185      0.593901935      -52.8824185      0.797455988      36.4313596       
1138.93          0.801301852      36.0680303       0.588787238      -53.2491513      0.588787238      -53.2491513      0.801301852      36.0680303       
1152.64          0.805064328      35.7094805       0.583716627      -53.6109999      0.583716627      -53.6109999      0.805064328      35.7094805       
1166.35          0.808745404      35.3556306       0.578690086      -53.9680462      0.578690086      -53.9680462      0.808745404      35.3556306       
1180.06          0.812347028      35.006402        0.573707564      -54.3203712      0.573707564      -54.3203712      0.812347028      35.006402        
1193.77          0.815871099      34.6617169       0.56876898       -54.6680548      0.56876898       -54.6680548      0.815871099      34.6617169       
1207.48          0.819319477      34.3214987       0.563874226      -55.0111757      0.563874226      -55.0111757      0.819319477      34.3214987       
1221.19          0.822693977      33.985672        0.559023165      -55.3498113      0.559023165      -55.3498113      0.822693977      33.985672        
1234.9           0.825996372      33.6541621       0.554215639      -55.6840382      0.554215639      -55.6840382      0.825996372      33.6541621       
1248.61          0.829228394      33.3268958       0.549451464      -56.0139316      0.549451464      -56.0139316      0.829228394      33.3268958       
1262.32          0.832391733      33.0038005       0.544730437      -56.3395654      0.544730437      -56.3395654      0.832391733      33.0038005       
1276.03          0.835488039      32.6848051       0.540052333      -56.6610127      0.540052333      -56.6610127      0.835488039      32.6848051       
1289.74          0.838518922      32.3698395       0.535416913      -56.9783451      0.535416913      -56.9783451      0.838518922      32.3698395       
1303.45          0.841485954      32.0588345       0.530823917      -57.2916331      0.530823917      -57.2916331      0.841485954      32.0588345       
1317.16          0.844390665      31.7517222       0.526273071      -57.6009462      0.526273071      -57.6009462      0.844390665      31.7517222       
1330.87          0.847234552      31.4484358       0.521764089      -57.9063524      0.521764089      -57.9063524      0.847234552      31.4484358       
1344.58          0.850019071      31.1489095       0.517296669      -58.2079189      0.517296669      -58.2079189      0.850019071      31.1489095       
1358.29          0.852745645      30.8530786       0.512870498      -58.5057115      0.512870498      -58.5057115      0.852745645      30.8530786       
1372             0.855415658      30.5608796       0.508485254      -58.7997949      0.508485254      -58.7997949      0.855415658      30.5608796       
1385.71          0.858030462      30.27225         0.504140604      -59.0902327      0.504140604      -59.0902327      0.858030462      30.27225         
1399.42          0.860591374      29.9871283       0.499836205      -59.3770873      0.499836205      -59.3770873      0.860591374      29.9871283       
1413.13          0.863099678      29.7054543       0.495571708      -59.6604201      0.495571708      -59.6604201      0.863099678      29.7054543       
1426.84          0.865556623      29.4271687       0.491346756      -59.9402912      0.491346756      -59.9402912      0.865556623      29.4271687       
1440.55          0.867963429      29.1522132       0.487160986      -60.2167599      0.487160986      -60.2167599      0.867963429      29.1522132       
1454.26          0.870321284      28.8805307       0.483014029      -60.4898841      0.483014029      -60.4898841      0.870321284      28.8805307       
1467.97          0.872631346      28.6120649       0.478905513      -60.7597207      0.478905513      -60.7597207      0.872631346      28.6120649       
1481.68          0.874894742      28.3467608       0.474835058      -61.0263258      0.474835058      -61.0263258      0.874894742      28.3467608       
1495.39          0.877112571      28.0845641       0.470802285      -61.289754       0.470802285      -61.289754       0.877112571      28.0845641       
1509.1           0.879285903      27.8254218       0.466806808      -61.5500593      0.466806808      -61.5500593      0.879285903      27.8254218       
1522.81          0.881415781      27.5692817       0.462848241      -61.8072943      0.462848241      -61.8072943      0.881415781      27.5692817       
1536.52          0.883503222      27.3160925       0.458926196      -62.061511       0.458926196      -62.061511       0.883503222      27.3160925       
1550.23          0.885549214      27.065804        0.455040282      -62.3127602      0.455040282      -62.3127602      0.885549214      27.065804        
1563.94          0.887554722      26.8183669       0.451190109      -62.5610916      0.451190109      -62.5610916      0.887554722      26.8183669       
1577.65          0.889520686      26.5737327       0.447375283      -62.8065541      0.447375283      -62.8065541      0.889520686      26.5737327       
1591.36          0.891448019      26.331854        0.443595414      -63.0491957      0.443595414      -63.0491957      0.891448019      26.331854        
1605.07          0.893337613      26.0926843       0.43985011       -63.2890633      0.43985011       -63.2890633      0.893337613      26.0926843       
1618.78          0.895190337      25.8561777       0.436138979      -63.5262031      0.436138979      -63.5262031      0.895190337      25.8561777       
1632.49          0.897007036      25.6222894       0.43246163       -63.7606603      0.43246163       -63.7606603      0.897007036      25.6222894       
1646.2           0.898788533      25.3909755       0.428817673      -63.9924792      0.428817673      -63.9924792      0.898788533      25.3909755       
1659.91          0.900535632      25.1621928       0.425206722      -64.2217032      0.425206722      -64.2217032      0.900535632      25.1621928       
1673.62          0.902249114      24.9358988       0.421628387      -64.4483749      0.421628387      -64.4483749      0.902249114      24.9358988       
1687.33          0.90392974       24.7120522       0.418082286      -64.6725361      0.418082286      -64.6725361      0.90392974       24.7120522       
1701.04          0.905578253      24.4906121       0.414568035      -64.8942277      0.414568035      -64.8942277      0.905578253      24.4906121       
1714.75          0.907195375      24.2715387       0.411085253      -65.1134899      0.411085253      -65.1134899      0.907195375      24.2715387       
1728.46          0.90878181       24.0547926       0.407633561      -65.330362       0.407633561      -65.330362       0.90878181       24.0547926       
1742.17          0.910338246      23.8403355       0.404212585      -65.5448827      0.404212585      -65.5448827      0.910338246      23.8403355       
