! Coilcraft 0805HS-030 Chip Inductor				
! 13 June 2002			
# MHZ S MA R 50
!Freq             MagS11           AngS11           MagS21           AngS21           MagS12           AngS12           MagS22           AngS22
1                0.000942932991   12.3277049       0.999078829      -0.0115453551    0.999078829      -0.0115453551    0.000942932991   12.3277049       
40.65            0.00833578916    78.637618        0.998391184      -0.469004592     0.998391184      -0.469004592     0.00833578916    78.637618        
80.3             0.0162735735     82.4063347       0.997979873      -0.926141186     0.997979873      -0.926141186     0.0162735735     82.4063347       
119.95           0.0242297138     83.5708962       0.997577514      -1.38301411      0.997577514      -1.38301411      0.0242297138     83.5708962       
159.6            0.0321867457     84.0002409       0.997149635      -1.83962172      0.997149635      -1.83962172      0.0321867457     84.0002409       
199.25           0.0401399497     84.1126544       0.996682837      -2.29594754      0.996682837      -2.29594754      0.0401399497     84.1126544       
238.9            0.0480869868     84.0574094       0.996170308      -2.75196855      0.996170308      -2.75196855      0.0480869868     84.0574094       
278.55           0.0560262346     83.9018755       0.995608073      -3.20765814      0.995608073      -3.20765814      0.0560262346     83.9018755       
318.2            0.0639563473     83.6812093       0.994993622      -3.66298758      0.994993622      -3.66298758      0.0639563473     83.6812093       
357.85           0.0718761041     83.4156798       0.994325291      -4.11792673      0.994325291      -4.11792673      0.0718761041     83.4156798       
397.5            0.0797843489     83.1178581       0.993601952      -4.57244457      0.993601952      -4.57244457      0.0797843489     83.1178581       
437.15           0.0876799624     82.79599         0.992822831      -5.02650944      0.992822831      -5.02650944      0.0876799624     82.79599         
476.8            0.0955618492     82.4557303       0.991987408      -5.48008932      0.991987408      -5.48008932      0.0955618492     82.4557303       
516.45           0.103428932      82.1010995       0.991095349      -5.93315192      0.991095349      -5.93315192      0.103428932      82.1010995       
556.1            0.111280146      81.7350439       0.990146463      -6.38566483      0.990146463      -6.38566483      0.111280146      81.7350439       
595.75           0.119114441      81.3597783       0.98914067       -6.83759559      0.98914067       -6.83759559      0.119114441      81.3597783       
635.4            0.126930779      80.9770048       0.988077982      -7.28891177      0.988077982      -7.28891177      0.126930779      80.9770048       
675.05           0.134728131      80.5880566       0.986958486      -7.73958106      0.986958486      -7.73958106      0.134728131      80.5880566       
714.7            0.142505484      80.1939958       0.985782333      -8.18957125      0.985782333      -8.18957125      0.142505484      80.1939958       
754.35           0.150261835      79.7956812       0.984549729      -8.63885035      0.984549729      -8.63885035      0.150261835      79.7956812       
794              0.157996195      79.393817        0.983260928      -9.08738658      0.983260928      -9.08738658      0.157996195      79.393817        
833.65           0.165707588      78.9889874       0.981916228      -9.53514841      0.981916228      -9.53514841      0.165707588      78.9889874       
873.3            0.173395053      78.5816824       0.980515964      -9.9821046       0.980515964      -9.9821046       0.173395053      78.5816824       
912.95           0.181057642      78.1723175       0.979060505      -10.4282242      0.979060505      -10.4282242      0.181057642      78.1723175       
952.6            0.188694423      77.761248        0.977550255      -10.8734767      0.977550255      -10.8734767      0.188694423      77.761248        
992.25           0.19630448       77.3487807       0.975985642      -11.3178318      0.975985642      -11.3178318      0.19630448       77.3487807       
1031.9           0.203886913      76.9351822       0.974367126      -11.7612596      0.974367126      -11.7612596      0.203886913      76.9351822       
1071.55          0.211440838      76.5206864       0.972695188      -12.2037308      0.972695188      -12.2037308      0.211440838      76.5206864       
1111.2           0.218965388      76.1054994       0.970970335      -12.6452163      0.970970335      -12.6452163      0.218965388      76.1054994       
1150.85          0.226459715      75.6898042       0.969193094      -13.0856874      0.969193094      -13.0856874      0.226459715      75.6898042       
1190.5           0.233922986      75.2737646       0.967364012      -13.5251161      0.967364012      -13.5251161      0.233922986      75.2737646       
1230.15          0.24135439       74.8575273       0.965483657      -13.9634746      0.965483657      -13.9634746      0.24135439       74.8575273       
1269.8           0.248753131      74.441225        0.963552612      -14.4007357      0.963552612      -14.4007357      0.248753131      74.441225        
1309.45          0.256118434      74.024978        0.961571479      -14.8368727      0.961571479      -14.8368727      0.256118434      74.024978        
1349.1           0.263449543      73.608896        0.959540874      -15.2718593      0.959540874      -15.2718593      0.263449543      73.608896        
1388.75          0.27074572       73.1930791       0.957461428      -15.7056699      0.957461428      -15.7056699      0.27074572       73.1930791       
1428.4           0.27800625       72.7776196       0.955333786      -16.1382793      0.955333786      -16.1382793      0.27800625       72.7776196       
1468.05          0.285230434      72.3626023       0.953158607      -16.5696626      0.953158607      -16.5696626      0.285230434      72.3626023       
1507.7           0.292417596      71.9481058       0.950936558      -16.9997959      0.950936558      -16.9997959      0.292417596      71.9481058       
1547.35          0.299567078      71.5342029       0.948668321      -17.4286554      0.948668321      -17.4286554      0.299567078      71.5342029       
1587             0.306678245      71.1209613       0.946354586      -17.8562182      0.946354586      -17.8562182      0.306678245      71.1209613       
1626.65          0.31375048       70.7084442       0.943996054      -18.2824617      0.943996054      -18.2824617      0.31375048       70.7084442       
1666.3           0.320783188      70.2967106       0.941593434      -18.7073639      0.941593434      -18.7073639      0.320783188      70.2967106       
1705.95          0.327775794      69.8858159       0.939147441      -19.1309036      0.939147441      -19.1309036      0.327775794      69.8858159       
1745.6           0.334727745      69.4758117       0.9366588        -19.5530597      0.9366588        -19.5530597      0.334727745      69.4758117       
1785.25          0.341638507      69.0667471       0.934128242      -19.9738122      0.934128242      -19.9738122      0.341638507      69.0667471       
1824.9           0.348507567      68.6586678       0.931556502      -20.3931413      0.931556502      -20.3931413      0.348507567      68.6586678       
1864.55          0.355334435      68.2516171       0.928944323      -20.8110278      0.928944323      -20.8110278      0.355334435      68.2516171       
1904.2           0.362118638      67.8456358       0.92629245       -21.2274533      0.92629245       -21.2274533      0.362118638      67.8456358       
1943.85          0.368859726      67.4407627       0.923601633      -21.6423998      0.923601633      -21.6423998      0.368859726      67.4407627       
1983.5           0.375557268      67.037034        0.920872626      -22.0558499      0.920872626      -22.0558499      0.375557268      67.037034        
2023.15          0.382210856      66.6344845       0.918106184      -22.4677867      0.918106184      -22.4677867      0.382210856      66.6344845       
2062.8           0.388820099      66.2331468       0.915303065      -22.8781941      0.915303065      -22.8781941      0.388820099      66.2331468       
2102.45          0.395384628      65.8330518       0.912464028      -23.2870563      0.912464028      -23.2870563      0.395384628      65.8330518       
2142.1           0.401904093      65.434229        0.909589835      -23.6943582      0.909589835      -23.6943582      0.401904093      65.434229        
2181.75          0.408378165      65.0367062       0.906681246      -24.1000853      0.906681246      -24.1000853      0.408378165      65.0367062       
2221.4           0.414806533      64.6405098       0.903739021      -24.5042236      0.903739021      -24.5042236      0.414806533      64.6405098       
2261.05          0.421188907      64.2456648       0.900763921      -24.9067597      0.900763921      -24.9067597      0.421188907      64.2456648       
2300.7           0.427525015      63.852195        0.897756706      -25.3076808      0.897756706      -25.3076808      0.427525015      63.852195        
2340.35          0.433814604      63.4601229       0.894718132      -25.7069745      0.894718132      -25.7069745      0.433814604      63.4601229       
2380             0.44005744       63.0694698       0.891648955      -26.1046291      0.891648955      -26.1046291      0.44005744       63.0694698       
2419.65          0.446253307      62.6802558       0.888549928      -26.5006333      0.888549928      -26.5006333      0.446253307      62.6802558       
2459.3           0.452402008      62.2925002       0.885421802      -26.8949765      0.885421802      -26.8949765      0.452402008      62.2925002       
2498.95          0.458503364      61.9062209       0.882265324      -27.2876486      0.882265324      -27.2876486      0.458503364      61.9062209       
2538.6           0.464557211      61.5214351       0.879081236      -27.67864        0.879081236      -27.67864        0.464557211      61.5214351       
2578.25          0.470563406      61.138159        0.875870278      -28.0679415      0.875870278      -28.0679415      0.470563406      61.138159        
2617.9           0.47652182       60.7564077       0.872633185      -28.4555446      0.872633185      -28.4555446      0.47652182       60.7564077       
2657.55          0.482432342      60.3761956       0.869370687      -28.8414412      0.869370687      -28.8414412      0.482432342      60.3761956       
2697.2           0.488294878      59.9975362       0.866083508      -29.2256237      0.866083508      -29.2256237      0.488294878      59.9975362       
2736.85          0.494109349      59.6204422       0.862772368      -29.6080852      0.862772368      -29.6080852      0.494109349      59.6204422       
2776.5           0.499875692      59.2449255       0.859437981      -29.988819       0.859437981      -29.988819       0.499875692      59.2449255       
2816.15          0.505593858      58.8709971       0.856081054      -30.367819       0.856081054      -30.367819       0.505593858      58.8709971       
2855.8           0.511263816      58.4986675       0.852702289      -30.7450796      0.852702289      -30.7450796      0.511263816      58.4986675       
2895.45          0.516885547      58.1279464       0.849302381      -31.1205957      0.849302381      -31.1205957      0.516885547      58.1279464       
2935.1           0.522459048      57.7588428       0.845882018      -31.4943626      0.845882018      -31.4943626      0.522459048      57.7588428       
2974.75          0.527984329      57.3913649       0.842441881      -31.8663759      0.842441881      -31.8663759      0.527984329      57.3913649       
3014.4           0.533461414      57.0255204       0.838982643      -32.236632       0.838982643      -32.236632       0.533461414      57.0255204       
3054.05          0.53889034       56.6613165       0.835504971      -32.6051274      0.835504971      -32.6051274      0.53889034       56.6613165       
3093.7           0.544271158      56.2987594       0.832009524      -32.9718593      0.832009524      -32.9718593      0.544271158      56.2987594       
3133.35          0.54960393       55.9378552       0.828496952      -33.336825       0.828496952      -33.336825       0.54960393       55.9378552       
3173             0.554888731      55.578609        0.824967898      -33.7000224      0.824967898      -33.7000224      0.554888731      55.578609        
3212.65          0.560125649      55.2210256       0.821422997      -34.0614499      0.821422997      -34.0614499      0.560125649      55.2210256       
3252.3           0.565314781      54.8651092       0.817862876      -34.4211061      0.817862876      -34.4211061      0.565314781      54.8651092       
3291.95          0.570456238      54.5108635       0.814288152      -34.7789901      0.814288152      -34.7789901      0.570456238      54.5108635       
3331.6           0.575550139      54.1582917       0.810699436      -35.1351014      0.810699436      -35.1351014      0.575550139      54.1582917       
3371.25          0.580596616      53.8073963       0.807097327      -35.4894396      0.807097327      -35.4894396      0.580596616      53.8073963       
3410.9           0.585595809      53.4581798       0.803482418      -35.842005       0.803482418      -35.842005       0.585595809      53.4581798       
3450.55          0.59054787       53.1106437       0.799855292      -36.192798       0.799855292      -36.192798       0.59054787       53.1106437       
3490.2           0.595452959      52.7647896       0.796216524      -36.5418196      0.796216524      -36.5418196      0.595452959      52.7647896       
3529.85          0.600311246      52.4206181       0.792566678      -36.8890709      0.792566678      -36.8890709      0.600311246      52.4206181       
3569.5           0.605122907      52.0781298       0.788906313      -37.2345534      0.788906313      -37.2345534      0.605122907      52.0781298       
3609.15          0.609888132      51.7373249       0.785235974      -37.5782689      0.785235974      -37.5782689      0.609888132      51.7373249       
3648.8           0.614607113      51.3982028       0.781556201      -37.9202195      0.781556201      -37.9202195      0.614607113      51.3982028       
3688.45          0.619280055      51.0607631       0.777867523      -38.2604077      0.777867523      -38.2604077      0.619280055      51.0607631       
3728.1           0.623907166      50.7250045       0.774170459      -38.5988361      0.774170459      -38.5988361      0.623907166      50.7250045       
3767.75          0.628488665      50.3909258       0.77046552       -38.9355078      0.77046552       -38.9355078      0.628488665      50.3909258       
3807.4           0.633024776      50.058525        0.766753209      -39.270426       0.766753209      -39.270426       0.633024776      50.058525        
3847.05          0.637515729      49.7278002       0.763034018      -39.6035942      0.763034018      -39.6035942      0.637515729      49.7278002       
3886.7           0.641961762      49.398749        0.75930843       -39.9350162      0.75930843       -39.9350162      0.641961762      49.398749        
3926.35          0.646363119      49.0713686       0.755576921      -40.264696       0.755576921      -40.264696       0.646363119      49.0713686       
3966             0.650720047      48.745656        0.751839954      -40.592638       0.751839954      -40.592638       0.650720047      48.745656        
4005.65          0.655032802      48.4216079       0.748097987      -40.9188465      0.748097987      -40.9188465      0.655032802      48.4216079       
4045.3           0.659301643      48.0992208       0.744351467      -41.2433264      0.744351467      -41.2433264      0.659301643      48.0992208       
4084.95          0.663526834      47.7784907       0.740600832      -41.5660825      0.740600832      -41.5660825      0.663526834      47.7784907       
4124.6           0.667708645      47.4594137       0.736846511      -41.88712        0.736846511      -41.88712        0.667708645      47.4594137       
4164.25          0.671847349      47.1419854       0.733088925      -42.2064443      0.733088925      -42.2064443      0.671847349      47.1419854       
4203.9           0.675943223      46.8262011       0.729328485      -42.5240609      0.729328485      -42.5240609      0.675943223      46.8262011       
4243.55          0.679996549      46.512056        0.725565595      -42.8399755      0.725565595      -42.8399755      0.679996549      46.512056        
4283.2           0.684007613      46.1995452       0.721800649      -43.154194       0.721800649      -43.154194       0.684007613      46.1995452       
4322.85          0.687976703      45.8886633       0.718034032      -43.4667226      0.718034032      -43.4667226      0.687976703      45.8886633       
4362.5           0.69190411       45.579405        0.714266121      -43.7775675      0.714266121      -43.7775675      0.69190411       45.579405        
4402.15          0.69579013       45.2717645       0.710497285      -44.0867351      0.710497285      -44.0867351      0.69579013       45.2717645       
4441.8           0.69963506       44.965736        0.706727884      -44.3942319      0.706727884      -44.3942319      0.69963506       44.965736        
4481.45          0.7034392        44.6613135       0.702958271      -44.7000646      0.702958271      -44.7000646      0.7034392        44.6613135       
4521.1           0.707202852      44.3584908       0.699188789      -45.0042402      0.699188789      -45.0042402      0.707202852      44.3584908       
4560.75          0.710926321      44.0572615       0.695419773      -45.3067655      0.695419773      -45.3067655      0.710926321      44.0572615       
4600.4           0.714609913      43.7576192       0.691651551      -45.6076477      0.691651551      -45.6076477      0.714609913      43.7576192       
4640.05          0.718253937      43.4595571       0.687884444      -45.9068941      0.687884444      -45.9068941      0.718253937      43.4595571       
4679.7           0.721858703      43.1630685       0.684118762      -46.2045119      0.684118762      -46.2045119      0.721858703      43.1630685       
4719.35          0.725424521      42.8681464       0.68035481       -46.5005086      0.68035481       -46.5005086      0.725424521      42.8681464       
4759             0.728951704      42.5747837       0.676592885      -46.7948917      0.676592885      -46.7948917      0.728951704      42.5747837       
4798.65          0.732440566      42.2829732       0.672833275      -47.087669       0.672833275      -47.087669       0.732440566      42.2829732       
4838.3           0.735891421      41.9927076       0.669076262      -47.3788481      0.669076262      -47.3788481      0.735891421      41.9927076       
4877.95          0.739304584      41.7039794       0.665322121      -47.668437       0.665322121      -47.668437       0.739304584      41.7039794       
4917.6           0.742680371      41.4167812       0.661571119      -47.9564434      0.661571119      -47.9564434      0.742680371      41.4167812       
4957.25          0.746019098      41.1311052       0.657823514      -48.2428754      0.657823514      -48.2428754      0.746019098      41.1311052       
4996.9           0.749321082      40.8469437       0.654079562      -48.5277411      0.654079562      -48.5277411      0.749321082      40.8469437       
5036.55          0.752586639      40.564289        0.650339507      -48.8110485      0.650339507      -48.8110485      0.752586639      40.564289        
