! Coilcraft 0805HS-150 Chip Inductor				
! 13 June 2002			
# MHZ S MA R 50
!Freq             MagS11           AngS11           MagS21           AngS21           MagS12           AngS12           MagS22           AngS22
1                0.00221013097    25.1336307       0.997999566      -0.0538919874    0.997999566      -0.0538919874    0.00221013097    25.1336307       
12.47            0.0120414076     76.0502738       0.997165654      -0.671492973     0.997165654      -0.671492973     0.0120414076     76.0502738       
23.94            0.0227095751     80.6706636       0.996570553      -1.28847912      0.996570553      -1.28847912      0.0227095751     80.6706636       
35.41            0.0334237785     82.092826        0.995952321      -1.90489358      0.995952321      -1.90489358      0.0334237785     82.092826        
46.88            0.0441408497     82.5874767       0.995268298      -2.52068513      0.995268298      -2.52068513      0.0441408497     82.5874767       
58.35            0.0548484517     82.6809825       0.994501706      -3.13577772      0.994501706      -3.13577772      0.0548484517     82.6809825       
69.82            0.0655402573     82.5628441       0.993644121      -3.7500844       0.993644121      -3.7500844       0.0655402573     82.5628441       
81.29            0.0762117983     82.3187568       0.992690804      -4.36351258      0.992690804      -4.36351258      0.0762117983     82.3187568       
92.76            0.0868593473     81.9934213       0.991638959      -4.97596655      0.991638959      -4.97596655      0.0868593473     81.9934213       
104.23           0.0974795314     81.6125775       0.990486945      -5.58734891      0.990486945      -5.58734891      0.0974795314     81.6125775       
115.7            0.108069175      81.1921681       0.989233867      -6.19756149      0.989233867      -6.19756149      0.108069175      81.1921681       
127.17           0.118625229      80.7426396       0.987879353      -6.80650593      0.987879353      -6.80650593      0.118625229      80.7426396       
138.64           0.12914474       80.2711516       0.986423411      -7.41408415      0.986423411      -7.41408415      0.12914474       80.2711516       
150.11           0.13962483       79.7827956       0.984866344      -8.02019869      0.984866344      -8.02019869      0.13962483       79.7827956       
161.58           0.150062695      79.2813058       0.983208691      -8.62475298      0.983208691      -8.62475298      0.150062695      79.2813058       
173.05           0.160455596      78.7694944       0.981451182      -9.22765157      0.981451182      -9.22765157      0.160455596      78.7694944       
184.52           0.170800861      78.249528        0.979594715      -9.82880033      0.979594715      -9.82880033      0.170800861      78.249528        
195.99           0.181095886      77.7231095       0.977640325      -10.4281066      0.977640325      -10.4281066      0.181095886      77.7231095       
207.46           0.191338134      77.1916016       0.975589171      -11.0254793      0.975589171      -11.0254793      0.191338134      77.1916016       
218.93           0.201525141      76.656112        0.973442523      -11.6208291      0.973442523      -11.6208291      0.201525141      76.656112        
230.4            0.211654514      76.117554        0.971201747      -12.2140687      0.971201747      -12.2140687      0.211654514      76.117554        
241.87           0.221723933      75.5766905       0.968868295      -12.8051125      0.968868295      -12.8051125      0.221723933      75.5766905       
253.34           0.231731156      75.034166        0.966443701      -13.3938771      0.966443701      -13.3938771      0.231731156      75.034166        
264.81           0.241674017      74.4905308       0.963929568      -13.9802812      0.963929568      -13.9802812      0.241674017      74.4905308       
276.28           0.251550429      73.9462596       0.961327565      -14.5642458      0.961327565      -14.5642458      0.251550429      73.9462596       
287.75           0.261358386      73.4017648       0.958639418      -15.1456941      0.958639418      -15.1456941      0.261358386      73.4017648       
299.22           0.271095963      72.8574084       0.955866908      -15.7245515      0.955866908      -15.7245515      0.271095963      72.8574084       
310.69           0.280761319      72.3135095       0.953011861      -16.300746       0.953011861      -16.300746       0.280761319      72.3135095       
322.16           0.290352693      71.7703518       0.950076146      -16.874208       0.950076146      -16.874208       0.290352693      71.7703518       
333.63           0.29986841       71.2281888       0.947061669      -17.44487        0.947061669      -17.44487        0.29986841       71.2281888       
345.1            0.309306879      70.6872482       0.943970369      -18.0126675      0.943970369      -18.0126675      0.309306879      70.6872482       
356.57           0.318666594      70.1477354       0.940804215      -18.5775383      0.940804215      -18.5775383      0.318666594      70.1477354       
368.04           0.327946131      69.6098364       0.937565198      -19.1394225      0.937565198      -19.1394225      0.327946131      69.6098364       
379.51           0.337144151      69.0737206       0.93425533       -19.698263       0.93425533       -19.698263       0.337144151      69.0737206       
390.98           0.3462594        68.5395421       0.930876641      -20.2540053      0.930876641      -20.2540053      0.3462594        68.5395421       
402.45           0.355290707      68.0074419       0.927431173      -20.8065972      0.927431173      -20.8065972      0.355290707      68.0074419       
413.92           0.364236982      67.4775495       0.923920976      -21.3559892      0.923920976      -21.3559892      0.364236982      67.4775495       
425.39           0.373097217      66.9499833       0.920348107      -21.9021342      0.920348107      -21.9021342      0.373097217      66.9499833       
436.86           0.381870486      66.4248524       0.916714627      -22.4449879      0.916714627      -22.4449879      0.381870486      66.4248524       
448.33           0.390555942      65.9022571       0.913022594      -22.9845081      0.913022594      -22.9845081      0.390555942      65.9022571       
459.8            0.399152816      65.3822898       0.909274065      -23.5206555      0.909274065      -23.5206555      0.399152816      65.3822898       
471.27           0.407660416      64.8650356       0.905471088      -24.053393       0.905471088      -24.053393       0.407660416      64.8650356       
482.74           0.416078126      64.3505728       0.901615706      -24.582686       0.901615706      -24.582686       0.416078126      64.3505728       
494.21           0.424405404      63.8389736       0.897709947      -25.1085022      0.897709947      -25.1085022      0.424405404      63.8389736       
505.68           0.432641781      63.3303043       0.893755828      -25.6308119      0.893755828      -25.6308119      0.432641781      63.3303043       
517.15           0.440786857      62.824626        0.889755347      -26.1495875      0.889755347      -26.1495875      0.440786857      62.824626        
528.62           0.448840301      62.3219946       0.885710486      -26.6648037      0.885710486      -26.6648037      0.448840301      62.3219946       
540.09           0.456801852      61.8224613       0.881623206      -27.1764377      0.881623206      -27.1764377      0.456801852      61.8224613       
551.56           0.46467131       61.326073        0.877495447      -27.6844687      0.877495447      -27.6844687      0.46467131       61.326073        
563.03           0.47244854       60.8328724       0.873329123      -28.1888779      0.873329123      -28.1888779      0.47244854       60.8328724       
574.5            0.48013347       60.3428982       0.869126124      -28.689649       0.869126124      -28.689649       0.48013347       60.3428982       
585.97           0.487726083      59.8561855       0.864888313      -29.1867675      0.864888313      -29.1867675      0.487726083      59.8561855       
597.44           0.495226423      59.3727659       0.860617524      -29.6802209      0.860617524      -29.6802209      0.495226423      59.3727659       
608.91           0.502634587      58.8926676       0.856315562      -30.1699988      0.856315562      -30.1699988      0.502634587      58.8926676       
620.38           0.509950724      58.4159156       0.851984201      -30.6560926      0.851984201      -30.6560926      0.509950724      58.4159156       
631.85           0.517175037      57.9425321       0.847625183      -31.1384956      0.847625183      -31.1384956      0.517175037      57.9425321       
643.32           0.524307775      57.4725363       0.843240218      -31.6172028      0.843240218      -31.6172028      0.524307775      57.4725363       
654.79           0.531349235      57.0059448       0.838830982      -32.0922111      0.838830982      -32.0922111      0.531349235      57.0059448       
666.26           0.538299757      56.5427716       0.834399117      -32.5635189      0.834399117      -32.5635189      0.538299757      56.5427716       
677.73           0.545159726      56.0830282       0.82994623       -33.0311265      0.82994623       -33.0311265      0.545159726      56.0830282       
689.2            0.551929567      55.6267239       0.825473892      -33.4950354      0.825473892      -33.4950354      0.551929567      55.6267239       
700.67           0.55860974       55.1738657       0.82098364       -33.9552491      0.82098364       -33.9552491      0.55860974       55.1738657       
712.14           0.565200747      54.7244585       0.816476973      -34.4117721      0.816476973      -34.4117721      0.565200747      54.7244585       
723.61           0.571703121      54.2785054       0.811955354      -34.8646105      0.811955354      -34.8646105      0.571703121      54.2785054       
735.08           0.578117429      53.8360072       0.807420211      -35.3137719      0.807420211      -35.3137719      0.578117429      53.8360072       
746.55           0.584444268      53.3969632       0.802872932      -35.759265       0.802872932      -35.759265       0.584444268      53.3969632       
758.02           0.590684264      52.961371        0.798314871      -36.2010999      0.798314871      -36.2010999      0.590684264      52.961371        
769.49           0.596838072      52.5292263       0.793747345      -36.6392876      0.793747345      -36.6392876      0.596838072      52.5292263       
780.96           0.60290637       52.1005236       0.789171633      -37.0738406      0.789171633      -37.0738406      0.60290637       52.1005236       
792.43           0.608889861      51.6752557       0.784588979      -37.5047724      0.784588979      -37.5047724      0.608889861      51.6752557       
803.9            0.61478927       51.253414        0.780000588      -37.9320974      0.780000588      -37.9320974      0.61478927       51.253414        
815.37           0.620605343      50.8349887       0.775407632      -38.3558311      0.775407632      -38.3558311      0.620605343      50.8349887       
826.84           0.626338843      50.4199686       0.770811246      -38.7759899      0.770811246      -38.7759899      0.626338843      50.4199686       
838.31           0.631990551      50.0083415       0.766212529      -39.1925912      0.766212529      -39.1925912      0.631990551      50.0083415       
849.78           0.637561267      49.6000938       0.761612545      -39.6056531      0.761612545      -39.6056531      0.637561267      49.6000938       
861.25           0.643051801      49.1952113       0.757012324      -40.0151946      0.757012324      -40.0151946      0.643051801      49.1952113       
872.72           0.648462979      48.7936782       0.75241286       -40.4212354      0.75241286       -40.4212354      0.648462979      48.7936782       
884.19           0.653795637      48.3954783       0.747815116      -40.823796       0.747815116      -40.823796       0.653795637      48.3954783       
895.66           0.659050623      48.0005942       0.743220019      -41.2228974      0.743220019      -41.2228974      0.659050623      48.0005942       
907.13           0.664228795      47.6090079       0.738628465      -41.6185615      0.738628465      -41.6185615      0.664228795      47.6090079       
918.6            0.669331016      47.2207002       0.734041316      -42.0108105      0.734041316      -42.0108105      0.669331016      47.2207002       
930.07           0.674358159      46.8356518       0.729459404      -42.3996674      0.729459404      -42.3996674      0.674358159      46.8356518       
941.54           0.679311102      46.4538421       0.72488353       -42.7851556      0.72488353       -42.7851556      0.679311102      46.4538421       
953.01           0.684190729      46.0752502       0.720314462      -43.1672989      0.720314462      -43.1672989      0.684190729      46.0752502       
964.48           0.688997925      45.6998546       0.715752941      -43.5461217      0.715752941      -43.5461217      0.688997925      45.6998546       
975.95           0.693733581      45.3276331       0.711199678      -43.9216487      0.711199678      -43.9216487      0.693733581      45.3276331       
987.42           0.698398589      44.9585632       0.706655354      -44.2939051      0.706655354      -44.2939051      0.698398589      44.9585632       
998.89           0.702993842      44.5926218       0.702120624      -44.6629162      0.702120624      -44.6629162      0.702993842      44.5926218       
1010.36          0.707520236      44.2297852       0.697596113      -45.0287078      0.697596113      -45.0287078      0.707520236      44.2297852       
1021.83          0.711978662      43.8700296       0.693082423      -45.3913061      0.693082423      -45.3913061      0.711978662      43.8700296       
1033.3           0.716370015      43.5133307       0.688580126      -45.7507373      0.688580126      -45.7507373      0.716370015      43.5133307       
1044.77          0.720695185      43.1596639       0.684089772      -46.1070279      0.684089772      -46.1070279      0.720695185      43.1596639       
1056.24          0.724955061      42.8090042       0.679611884      -46.4602047      0.679611884      -46.4602047      0.724955061      42.8090042       
1067.71          0.729150529      42.4613265       0.675146961      -46.8102945      0.675146961      -46.8102945      0.729150529      42.4613265       
1079.18          0.733282472      42.1166053       0.67069548       -47.1573246      0.67069548       -47.1573246      0.733282472      42.1166053       
1090.65          0.737351768      41.7748149       0.666257894      -47.5013219      0.666257894      -47.5013219      0.737351768      41.7748149       
1102.12          0.741359291      41.4359296       0.661834633      -47.8423139      0.661834633      -47.8423139      0.741359291      41.4359296       
1113.59          0.745305911      41.0999233       0.657426109      -48.1803278      0.657426109      -48.1803278      0.745305911      41.0999233       
1125.06          0.74919249       40.7667699       0.653032708      -48.5153912      0.653032708      -48.5153912      0.74919249       40.7667699       
1136.53          0.753019887      40.4364431       0.6486548        -48.8475315      0.6486548        -48.8475315      0.753019887      40.4364431       
1148             0.756788954      40.1089166       0.644292732      -49.1767763      0.644292732      -49.1767763      0.756788954      40.1089166       
1159.47          0.760500535      39.784164        0.639946834      -49.5031529      0.639946834      -49.5031529      0.760500535      39.784164        
1170.94          0.764155468      39.4621587       0.635617418      -49.826689       0.635617418      -49.826689       0.764155468      39.4621587       
1182.41          0.767754586      39.1428743       0.631304776      -50.1474121      0.631304776      -50.1474121      0.767754586      39.1428743       
1193.88          0.77129871       38.8262842       0.627009183      -50.4653495      0.627009183      -50.4653495      0.77129871       38.8262842       
1205.35          0.774788658      38.5123619       0.622730898      -50.7805286      0.622730898      -50.7805286      0.774788658      38.5123619       
1216.82          0.778225237      38.2010809       0.618470164      -51.0929767      0.618470164      -51.0929767      0.778225237      38.2010809       
1228.29          0.781609247      37.8924146       0.614227207      -51.4027212      0.614227207      -51.4027212      0.781609247      37.8924146       
1239.76          0.784941479      37.5863367       0.610002239      -51.709789       0.610002239      -51.709789       0.784941479      37.5863367       
1251.23          0.788222717      37.2828207       0.605795457      -52.0142072      0.605795457      -52.0142072      0.788222717      37.2828207       
1262.7           0.791453734      36.9818403       0.601607044      -52.3160028      0.601607044      -52.3160028      0.791453734      36.9818403       
1274.17          0.794635296      36.6833694       0.597437168      -52.6152025      0.597437168      -52.6152025      0.794635296      36.6833694       
1285.64          0.79776816       36.3873817       0.593285986      -52.9118329      0.593285986      -52.9118329      0.79776816       36.3873817       
1297.11          0.800853072      36.0938512       0.58915364       -53.2059205      0.58915364       -53.2059205      0.800853072      36.0938512       
1308.58          0.803890773      35.8027519       0.585040261      -53.4974917      0.585040261      -53.4974917      0.803890773      35.8027519       
1320.05          0.80688199       35.5140582       0.580945969      -53.7865726      0.580945969      -53.7865726      0.80688199       35.5140582       
1331.52          0.809827443      35.2277443       0.576870871      -54.0731892      0.576870871      -54.0731892      0.809827443      35.2277443       
1342.99          0.812727844      34.9437846       0.572815064      -54.3573673      0.572815064      -54.3573673      0.812727844      34.9437846       
1354.46          0.815583894      34.6621539       0.568778634      -54.6391325      0.568778634      -54.6391325      0.815583894      34.6621539       
1365.93          0.818396284      34.3828269       0.564761657      -54.9185103      0.564761657      -54.9185103      0.818396284      34.3828269       
1377.4           0.821165697      34.1057785       0.5607642        -55.1955259      0.5607642        -55.1955259      0.821165697      34.1057785       
1388.87          0.823892806      33.8309839       0.556786319      -55.4702043      0.556786319      -55.4702043      0.823892806      33.8309839       
1400.34          0.826578276      33.5584183       0.552828063      -55.7425703      0.552828063      -55.7425703      0.826578276      33.5584183       
1411.81          0.82922276       33.2880572       0.548889471      -56.0126486      0.548889471      -56.0126486      0.82922276       33.2880572       
1423.28          0.831826904      33.0198763       0.544970575      -56.2804634      0.544970575      -56.2804634      0.831826904      33.0198763       
1434.75          0.834391343      32.7538514       0.541071397      -56.546039       0.541071397      -56.546039       0.834391343      32.7538514       
1446.22          0.836916703      32.4899585       0.537191953      -56.8093993      0.537191953      -56.8093993      0.836916703      32.4899585       
1457.69          0.839403603      32.2281738       0.533332253      -57.070568       0.533332253      -57.070568       0.839403603      32.2281738       
