! Coilcraft 0805HS-820 Chip Inductor				
! 13 June 2002			
# MHZ S MA R 50
!Freq             MagS11           AngS11           MagS21           AngS21           MagS12           AngS12           MagS22           AngS22
1                0.00749824702    42.4216931       0.994477658      -0.291423065     0.994477658      -0.291423065     0.00749824702    42.4216931       
6.23             0.0324833554     74.8674405       0.99201583       -1.81138415      0.99201583       -1.81138415      0.0324833554     74.8674405       
11.46            0.0586497889     78.1968444       0.989669729      -3.32553507      0.989669729      -3.32553507      0.0586497889     78.1968444       
16.69            0.0847885661     78.7010915       0.986896288      -4.8328526       0.986896288      -4.8328526       0.0847885661     78.7010915       
21.92            0.110766138      78.3307801       0.983596335      -6.33179515      0.983596335      -6.33179515      0.110766138      78.3307801       
27.15            0.136514294      77.5750172       0.979740273      -7.82071415      0.979740273      -7.82071415      0.136514294      77.5750172       
32.38            0.161980046      76.6174784       0.975323845      -9.29795613      0.975323845      -9.29795613      0.161980046      76.6174784       
37.61            0.187117021      75.5439408       0.970355578      -10.7619086      0.970355578      -10.7619086      0.187117021      75.5439408       
42.84            0.211883326      74.4005115       0.964851769      -12.2110269      0.964851769      -12.2110269      0.211883326      74.4005115       
48.07            0.236240969      73.214577        0.958833965      -13.6438516      0.958833965      -13.6438516      0.236240969      73.214577        
53.3             0.260155715      72.0036717       0.952327482      -15.0590213      0.952327482      -15.0590213      0.260155715      72.0036717       
58.53            0.283597081      70.7796946       0.945360377      -16.4552812      0.945360377      -16.4552812      0.283597081      70.7796946       
63.76            0.306538343      69.5510986       0.937962686      -17.8314894      0.937962686      -17.8314894      0.306538343      69.5510986       
68.99            0.328956513      68.3241084       0.930165799      -19.1866199      0.930165799      -19.1866199      0.328956513      68.3241084       
74.22            0.350832294      67.1034372       0.92200194       -20.5197648      0.92200194       -20.5197648      0.350832294      67.1034372       
79.45            0.37214998       65.892729        0.913503719      -21.8301336      0.913503719      -21.8301336      0.37214998       65.892729        
84.68            0.392897328      64.6948436       0.904703737      -23.1170522      0.904703737      -23.1170522      0.392897328      64.6948436       
89.91            0.413065397      63.5120461       0.895634254      -24.379959       0.895634254      -24.379959       0.413065397      63.5120461       
95.14            0.432648353      62.3461383       0.8863269        -25.6184016      0.8863269        -25.6184016      0.432648353      62.3461383       
100.37           0.451643258      61.1985526       0.876812431      -26.8320318      0.876812431      -26.8320318      0.451643258      61.1985526       
105.6            0.47004985       60.0704201       0.867120527      -28.0205994      0.867120527      -28.0205994      0.47004985       60.0704201       
110.83           0.487870299      58.962623        0.857279632      -29.1839467      0.857279632      -29.1839467      0.487870299      58.962623        
116.06           0.505108976      57.8758347       0.847316827      -30.3220019      0.847316827      -30.3220019      0.505108976      57.8758347       
121.29           0.521772208      56.8105519       0.837257736      -31.4347722      0.837257736      -31.4347722      0.521772208      56.8105519       
126.52           0.537868052      55.7671206       0.827126465      -32.5223372      0.827126465      -32.5223372      0.537868052      55.7671206       
131.75           0.553406062      54.7457578       0.816945564      -33.584842       0.816945564      -33.584842       0.553406062      54.7457578       
136.98           0.568397079      53.7465694       0.806736013      -34.622491       0.806736013      -34.622491       0.568397079      53.7465694       
142.21           0.582853026      52.769566        0.79651723       -35.6355409      0.79651723       -35.6355409      0.582853026      52.769566        
147.44           0.59678672       51.8146763       0.786307091      -36.624295       0.786307091      -36.624295       0.59678672       51.8146763       
152.67           0.610211696      50.8817587       0.776121971      -37.5890972      0.776121971      -37.5890972      0.610211696      50.8817587       
157.9            0.623142047      49.9706112       0.765976789      -38.5303262      0.765976789      -38.5303262      0.623142047      49.9706112       
163.13           0.63559228       49.0809809       0.755885068      -39.4483911      0.755885068      -39.4483911      0.63559228       49.0809809       
168.36           0.647577188      48.2125718       0.745858995      -40.3437254      0.745858995      -40.3437254      0.647577188      48.2125718       
173.59           0.65911173       47.3650516       0.735909493      -41.2167839      0.735909493      -41.2167839      0.65911173       47.3650516       
178.82           0.67021093       46.538058        0.726046291      -42.0680376      0.726046291      -42.0680376      0.67021093       46.538058        
184.05           0.680889791      45.7312043       0.716277995      -42.8979705      0.716277995      -42.8979705      0.680889791      45.7312043       
189.28           0.691163213      44.9440841       0.706612165      -43.7070764      0.706612165      -43.7070764      0.691163213      44.9440841       
194.51           0.701045929      44.1762759       0.697055387      -44.4958553      0.697055387      -44.4958553      0.701045929      44.1762759       
199.74           0.710552449      43.4273464       0.687613342      -45.2648115      0.687613342      -45.2648115      0.710552449      43.4273464       
204.97           0.719697012      42.696854        0.678290879      -46.0144504      0.678290879      -46.0144504      0.719697012      42.696854        
210.2            0.728493547      41.9843521       0.66909208       -46.7452772      0.66909208       -46.7452772      0.728493547      41.9843521       
215.43           0.736955646      41.2893908       0.660020324      -47.4577945      0.660020324      -47.4577945      0.736955646      41.2893908       
220.66           0.745096532      40.61152         0.651078347      -48.1525006      0.651078347      -48.1525006      0.745096532      40.61152         
225.89           0.752929048      39.9502905       0.642268303      -48.8298889      0.642268303      -48.8298889      0.752929048      39.9502905       
231.12           0.760465638      39.3052563       0.633591816      -49.4904458      0.633591816      -49.4904458      0.760465638      39.3052563       
236.35           0.767718339      38.6759754       0.625050028      -50.1346502      0.625050028      -50.1346502      0.767718339      38.6759754       
241.58           0.774698779      38.0620117       0.616643652      -50.7629724      0.616643652      -50.7629724      0.774698779      38.0620117       
246.81           0.781418172      37.462935        0.608373013      -51.3758739      0.608373013      -51.3758739      0.781418172      37.462935        
252.04           0.78788732       36.8783229       0.600238086      -51.9738061      0.600238086      -51.9738061      0.78788732       36.8783229       
257.27           0.794116614      36.3077607       0.592238541      -52.5572104      0.592238541      -52.5572104      0.794116614      36.3077607       
262.5            0.800116044      35.7508424       0.584373769      -53.1265177      0.584373769      -53.1265177      0.800116044      35.7508424       
267.73           0.805895202      35.2071706       0.576642921      -53.6821481      0.576642921      -53.6821481      0.805895202      35.2071706       
272.96           0.811463293      34.6763578       0.569044932      -54.2245108      0.569044932      -54.2245108      0.811463293      34.6763578       
278.19           0.816829142      34.1580254       0.561578552      -54.7540039      0.561578552      -54.7540039      0.816829142      34.1580254       
283.42           0.822001207      33.6518048       0.554242368      -55.2710146      0.554242368      -55.2710146      0.822001207      33.6518048       
288.65           0.826987587      33.1573374       0.547034823      -55.7759187      0.547034823      -55.7759187      0.826987587      33.1573374       
293.88           0.831796036      32.6742741       0.539954244      -56.2690815      0.539954244      -56.2690815      0.831796036      32.6742741       
299.11           0.836433971      32.2022758       0.532998852      -56.750857       0.532998852      -56.750857       0.836433971      32.2022758       
304.34           0.840908488      31.7410132       0.526166783      -57.2215886      0.526166783      -57.2215886      0.840908488      31.7410132       
309.57           0.845226374      31.2901666       0.519456102      -57.6816091      0.519456102      -57.6816091      0.845226374      31.2901666       
314.8            0.849394113      30.8494261       0.512864815      -58.1312409      0.512864815      -58.1312409      0.849394113      30.8494261       
320.03           0.853417905      30.4184911       0.506390884      -58.5707961      0.506390884      -58.5707961      0.853417905      30.4184911       
325.26           0.857303673      29.9970702       0.500032232      -59.0005769      0.500032232      -59.0005769      0.857303673      29.9970702       
330.49           0.861057077      29.5848815       0.49378676       -59.4208757      0.49378676       -59.4208757      0.861057077      29.5848815       
335.72           0.864683522      29.1816515       0.48765235       -59.8319755      0.48765235       -59.8319755      0.864683522      29.1816515       
340.95           0.868188173      28.7871159       0.481626874      -60.2341497      0.481626874      -60.2341497      0.868188173      28.7871159       
346.18           0.871575964      28.4010185       0.475708202      -60.6276631      0.475708202      -60.6276631      0.871575964      28.4010185       
351.41           0.874851604      28.0231116       0.469894205      -61.0127714      0.469894205      -61.0127714      0.874851604      28.0231116       
356.64           0.878019596      27.6531556       0.464182766      -61.389722       0.464182766      -61.389722       0.878019596      27.6531556       
361.87           0.881084238      27.2909185       0.458571778      -61.758754       0.458571778      -61.758754       0.881084238      27.2909185       
367.1            0.884049635      26.9361762       0.453059151      -62.1200983      0.453059151      -62.1200983      0.884049635      26.9361762       
372.33           0.88691971       26.5887118       0.447642815      -62.4739785      0.447642815      -62.4739785      0.88691971       26.5887118       
377.56           0.889698211      26.2483157       0.442320726      -62.8206102      0.442320726      -62.8206102      0.889698211      26.2483157       
382.79           0.892388718      25.9147849       0.437090862      -63.1602022      0.437090862      -63.1602022      0.892388718      25.9147849       
388.02           0.894994652      25.5879235       0.431951233      -63.4929558      0.431951233      -63.4929558      0.894994652      25.5879235       
393.25           0.897519282      25.2675419       0.426899876      -63.819066       0.426899876      -63.819066       0.897519282      25.2675419       
398.48           0.899965733      24.9534568       0.421934862      -64.138721       0.421934862      -64.138721       0.899965733      24.9534568       
403.71           0.902336992      24.645491        0.417054292      -64.4521028      0.417054292      -64.4521028      0.902336992      24.645491        
408.94           0.904635915      24.3434732       0.412256304      -64.7593871      0.412256304      -64.7593871      0.904635915      24.3434732       
414.17           0.906865232      24.0472376       0.407539068      -65.0607439      0.407539068      -65.0607439      0.906865232      24.0472376       
419.4            0.909027554      23.756624        0.402900791      -65.3563375      0.402900791      -65.3563375      0.909027554      23.756624        
424.63           0.91112538       23.4714776       0.398339715      -65.6463267      0.398339715      -65.6463267      0.91112538       23.4714776       
429.86           0.913161099      23.1916484       0.393854118      -65.9308649      0.393854118      -65.9308649      0.913161099      23.1916484       
435.09           0.915136998      22.9169916       0.389442315      -66.2101007      0.389442315      -66.2101007      0.915136998      22.9169916       
440.32           0.917055266      22.6473669       0.385102655      -66.4841775      0.385102655      -66.4841775      0.917055266      22.6473669       
445.55           0.918917998      22.3826389       0.380833526      -66.753234       0.380833526      -66.753234       0.918917998      22.3826389       
450.78           0.920727199      22.1226763       0.37663335       -67.0174046      0.37663335       -67.0174046      0.920727199      22.1226763       
456.01           0.92248479       21.8673522       0.372500585      -67.2768189      0.372500585      -67.2768189      0.92248479       21.8673522       
461.24           0.924192612      21.6165438       0.368433724      -67.5316026      0.368433724      -67.5316026      0.924192612      21.6165438       
466.47           0.925852427      21.3701323       0.364431298      -67.7818771      0.364431298      -67.7818771      0.925852427      21.3701323       
471.7            0.927465924      21.1280026       0.360491867      -68.02776        0.360491867      -68.02776        0.927465924      21.1280026       
476.93           0.929034724      20.8900434       0.35661403       -68.2693651      0.35661403       -68.2693651      0.929034724      20.8900434       
482.16           0.930560377      20.6561469       0.352796417      -68.5068023      0.352796417      -68.5068023      0.930560377      20.6561469       
487.39           0.932044372      20.4262087       0.349037692      -68.7401782      0.349037692      -68.7401782      0.932044372      20.4262087       
492.62           0.933488138      20.2001279       0.345336552      -68.969596       0.345336552      -68.969596       0.933488138      20.2001279       
497.85           0.934893042      19.9778064       0.341691722      -69.1951557      0.341691722      -69.1951557      0.934893042      19.9778064       
503.08           0.936260401      19.7591495       0.338101964      -69.4169538      0.338101964      -69.4169538      0.936260401      19.7591495       
508.31           0.937591474      19.5440654       0.334566067      -69.635084       0.334566067      -69.635084       0.937591474      19.5440654       
513.54           0.938887473      19.332465        0.33108285       -69.8496372      0.33108285       -69.8496372      0.938887473      19.332465        
518.77           0.940149561      19.1242621       0.327651162      -70.0607011      0.327651162      -70.0607011      0.940149561      19.1242621       
524              0.941378853      18.9193732       0.324269881      -70.268361       0.324269881      -70.268361       0.941378853      18.9193732       
529.23           0.942576423      18.7177172       0.320937912      -70.4726993      0.320937912      -70.4726993      0.942576423      18.7177172       
534.46           0.943743301      18.5192155       0.317654189      -70.6737962      0.317654189      -70.6737962      0.943743301      18.5192155       
539.69           0.944880478      18.3237921       0.314417671      -70.871729       0.314417671      -70.871729       0.944880478      18.3237921       
544.92           0.945988906      18.1313731       0.311227344      -71.0665731      0.311227344      -71.0665731      0.945988906      18.1313731       
550.15           0.947069502      17.9418867       0.308082219      -71.2584012      0.308082219      -71.2584012      0.947069502      17.9418867       
555.38           0.948123144      17.7552636       0.304981332      -71.4472841      0.304981332      -71.4472841      0.948123144      17.7552636       
560.61           0.949150681      17.5714364       0.301923743      -71.6332904      0.301923743      -71.6332904      0.949150681      17.5714364       
565.84           0.950152928      17.3903394       0.298908536      -71.8164865      0.298908536      -71.8164865      0.950152928      17.3903394       
571.07           0.951130668      17.2119094       0.295934819      -71.996937       0.295934819      -71.996937       0.951130668      17.2119094       
576.3            0.952084658      17.0360847       0.293001719      -72.1747045      0.293001719      -72.1747045      0.952084658      17.0360847       
581.53           0.953015623      16.8628053       0.290108389      -72.3498498      0.290108389      -72.3498498      0.953015623      16.8628053       
586.76           0.953924265      16.6920133       0.287254         -72.522432       0.287254         -72.522432       0.953924265      16.6920133       
591.99           0.954811257      16.5236521       0.284437745      -72.6925082      0.284437745      -72.6925082      0.954811257      16.5236521       
597.22           0.955677249      16.357667        0.281658838      -72.8601341      0.281658838      -72.8601341      0.955677249      16.357667        
602.45           0.956522867      16.1940048       0.278916511      -73.0253636      0.278916511      -73.0253636      0.956522867      16.1940048       
607.68           0.957348715      16.0326137       0.276210015      -73.1882493      0.276210015      -73.1882493      0.957348715      16.0326137       
612.91           0.958155375      15.8734435       0.273538622      -73.3488421      0.273538622      -73.3488421      0.958155375      15.8734435       
618.14           0.958943408      15.7164453       0.270901619      -73.5071915      0.270901619      -73.5071915      0.958943408      15.7164453       
623.37           0.959713354      15.5615716       0.268298314      -73.6633455      0.268298314      -73.6633455      0.959713354      15.5615716       
628.6            0.960465736      15.4087763       0.265728027      -73.817351       0.265728027      -73.817351       0.960465736      15.4087763       
633.83           0.961201058      15.2580144       0.2631901        -73.9692533      0.2631901        -73.9692533      0.961201058      15.2580144       
639.06           0.961919805      15.1092424       0.260683889      -74.1190966      0.260683889      -74.1190966      0.961919805      15.1092424       
644.29           0.962622447      14.9624179       0.258208764      -74.2669238      0.258208764      -74.2669238      0.962622447      14.9624179       
649.52           0.963309437      14.8174993       0.255764114      -74.4127767      0.255764114      -74.4127767      0.963309437      14.8174993       
654.75           0.963981213      14.6744468       0.25334934       -74.5566958      0.25334934       -74.5566958      0.963981213      14.6744468       
659.98           0.964638196      14.533221        0.250963858      -74.6987206      0.250963858      -74.6987206      0.964638196      14.533221        
665.21           0.965280796      14.393784        0.248607099      -74.8388895      0.248607099      -74.8388895      0.965280796      14.393784        
