! Coilcraft 0805HS-120 Chip Inductor				
! 13 June 2002			
# MHZ S MA R 50
!Freq             MagS11           AngS11           MagS21           AngS21           MagS12           AngS12           MagS22           AngS22
1                0.00189669827    23.3371165       0.998258753      -0.0431247832    0.998258753      -0.0431247832    0.00189669827    23.3371165       
18.45            0.0141052277     78.8252744       0.997362384      -0.794969977     0.997362384      -0.794969977     0.0141052277     78.8252744       
35.9             0.0271401154     82.2091702       0.996683762      -1.54597437      0.996683762      -1.54597437      0.0271401154     82.2091702       
53.35            0.040197167      83.039074        0.995928023      -2.29611349      0.995928023      -2.29611349      0.040197167      83.039074        
70.8             0.0532420286     83.1467113       0.99505188       -3.04524193      0.99505188       -3.04524193      0.0532420286     83.1467113       
88.25            0.0662625668     82.9448182       0.994038883      -3.79318439      0.994038883      -3.79318439      0.0662625668     82.9448182       
105.7            0.079250839      82.5805774       0.992881209      -4.53975335      0.992881209      -4.53975335      0.079250839      82.5805774       
123.15           0.0922002033     82.1202978       0.991574886      -5.28475569      0.991574886      -5.28475569      0.0922002033     82.1202978       
140.6            0.105104565      81.598539        0.990118013      -6.02799606      0.990118013      -6.02799606      0.105104565      81.598539        
158.05           0.117958127      81.035224        0.988509961      -6.76927885      0.988509961      -6.76927885      0.117958127      81.035224        
175.5            0.1307553        80.442728        0.986750959      -7.50840946      0.986750959      -7.50840946      0.1307553        80.442728        
192.95           0.14349066       79.829196        0.98484186       -8.24519527      0.98484186       -8.24519527      0.14349066       79.829196        
210.4            0.156158946      79.200244        0.982783998      -8.97944633      0.982783998      -8.97944633      0.156158946      79.200244        
227.85           0.168755048      78.5598963       0.980579093      -9.71097599      0.980579093      -9.71097599      0.168755048      78.5598963       
245.3            0.181274016      77.9111316       0.978229188      -10.4396013      0.978229188      -10.4396013      0.181274016      77.9111316       
262.75           0.193711066      77.2562168       0.975736597      -11.1651437      0.975736597      -11.1651437      0.193711066      77.2562168       
280.2            0.206061581      76.5969199       0.973103872      -11.8874288      0.973103872      -11.8874288      0.206061581      76.5969199       
297.65           0.21832112       75.9346488       0.97033377       -12.6062875      0.97033377       -12.6062875      0.21832112       75.9346488       
315.1            0.230485424      75.2705463       0.967429232      -13.3215554      0.967429232      -13.3215554      0.230485424      75.2705463       
332.55           0.242550419      74.6055549       0.964393361      -14.0330738      0.964393361      -14.0330738      0.242550419      74.6055549       
350              0.254512222      73.940464        0.961229399      -14.7406894      0.961229399      -14.7406894      0.254512222      73.940464        
367.45           0.266367145      73.2759427       0.957940717      -15.4442549      0.957940717      -15.4442549      0.266367145      73.2759427       
384.9            0.278111697      72.612565        0.954530792      -16.1436285      0.954530792      -16.1436285      0.278111697      72.612565        
402.35           0.289742584      71.950828        0.951003199      -16.8386747      0.951003199      -16.8386747      0.289742584      71.950828        
419.8            0.301256717      71.2911663       0.947361593      -17.5292642      0.947361593      -17.5292642      0.301256717      71.2911663       
437.25           0.312651205      70.633962        0.943609696      -18.2152737      0.943609696      -18.2152737      0.312651205      70.633962        
454.7            0.323923361      69.9795537       0.939751288      -18.8965862      0.939751288      -18.8965862      0.323923361      69.9795537       
472.15           0.335070698      69.328243        0.935790193      -19.5730912      0.935790193      -19.5730912      0.335070698      69.328243        
489.6            0.346090928      68.6802994       0.931730268      -20.2446842      0.931730268      -20.2446842      0.346090928      68.6802994       
507.05           0.356981964      68.0359649       0.927575391      -20.9112672      0.927575391      -20.9112672      0.356981964      68.0359649       
524.5            0.36774191       67.3954572       0.923329456      -21.5727485      0.923329456      -21.5727485      0.36774191       67.3954572       
541.95           0.378369067      66.7589725       0.918996358      -22.2290425      0.918996358      -22.2290425      0.378369067      66.7589725       
559.4            0.388861921      66.1266878       0.914579986      -22.8800697      0.914579986      -22.8800697      0.388861921      66.1266878       
576.85           0.399219147      65.4987633       0.910084216      -23.5257571      0.910084216      -23.5257571      0.399219147      65.4987633       
594.3            0.409439596      64.8753431       0.9055129        -24.1660372      0.9055129        -24.1660372      0.409439596      64.8753431       
611.75           0.419522299      64.2565574       0.900869861      -24.8008487      0.900869861      -24.8008487      0.419522299      64.2565574       
629.2            0.429466456      63.6425236       0.896158887      -25.4301362      0.896158887      -25.4301362      0.429466456      63.6425236       
646.65           0.439271434      63.0333469       0.89138372       -26.0538497      0.89138372       -26.0538497      0.439271434      63.0333469       
664.1            0.448936757      62.4291216       0.886548055      -26.6719451      0.886548055      -26.6719451      0.448936757      62.4291216       
681.55           0.458462108      61.8299317       0.881655531      -27.2843833      0.881655531      -27.2843833      0.458462108      61.8299317       
699              0.467847315      61.2358519       0.876709727      -27.8911309      0.876709727      -27.8911309      0.467847315      61.2358519       
716.45           0.477092349      60.6469478       0.87171416       -28.4921595      0.87171416       -28.4921595      0.477092349      60.6469478       
733.9            0.486197319      60.0632768       0.866672277      -29.0874454      0.866672277      -29.0874454      0.486197319      60.0632768       
751.35           0.49516246       59.4848886       0.861587453      -29.67697        0.861587453      -29.67697        0.49516246       59.4848886       
768.8            0.503988136      58.9118256       0.856462989      -30.2607192      0.856462989      -30.2607192      0.503988136      58.9118256       
786.25           0.512674824      58.3441233       0.851302107      -30.8386836      0.851302107      -30.8386836      0.512674824      58.3441233       
803.7            0.521223115      57.7818108       0.84610795       -31.4108577      0.84610795       -31.4108577      0.521223115      57.7818108       
821.15           0.529633704      57.2249113       0.840883575      -31.9772406      0.840883575      -31.9772406      0.529633704      57.2249113       
838.6            0.537907385      56.6734421       0.83563196       -32.5378349      0.83563196       -32.5378349      0.537907385      56.6734421       
856.05           0.546045045      56.1274153       0.830355995      -33.0926474      0.830355995      -33.0926474      0.546045045      56.1274153       
873.5            0.554047657      55.5868379       0.825058482      -33.6416882      0.825058482      -33.6416882      0.554047657      55.5868379       
890.95           0.561916278      55.0517123       0.819742138      -34.1849711      0.819742138      -34.1849711      0.561916278      55.0517123       
908.4            0.569652037      54.5220364       0.814409592      -34.7225131      0.814409592      -34.7225131      0.569652037      54.5220364       
925.85           0.577256136      53.9978039       0.809063384      -35.2543341      0.809063384      -35.2543341      0.577256136      53.9978039       
943.3            0.584729838      53.4790045       0.803705969      -35.7804572      0.803705969      -35.7804572      0.584729838      53.4790045       
960.75           0.592074468      52.9656244       0.798339711      -36.3009083      0.798339711      -36.3009083      0.592074468      52.9656244       
978.2            0.599291405      52.4576463       0.792966889      -36.8157159      0.792966889      -36.8157159      0.599291405      52.4576463       
995.65           0.606382077      51.9550496       0.787589696      -37.3249107      0.787589696      -37.3249107      0.606382077      51.9550496       
1013.1           0.613347956      51.4578108       0.78221024       -37.8285262      0.78221024       -37.8285262      0.613347956      51.4578108       
1030.55          0.620190554      50.9659036       0.776830542      -38.3265977      0.776830542      -38.3265977      0.620190554      50.9659036       
1048             0.626911421      50.4792989       0.771452544      -38.8191628      0.771452544      -38.8191628      0.626911421      50.4792989       
1065.45          0.633512136      49.9979655       0.766078102      -39.3062607      0.766078102      -39.3062607      0.633512136      49.9979655       
1082.9           0.639994308      49.5218696       0.760708995      -39.7879326      0.760708995      -39.7879326      0.639994308      49.5218696       
1100.35          0.646359568      49.0509755       0.755346921      -40.2642214      0.755346921      -40.2642214      0.646359568      49.0509755       
1117.8           0.652609569      48.5852455       0.749993502      -40.7351712      0.749993502      -40.7351712      0.652609569      48.5852455       
1135.25          0.658745981      48.1246402       0.744650284      -41.2008278      0.744650284      -41.2008278      0.658745981      48.1246402       
1152.7           0.664770486      47.6691186       0.739318739      -41.661238       0.739318739      -41.661238       0.664770486      47.6691186       
1170.15          0.67068478       47.2186379       0.734000268      -42.1164501      0.734000268      -42.1164501      0.67068478       47.2186379       
1187.6           0.676490563      46.7731544       0.7286962        -42.566513       0.7286962        -42.566513       0.676490563      46.7731544       
1205.05          0.682189543      46.3326227       0.723407798      -43.0114769      0.723407798      -43.0114769      0.682189543      46.3326227       
1222.5           0.687783431      45.8969965       0.718136258      -43.4513928      0.718136258      -43.4513928      0.687783431      45.8969965       
1239.95          0.693273936      45.4662286       0.71288271       -43.8863123      0.71288271       -43.8863123      0.693273936      45.4662286       
1257.4           0.698662767      45.0402707       0.707648224      -44.3162878      0.707648224      -44.3162878      0.698662767      45.0402707       
1274.85          0.70395163       44.6190737       0.702433808      -44.7413722      0.702433808      -44.7413722      0.70395163       44.6190737       
1292.3           0.709142221      44.202588        0.697240412      -45.161619       0.697240412      -45.161619       0.709142221      44.202588        
1309.75          0.714236234      43.7907631       0.69206893       -45.5770821      0.69206893       -45.5770821      0.714236234      43.7907631       
1327.2           0.719235349      43.3835481       0.6869202        -45.9878155      0.6869202        -45.9878155      0.719235349      43.3835481       
1344.65          0.724141238      42.9808918       0.681795008      -46.3938739      0.681795008      -46.3938739      0.724141238      42.9808918       
1362.1           0.72895556       42.5827422       0.67669409       -46.7953119      0.67669409       -46.7953119      0.72895556       42.5827422       
1379.55          0.73367996       42.1890475       0.671618132      -47.1921843      0.671618132      -47.1921843      0.73367996       42.1890475       
1397             0.738316068      41.7997554       0.666567773      -47.5845461      0.666567773      -47.5845461      0.738316068      41.7997554       
1414.45          0.742865501      41.4148133       0.661543607      -47.9724522      0.661543607      -47.9724522      0.742865501      41.4148133       
1431.9           0.747329856      41.0341688       0.656546183      -48.3559576      0.656546183      -48.3559576      0.747329856      41.0341688       
1449.35          0.751710713      40.6577693       0.651576011      -48.7351171      0.651576011      -48.7351171      0.751710713      40.6577693       
1466.8           0.756009637      40.285562        0.646633557      -49.1099856      0.646633557      -49.1099856      0.756009637      40.285562        
1484.25          0.760228168      39.9174945       0.641719253      -49.4806175      0.641719253      -49.4806175      0.760228168      39.9174945       
1501.7           0.764367832      39.5535143       0.63683349       -49.8470675      0.63683349       -49.8470675      0.764367832      39.5535143       
1519.15          0.768430132      39.1935689       0.631976627      -50.2093895      0.631976627      -50.2093895      0.768430132      39.1935689       
1536.6           0.77241655       38.8376063       0.627148986      -50.5676376      0.627148986      -50.5676376      0.77241655       38.8376063       
1554.05          0.776328548      38.4855745       0.62235086       -50.9218653      0.62235086       -50.9218653      0.776328548      38.4855745       
1571.5           0.780167565      38.1374217       0.617582509      -51.272126       0.617582509      -51.272126       0.780167565      38.1374217       
1588.95          0.78393502       37.7930965       0.612844164      -51.6184724      0.612844164      -51.6184724      0.78393502       37.7930965       
1606.4           0.787632309      37.4525478       0.608136027      -51.9609573      0.608136027      -51.9609573      0.787632309      37.4525478       
1623.85          0.791260805      37.1157247       0.603458276      -52.2996327      0.603458276      -52.2996327      0.791260805      37.1157247       
1641.3           0.794821861      36.7825769       0.598811061      -52.6345502      0.598811061      -52.6345502      0.794821861      36.7825769       
1658.75          0.798316805      36.4530542       0.594194509      -52.9657612      0.594194509      -52.9657612      0.798316805      36.4530542       
1676.2           0.801746945      36.127107        0.589608722      -53.2933165      0.589608722      -53.2933165      0.801746945      36.127107        
1693.65          0.805113563      35.8046861       0.585053783      -53.6172662      0.585053783      -53.6172662      0.805113563      35.8046861       
1711.1           0.808417921      35.4857427       0.580529752      -53.9376603      0.580529752      -53.9376603      0.808417921      35.4857427       
1728.55          0.811661259      35.1702285       0.57603667       -54.2545479      0.57603667       -54.2545479      0.811661259      35.1702285       
1746             0.814844793      34.8580955       0.57157456       -54.5679779      0.57157456       -54.5679779      0.814844793      34.8580955       
1763.45          0.817969717      34.5492964       0.567143424      -54.8779984      0.567143424      -54.8779984      0.817969717      34.5492964       
1780.9           0.821037203      34.2437843       0.562743252      -55.1846571      0.562743252      -55.1846571      0.821037203      34.2437843       
1798.35          0.824048402      33.9415129       0.558374015      -55.4880012      0.558374015      -55.4880012      0.824048402      33.9415129       
1815.8           0.827004441      33.6424362       0.554035669      -55.7880772      0.554035669      -55.7880772      0.827004441      33.6424362       
1833.25          0.829906428      33.346509        0.549728157      -56.084931       0.549728157      -56.084931       0.829906428      33.346509        
1850.7           0.832755447      33.0536863       0.545451408      -56.3786081      0.545451408      -56.3786081      0.832755447      33.0536863       
1868.15          0.835552562      32.7639241       0.541205338      -56.6691534      0.541205338      -56.6691534      0.835552562      32.7639241       
1885.6           0.838298816      32.4771784       0.536989853      -56.956611       0.536989853      -56.956611       0.838298816      32.4771784       
1903.05          0.840995232      32.1934061       0.532804845      -57.2410247      0.532804845      -57.2410247      0.840995232      32.1934061       
1920.5           0.84364281       31.9125646       0.528650198      -57.5224375      0.528650198      -57.5224375      0.84364281       31.9125646       
1937.95          0.846242533      31.6346117       0.524525785      -57.800892       0.524525785      -57.800892       0.846242533      31.6346117       
1955.4           0.848795362      31.3595059       0.52043147       -58.07643        0.52043147       -58.07643        0.848795362      31.3595059       
1972.85          0.851302239      31.0872063       0.516367109      -58.3490929      0.516367109      -58.3490929      0.851302239      31.0872063       
1990.3           0.853764086      30.8176723       0.512332548      -58.6189214      0.512332548      -58.6189214      0.853764086      30.8176723       
2007.75          0.856181807      30.5508641       0.508327627      -58.8859557      0.508327627      -58.8859557      0.856181807      30.5508641       
2025.2           0.858556286      30.2867424       0.50435218       -59.1502354      0.50435218       -59.1502354      0.858556286      30.2867424       
2042.65          0.860888391      30.0252683       0.500406033      -59.4117994      0.500406033      -59.4117994      0.860888391      30.0252683       
2060.1           0.863178968      29.7664036       0.496489007      -59.6706862      0.496489007      -59.6706862      0.863178968      29.7664036       
2077.55          0.865428849      29.5101106       0.492600915      -59.9269336      0.492600915      -59.9269336      0.865428849      29.5101106       
2095             0.867638846      29.2563521       0.488741569      -60.1805789      0.488741569      -60.1805789      0.867638846      29.2563521       
2112.45          0.869809754      29.0050916       0.484910772      -60.4316588      0.484910772      -60.4316588      0.869809754      29.0050916       
2129.9           0.871942352      28.7562929       0.481108326      -60.6802095      0.481108326      -60.6802095      0.871942352      28.7562929       
2147.35          0.874037402      28.5099205       0.477334027      -60.9262664      0.477334027      -60.9262664      0.874037402      28.5099205       
2164.8           0.876095651      28.2659394       0.473587668      -61.1698647      0.473587668      -61.1698647      0.876095651      28.2659394       
2182.25          0.878117827      28.024315        0.469869039      -61.4110388      0.469869039      -61.4110388      0.878117827      28.024315        
2199.7           0.880104645      27.7850134       0.466177928      -61.6498227      0.466177928      -61.6498227      0.880104645      27.7850134       
2217.15          0.882056803      27.5480012       0.462514117      -61.8862497      0.462514117      -61.8862497      0.882056803      27.5480012       
