! Coilcraft 0805HS-560 Chip Inductor				
! 13 June 2002			
# MHZ S MA R 50
!Freq             MagS11           AngS11           MagS21           AngS21           MagS12           AngS12           MagS22           AngS22
1                0.00561687377    38.3844227       0.995603253      -0.200714063     0.995603253      -0.200714063     0.00561687377    38.3844227       
7.23             0.0259970764     75.0339163       0.993603796      -1.44841409      0.993603796      -1.44841409      0.0259970764     75.0339163       
13.46            0.0475014854     78.7749965       0.991848216      -2.69250208      0.991848216      -2.69250208      0.0475014854     78.7749965       
19.69            0.0690248387     79.5770315       0.989843113      -3.93257165      0.989843113      -3.93257165      0.0690248387     79.5770315       
25.92            0.0904676436     79.4812289       0.987498493      -5.16782985      0.987498493      -5.16782985      0.0904676436     79.4812289       
32.15            0.111785761      78.9896957       0.984782783      -6.39738992      0.984782783      -6.39738992      0.111785761      78.9896957       
38.38            0.132946938      78.2889753       0.98168472       -7.62033872      0.98168472       -7.62033872      0.132946938      78.2889753       
44.61            0.15392331       77.4654017       0.978202794      -8.83576513      0.978202794      -8.83576513      0.15392331       77.4654017       
50.84            0.174689451      76.5649556       0.97434117       -10.0427757      0.97434117       -10.0427757      0.174689451      76.5649556       
57.07            0.195221773      75.6146772       0.970107756      -11.2405048      0.970107756      -11.2405048      0.195221773      75.6146772       
63.3             0.215498344      74.6316976       0.965513141      -12.4281218      0.965513141      -12.4281218      0.215498344      74.6316976       
69.53            0.235498848      73.6275221       0.960569928      -13.6048363      0.960569928      -13.6048363      0.235498848      73.6275221       
75.76            0.255204589      72.6102485       0.955292279      -14.7699024      0.955292279      -14.7699024      0.255204589      72.6102485       
81.99            0.274598514      71.5857994       0.949695571      -15.9226217      0.949695571      -15.9226217      0.274598514      71.5857994       
88.22            0.29366523       70.5586445       0.943796116      -17.0623456      0.943796116      -17.0623456      0.29366523       70.5586445       
94.45            0.312391008      69.532245        0.937610928      -18.1884769      0.937610928      -18.1884769      0.312391008      69.532245        
100.68           0.330763776      68.5093384       0.931157525      -19.3004706      0.931157525      -19.3004706      0.330763776      68.5093384       
106.91           0.348773102      67.4921254       0.924453748      -20.3978343      0.924453748      -20.3978343      0.348773102      67.4921254       
113.14           0.366410159      66.4823988       0.917517601      -21.4801282      0.917517601      -21.4801282      0.366410159      66.4823988       
119.37           0.383667678      65.4816326       0.910367112      -22.5469645      0.910367112      -22.5469645      0.383667678      65.4816326       
125.6            0.400539898      64.4910466       0.903020202      -23.5980061      0.903020202      -23.5980061      0.400539898      64.4910466       
131.83           0.417022498      63.5116538       0.895494577      -24.632966       0.895494577      -24.632966       0.417022498      63.5116538       
138.06           0.433112522      62.5442958       0.887807626      -25.651605       0.887807626      -25.651605       0.433112522      62.5442958       
144.29           0.448808309      61.5896701       0.879976338      -26.6537301      0.879976338      -26.6537301      0.448808309      61.5896701       
150.52           0.464109404      60.6483514       0.872017224      -27.6391927      0.872017224      -27.6391927      0.464109404      60.6483514       
156.75           0.479016474      59.720809        0.86394626       -28.6078861      0.86394626       -28.6078861      0.479016474      59.720809        
162.98           0.493531224      58.8074205       0.855778834      -29.5597432      0.855778834      -29.5597432      0.493531224      58.8074205       
169.21           0.507656306      57.9084833       0.847529704      -30.4947343      0.847529704      -30.4947343      0.507656306      57.9084833       
175.44           0.521395235      57.0242244       0.839212968      -31.4128646      0.839212968      -31.4128646      0.521395235      57.0242244       
181.67           0.534752302      56.1548086       0.830842044      -32.3141714      0.830842044      -32.3141714      0.534752302      56.1548086       
187.9            0.547732492      55.3003456       0.822429651      -33.1987223      0.822429651      -33.1987223      0.547732492      55.3003456       
194.13           0.560341404      54.4608964       0.813987804      -34.0666122      0.813987804      -34.0666122      0.560341404      54.4608964       
200.36           0.572585174      53.6364789       0.805527813      -34.9179611      0.805527813      -34.9179611      0.572585174      53.6364789       
206.59           0.584470404      52.8270724       0.797060286      -35.7529118      0.797060286      -35.7529118      0.584470404      52.8270724       
212.82           0.59600409       52.0326225       0.788595142      -36.5716278      0.788595142      -36.5716278      0.59600409       52.0326225       
219.05           0.607193564      51.2530446       0.780141618      -37.374291       0.780141618      -37.374291       0.607193564      51.2530446       
225.28           0.618046427      50.4882277       0.771708292      -38.1610997      0.771708292      -38.1610997      0.618046427      50.4882277       
231.51           0.628570498      49.7380377       0.763303099      -38.9322668      0.763303099      -38.9322668      0.628570498      49.7380377       
237.74           0.638773765      49.0023198       0.754933355      -39.6880176      0.754933355      -39.6880176      0.638773765      49.0023198       
243.97           0.648664332      48.2809021       0.746605779      -40.4285885      0.746605779      -40.4285885      0.648664332      48.2809021       
250.2            0.658250384      47.5735968       0.73832652       -41.1542252      0.73832652       -41.1542252      0.658250384      47.5735968       
256.43           0.667540145      46.8802035       0.730101182      -41.8651813      0.730101182      -41.8651813      0.667540145      46.8802035       
262.66           0.676541846      46.2005104       0.721934851      -42.5617167      0.721934851      -42.5617167      0.676541846      46.2005104       
268.89           0.685263691      45.5342965       0.71383212       -43.2440966      0.71383212       -43.2440966      0.685263691      45.5342965       
275.12           0.693713833      44.8813331       0.705797121      -43.9125901      0.705797121      -43.9125901      0.693713833      44.8813331       
281.35           0.701900349      44.241385        0.697833545      -44.5674693      0.697833545      -44.5674693      0.701900349      44.241385        
287.58           0.709831222      43.6142125       0.689944674      -45.2090081      0.689944674      -45.2090081      0.709831222      43.6142125       
293.81           0.717514317      42.9995719       0.682133403      -45.8374815      0.682133403      -45.8374815      0.717514317      42.9995719       
300.04           0.724957373      42.3972169       0.674402266      -46.4531648      0.674402266      -46.4531648      0.724957373      42.3972169       
306.27           0.732167982      41.8068996       0.666753462      -47.0563326      0.666753462      -47.0563326      0.732167982      41.8068996       
312.5            0.739153587      41.2283711       0.659188875      -47.6472587      0.659188875      -47.6472587      0.739153587      41.2283711       
318.73           0.745921464      40.6613827       0.651710099      -48.2262148      0.651710099      -48.2262148      0.745921464      40.6613827       
324.96           0.752478723      40.105686        0.644318459      -48.7934704      0.644318459      -48.7934704      0.752478723      40.105686        
331.19           0.758832297      39.561034        0.637015028      -49.3492925      0.637015028      -49.3492925      0.758832297      39.561034        
337.42           0.764988939      39.0271814       0.629800651      -49.8939448      0.629800651      -49.8939448      0.764988939      39.0271814       
343.65           0.770955221      38.5038852       0.622675963      -50.4276876      0.622675963      -50.4276876      0.770955221      38.5038852       
349.88           0.77673753       37.9909049       0.6156414        -50.9507775      0.6156414        -50.9507775      0.77673753       37.9909049       
356.11           0.782342068      37.4880031       0.608697223      -51.4634669      0.608697223      -51.4634669      0.782342068      37.4880031       
362.34           0.787774854      36.9949455       0.601843529      -51.9660041      0.601843529      -51.9660041      0.787774854      36.9949455       
368.57           0.79304172       36.5115015       0.595080268      -52.458633       0.595080268      -52.458633       0.79304172       36.5115015       
374.8            0.798148319      36.037444        0.588407251      -52.9415929      0.588407251      -52.9415929      0.798148319      36.037444        
381.03           0.803100121      35.5725502       0.581824169      -53.4151184      0.581824169      -53.4151184      0.803100121      35.5725502       
387.26           0.807902421      35.1166011       0.575330603      -53.8794392      0.575330603      -53.8794392      0.807902421      35.1166011       
393.49           0.812560335      34.669382        0.568926031      -54.3347805      0.568926031      -54.3347805      0.812560335      34.669382        
399.72           0.817078813      34.2306823       0.562609842      -54.7813622      0.562609842      -54.7813622      0.817078813      34.2306823       
405.95           0.821462632      33.8002962       0.556381345      -55.2193997      0.556381345      -55.2193997      0.821462632      33.8002962       
412.18           0.825716408      33.3780218       0.550239778      -55.649103       0.550239778      -55.649103       0.825716408      33.3780218       
418.41           0.829844596      32.9636619       0.544184311      -56.0706776      0.544184311      -56.0706776      0.829844596      32.9636619       
424.64           0.833851496      32.5570237       0.538214063      -56.4843239      0.538214063      -56.4843239      0.833851496      32.5570237       
430.87           0.837741255      32.157919        0.532328099      -56.8902375      0.532328099      -56.8902375      0.837741255      32.157919        
437.1            0.841517874      31.7661637       0.526525443      -57.2886092      0.526525443      -57.2886092      0.841517874      31.7661637       
443.33           0.845185209      31.3815784       0.520805082      -57.6796249      0.520805082      -57.6796249      0.845185209      31.3815784       
449.56           0.848746979      31.0039879       0.515165968      -58.0634659      0.515165968      -58.0634659      0.848746979      31.0039879       
455.79           0.852206769      30.6332214       0.509607029      -58.4403089      0.509607029      -58.4403089      0.852206769      30.6332214       
462.02           0.855568032      30.2691124       0.504127169      -58.8103258      0.504127169      -58.8103258      0.855568032      30.2691124       
468.25           0.858834098      29.9114984       0.498725272      -59.1736844      0.498725272      -59.1736844      0.858834098      29.9114984       
474.48           0.862008172      29.5602215       0.493400211      -59.5305477      0.493400211      -59.5305477      0.862008172      29.5602215       
480.71           0.865093346      29.2151273       0.488150843      -59.8810746      0.488150843      -59.8810746      0.865093346      29.2151273       
486.94           0.868092595      28.8760659       0.482976021      -60.2254196      0.482976021      -60.2254196      0.868092595      28.8760659       
493.17           0.871008786      28.5428909       0.477874588      -60.5637333      0.477874588      -60.5637333      0.871008786      28.5428909       
499.4            0.873844682      28.2154602       0.472845388      -60.896162       0.472845388      -60.896162       0.873844682      28.2154602       
505.63           0.876602942      27.8936352       0.467887264      -61.2228482      0.467887264      -61.2228482      0.876602942      27.8936352       
511.86           0.879286128      27.5772809       0.462999057      -61.5439303      0.462999057      -61.5439303      0.879286128      27.5772809       
518.09           0.88189671       27.2662662       0.458179617      -61.8595432      0.458179617      -61.8595432      0.88189671       27.2662662       
524.32           0.884437063      26.9604633       0.453427794      -62.1698179      0.453427794      -62.1698179      0.884437063      26.9604633       
530.55           0.886909479      26.6597478       0.448742447      -62.474882       0.448742447      -62.474882       0.886909479      26.6597478       
536.78           0.889316162      26.3639989       0.444122444      -62.7748593      0.444122444      -62.7748593      0.889316162      26.3639989       
543.01           0.891659239      26.0730989       0.43956666       -63.0698706      0.43956666       -63.0698706      0.891659239      26.0730989       
549.24           0.893940756      25.7869333       0.435073983      -63.3600329      0.435073983      -63.3600329      0.893940756      25.7869333       
555.47           0.896162685      25.5053907       0.430643309      -63.6454605      0.430643309      -63.6454605      0.896162685      25.5053907       
561.7            0.898326926      25.2283628       0.426273549      -63.926264       0.426273549      -63.926264       0.898326926      25.2283628       
567.93           0.900435312      24.9557441       0.421963625      -64.2025514      0.421963625      -64.2025514      0.900435312      24.9557441       
574.16           0.902489605      24.6874321       0.417712474      -64.4744274      0.417712474      -64.4744274      0.902489605      24.6874321       
580.39           0.904491508      24.4233272       0.413519046      -64.7419941      0.413519046      -64.7419941      0.904491508      24.4233272       
586.62           0.906442658      24.1633321       0.409382305      -65.0053505      0.409382305      -65.0053505      0.906442658      24.1633321       
592.85           0.908344637      23.9073525       0.405301232      -65.2645932      0.405301232      -65.2645932      0.908344637      23.9073525       
599.08           0.910198967      23.6552966       0.401274822      -65.5198157      0.401274822      -65.5198157      0.910198967      23.6552966       
605.31           0.912007116      23.4070751       0.397302083      -65.7711094      0.397302083      -65.7711094      0.912007116      23.4070751       
611.54           0.9137705        23.1626009       0.393382044      -66.0185629      0.393382044      -66.0185629      0.9137705        23.1626009       
617.77           0.915490486      22.9217895       0.389513745      -66.2622625      0.389513745      -66.2622625      0.915490486      22.9217895       
624              0.91716839       22.6845586       0.385696243      -66.502292       0.385696243      -66.502292       0.91716839       22.6845586       
630.23           0.918805482      22.4508281       0.381928614      -66.7387331      0.381928614      -66.7387331      0.918805482      22.4508281       
636.46           0.920402989      22.2205201       0.378209947      -66.9716652      0.378209947      -66.9716652      0.920402989      22.2205201       
642.69           0.921962092      21.9935588       0.374539348      -67.2011654      0.374539348      -67.2011654      0.921962092      21.9935588       
648.92           0.923483933      21.7698702       0.370915938      -67.427309       0.370915938      -67.427309       0.923483933      21.7698702       
655.15           0.924969613      21.5493827       0.367338856      -67.6501689      0.367338856      -67.6501689      0.924969613      21.5493827       
661.38           0.926420195      21.3320263       0.363807255      -67.8698165      0.363807255      -67.8698165      0.926420195      21.3320263       
667.61           0.927836705      21.1177329       0.360320305      -68.0863208      0.360320305      -68.0863208      0.927836705      21.1177329       
673.84           0.929220135      20.9064362       0.35687719       -68.2997493      0.35687719       -68.2997493      0.929220135      20.9064362       
680.07           0.930571441      20.6980718       0.353477112      -68.5101674      0.353477112      -68.5101674      0.930571441      20.6980718       
686.3            0.931891546      20.4925768       0.350119286      -68.7176391      0.350119286      -68.7176391      0.931891546      20.4925768       
692.53           0.933181344      20.2898901       0.346802943      -68.9222264      0.346802943      -68.9222264      0.933181344      20.2898901       
698.76           0.934441698      20.0899521       0.34352733       -69.1239898      0.34352733       -69.1239898      0.934441698      20.0899521       
704.99           0.935673439      19.8927048       0.340291707      -69.3229882      0.340291707      -69.3229882      0.935673439      19.8927048       
711.22           0.936877374      19.6980917       0.337095349      -69.5192788      0.337095349      -69.5192788      0.936877374      19.6980917       
717.45           0.93805428       19.5060578       0.333937547      -69.7129175      0.333937547      -69.7129175      0.93805428       19.5060578       
723.68           0.93920491       19.3165495       0.330817605      -69.9039586      0.330817605      -69.9039586      0.93920491       19.3165495       
729.91           0.940329991      19.1295146       0.327734839      -70.0924551      0.327734839      -70.0924551      0.940329991      19.1295146       
736.14           0.941430227      18.944902        0.324688583      -70.2784585      0.324688583      -70.2784585      0.941430227      18.944902        
742.37           0.942506297      18.7626623       0.32167818       -70.4620191      0.32167818       -70.4620191      0.942506297      18.7626623       
748.6            0.943558859      18.5827472       0.318702989      -70.6431857      0.318702989      -70.6431857      0.943558859      18.5827472       
754.83           0.94458855       18.4051095       0.315762382      -70.822006       0.315762382      -70.822006       0.94458855       18.4051095       
761.06           0.945595985      18.2297032       0.312855742      -70.9985264      0.312855742      -70.9985264      0.945595985      18.2297032       
767.29           0.94658176       18.0564838       0.309982467      -71.1727922      0.309982467      -71.1727922      0.94658176       18.0564838       
773.52           0.947546453      17.8854074       0.307141965      -71.3448476      0.307141965      -71.3448476      0.947546453      17.8854074       
779.75           0.94849062       17.7164316       0.304333657      -71.5147353      0.304333657      -71.5147353      0.94849062       17.7164316       
785.98           0.949414803      17.5495149       0.301556977      -71.6824974      0.301556977      -71.6824974      0.949414803      17.5495149       
792.21           0.950319524      17.3846168       0.298811369      -71.8481747      0.298811369      -71.8481747      0.950319524      17.3846168       
