! Coilcraft 0805HS-270 Chip Inductor				
! 13 June 2002			
# MHZ S MA R 50
!Freq             MagS11           AngS11           MagS21           AngS21           MagS12           AngS12           MagS22           AngS22
1                0.00344910498    29.2683894       0.996992637      -0.0969077362    0.996992637      -0.0969077362    0.00344910498    29.2683894       
11.97            0.0206606222     76.9348777       0.995532947      -1.15837627      0.995532947      -1.15837627      0.0206606222     76.9348777       
22.94            0.039010631      80.5094121       0.99431245       -2.21771536      0.99431245       -2.21771536      0.039010631      80.5094121       
33.91            0.0573835515     81.2649882       0.992906735      -3.27469884      0.992906735      -3.27469884      0.0573835515     81.2649882       
44.88            0.075710819      81.2024812       0.991248325      -4.3288406       0.991248325      -4.3288406       0.075710819      81.2024812       
55.85            0.093963967      80.7867443       0.989312978      -5.37959245      0.989312978      -5.37959245      0.093963967      80.7867443       
66.82            0.112122496      80.1858907       0.987090883      -6.42638542      0.987090883      -6.42638542      0.112122496      80.1858907       
77.79            0.130168616      79.4763998       0.984578967      -7.46864638      0.984578967      -7.46864638      0.130168616      79.4763998       
88.76            0.148085902      78.69848         0.981777982      -8.50580699      0.981777982      -8.50580699      0.148085902      78.69848         
99.73            0.165858871      77.8755219       0.97869117       -9.53730935      0.97869117       -9.53730935      0.165858871      77.8755219       
110.7            0.183472848      77.0222026       0.975323547      -10.56261        0.975323547      -10.56261        0.183472848      77.0222026       
121.67           0.200913934      76.1482934       0.971681478      -11.5811829      0.971681478      -11.5811829      0.200913934      76.1482934       
132.64           0.218169002      75.2606187       0.967772397      -12.592522       0.967772397      -12.592522       0.218169002      75.2606187       
143.61           0.235225724      74.3641373       0.963604601      -13.5961431      0.963604601      -13.5961431      0.235225724      74.3641373       
154.58           0.252072584      73.4625731       0.959187102      -14.5915851      0.959187102      -14.5915851      0.252072584      73.4625731       
165.55           0.268698897      72.5588022       0.954529491      -15.578412       0.954529491      -15.578412       0.268698897      72.5588022       
176.52           0.285094825      71.6550984       0.949641837      -16.5562132      0.949641837      -16.5562132      0.285094825      71.6550984       
187.49           0.301251385      70.7532954       0.944534587      -17.5246043      0.944534587      -17.5246043      0.301251385      70.7532954       
198.46           0.317160448      69.8548959       0.939218483      -18.483228       0.939218483      -18.483228       0.317160448      69.8548959       
209.43           0.332814741      68.9611485       0.933704481      -19.4317541      0.933704481      -19.4317541      0.332814741      68.9611485       
220.4            0.348207834      68.0731014       0.928003683      -20.3698795      0.928003683      -20.3698795      0.348207834      68.0731014       
231.37           0.363334133      67.1916422       0.922127268      -21.2973286      0.922127268      -21.2973286      0.363334133      67.1916422       
242.34           0.378188852      66.3175269       0.916086431      -22.2138523      0.916086431      -22.2138523      0.378188852      66.3175269       
253.31           0.392768001      65.4514021       0.909892331      -23.1192284      0.909892331      -23.1192284      0.392768001      65.4514021       
264.28           0.407068353      64.5938221       0.903556036      -24.0132607      0.903556036      -24.0132607      0.407068353      64.5938221       
275.25           0.421087417      63.7452619       0.897088484      -24.8957783      0.897088484      -24.8957783      0.421087417      63.7452619       
286.22           0.434823404      62.9061278       0.890500432      -25.7666352      0.890500432      -25.7666352      0.434823404      62.9061278       
297.19           0.448275199      62.0767665       0.883802428      -26.625709       0.883802428      -26.625709       0.448275199      62.0767665       
308.16           0.461442316      61.2574712       0.877004777      -27.4729006      0.877004777      -27.4729006      0.461442316      61.2574712       
319.13           0.474324868      60.4484883       0.870117508      -28.3081329      0.870117508      -28.3081329      0.474324868      60.4484883       
330.1            0.486923528      59.650022        0.863150358      -29.1313497      0.863150358      -29.1313497      0.486923528      59.650022        
341.07           0.499239489      58.8622384       0.856112745      -29.942515       0.856112745      -29.942515       0.499239489      58.8622384       
352.04           0.511274424      58.0852696       0.849013755      -30.7416117      0.849013755      -30.7416117      0.511274424      58.0852696       
363.01           0.523030455      57.3192166       0.841862129      -31.5286407      0.841862129      -31.5286407      0.523030455      57.3192166       
373.98           0.534510108      56.5641526       0.834666253      -32.3036197      0.834666253      -32.3036197      0.534510108      56.5641526       
384.95           0.545716282      55.8201251       0.827434148      -33.0665822      0.827434148      -33.0665822      0.545716282      55.8201251       
395.92           0.556652209      55.0871586       0.820173473      -33.8175763      0.820173473      -33.8175763      0.556652209      55.0871586       
406.89           0.567321423      54.3652565       0.812891514      -34.5566639      0.812891514      -34.5566639      0.567321423      54.3652565       
417.86           0.577727727      53.6544033       0.805595193      -35.2839196      0.805595193      -35.2839196      0.577727727      53.6544033       
428.83           0.587875158      52.9545661       0.798291065      -35.9994294      0.798291065      -35.9994294      0.587875158      52.9545661       
439.8            0.597767963      52.2656965       0.790985323      -36.7032901      0.790985323      -36.7032901      0.597767963      52.2656965       
450.77           0.607410565      51.5877318       0.783683808      -37.3956082      0.783683808      -37.3956082      0.607410565      51.5877318       
461.74           0.616807538      50.9205966       0.776392008      -38.0764992      0.776392008      -38.0764992      0.616807538      50.9205966       
472.71           0.625963584      50.2642042       0.769115074      -38.7460862      0.769115074      -38.7460862      0.625963584      50.2642042       
483.68           0.634883508      49.6184576       0.761857825      -39.4044999      0.761857825      -39.4044999      0.634883508      49.6184576       
494.65           0.643572196      48.9832505       0.75462476       -40.051877       0.75462476       -40.051877       0.643572196      48.9832505       
505.62           0.652034596      48.3584687       0.747420066      -40.68836        0.747420066      -40.68836        0.652034596      48.3584687       
516.59           0.660275698      47.7439908       0.740247632      -41.3140962      0.740247632      -41.3140962      0.660275698      47.7439908       
527.56           0.668300518      47.1396891       0.733111057      -41.9292372      0.733111057      -41.9292372      0.668300518      47.1396891       
538.53           0.676114083      46.5454304       0.726013666      -42.5339383      0.726013666      -42.5339383      0.676114083      46.5454304       
549.5            0.683721416      45.9610769       0.718958518      -43.1283578      0.718958518      -43.1283578      0.683721416      45.9610769       
560.47           0.691127522      45.3864866       0.71194842       -43.7126565      0.71194842       -43.7126565      0.691127522      45.3864866       
571.44           0.698337378      44.8215144       0.704985937      -44.2869973      0.704985937      -44.2869973      0.698337378      44.8215144       
582.41           0.705355924      44.2660122       0.698073407      -44.8515444      0.698073407      -44.8515444      0.705355924      44.2660122       
593.38           0.712188051      43.7198298       0.691212949      -45.4064633      0.691212949      -45.4064633      0.712188051      43.7198298       
604.35           0.718838593      43.1828151       0.684406475      -45.9519203      0.684406475      -45.9519203      0.718838593      43.1828151       
615.32           0.725312322      42.6548149       0.677655705      -46.4880817      0.677655705      -46.4880817      0.725312322      42.6548149       
626.29           0.73161394       42.1356749       0.670962173      -47.0151142      0.670962173      -47.0151142      0.73161394       42.1356749       
637.26           0.737748074      41.6252406       0.664327239      -47.5331838      0.664327239      -47.5331838      0.737748074      41.6252406       
648.23           0.743719272      41.1233572       0.6577521        -48.0424563      0.6577521        -48.0424563      0.743719272      41.1233572       
659.2            0.749531996      40.62987         0.651237802      -48.5430963      0.651237802      -48.5430963      0.749531996      40.62987         
670.17           0.755190624      40.1446248       0.644785243      -49.0352675      0.644785243      -49.0352675      0.755190624      40.1446248       
681.14           0.760699444      39.6674681       0.638395188      -49.5191324      0.638395188      -49.5191324      0.760699444      39.6674681       
692.11           0.76606265       39.1982475       0.632068278      -49.9948518      0.632068278      -49.9948518      0.76606265       39.1982475       
703.08           0.771284345      38.7368114       0.625805032      -50.462585       0.625805032      -50.462585       0.771284345      38.7368114       
714.05           0.776368538      38.28301         0.619605862      -50.9224895      0.619605862      -50.9224895      0.776368538      38.28301         
725.02           0.78131914       37.8366944       0.613471078      -51.3747209      0.613471078      -51.3747209      0.78131914       37.8366944       
735.99           0.786139969      37.3977179       0.607400893      -51.8194327      0.607400893      -51.8194327      0.786139969      37.3977179       
746.96           0.790834747      36.9659351       0.601395433      -52.2567763      0.601395433      -52.2567763      0.790834747      36.9659351       
757.93           0.7954071        36.5412029       0.595454743      -52.686901       0.595454743      -52.686901       0.7954071        36.5412029       
768.9            0.799860558      36.1233798       0.589578792      -53.1099535      0.589578792      -53.1099535      0.799860558      36.1233798       
779.87           0.804198559      35.7123265       0.583767478      -53.5260785      0.583767478      -53.5260785      0.804198559      35.7123265       
790.84           0.808424447      35.3079058       0.578020637      -53.9354182      0.578020637      -53.9354182      0.808424447      35.3079058       
801.81           0.812541475      34.9099828       0.572338045      -54.3381121      0.572338045      -54.3381121      0.812541475      34.9099828       
812.78           0.816552802      34.5184246       0.566719422      -54.7342976      0.566719422      -54.7342976      0.816552802      34.5184246       
823.75           0.820461501      34.1331008       0.561164442      -55.1241093      0.561164442      -55.1241093      0.820461501      34.1331008       
834.72           0.824270555      33.753883        0.555672731      -55.5076795      0.555672731      -55.5076795      0.824270555      33.753883        
845.69           0.827982862      33.3806455       0.550243875      -55.8851379      0.550243875      -55.8851379      0.827982862      33.3806455       
856.66           0.831601235      33.0132646       0.544877422      -56.2566116      0.544877422      -56.2566116      0.831601235      33.0132646       
867.63           0.835128404      32.6516192       0.539572886      -56.6222252      0.539572886      -56.6222252      0.835128404      32.6516192       
878.6            0.838567019      32.2955902       0.534329751      -56.982101       0.534329751      -56.982101       0.838567019      32.2955902       
889.57           0.841919648      31.9450612       0.529147474      -57.3363585      0.529147474      -57.3363585      0.841919648      31.9450612       
900.54           0.845188785      31.599918        0.524025486      -57.6851148      0.524025486      -57.6851148      0.845188785      31.599918        
911.51           0.848376847      31.2600487       0.518963196      -58.0284847      0.518963196      -58.0284847      0.848376847      31.2600487       
922.48           0.851486178      30.9253436       0.513959996      -58.3665803      0.513959996      -58.3665803      0.851486178      30.9253436       
933.45           0.85451905       30.5956954       0.509015258      -58.6995115      0.509015258      -58.6995115      0.85451905       30.5956954       
944.42           0.857477665      30.2709993       0.504128341      -59.0273857      0.504128341      -59.0273857      0.857477665      30.2709993       
955.39           0.860364158      29.9511522       0.499298591      -59.3503079      0.499298591      -59.3503079      0.860364158      29.9511522       
966.36           0.863180599      29.6360537       0.494525343      -59.668381       0.494525343      -59.668381       0.863180599      29.6360537       
977.33           0.86592899       29.3256053       0.489807922      -59.9817053      0.489807922      -59.9817053      0.86592899       29.3256053       
988.3            0.868611276      29.0197108       0.485145647      -60.2903791      0.485145647      -60.2903791      0.868611276      29.0197108       
999.27           0.871229339      28.7182761       0.480537828      -60.5944984      0.480537828      -60.5944984      0.871229339      28.7182761       
1010.24          0.873785001      28.421209        0.475983774      -60.8941569      0.475983774      -60.8941569      0.873785001      28.421209        
1021.21          0.87628003       28.1284198       0.471482789      -61.1894464      0.471482789      -61.1894464      0.87628003       28.1284198       
1032.18          0.878716137      27.8398203       0.467034172      -61.4804563      0.467034172      -61.4804563      0.878716137      27.8398203       
1043.15          0.88109498       27.5553246       0.462637226      -61.7672742      0.462637226      -61.7672742      0.88109498       27.5553246       
1054.12          0.883418165      27.2748487       0.458291249      -62.0499856      0.458291249      -62.0499856      0.883418165      27.2748487       
1065.09          0.885687249      26.9983103       0.453995544      -62.328674       0.453995544      -62.328674       0.885687249      26.9983103       
1076.06          0.887903739      26.7256294       0.449749411      -62.603421       0.449749411      -62.603421       0.887903739      26.7256294       
1087.03          0.890069096      26.4567274       0.445552156      -62.8743061      0.445552156      -62.8743061      0.890069096      26.4567274       
1098             0.892184734      26.1915277       0.441403087      -63.1414072      0.441403087      -63.1414072      0.892184734      26.1915277       
1108.97          0.894252023      25.9299555       0.437301513      -63.4048003      0.437301513      -63.4048003      0.894252023      25.9299555       
1119.94          0.896272292      25.6719376       0.433246752      -63.6645596      0.433246752      -63.6645596      0.896272292      25.6719376       
1130.91          0.898246828      25.4174026       0.429238123      -63.9207575      0.429238123      -63.9207575      0.898246828      25.4174026       
1141.88          0.900176876      25.1662806       0.425274951      -64.1734648      0.425274951      -64.1734648      0.900176876      25.1662806       
1152.85          0.902063645      24.9185035       0.421356568      -64.4227505      0.421356568      -64.4227505      0.902063645      24.9185035       
1163.82          0.903908304      24.6740047       0.41748231       -64.6686823      0.41748231       -64.6686823      0.903908304      24.6740047       
1174.79          0.905711989      24.432719        0.41365152       -64.9113258      0.41365152       -64.9113258      0.905711989      24.432719        
1185.76          0.907475798      24.1945829       0.409863549      -65.1507454      0.409863549      -65.1507454      0.907475798      24.1945829       
1196.73          0.909200796      23.9595343       0.406117754      -65.3870041      0.406117754      -65.3870041      0.909200796      23.9595343       
1207.7           0.910888015      23.7275125       0.402413497      -65.620163       0.402413497      -65.620163       0.910888015      23.7275125       
1218.67          0.912538457      23.4984583       0.398750152      -65.850282       0.398750152      -65.850282       0.912538457      23.4984583       
1229.64          0.914153092      23.2723138       0.395127096      -66.0774197      0.395127096      -66.0774197      0.914153092      23.2723138       
1240.61          0.915732859      23.0490224       0.391543716      -66.3016332      0.391543716      -66.3016332      0.915732859      23.0490224       
1251.58          0.91727867       22.8285288       0.387999406      -66.5229782      0.387999406      -66.5229782      0.91727867       22.8285288       
1262.55          0.91879141       22.6107792       0.384493569      -66.7415091      0.384493569      -66.7415091      0.91879141       22.6107792       
1273.52          0.920271934      22.3957206       0.381025615      -66.9572791      0.381025615      -66.9572791      0.920271934      22.3957206       
1284.49          0.921721076      22.1833018       0.377594962      -67.1703402      0.377594962      -67.1703402      0.921721076      22.1833018       
1295.46          0.92313964       21.9734722       0.374201037      -67.380743       0.374201037      -67.380743       0.92313964       21.9734722       
1306.43          0.924528409      21.7661827       0.370843275      -67.5885371      0.370843275      -67.5885371      0.924528409      21.7661827       
1317.4           0.92588814       21.5613852       0.367521117      -67.7937709      0.367521117      -67.7937709      0.92588814       21.5613852       
1328.37          0.92721957       21.3590328       0.364234016      -67.9964915      0.364234016      -67.9964915      0.92721957       21.3590328       
1339.34          0.928523413      21.1590796       0.36098143       -68.1967451      0.36098143       -68.1967451      0.928523413      21.1590796       
1350.31          0.92980036       20.9614807       0.357762827      -68.3945768      0.357762827      -68.3945768      0.92980036       20.9614807       
1361.28          0.931051085      20.7661922       0.354577683      -68.5900306      0.354577683      -68.5900306      0.931051085      20.7661922       
1372.25          0.932276239      20.5731715       0.35142548       -68.7831495      0.35142548       -68.7831495      0.932276239      20.5731715       
1383.22          0.933476455      20.3823765       0.348305712      -68.9739754      0.348305712      -68.9739754      0.933476455      20.3823765       
1394.19          0.934652348      20.1937664       0.345217877      -69.1625495      0.345217877      -69.1625495      0.934652348      20.1937664       
