! Coilcraft 0805HS-181 Chip Inductor				
! 13 June 2002			
# MHZ S MA R 50
!Freq             MagS11           AngS11           MagS21           AngS21           MagS12           AngS12           MagS22           AngS22
1                0.0143182267     50.0774844       0.99087211       -0.634964235     0.99087211       -0.634964235     0.0143182267     50.0774844       
4.74             0.0537015649     73.8504177       0.986412748      -2.99753283      0.986412748      -2.99753283      0.0537015649     73.8504177       
8.48             0.0941602554     76.0201755       0.981514974      -5.34151963      0.981514974      -5.34151963      0.0941602554     76.0201755       
12.22            0.134239161      75.6552376       0.975450174      -7.66189368      0.975450174      -7.66189368      0.134239161      75.6552376       
15.96            0.17365309       74.4838148       0.968115344      -9.95269751      0.968115344      -9.95269751      0.17365309       74.4838148       
19.7             0.212215244      72.9645628       0.959527399      -12.2080704      0.959527399      -12.2080704      0.212215244      72.9645628       
23.44            0.249774645      71.2763306       0.949752558      -14.4225574      0.949752558      -14.4225574      0.249774645      71.2763306       
27.18            0.286206066      69.5054763       0.938883489      -16.5912602      0.938883489      -16.5912602      0.286206066      69.5054763       
30.92            0.32140777       67.6998757       0.927028235      -18.7099205      0.927028235      -18.7099205      0.32140777       67.6998757       
34.66            0.355300567      65.8887007       0.91430328       -20.7749593      0.91430328       -20.7749593      0.355300567      65.8887007       
38.4             0.387826799      64.0909135       0.900828561      -22.7834862      0.900828561      -22.7834862      0.387826799      64.0909135       
42.14            0.418948955      62.3193669       0.886723652      -24.7332841      0.886723652      -24.7332841      0.418948955      62.3193669       
45.88            0.448647929      60.582976        0.872104813      -26.6227766      0.872104813      -26.6227766      0.448647929      60.582976        
49.62            0.476921008      58.887962        0.857082766      -28.4509814      0.857082766      -28.4509814      0.476921008      58.887962        
53.36            0.503779708      57.2386159       0.841761078      -30.2174552      0.841761078      -30.2174552      0.503779708      57.2386159       
57.1             0.529247573      55.6377958       0.826235092      -31.922234       0.826235092      -31.922234       0.529247573      55.6377958       
60.84            0.553358025      54.0872713       0.810591302      -33.5657706      0.810591302      -33.5657706      0.553358025      54.0872713       
64.58            0.576152333      52.5879703       0.794907111      -35.1488738      0.794907111      -35.1488738      0.576152333      52.5879703       
68.32            0.597677757      51.1401662       0.779250881      -36.6726487      0.779250881      -36.6726487      0.597677757      51.1401662       
72.06            0.617985893      49.743621        0.763682221      -38.1384426      0.763682221      -38.1384426      0.617985893      49.743621        
75.8             0.637131227      48.3976997       0.74825243       -39.5477943      0.74825243       -39.5477943      0.637131227      48.3976997       
79.54            0.655169905      47.1014611       0.733005067      -40.9023889      0.733005067      -40.9023889      0.655169905      47.1014611       
83.28            0.672158703      45.8537319       0.717976574      -42.2040186      0.717976574      -42.2040186      0.672158703      45.8537319       
87.02            0.688154197      44.6531667       0.703196938      -43.4545478      0.703196938      -43.4545478      0.688154197      44.6531667       
90.76            0.703212082      43.498297        0.688690362      -44.6558841      0.688690362      -44.6558841      0.703212082      43.498297        
94.5             0.717386667      42.387571        0.674475911      -45.8099532      0.674475911      -45.8099532      0.717386667      42.387571        
98.24            0.730730474      41.319386        0.660568131      -46.9186788      0.660568131      -46.9186788      0.730730474      41.319386        
101.98           0.743293961      40.292114        0.646977633      -47.9839655      0.646977633      -47.9839655      0.743293961      40.292114        
105.72           0.755125336      39.3041232       0.63371162       -49.0076856      0.63371162       -49.0076856      0.755125336      39.3041232       
109.46           0.766270435      38.3537938       0.620774379      -49.9916685      0.620774379      -49.9916685      0.766270435      38.3537938       
113.2            0.776772671      37.439531        0.608167713      -50.9376926      0.608167713      -50.9376926      0.776772671      37.439531        
116.94           0.786673022      36.5597753       0.595891334      -51.8474798      0.595891334      -51.8474798      0.786673022      36.5597753       
120.68           0.796010064      35.713009        0.583943205      -52.7226907      0.583943205      -52.7226907      0.796010064      35.713009        
124.42           0.804820024      34.8977626       0.572319844      -53.5649221      0.572319844      -53.5649221      0.804820024      34.8977626       
128.16           0.813136855      34.1126178       0.561016589      -54.3757057      0.561016589      -54.3757057      0.813136855      34.1126178       
131.9            0.820992333      33.3562102       0.550027824      -55.1565073      0.550027824      -55.1565073      0.820992333      33.3562102       
135.64           0.828416152      32.6272306       0.539347178      -55.9087272      0.539347178      -55.9087272      0.828416152      32.6272306       
139.38           0.835436034      31.9244255       0.528967697      -56.633701       0.528967697      -56.633701       0.835436034      31.9244255       
143.12           0.842077836      31.2465967       0.518881983      -57.3327007      0.518881983      -57.3327007      0.842077836      31.2465967       
146.86           0.84836566       30.5926008       0.509082322      -58.0069367      0.509082322      -58.0069367      0.84836566       30.5926008       
150.6            0.854321959      29.961348        0.499560785      -58.6575598      0.499560785      -58.6575598      0.854321959      29.961348        
154.34           0.859967647      29.3518005       0.490309315      -59.2856629      0.490309315      -59.2856629      0.859967647      29.3518005       
158.08           0.865322194      28.7629712       0.4813198        -59.8922839      0.4813198        -59.8922839      0.865322194      28.7629712       
161.82           0.87040373       28.1939214       0.472584135      -60.4784073      0.472584135      -60.4784073      0.87040373       28.1939214       
165.56           0.875229131      27.6437593       0.464094266      -61.0449675      0.464094266      -61.0449675      0.875229131      27.6437593       
169.3            0.879814109      27.1116378       0.455842237      -61.5928501      0.455842237      -61.5928501      0.879814109      27.1116378       
173.04           0.884173295      26.5967527       0.447820217      -62.1228953      0.447820217      -62.1228953      0.884173295      26.5967527       
176.78           0.888320315      26.0983404       0.440020528      -62.6358994      0.440020528      -62.6358994      0.888320315      26.0983404       
180.52           0.892267864      25.6156763       0.432435666      -63.1326175      0.432435666      -63.1326175      0.892267864      25.6156763       
184.26           0.896027769      25.1480725       0.425058312      -63.6137654      0.425058312      -63.6137654      0.896027769      25.1480725       
188              0.899611058      24.6948763       0.41788135       -64.0800218      0.41788135       -64.0800218      0.899611058      24.6948763       
191.74           0.903028012      24.2554681       0.41089787       -64.5320305      0.41089787       -64.5320305      0.903028012      24.2554681       
195.48           0.906288225      23.8292598       0.404101171      -64.970402       0.404101171      -64.970402       0.906288225      23.8292598       
199.22           0.909400648      23.4156932       0.397484772      -65.3957153      0.397484772      -65.3957153      0.909400648      23.4156932       
202.96           0.912373643      23.0142381       0.391042403      -65.8085199      0.391042403      -65.8085199      0.912373643      23.0142381       
206.7            0.915215018      22.6243911       0.384768011      -66.2093374      0.384768011      -66.2093374      0.915215018      22.6243911       
210.44           0.917932073      22.2456739       0.378655757      -66.5986627      0.378655757      -66.5986627      0.917932073      22.2456739       
214.18           0.920531634      21.8776324       0.372700008      -66.9769662      0.372700008      -66.9769662      0.920531634      21.8776324       
217.92           0.923020088      21.5198345       0.366895339      -67.3446944      0.366895339      -67.3446944      0.923020088      21.5198345       
221.66           0.925403414      21.1718697       0.361236525      -67.7022715      0.361236525      -67.7022715      0.925403414      21.1718697       
225.4            0.927687212      20.8333477       0.355718539      -68.0501011      0.355718539      -68.0501011      0.927687212      20.8333477       
229.14           0.92987673       20.5038971       0.350336541      -68.3885667      0.350336541      -68.3885667      0.92987673       20.5038971       
232.88           0.931976888      20.1831645       0.345085878      -68.7180331      0.345085878      -68.7180331      0.931976888      20.1831645       
236.62           0.933992305      19.8708133       0.339962076      -69.0388475      0.339962076      -69.0388475      0.933992305      19.8708133       
240.36           0.935927313      19.5665234       0.334960831      -69.3513404      0.334960831      -69.3513404      0.935927313      19.5665234       
244.1            0.937785983      19.2699895       0.33007801       -69.6558264      0.33007801       -69.6558264      0.937785983      19.2699895       
247.84           0.939572141      18.9809209       0.325309637      -69.9526054      0.325309637      -69.9526054      0.939572141      18.9809209       
251.58           0.941289383      18.6990403       0.320651893      -70.2419631      0.320651893      -70.2419631      0.941289383      18.6990403       
255.32           0.942941094      18.4240833       0.316101108      -70.5241717      0.316101108      -70.5241717      0.942941094      18.4240833       
259.06           0.944530457      18.1557978       0.311653752      -70.7994912      0.311653752      -70.7994912      0.944530457      18.1557978       
262.8            0.946060475      17.8939431       0.307306438      -71.0681693      0.307306438      -71.0681693      0.946060475      17.8939431       
266.54           0.947533972      17.6382894       0.303055905      -71.3304425      0.303055905      -71.3304425      0.947533972      17.6382894       
270.28           0.948953616      17.3886172       0.298899024      -71.5865368      0.298899024      -71.5865368      0.948953616      17.3886172       
274.02           0.95032192       17.1447169       0.294832783      -71.8366678      0.294832783      -71.8366678      0.95032192       17.1447169       
277.76           0.951641259      16.9063881       0.29085429       -72.0810417      0.29085429       -72.0810417      0.951641259      16.9063881       
281.5            0.952913872      16.6734392       0.286960762      -72.3198556      0.286960762      -72.3198556      0.952913872      16.6734392       
285.24           0.954141877      16.4456869       0.283149525      -72.5532979      0.283149525      -72.5532979      0.954141877      16.4456869       
288.98           0.955327278      16.2229559       0.279418006      -72.7815489      0.279418006      -72.7815489      0.955327278      16.2229559       
292.72           0.956471966      16.0050783       0.275763731      -73.004781       0.275763731      -73.004781       0.956471966      16.0050783       
296.46           0.957577734      15.7918934       0.272184319      -73.2231594      0.272184319      -73.2231594      0.957577734      15.7918934       
300.2            0.958646279      15.5832472       0.268677482      -73.4368423      0.268677482      -73.4368423      0.958646279      15.5832472       
303.94           0.959679206      15.3789922       0.265241014      -73.6459812      0.265241014      -73.6459812      0.959679206      15.3789922       
307.68           0.960678039      15.178987        0.261872795      -73.8507214      0.261872795      -73.8507214      0.960678039      15.178987        
311.42           0.961644222      14.983096        0.258570783      -74.0512019      0.258570783      -74.0512019      0.961644222      14.983096        
315.16           0.962579124      14.7911891       0.255333011      -74.2475564      0.255333011      -74.2475564      0.962579124      14.7911891       
318.9            0.963484045      14.6031415       0.252157585      -74.4399129      0.252157585      -74.4399129      0.963484045      14.6031415       
322.64           0.96436022       14.4188333       0.249042682      -74.6283943      0.249042682      -74.6283943      0.96436022       14.4188333       
326.38           0.96520882       14.2381495       0.245986544      -74.8131187      0.245986544      -74.8131187      0.96520882       14.2381495       
330.12           0.966030961      14.0609797       0.242987477      -74.9941994      0.242987477      -74.9941994      0.966030961      14.0609797       
333.86           0.966827701      13.8872175       0.240043849      -75.1717453      0.240043849      -75.1717453      0.966827701      13.8872175       
337.6            0.967600048      13.716761        0.237154085      -75.3458609      0.237154085      -75.3458609      0.967600048      13.716761        
341.34           0.968348961      13.5495119       0.234316668      -75.516647       0.234316668      -75.516647       0.968348961      13.5495119       
345.08           0.969075354      13.3853759       0.231530133      -75.6842001      0.231530133      -75.6842001      0.969075354      13.3853759       
348.82           0.969780094      13.2242622       0.228793069      -75.8486133      0.228793069      -75.8486133      0.969780094      13.2242622       
352.56           0.970464012      13.0660832       0.226104111      -76.0099761      0.226104111      -76.0099761      0.970464012      13.0660832       
356.3            0.971127896      12.910755        0.223461945      -76.1683747      0.223461945      -76.1683747      0.971127896      12.910755        
360.04           0.9717725        12.7581963       0.220865301      -76.3238919      0.220865301      -76.3238919      0.9717725        12.7581963       
363.78           0.972398542      12.6083293       0.218312953      -76.4766077      0.218312953      -76.4766077      0.972398542      12.6083293       
367.52           0.973006707      12.4610785       0.215803715      -76.626599       0.215803715      -76.626599       0.973006707      12.4610785       
371.26           0.973597651      12.3163715       0.213336444      -76.7739399      0.213336444      -76.7739399      0.973597651      12.3163715       
375              0.974171998      12.1741385       0.210910035      -76.918702       0.210910035      -76.918702       0.974171998      12.1741385       
378.74           0.974730346      12.0343118       0.208523418      -77.060954       0.208523418      -77.060954       0.974730346      12.0343118       
382.48           0.975273265      11.8968266       0.20617556       -77.2007625      0.20617556       -77.2007625      0.975273265      11.8968266       
386.22           0.975801302      11.7616199       0.203865464      -77.3381914      0.203865464      -77.3381914      0.975801302      11.7616199       
389.96           0.976314979      11.6286313       0.201592162      -77.4733028      0.201592162      -77.4733028      0.976314979      11.6286313       
393.7            0.976814795      11.4978021       0.199354722      -77.6061562      0.199354722      -77.6061562      0.976814795      11.4978021       
397.44           0.977301228      11.3690759       0.197152238      -77.7368092      0.197152238      -77.7368092      0.977301228      11.3690759       
401.18           0.977774737      11.2423981       0.194983836      -77.8653176      0.194983836      -77.8653176      0.977774737      11.2423981       
404.92           0.97823576       11.117716        0.192848669      -77.991735       0.192848669      -77.991735       0.97823576       11.117716        
408.66           0.978684718      10.9949785       0.190745918      -78.1161134      0.190745918      -78.1161134      0.978684718      10.9949785       
412.4            0.979122013      10.8741363       0.188674788      -78.2385029      0.188674788      -78.2385029      0.979122013      10.8741363       
416.14           0.979548031      10.7551417       0.18663451       -78.358952       0.18663451       -78.358952       0.979548031      10.7551417       
419.88           0.979963143      10.6379488       0.18462434       -78.4775077      0.18462434       -78.4775077      0.979963143      10.6379488       
423.62           0.980367705      10.5225127       0.182643555      -78.5942152      0.182643555      -78.5942152      0.980367705      10.5225127       
427.36           0.980762057      10.4087904       0.180691457      -78.7091183      0.180691457      -78.7091183      0.980762057      10.4087904       
431.1            0.981146527      10.29674         0.178767367      -78.8222595      0.178767367      -78.8222595      0.981146527      10.29674         
434.84           0.981521429      10.1863211       0.176870628      -78.9336798      0.176870628      -78.9336798      0.981521429      10.1863211       
438.58           0.981887066      10.0774945       0.175000601      -79.043419       0.175000601      -79.043419       0.981887066      10.0774945       
442.32           0.982243728      9.97022209       0.17315667       -79.1515154      0.17315667       -79.1515154      0.982243728      9.97022209       
446.06           0.982591694      9.86446723       0.171338233      -79.2580063      0.171338233      -79.2580063      0.982591694      9.86446723       
449.8            0.982931232      9.76019421       0.169544709      -79.3629278      0.169544709      -79.3629278      0.982931232      9.76019421       
453.54           0.9832626        9.65736846       0.167775533      -79.4663147      0.167775533      -79.4663147      0.9832626        9.65736846       
457.28           0.983586047      9.55595648       0.166030156      -79.5682008      0.166030156      -79.5682008      0.983586047      9.55595648       
461.02           0.983901811      9.45592576       0.164308046      -79.6686189      0.164308046      -79.6686189      0.983901811      9.45592576       
464.76           0.984210122      9.35724477       0.162608686      -79.7676008      0.162608686      -79.7676008      0.984210122      9.35724477       
468.5            0.984511202      9.25988293       0.160931573      -79.8651771      0.160931573      -79.8651771      0.984511202      9.25988293       
472.24           0.984805264      9.16381057       0.159276221      -79.9613778      0.159276221      -79.9613778      0.984805264      9.16381057       
475.98           0.985092512      9.06899886       0.157642155      -80.0562317      0.157642155      -80.0562317      0.985092512      9.06899886       
