! Coilcraft 0805HS-330 Chip Inductor				
! 13 June 2002			
# MHZ S MA R 50
!Freq             MagS11           AngS11           MagS21           AngS21           MagS12           AngS12           MagS22           AngS22
1                0.00386017319    32.2517529       0.996737536      -0.118412517     0.996737536      -0.118412517     0.00386017319    32.2517529       
8.98             0.0190478363     75.6099937       0.995437214      -1.06202719      0.995437214      -1.06202719      0.0190478363     75.6099937       
16.96            0.0353277134     79.8214865       0.994365188      -2.00397128      0.994365188      -2.00397128      0.0353277134     79.8214865       
24.94            0.0516573862     80.9282816       0.993166037      -2.94413563      0.993166037      -2.94413563      0.0516573862     80.9282816       
32.92            0.0679644462     81.1140934       0.991777489      -3.88220574      0.991777489      -3.88220574      0.0679644462     81.1140934       
40.9             0.0842229265     80.8986711       0.990176031      -4.81781411      0.990176031      -4.81781411      0.0842229265     80.8986711       
48.88            0.100416225      80.471489        0.988351123      -5.75057299      0.988351123      -5.75057299      0.100416225      80.471489        
56.86            0.116530793      79.9189643       0.986298193      -6.68008745      0.986298193      -6.68008745      0.116530793      79.9189643       
64.84            0.132554448      79.2865108       0.984015997      -7.60596213      0.984015997      -7.60596213      0.132554448      79.2865108       
72.82            0.148475813      78.6004792       0.981505391      -8.5278054       0.981505391      -8.5278054       0.148475813      78.6004792       
80.8             0.164284103      77.8773312       0.9787687        -9.44523226      0.9787687        -9.44523226      0.164284103      77.8773312       
88.78            0.179969046      77.1279611       0.97580934       -10.3578664      0.97580934       -10.3578664      0.179969046      77.1279611       
96.76            0.195520854      76.3599223       0.972631582      -11.2653421      0.972631582      -11.2653421      0.195520854      76.3599223       
104.74           0.210930223      75.5786575       0.96924039       -12.1673053      0.96924039       -12.1673053      0.210930223      75.5786575       
112.72           0.226188334      74.7882179       0.965641304      -13.0634149      0.965641304      -13.0634149      0.226188334      74.7882179       
120.7            0.241286867      73.9917038       0.961840339      -13.9533435      0.961840339      -13.9533435      0.241286867      73.9917038       
128.68           0.256218008      73.1915446       0.957843918      -14.8367785      0.957843918      -14.8367785      0.256218008      73.1915446       
136.66           0.270974457      72.3896833       0.953658802      -15.7134226      0.953658802      -15.7134226      0.270974457      72.3896833       
144.64           0.285549439      71.587702        0.949292032      -16.5829939      0.949292032      -16.5829939      0.285549439      71.587702        
152.62           0.299936701      70.7869079       0.944750882      -17.4452269      0.944750882      -17.4452269      0.299936701      70.7869079       
160.6            0.314130518      69.9883953       0.940042809      -18.2998724      0.940042809      -18.2998724      0.314130518      69.9883953       
168.58           0.328125692      69.1930903       0.935175412      -19.1466978      0.935175412      -19.1466978      0.328125692      69.1930903       
176.56           0.341917546      68.4017833       0.93015639       -19.9854869      0.93015639       -19.9854869      0.341917546      68.4017833       
184.54           0.355501916      67.6151544       0.924993509      -20.8160406      0.924993509      -20.8160406      0.355501916      67.6151544       
192.52           0.368875147      66.8337915       0.919694561      -21.6381758      0.919694561      -21.6381758      0.368875147      66.8337915       
200.5            0.382034078      66.0582051       0.91426734       -22.4517261      0.91426734       -22.4517261      0.382034078      66.0582051       
208.48           0.394976031      65.2888401       0.908719609      -23.2565412      0.908719609      -23.2565412      0.394976031      65.2888401       
216.46           0.407698797      64.5260843       0.903059071      -24.0524867      0.903059071      -24.0524867      0.407698797      64.5260843       
224.44           0.420200616      63.770276        0.897293349      -24.8394437      0.897293349      -24.8394437      0.420200616      63.770276        
232.42           0.432480166      63.0217101       0.891429958      -25.6173084      0.891429958      -25.6173084      0.432480166      63.0217101       
240.4            0.444536539      62.2806427       0.885476291      -26.3859916      0.885476291      -26.3859916      0.444536539      62.2806427       
248.38           0.456369225      61.5472955       0.879439594      -27.1454186      0.879439594      -27.1454186      0.456369225      61.5472955       
256.36           0.467978092      60.8218595       0.873326956      -27.8955283      0.873326956      -27.8955283      0.467978092      60.8218595       
264.34           0.479363362      60.1044974       0.86714529       -28.6362728      0.86714529       -28.6362728      0.479363362      60.1044974       
272.32           0.490525596      59.3953467       0.860901326      -29.3676169      0.860901326      -29.3676169      0.490525596      59.3953467       
280.3            0.501465668      58.6945219       0.854601595      -30.0895375      0.854601595      -30.0895375      0.501465668      58.6945219       
288.28           0.51218475       58.0021164       0.848252424      -30.802023       0.848252424      -30.802023       0.51218475       58.0021164       
296.26           0.522684283      57.3182042       0.841859927      -31.5050729      0.841859927      -31.5050729      0.522684283      57.3182042       
304.24           0.532965967      56.642842        0.835430001      -32.1986969      0.835430001      -32.1986969      0.532965967      56.642842        
312.22           0.543031732      55.97607         0.828968322      -32.8829147      0.828968322      -32.8829147      0.543031732      55.97607         
320.2            0.552883723      55.3179137       0.82248034       -33.5577551      0.82248034       -33.5577551      0.552883723      55.3179137       
328.18           0.562524282      54.6683851       0.815971281      -34.2232557      0.815971281      -34.2232557      0.562524282      54.6683851       
336.16           0.571955925      54.0274834       0.809446142      -34.8794619      0.809446142      -34.8794619      0.571955925      54.0274834       
344.14           0.581181331      53.3951967       0.802909695      -35.5264271      0.802909695      -35.5264271      0.581181331      53.3951967       
352.12           0.590203319      52.7715023       0.796366491      -36.1642112      0.796366491      -36.1642112      0.590203319      52.7715023       
360.1            0.599024834      52.1563679       0.789820853      -36.7928811      0.789820853      -36.7928811      0.599024834      52.1563679       
368.08           0.607648934      51.5497527       0.783276892      -37.4125094      0.783276892      -37.4125094      0.607648934      51.5497527       
376.06           0.616078771      50.9516075       0.776738497      -38.0231741      0.776738497      -38.0231741      0.616078771      50.9516075       
384.04           0.62431758       50.361876        0.770209352      -38.6249585      0.770209352      -38.6249585      0.62431758       50.361876        
392.02           0.632368667      49.7804952       0.763692932      -39.2179503      0.763692932      -39.2179503      0.632368667      49.7804952       
400              0.640235394      49.2073964       0.757192512      -39.8022413      0.757192512      -39.8022413      0.640235394      49.2073964       
407.98           0.647921168      48.6425049       0.75071117       -40.3779273      0.75071117       -40.3779273      0.647921168      48.6425049       
415.96           0.655429431      48.0857417       0.744251798      -40.9451071      0.744251798      -40.9451071      0.655429431      48.0857417       
423.94           0.662763653      47.5370232       0.737817101      -41.5038827      0.737817101      -41.5038827      0.662763653      47.5370232       
431.92           0.669927317      46.9962619       0.73140961       -42.0543585      0.73140961       -42.0543585      0.669927317      46.9962619       
439.9            0.676923914      46.4633669       0.725031681      -42.5966412      0.725031681      -42.5966412      0.676923914      46.4633669       
447.88           0.683756935      45.9382443       0.71868551       -43.1308396      0.71868551       -43.1308396      0.683756935      45.9382443       
455.86           0.690429864      45.4207976       0.712373132      -43.6570641      0.712373132      -43.6570641      0.690429864      45.4207976       
463.84           0.696946169      44.910928        0.706096431      -44.1754263      0.706096431      -44.1754263      0.696946169      44.910928        
471.82           0.703309301      44.4085349       0.699857146      -44.6860391      0.699857146      -44.6860391      0.703309301      44.4085349       
479.8            0.709522682      43.9135158       0.693656877      -45.1890161      0.693656877      -45.1890161      0.709522682      43.9135158       
487.78           0.715589706      43.4257671       0.687497093      -45.6844717      0.687497093      -45.6844717      0.715589706      43.4257671       
495.76           0.721513732      42.945184        0.681379133      -46.1725205      0.681379133      -46.1725205      0.721513732      42.945184        
503.74           0.727298079      42.4716611       0.67530422       -46.6532775      0.67530422       -46.6532775      0.727298079      42.4716611       
511.72           0.732946025      42.0050921       0.669273459      -47.1268576      0.669273459      -47.1268576      0.732946025      42.0050921       
519.7            0.738460803      41.5453706       0.663287847      -47.5933758      0.663287847      -47.5933758      0.738460803      41.5453706       
527.68           0.743845599      41.0923898       0.657348281      -48.0529464      0.657348281      -48.0529464      0.743845599      41.0923898       
535.66           0.749103545      40.6460431       0.651455556      -48.5056836      0.651455556      -48.5056836      0.749103545      40.6460431       
543.64           0.754237725      40.2062239       0.645610378      -48.9517009      0.645610378      -48.9517009      0.754237725      40.2062239       
551.62           0.759251168      39.7728259       0.639813364      -49.3911111      0.639813364      -49.3911111      0.759251168      39.7728259       
559.6            0.764146848      39.3457433       0.634065048      -49.8240263      0.634065048      -49.8240263      0.764146848      39.3457433       
567.58           0.76892768       38.924871        0.628365889      -50.2505575      0.628365889      -50.2505575      0.76892768       38.924871        
575.56           0.773596526      38.5101042       0.622716272      -50.6708148      0.622716272      -50.6708148      0.773596526      38.5101042       
583.54           0.778156188      38.1013393       0.61711651       -51.0849074      0.61711651       -51.0849074      0.778156188      38.1013393       
591.52           0.782609409      37.6984734       0.611566857      -51.492943       0.611566857      -51.492943       0.782609409      37.6984734       
599.5            0.786958874      37.3014044       0.606067503      -51.8950285      0.606067503      -51.8950285      0.786958874      37.3014044       
607.48           0.791207211      36.9100314       0.600618581      -52.2912691      0.600618581      -52.2912691      0.791207211      36.9100314       
615.46           0.795356986      36.5242546       0.595220173      -52.681769       0.595220173      -52.681769       0.795356986      36.5242546       
623.44           0.799410709      36.1439752       0.58987231       -53.0666309      0.58987231       -53.0666309      0.799410709      36.1439752       
631.42           0.803370831      35.7690959       0.584574978      -53.4459562      0.584574978      -53.4459562      0.803370831      35.7690959       
639.4            0.807239746      35.3995203       0.579328117      -53.8198447      0.579328117      -53.8198447      0.807239746      35.3995203       
647.38           0.811019789      35.0351534       0.574131631      -54.1883947      0.574131631      -54.1883947      0.811019789      35.0351534       
655.36           0.814713239      34.6759017       0.568985385      -54.5517034      0.568985385      -54.5517034      0.814713239      34.6759017       
663.34           0.818322319      34.3216728       0.563889207      -54.909866       0.563889207      -54.909866       0.818322319      34.3216728       
671.32           0.821849198      33.9723758       0.558842897      -55.2629765      0.558842897      -55.2629765      0.821849198      33.9723758       
679.3            0.825295988      33.6279211       0.553846224      -55.6111272      0.553846224      -55.6111272      0.825295988      33.6279211       
687.28           0.828664748      33.2882206       0.548898927      -55.9544089      0.548898927      -55.9544089      0.828664748      33.2882206       
695.26           0.831957487      32.9531876       0.544000725      -56.2929111      0.544000725      -56.2929111      0.831957487      32.9531876       
703.24           0.835176157      32.6227367       0.53915131       -56.6267213      0.53915131       -56.6267213      0.835176157      32.6227367       
711.22           0.838322664      32.2967841       0.534350354      -56.9559257      0.534350354      -56.9559257      0.838322664      32.2967841       
719.2            0.841398861      31.9752473       0.52959751       -57.2806091      0.52959751       -57.2806091      0.841398861      31.9752473       
727.18           0.844406553      31.6580453       0.524892413      -57.6008546      0.524892413      -57.6008546      0.844406553      31.6580453       
735.16           0.847347498      31.3450984       0.520234683      -57.9167437      0.520234683      -57.9167437      0.847347498      31.3450984       
743.14           0.850223404      31.0363286       0.515623923      -58.2283566      0.515623923      -58.2283566      0.850223404      31.0363286       
751.12           0.853035937      30.731659        0.511059727      -58.5357718      0.511059727      -58.5357718      0.853035937      30.731659        
759.1            0.855786715      30.4310142       0.506541673      -58.8390664      0.506541673      -58.8390664      0.855786715      30.4310142       
767.08           0.858477315      30.1343204       0.502069332      -59.138316       0.502069332      -59.138316       0.858477315      30.1343204       
775.06           0.861109269      29.8415048       0.497642264      -59.4335948      0.497642264      -59.4335948      0.861109269      29.8415048       
783.04           0.863684067      29.5524962       0.493260021      -59.7249755      0.493260021      -59.7249755      0.863684067      29.5524962       
791.02           0.866203161      29.2672249       0.488922148      -60.0125294      0.488922148      -60.0125294      0.866203161      29.2672249       
799              0.86866796       28.9856222       0.484628185      -60.2963263      0.484628185      -60.2963263      0.86866796       28.9856222       
806.98           0.871079837      28.7076209       0.480377665      -60.5764347      0.480377665      -60.5764347      0.871079837      28.7076209       
814.96           0.873440125      28.4331551       0.476170117      -60.8529218      0.476170117      -60.8529218      0.873440125      28.4331551       
822.94           0.875750122      28.1621603       0.472005067      -61.1258533      0.472005067      -61.1258533      0.875750122      28.1621603       
830.92           0.878011089      27.894573        0.467882039      -61.3952936      0.467882039      -61.3952936      0.878011089      27.894573        
838.9            0.880224253      27.6303311       0.463800553      -61.661306       0.463800553      -61.661306       0.880224253      27.6303311       
846.88           0.882390807      27.3693739       0.459760127      -61.9239521      0.459760127      -61.9239521      0.882390807      27.3693739       
854.86           0.884511911      27.1116416       0.455760282      -62.1832927      0.455760282      -62.1832927      0.884511911      27.1116416       
862.84           0.886588691      26.8570757       0.451800534      -62.439387       0.451800534      -62.439387       0.886588691      26.8570757       
870.82           0.888622246      26.6056191       0.447880401      -62.6922931      0.447880401      -62.6922931      0.888622246      26.6056191       
878.8            0.89061364       26.3572155       0.443999403      -62.942068       0.443999403      -62.942068       0.89061364       26.3572155       
886.78           0.892563911      26.1118099       0.440157059      -63.1887674      0.440157059      -63.1887674      0.892563911      26.1118099       
894.76           0.894474067      25.8693486       0.436352889      -63.4324459      0.436352889      -63.4324459      0.894474067      25.8693486       
902.74           0.896345087      25.6297786       0.432586418      -63.6731569      0.432586418      -63.6731569      0.896345087      25.6297786       
910.72           0.898177925      25.3930483       0.428857169      -63.9109526      0.428857169      -63.9109526      0.898177925      25.3930483       
918.7            0.899973508      25.159107        0.425164671      -64.1458845      0.425164671      -64.1458845      0.899973508      25.159107        
926.68           0.901732735      24.927905        0.421508454      -64.3780025      0.421508454      -64.3780025      0.901732735      24.927905        
934.66           0.903456485      24.6993939       0.417888051      -64.6073559      0.417888051      -64.6073559      0.903456485      24.6993939       
942.64           0.905145609      24.4735258       0.414302999      -64.8339926      0.414302999      -64.8339926      0.905145609      24.4735258       
950.62           0.906800936      24.2502542       0.410752837      -65.0579599      0.410752837      -65.0579599      0.906800936      24.2502542       
958.6            0.908423272      24.0295334       0.407237111      -65.2793037      0.407237111      -65.2793037      0.908423272      24.0295334       
966.58           0.9100134        23.8113186       0.403755366      -65.4980691      0.403755366      -65.4980691      0.9100134        23.8113186       
974.56           0.911572084      23.595566        0.400307155      -65.7143003      0.400307155      -65.7143003      0.911572084      23.595566        
982.54           0.913100065      23.3822326       0.396892034      -65.9280406      0.396892034      -65.9280406      0.913100065      23.3822326       
990.52           0.914598064      23.1712764       0.393509562      -66.1393323      0.393509562      -66.1393323      0.914598064      23.1712764       
998.5            0.916066784      22.9626561       0.390159305      -66.3482168      0.390159305      -66.3482168      0.916066784      22.9626561       
1006.48          0.917506906      22.7563315       0.386840831      -66.5547346      0.386840831      -66.5547346      0.917506906      22.7563315       
1014.46          0.918919096      22.5522628       0.383553715      -66.7589254      0.383553715      -66.7589254      0.918919096      22.5522628       
