! Coilcraft 0805HS-470 Chip Inductor				
! 13 June 2002			
# MHZ S MA R 50
!Freq             MagS11           AngS11           MagS21           AngS21           MagS12           AngS12           MagS22           AngS22
1                0.00489738744    36.7465513       0.996080083      -0.168537022     0.996080083      -0.168537022     0.00489738744    36.7465513       
7.48             0.0226064764     75.070759        0.99441592       -1.25866312      0.99441592       -1.25866312      0.0226064764     75.070759        
13.96            0.0413992649     79.0943326       0.993000016      -2.3462395       0.993000016      -2.3462395       0.0413992649     79.0943326       
20.44            0.0602323735     80.0879147       0.991408852      -3.4310563       0.991408852      -3.4310563       0.0602323735     80.0879147       
26.92            0.0790197585     80.1609321       0.989564608      -4.5126126       0.989564608      -4.5126126       0.0790197585     80.1609321       
33.4             0.0977271781     79.8286639       0.987438534      -5.59033286      0.987438534      -5.59033286      0.0977271781     79.8286639       
39.88            0.116331219      79.2815676       0.98501866       -6.66361571      0.98501866       -6.66361571      0.116331219      79.2815676       
46.36            0.134812182      78.6073619       0.982300896      -7.73185378      0.982300896      -7.73185378      0.134812182      78.6073619       
52.84            0.153152194      77.8525211       0.979285631      -8.79444439      0.979285631      -8.79444439      0.153152194      77.8525211       
59.32            0.171334583      77.0442158       0.975976145      -9.85079625      0.975976145      -9.85079625      0.171334583      77.0442158       
65.8             0.189343671      76.1995465       0.972377763      -10.9003341      0.972377763      -10.9003341      0.189343671      76.1995465       
72.28            0.207164695      75.3299162       0.968497344      -11.9425025      0.968497344      -11.9425025      0.207164695      75.3299162       
78.76            0.224783796      74.4432916       0.96434295       -12.976768       0.96434295       -12.976768       0.224783796      74.4432916       
85.24            0.242188028      73.5454575       0.959923602      -14.002622       0.959923602      -14.002622       0.242188028      73.5454575       
91.72            0.25936537       72.6407514       0.955249101      -15.019582       0.955249101      -15.019582       0.25936537       72.6407514       
98.2             0.276304739      71.7325151       0.950329876      -16.0271933      0.950329876      -16.0271933      0.276304739      71.7325151       
104.68           0.292996003      70.8233825       0.945176857      -17.0250297      0.945176857      -17.0250297      0.292996003      70.8233825       
111.16           0.309429979      69.9154698       0.939801367      -18.0126943      0.939801367      -18.0126943      0.309429979      69.9154698       
117.64           0.32559844       69.0105042       0.934215025      -18.9898202      0.934215025      -18.9898202      0.32559844       69.0105042       
124.12           0.341494098      68.109914        0.928429653      -19.9560706      0.928429653      -19.9560706      0.341494098      68.109914        
130.6            0.357110597      67.2148926       0.922457198      -20.9111385      0.922457198      -20.9111385      0.357110597      67.2148926       
137.08           0.372442491      66.3264453       0.916309658      -21.8547473      0.916309658      -21.8547473      0.372442491      66.3264453       
143.56           0.38748522       65.4454234       0.909999018      -22.7866494      0.909999018      -22.7866494      0.38748522       65.4454234       
150.04           0.402235079      64.5725513       0.903537183      -23.7066266      0.903537183      -23.7066266      0.402235079      64.5725513       
156.52           0.416689192      63.7084458       0.896935931      -24.6144889      0.896935931      -24.6144889      0.416689192      63.7084458       
163              0.430845469      62.8536324       0.890206858      -25.5100737      0.890206858      -25.5100737      0.430845469      62.8536324       
169.48           0.444702571      62.0085578       0.883361338      -26.3932452      0.883361338      -26.3932452      0.444702571      62.0085578       
175.96           0.458259868      61.1735999       0.876410483      -27.2638934      0.876410483      -27.2638934      0.458259868      61.1735999       
182.44           0.471517402      60.3490763       0.869365113      -28.1219324      0.869365113      -28.1219324      0.471517402      60.3490763       
188.92           0.484475835      59.5352513       0.862235724      -28.9673004      0.862235724      -28.9673004      0.484475835      59.5352513       
195.4            0.497136415      58.7323419       0.855032465      -29.7999574      0.855032465      -29.7999574      0.497136415      58.7323419       
201.88           0.509500924      57.9405223       0.847765122      -30.6198848      0.847765122      -30.6198848      0.509500924      57.9405223       
208.36           0.521571643      57.1599289       0.840443099      -31.4270837      0.840443099      -31.4270837      0.521571643      57.1599289       
214.84           0.533351303      56.3906639       0.83307541       -32.2215741      0.83307541       -32.2215741      0.533351303      56.3906639       
221.32           0.544843045      55.6327987       0.825670669      -33.0033933      0.825670669      -33.0033933      0.544843045      55.6327987       
227.8            0.556050382      54.8863766       0.818237083      -33.7725949      0.818237083      -33.7725949      0.556050382      54.8863766       
234.28           0.566977159      54.1514161       0.810782455      -34.5292475      0.810782455      -34.5292475      0.566977159      54.1514161       
240.76           0.577627512      53.427913        0.803314182      -35.2734337      0.803314182      -35.2734337      0.577627512      53.427913        
247.24           0.588005838      52.7158424       0.795839257      -36.0052487      0.795839257      -36.0052487      0.588005838      52.7158424       
253.72           0.598116759      52.0151614       0.788364275      -36.7247996      0.788364275      -36.7247996      0.598116759      52.0151614       
260.2            0.607965086      51.3258103       0.780895441      -37.4322039      0.780895441      -37.4322039      0.607965086      51.3258103       
266.68           0.617555797      50.6477146       0.773438576      -38.1275888      0.773438576      -38.1275888      0.617555797      50.6477146       
273.16           0.626894001      49.9807866       0.765999128      -38.8110899      0.765999128      -38.8110899      0.626894001      49.9807866       
279.64           0.635984917      49.3249267       0.758582182      -39.4828508      0.758582182      -39.4828508      0.635984917      49.3249267       
286.12           0.644833847      48.6800247       0.75119247       -40.1430217      0.75119247       -40.1430217      0.644833847      48.6800247       
292.6            0.653446156      48.0459613       0.743834388      -40.7917587      0.743834388      -40.7917587      0.653446156      48.0459613       
299.08           0.66182725       47.4226089       0.736512002      -41.4292233      0.736512002      -41.4292233      0.66182725       47.4226089       
305.56           0.669982556      46.8098327       0.729229066      -42.0555814      0.729229066      -42.0555814      0.669982556      46.8098327       
312.04           0.677917507      46.207492        0.721989034      -42.6710026      0.721989034      -42.6710026      0.677917507      46.207492        
318.52           0.685637525      45.6154405       0.714795072      -43.2756595      0.714795072      -43.2756595      0.685637525      45.6154405       
325              0.69314801       45.0335274       0.707650074      -43.8697276      0.707650074      -43.8697276      0.69314801       45.0335274       
331.48           0.700454322      44.4615985       0.700556674      -44.4533839      0.700556674      -44.4533839      0.700454322      44.4615985       
337.96           0.707561775      43.8994961       0.693517259      -45.0268073      0.693517259      -45.0268073      0.707561775      43.8994961       
344.44           0.714475625      43.3470602       0.68653398       -45.5901773      0.68653398       -45.5901773      0.714475625      43.3470602       
350.92           0.721201061      42.8041288       0.679608771      -46.1436741      0.679608771      -46.1436741      0.721201061      42.8041288       
357.4            0.727743197      42.2705388       0.672743356      -46.6874781      0.672743356      -46.6874781      0.727743197      42.2705388       
363.88           0.734107067      41.7461259       0.665939262      -47.2217695      0.665939262      -47.2217695      0.734107067      41.7461259       
370.36           0.740297619      41.2307254       0.659197832      -47.7467278      0.659197832      -47.7467278      0.740297619      41.2307254       
376.84           0.746319709      40.7241724       0.652520235      -48.2625317      0.652520235      -48.2625317      0.746319709      40.7241724       
383.32           0.752178097      40.2263024       0.645907481      -48.7693588      0.645907481      -48.7693588      0.752178097      40.2263024       
389.8            0.757877446      39.7369513       0.639360423      -49.2673853      0.639360423      -49.2673853      0.757877446      39.7369513       
396.28           0.763422318      39.2559561       0.632879776      -49.7567859      0.632879776      -49.7567859      0.763422318      39.2559561       
402.76           0.76881717       38.7831545       0.626466121      -50.2377335      0.626466121      -50.2377335      0.76881717       38.7831545       
409.24           0.774066357      38.3183859       0.620119918      -50.7103988      0.620119918      -50.7103988      0.774066357      38.3183859       
415.72           0.779174126      37.8614908       0.61384151       -51.1749508      0.61384151       -51.1749508      0.779174126      37.8614908       
422.2            0.78414462       37.4123119       0.607631136      -51.6315559      0.607631136      -51.6315559      0.78414462       37.4123119       
428.68           0.788981875      36.9706932       0.601488934      -52.0803784      0.601488934      -52.0803784      0.788981875      36.9706932       
435.16           0.793689822      36.5364812       0.595414955      -52.52158        0.595414955      -52.52158        0.793689822      36.5364812       
441.64           0.798272286      36.109524        0.589409163      -52.9553197      0.589409163      -52.9553197      0.798272286      36.109524        
448.12           0.802732987      35.6896722       0.583471445      -53.3817543      0.583471445      -53.3817543      0.802732987      35.6896722       
454.6            0.807075544      35.2767787       0.57760162       -53.8010376      0.57760162       -53.8010376      0.807075544      35.2767787       
461.08           0.81130347       34.8706987       0.571799438      -54.2133209      0.571799438      -54.2133209      0.81130347       34.8706987       
467.56           0.81542018       34.4712896       0.566064592      -54.6187524      0.566064592      -54.6187524      0.81542018       34.4712896       
474.04           0.819428991      34.0784116       0.560396719      -55.0174779      0.560396719      -55.0174779      0.819428991      34.0784116       
480.52           0.823333119      33.6919272       0.554795408      -55.4096403      0.554795408      -55.4096403      0.823333119      33.6919272       
487              0.827135687      33.3117014       0.549260201      -55.7953796      0.549260201      -55.7953796      0.827135687      33.3117014       
493.48           0.830839724      32.937602        0.543790602      -56.174833       0.543790602      -56.174833       0.830839724      32.937602        
499.96           0.834448168      32.5694989       0.538386076      -56.548135       0.538386076      -56.548135       0.834448168      32.5694989       
506.44           0.837963865      32.207265        0.533046056      -56.9154173      0.533046056      -56.9154173      0.837963865      32.207265        
512.92           0.841389578      31.8507756       0.527769945      -57.2768087      0.527769945      -57.2768087      0.841389578      31.8507756       
519.4            0.844727979      31.4999085       0.522557119      -57.6324353      0.522557119      -57.6324353      0.844727979      31.4999085       
525.88           0.847981663      31.154544        0.517406933      -57.9824205      0.517406933      -57.9824205      0.847981663      31.154544        
532.36           0.851153139      30.8145651       0.512318719      -58.326885       0.512318719      -58.326885       0.851153139      30.8145651       
538.84           0.85424484       30.4798571       0.507291793      -58.6659468      0.507291793      -58.6659468      0.85424484       30.4798571       
545.32           0.857259122      30.1503079       0.502325453      -58.9997213      0.502325453      -58.9997213      0.857259122      30.1503079       
551.8            0.860198266      29.8258079       0.497418987      -59.3283212      0.497418987      -59.3283212      0.860198266      29.8258079       
558.28           0.863064481      29.5062498       0.49257167       -59.6518567      0.49257167       -59.6518567      0.863064481      29.5062498       
564.76           0.865859906      29.1915288       0.487782767      -59.9704355      0.487782767      -59.9704355      0.865859906      29.1915288       
571.24           0.868586611      28.8815422       0.483051537      -60.2841627      0.483051537      -60.2841627      0.868586611      28.8815422       
577.72           0.871246601      28.5761899       0.478377232      -60.5931412      0.478377232      -60.5931412      0.871246601      28.5761899       
584.2            0.873841816      28.275374        0.4737591        -60.8974711      0.4737591        -60.8974711      0.873841816      28.275374        
590.68           0.876374135      27.9789987       0.469196386      -61.1972506      0.469196386      -61.1972506      0.876374135      27.9789987       
597.16           0.878845376      27.6869707       0.464688334      -61.4925754      0.464688334      -61.4925754      0.878845376      27.6869707       
603.64           0.881257298      27.3991986       0.460234185      -61.7835387      0.460234185      -61.7835387      0.881257298      27.3991986       
610.12           0.883611607      27.1155931       0.455833185      -62.0702318      0.455833185      -62.0702318      0.883611607      27.1155931       
616.6            0.88590995       26.8360673       0.451484576      -62.3527438      0.451484576      -62.3527438      0.88590995       26.8360673       
623.08           0.888153923      26.5605358       0.447187606      -62.6311615      0.447187606      -62.6311615      0.888153923      26.5605358       
629.56           0.890345072      26.2889158       0.442941525      -62.9055698      0.442941525      -62.9055698      0.890345072      26.2889158       
636.04           0.892484892      26.021126        0.438745588      -63.1760514      0.438745588      -63.1760514      0.892484892      26.021126        
642.52           0.894574832      25.7570872       0.434599052      -63.4426871      0.434599052      -63.4426871      0.894574832      25.7570872       
649              0.896616291      25.496722        0.430501182      -63.7055559      0.430501182      -63.7055559      0.896616291      25.496722        
655.48           0.898610628      25.2399549       0.426451247      -63.9647345      0.426451247      -63.9647345      0.898610628      25.2399549       
661.96           0.900559156      24.9867122       0.422448523      -64.2202982      0.422448523      -64.2202982      0.900559156      24.9867122       
668.44           0.902463146      24.7369218       0.418492292      -64.4723203      0.418492292      -64.4723203      0.902463146      24.7369218       
674.92           0.90432383       24.4905135       0.414581844      -64.7208722      0.414581844      -64.7208722      0.90432383       24.4905135       
681.4            0.9061424        24.2474186       0.410716474      -64.9660237      0.410716474      -64.9660237      0.9061424        24.2474186       
687.88           0.90792001       24.0075701       0.406895488      -65.207843       0.406895488      -65.207843       0.90792001       24.0075701       
694.36           0.90965778       23.7709025       0.403118199      -65.4463965      0.403118199      -65.4463965      0.90965778       23.7709025       
700.84           0.911356791      23.5373521       0.399383925      -65.6817491      0.399383925      -65.6817491      0.911356791      23.5373521       
707.32           0.913018093      23.3068565       0.395691997      -65.913964       0.395691997      -65.913964       0.913018093      23.3068565       
713.8            0.914642701      23.0793547       0.392041753      -66.1431031      0.392041753      -66.1431031      0.914642701      23.0793547       
720.28           0.9162316        22.8547874       0.388432537      -66.3692265      0.388432537      -66.3692265      0.9162316        22.8547874       
726.76           0.917785743      22.6330964       0.384863705      -66.5923933      0.384863705      -66.5923933      0.917785743      22.6330964       
733.24           0.919306055      22.4142251       0.381334621      -66.8126607      0.381334621      -66.8126607      0.919306055      22.4142251       
739.72           0.920793429      22.1981183       0.377844659      -67.0300848      0.377844659      -67.0300848      0.920793429      22.1981183       
746.2            0.922248735      21.9847217       0.374393199      -67.2447203      0.374393199      -67.2447203      0.922248735      21.9847217       
752.68           0.923672812      21.7739828       0.370979633      -67.4566205      0.370979633      -67.4566205      0.923672812      21.7739828       
759.16           0.925066475      21.5658499       0.367603361      -67.6658377      0.367603361      -67.6658377      0.925066475      21.5658499       
765.64           0.926430515      21.3602727       0.364263792      -67.8724226      0.364263792      -67.8724226      0.926430515      21.3602727       
772.12           0.927765697      21.157202        0.360960345      -68.0764249      0.360960345      -68.0764249      0.927765697      21.157202        
778.6            0.929072764      20.95659         0.357692447      -68.2778931      0.357692447      -68.2778931      0.929072764      20.95659         
785.08           0.930352435      20.7583895       0.354459534      -68.4768745      0.354459534      -68.4768745      0.930352435      20.7583895       
791.56           0.931605408      20.562555        0.351261052      -68.6734152      0.351261052      -68.6734152      0.931605408      20.562555        
798.04           0.932832362      20.3690416       0.348096456      -68.8675604      0.348096456      -68.8675604      0.932832362      20.3690416       
804.52           0.934033952      20.1778056       0.344965208      -69.0593541      0.344965208      -69.0593541      0.934033952      20.1778056       
811              0.935210815      19.9888044       0.341866782      -69.2488392      0.341866782      -69.2488392      0.935210815      19.9888044       
817.48           0.936363571      19.8019961       0.338800657      -69.4360579      0.338800657      -69.4360579      0.936363571      19.8019961       
823.96           0.937492817      19.61734         0.335766323      -69.6210509      0.335766323      -69.6210509      0.937492817      19.61734         
