! Coilcraft 0805HS-680 Chip Inductor				
! 13 June 2002			
# MHZ S MA R 50
!Freq             MagS11           AngS11           MagS21           AngS21           MagS12           AngS12           MagS22           AngS22
1                0.00652379781    40.063823        0.995016015      -0.241789659     0.995016015      -0.241789659     0.00652379781    40.063823        
6.98             0.0301895358     75.0665777       0.992648948      -1.68393215      0.992648948      -1.68393215      0.0301895358     75.0665777       
12.96            0.0550346199     78.4755397       0.99047387       -3.12093921      0.99047387       -3.12093921      0.0550346199     78.4755397       
18.94            0.0798633531     79.0392596       0.987931326      -4.55202567      0.987931326      -4.55202567      0.0798633531     79.0392596       
24.92            0.10455599       78.7315177       0.984921355      -5.97590562      0.984921355      -5.97590562      0.10455599       78.7315177       
30.9             0.129052994      78.0405272       0.981412255      -7.39118396      0.981412255      -7.39118396      0.129052994      78.0405272       
36.88            0.153308399      77.148494        0.977396654      -8.79644967      0.977396654      -8.79644967      0.153308399      77.148494        
42.86            0.177281868      76.1401629       0.972879228      -10.1903168      0.972879228      -10.1903168      0.177281868      76.1401629       
48.84            0.200936725      75.0609341       0.967871868      -11.5714478      0.967871868      -11.5714478      0.200936725      75.0609341       
54.82            0.224239411      73.9376913       0.962391316      -12.938569       0.962391316      -12.938569       0.224239411      73.9376913       
60.8             0.247159348      72.7875982       0.956457797      -14.2904813      0.956457797      -14.2904813      0.247159348      72.7875982       
66.78            0.269668939      71.6222744       0.950094112      -15.6260683      0.950094112      -15.6260683      0.269668939      71.6222744       
72.76            0.291743587      70.44996         0.943324975      -16.944302       0.943324975      -16.944302       0.291743587      70.44996         
78.74            0.313361706      69.276719        0.936176479      -18.2442463      0.936176479      -18.2442463      0.313361706      69.276719        
84.72            0.334504704      68.1071464       0.928675662      -19.5250593      0.928675662      -19.5250593      0.334504704      68.1071464       
90.7             0.355156937      66.9448036       0.920850122      -20.7859939      0.920850122      -20.7859939      0.355156937      66.9448036       
96.68            0.37530563       65.7924987       0.912727691      -22.0263975      0.912727691      -22.0263975      0.37530563       65.7924987       
102.66           0.394940777      64.6524716       0.904336143      -23.2457107      0.904336143      -23.2457107      0.394940777      64.6524716       
108.64           0.414055013      63.5265227       0.895702949      -24.4434646      0.895702949      -24.4434646      0.414055013      63.5265227       
114.62           0.432643465      62.4161025       0.886855055      -25.6192775      0.886855055      -25.6192775      0.432643465      62.4161025       
120.6            0.450703594      61.3223784       0.877818698      -26.7728517      0.877818698      -26.7728517      0.450703594      61.3223784       
126.58           0.468235021      60.2462838       0.868619256      -27.9039687      0.868619256      -27.9039687      0.468235021      60.2462838       
132.56           0.485239349      59.1885559       0.859281119      -29.0124848      0.859281119      -29.0124848      0.485239349      59.1885559       
138.54           0.501719981      58.149766        0.84982759       -30.0983262      0.84982759       -30.0983262      0.501719981      58.149766        
144.52           0.517681936      57.1303432       0.840280812      -31.1614838      0.840280812      -31.1614838      0.517681936      57.1303432       
150.5            0.533131672      56.1305947       0.83066171       -32.2020081      0.83066171       -32.2020081      0.533131672      56.1305947       
156.48           0.548076912      55.1507217       0.820989963      -33.220004       0.820989963      -33.220004       0.548076912      55.1507217       
162.46           0.562526476      54.1908339       0.811283986      -34.215626       0.811283986      -34.215626       0.562526476      54.1908339       
168.44           0.576490125      53.2509615       0.801560927      -35.189073       0.801560927      -35.189073       0.576490125      53.2509615       
174.42           0.589978405      52.3310658       0.791836683      -36.1405834      0.791836683      -36.1405834      0.589978405      52.3310658       
180.4            0.603002517      51.431048        0.782125918      -37.0704308      0.782125918      -37.0704308      0.603002517      51.431048        
186.38           0.615574183      50.5507579       0.772442104      -37.9789194      0.772442104      -37.9789194      0.615574183      50.5507579       
192.36           0.62770553       49.6900006       0.762797551      -38.8663803      0.762797551      -38.8663803      0.62770553       49.6900006       
198.34           0.639408986      48.8485433       0.753203459      -39.7331671      0.753203459      -39.7331671      0.639408986      48.8485433       
204.32           0.650697179      48.0261207       0.743669966      -40.5796527      0.743669966      -40.5796527      0.650697179      48.0261207       
210.3            0.661582855      47.2224402       0.734206201      -41.4062259      0.734206201      -41.4062259      0.661582855      47.2224402       
216.28           0.6720788        46.4371865       0.724820337      -42.2132884      0.724820337      -42.2132884      0.6720788        46.4371865       
222.26           0.682197775      45.6700253       0.715519651      -43.0012519      0.715519651      -43.0012519      0.682197775      45.6700253       
228.24           0.691952456      44.9206075       0.706310576      -43.7705358      0.706310576      -43.7705358      0.691952456      44.9206075       
234.22           0.701355383      44.1885718       0.69719876       -44.5215648      0.69719876       -44.5215648      0.701355383      44.1885718       
240.2            0.710418919      43.473548        0.688189117      -45.2547666      0.688189117      -45.2547666      0.710418919      43.473548        
246.18           0.719155213      42.775159        0.679285885      -45.9705707      0.679285885      -45.9705707      0.719155213      42.775159        
252.16           0.727576168      42.0930236       0.670492672      -46.669406       0.670492672      -46.669406       0.727576168      42.0930236       
258.14           0.735693418      41.4267579       0.661812509      -47.3517         0.661812509      -47.3517         0.735693418      41.4267579       
264.12           0.743518309      40.7759773       0.653247897      -48.0178772      0.653247897      -48.0178772      0.743518309      40.7759773       
270.1            0.75106188       40.1402982       0.644800851      -48.668358       0.644800851      -48.668358       0.75106188       40.1402982       
276.08           0.758334856      39.5193388       0.63647294       -49.3035578      0.63647294       -49.3035578      0.758334856      39.5193388       
282.06           0.765347636      38.9127203       0.628265331      -49.9238864      0.628265331      -49.9238864      0.765347636      38.9127203       
288.04           0.77211029       38.3200683       0.620178825      -50.529747       0.620178825      -50.529747       0.77211029       38.3200683       
294.02           0.778632553      37.7410132       0.61221389       -51.1215355      0.61221389       -51.1215355      0.778632553      37.7410132       
300              0.78492383       37.1751909       0.604370693      -51.6996407      0.604370693      -51.6996407      0.78492383       37.1751909       
305.98           0.790993195      36.6222436       0.596649136      -52.2644429      0.596649136      -52.2644429      0.790993195      36.6222436       
311.96           0.796849389      36.0818202       0.589048878      -52.8163146      0.589048878      -52.8163146      0.796849389      36.0818202       
317.94           0.802500836      35.5535765       0.581569361      -53.3556195      0.581569361      -53.3556195      0.802500836      35.5535765       
323.92           0.807955635      35.0371756       0.57420984       -53.8827127      0.57420984       -53.8827127      0.807955635      35.0371756       
329.9            0.813221579      34.5322884       0.566969396      -54.3979404      0.566969396      -54.3979404      0.813221579      34.5322884       
335.88           0.818306152      34.0385933       0.559846963      -54.9016402      0.559846963      -54.9016402      0.818306152      34.0385933       
341.86           0.823216545      33.5557766       0.552841345      -55.3941405      0.552841345      -55.3941405      0.823216545      33.5557766       
347.84           0.827959659      33.0835328       0.54595123       -55.875761       0.54595123       -55.875761       0.827959659      33.0835328       
353.82           0.832542115      32.621564        0.53917521       -56.3468123      0.53917521       -56.3468123      0.832542115      32.621564        
359.8            0.836970264      32.1695805       0.532511788      -56.8075966      0.532511788      -56.8075966      0.836970264      32.1695805       
365.78           0.841250197      31.7273005       0.525959401      -57.2584071      0.525959401      -57.2584071      0.841250197      31.7273005       
371.76           0.845387748      31.2944499       0.51951642       -57.6995286      0.51951642       -57.6995286      0.845387748      31.2944499       
377.74           0.849388513      30.8707625       0.51318117       -58.1312375      0.51318117       -58.1312375      0.849388513      30.8707625       
383.72           0.85325785       30.4559798       0.506951934      -58.5538018      0.506951934      -58.5538018      0.85325785       30.4559798       
389.7            0.857000891      30.0498509       0.500826963      -58.9674816      0.500826963      -58.9674816      0.857000891      30.0498509       
395.68           0.860622554      29.6521321       0.494804485      -59.3725289      0.494804485      -59.3725289      0.860622554      29.6521321       
401.66           0.864127547      29.2625871       0.488882708      -59.769188       0.488882708      -59.769188       0.864127547      29.2625871       
407.64           0.867520379      28.8809868       0.483059831      -60.1576956      0.483059831      -60.1576956      0.867520379      28.8809868       
413.62           0.870805367      28.5071091       0.477334048      -60.5382811      0.477334048      -60.5382811      0.870805367      28.5071091       
419.6            0.873986644      28.1407383       0.471703548      -60.9111667      0.471703548      -60.9111667      0.873986644      28.1407383       
425.58           0.87706817       27.7816658       0.466166529      -61.2765676      0.466166529      -61.2765676      0.87706817       27.7816658       
431.56           0.880053732      27.4296893       0.460721193      -61.6346922      0.460721193      -61.6346922      0.880053732      27.4296893       
437.54           0.882946961      27.0846126       0.455365753      -61.9857422      0.455365753      -61.9857422      0.882946961      27.0846126       
443.52           0.88575133       26.7462458       0.450098438      -62.3299131      0.450098438      -62.3299131      0.88575133       26.7462458       
449.5            0.888470167      26.4144049       0.44491749       -62.6673941      0.44491749       -62.6673941      0.888470167      26.4144049       
455.48           0.891106658      26.0889117       0.439821173      -62.9983683      0.439821173      -62.9983683      0.891106658      26.0889117       
461.46           0.893663854      25.7695934       0.43480777       -63.323013       0.43480777       -63.323013       0.893663854      25.7695934       
467.44           0.89614468       25.4562829       0.429875586      -63.6415         0.429875586      -63.6415         0.89614468       25.4562829       
473.42           0.898551934      25.1488181       0.425022953      -63.9539954      0.425022953      -63.9539954      0.898551934      25.1488181       
479.4            0.9008883        24.8470421       0.420248223      -64.2606601      0.420248223      -64.2606601      0.9008883        24.8470421       
485.38           0.903156348      24.5508029       0.415549779      -64.5616499      0.415549779      -64.5616499      0.903156348      24.5508029       
491.36           0.90535854       24.2599534       0.410926028      -64.8571157      0.410926028      -64.8571157      0.90535854       24.2599534       
497.34           0.907497237      23.974351        0.406375406      -65.1472035      0.406375406      -65.1472035      0.907497237      23.974351        
503.32           0.909574703      23.6938575       0.401896376      -65.4320547      0.401896376      -65.4320547      0.909574703      23.6938575       
509.3            0.911593107      23.4183391       0.39748743       -65.7118063      0.39748743       -65.7118063      0.911593107      23.4183391       
515.28           0.913554528      23.1476662       0.39314709       -65.9865907      0.39314709       -65.9865907      0.913554528      23.1476662       
521.26           0.915460963      22.8817133       0.388873906      -66.2565365      0.388873906      -66.2565365      0.915460963      22.8817133       
527.24           0.917314323      22.6203587       0.384666457      -66.5217681      0.384666457      -66.5217681      0.917314323      22.6203587       
533.22           0.919116447      22.3634845       0.38052335       -66.7824058      0.38052335       -66.7824058      0.919116447      22.3634845       
539.2            0.920869093      22.1109764       0.376443224      -67.0385665      0.376443224      -67.0385665      0.920869093      22.1109764       
545.18           0.922573954      21.8627237       0.372424744      -67.2903632      0.372424744      -67.2903632      0.922573954      21.8627237       
551.16           0.924232652      21.6186191       0.368466604      -67.5379055      0.368466604      -67.5379055      0.924232652      21.6186191       
557.14           0.925846745      21.3785586       0.364567529      -67.7812995      0.364567529      -67.7812995      0.925846745      21.3785586       
563.12           0.927417729      21.1424413       0.360726268      -68.0206481      0.360726268      -68.0206481      0.927417729      21.1424413       
569.1            0.928947041      20.9101696       0.356941601      -68.2560511      0.356941601      -68.2560511      0.928947041      20.9101696       
575.08           0.930436061      20.6816484       0.353212335      -68.4876051      0.353212335      -68.4876051      0.930436061      20.6816484       
581.06           0.931886114      20.4567861       0.349537301      -68.7154038      0.349537301      -68.7154038      0.931886114      20.4567861       
587.04           0.933298477      20.2354933       0.345915361      -68.939538       0.345915361      -68.939538       0.933298477      20.2354933       
593.02           0.934674373      20.0176836       0.342345401      -69.160096       0.342345401      -69.160096       0.934674373      20.0176836       
599              0.93601498       19.8032731       0.338826332      -69.377163       0.338826332      -69.377163       0.93601498       19.8032731       
604.98           0.937321431      19.5921804       0.33535709       -69.590822       0.33535709       -69.590822       0.937321431      19.5921804       
610.96           0.938594816      19.3843266       0.331936639      -69.8011535      0.331936639      -69.8011535      0.938594816      19.3843266       
616.94           0.939836181      19.1796349       0.328563964      -70.0082352      0.328563964      -70.0082352      0.939836181      19.1796349       
622.92           0.941046535      18.9780309       0.325238074      -70.2121431      0.325238074      -70.2121431      0.941046535      18.9780309       
628.9            0.942226849      18.7794425       0.321958004      -70.4129503      0.321958004      -70.4129503      0.942226849      18.7794425       
634.88           0.943378056      18.5837996       0.318722808      -70.6107284      0.318722808      -70.6107284      0.943378056      18.5837996       
640.86           0.944501056      18.3910339       0.315531566      -70.8055464      0.315531566      -70.8055464      0.944501056      18.3910339       
646.84           0.945596714      18.2010796       0.312383378      -70.9974714      0.312383378      -70.9974714      0.945596714      18.2010796       
652.82           0.946665864      18.0138722       0.309277365      -71.1865688      0.309277365      -71.1865688      0.946665864      18.0138722       
658.8            0.947709311      17.8293495       0.306212669      -71.3729018      0.306212669      -71.3729018      0.947709311      17.8293495       
664.78           0.948727827      17.6474508       0.303188453      -71.5565318      0.303188453      -71.5565318      0.948727827      17.6474508       
670.76           0.94972216       17.4681173       0.300203901      -71.7375188      0.300203901      -71.7375188      0.94972216       17.4681173       
676.74           0.950693028      17.2912917       0.297258213      -71.9159206      0.297258213      -71.9159206      0.950693028      17.2912917       
682.72           0.951641125      17.1169184       0.294350612      -72.0917936      0.294350612      -72.0917936      0.951641125      17.1169184       
688.7            0.952567119      16.9449434       0.291480336      -72.2651926      0.291480336      -72.2651926      0.952567119      16.9449434       
694.68           0.953471656      16.7753142       0.288646644      -72.4361709      0.288646644      -72.4361709      0.953471656      16.7753142       
700.66           0.954355357      16.6079795       0.28584881       -72.6047802      0.28584881       -72.6047802      0.954355357      16.6079795       
706.64           0.955218824      16.4428897       0.283086128      -72.7710708      0.283086128      -72.7710708      0.955218824      16.4428897       
712.62           0.956062635      16.2799966       0.280357906      -72.9350915      0.280357906      -72.9350915      0.956062635      16.2799966       
718.6            0.95688735       16.119253        0.27766347       -73.0968899      0.27766347       -73.0968899      0.95688735       16.119253        
724.58           0.95769351       15.9606132       0.275002162      -73.2565123      0.275002162      -73.2565123      0.95769351       15.9606132       
730.56           0.958481634      15.8040327       0.272373338      -73.4140036      0.272373338      -73.4140036      0.958481634      15.8040327       
736.54           0.959252228      15.6494683       0.26977637       -73.5694075      0.26977637       -73.5694075      0.959252228      15.6494683       
742.52           0.960005778      15.4968777       0.267210646      -73.7227665      0.267210646      -73.7227665      0.960005778      15.4968777       
748.5            0.960742753      15.3462199       0.264675567      -73.8741221      0.264675567      -73.8741221      0.960742753      15.3462199       
754.48           0.961463609      15.1974551       0.262170548      -74.0235145      0.262170548      -74.0235145      0.961463609      15.1974551       
760.46           0.962168785      15.0505442       0.259695018      -74.170983       0.259695018      -74.170983       0.962168785      15.0505442       
