! Coilcraft 0805HS-080 Chip Inductor				
! 13 June 2002			
# MHZ S MA R 50
!Freq             MagS11           AngS11           MagS21           AngS21           MagS12           AngS12           MagS22           AngS22
1                0.00151840981    19.3996826       0.998567926      -0.0289385002    0.998567926      -0.0289385002    0.00151840981    19.3996826       
20.45            0.0105628403     77.093215        0.997693753      -0.591289618     0.997693753      -0.591289618     0.0105628403     77.093215        
39.9             0.0203003515     81.2877826       0.997126998      -1.15309433      0.997126998      -1.15309433      0.0203003515     81.2877826       
59.35            0.0300671477     82.5733721       0.996559726      -1.71442213      0.996559726      -1.71442213      0.0300671477     82.5733721       
78.8             0.0398341352     83.024048        0.995947202      -2.27524888      0.995947202      -2.27524888      0.0398341352     83.024048        
98.25            0.0495930011     83.1132158       0.995271966      -2.83552684      0.995271966      -2.83552684      0.0495930011     83.1132158       
117.7            0.0593394002     83.0109517       0.9945252        -3.39519782      0.9945252        -3.39519782      0.0593394002     83.0109517       
137.15           0.0690701986     82.7942552       0.993701851      -3.95419812      0.993701851      -3.95419812      0.0690701986     82.7942552       
156.6            0.0787827382     82.5033791       0.992798827      -4.51246084      0.992798827      -4.51246084      0.0787827382     82.5033791       
176.05           0.0884745843     82.1615592       0.991814186      -5.06991717      0.991814186      -5.06991717      0.0884745843     82.1615592       
195.5            0.0981434236     81.7832224       0.990746718      -5.62649721      0.990746718      -5.62649721      0.0981434236     81.7832224       
214.95           0.107787019      81.3778428       0.989595714      -6.18213046      0.989595714      -6.18213046      0.107787019      81.3778428       
234.4            0.117403191      80.9519267       0.988360828      -6.73674625      0.988360828      -6.73674625      0.117403191      80.9519267       
253.85           0.126989801      80.5101082       0.987041984      -7.29027398      0.987041984      -7.29027398      0.126989801      80.5101082       
273.3            0.136544757      80.0557904       0.985639321      -7.84264336      0.985639321      -7.84264336      0.136544757      80.0557904       
292.75           0.146066002      79.5915385       0.984153151      -8.39378459      0.984153151      -8.39378459      0.146066002      79.5915385       
312.2            0.15555152       79.1193297       0.982583927      -8.94362848      0.982583927      -8.94362848      0.15555152       79.1193297       
331.65           0.164999335      78.6407186       0.980932226      -9.49210664      0.980932226      -9.49210664      0.164999335      78.6407186       
351.1            0.174407512      78.1569489       0.979198728      -10.0391515      0.979198728      -10.0391515      0.174407512      78.1569489       
370.55           0.183774155      77.6690308       0.977384207      -10.5846965      0.977384207      -10.5846965      0.183774155      77.6690308       
390              0.193097416      77.177797        0.975489516      -11.1286761      0.975489516      -11.1286761      0.193097416      77.177797        
409.45           0.20237549       76.6839422       0.973515584      -11.6710259      0.973515584      -11.6710259      0.20237549       76.6839422       
428.9            0.211606618      76.1880526       0.971463404      -12.2116827      0.971463404      -12.2116827      0.211606618      76.1880526       
448.35           0.220789089      75.6906284       0.969334029      -12.7505844      0.969334029      -12.7505844      0.220789089      75.6906284       
467.8            0.229921241      75.1921001       0.967128568      -13.2876705      0.967128568      -13.2876705      0.229921241      75.1921001       
487.25           0.239001463      74.6928418       0.964848179      -13.8228817      0.964848179      -13.8228817      0.239001463      74.6928418       
506.7            0.248028194      74.1931809       0.962494064      -14.35616        0.962494064      -14.35616        0.248028194      74.1931809       
526.15           0.256999925      73.6934064       0.960067468      -14.8874489      0.960067468      -14.8874489      0.256999925      73.6934064       
545.6            0.2659152        73.1937746       0.957569673      -15.4166937      0.957569673      -15.4166937      0.2659152        73.1937746       
565.05           0.274772618      72.6945147       0.955001998      -15.9438406      0.955001998      -15.9438406      0.274772618      72.6945147       
584.5            0.283570829      72.1958323       0.952365788      -16.468838       0.952365788      -16.468838       0.283570829      72.1958323       
603.95           0.292308541      71.6979134       0.949662422      -16.9916353      0.949662422      -16.9916353      0.292308541      71.6979134       
623.4            0.300984515      71.2009263       0.946893301      -17.5121839      0.946893301      -17.5121839      0.300984515      71.2009263       
642.85           0.309597568      70.7050243       0.944059848      -18.0304365      0.944059848      -18.0304365      0.309597568      70.7050243       
662.3            0.318146571      70.2103477       0.941163509      -18.5463477      0.941163509      -18.5463477      0.318146571      70.2103477       
681.75           0.326630453      69.7170249       0.938205744      -19.0598734      0.938205744      -19.0598734      0.326630453      69.7170249       
701.2            0.335048196      69.225174        0.935188031      -19.5709716      0.935188031      -19.5709716      0.335048196      69.225174        
720.65           0.343398838      68.734904        0.932111859      -20.0796015      0.932111859      -20.0796015      0.343398838      68.734904        
740.1            0.351681473      68.2463154       0.928978727      -20.5857241      0.928978727      -20.5857241      0.351681473      68.2463154       
759.55           0.359895249      67.7595012       0.925790144      -21.0893021      0.925790144      -21.0893021      0.359895249      67.7595012       
779              0.368039367      67.2745478       0.922547623      -21.5902999      0.922547623      -21.5902999      0.368039367      67.2745478       
798.45           0.376113084      66.7915351       0.919252683      -22.0886834      0.919252683      -22.0886834      0.376113084      66.7915351       
817.9            0.384115708      66.3105375       0.915906843      -22.5844202      0.915906843      -22.5844202      0.384115708      66.3105375       
837.35           0.392046602      65.8316242       0.912511625      -23.0774795      0.912511625      -23.0774795      0.392046602      65.8316242       
856.8            0.399905179      65.3548593       0.909068548      -23.5678321      0.909068548      -23.5678321      0.399905179      65.3548593       
876.25           0.407690904      64.8803026       0.905579128      -24.0554505      0.905579128      -24.0554505      0.407690904      64.8803026       
895.7            0.415403291      64.4080098       0.902044875      -24.5403086      0.902044875      -24.5403086      0.415403291      64.4080098       
915.15           0.423041905      63.9380325       0.898467295      -25.0223822      0.898467295      -25.0223822      0.423041905      63.9380325       
934.6            0.430606359      63.4704188       0.894847885      -25.5016482      0.894847885      -25.5016482      0.430606359      63.4704188       
954.05           0.438096313      63.0052133       0.891188132      -25.9780854      0.891188132      -25.9780854      0.438096313      63.0052133       
973.5            0.445511475      62.5424572       0.887489514      -26.4516739      0.887489514      -26.4516739      0.445511475      62.5424572       
992.95           0.452851595      62.082189        0.883753495      -26.9223954      0.883753495      -26.9223954      0.452851595      62.082189        
1012.4           0.460116471      61.6244441       0.879981528      -27.3902329      0.879981528      -27.3902329      0.460116471      61.6244441       
1031.85          0.467305942      61.169255        0.876175051      -27.8551712      0.876175051      -27.8551712      0.467305942      61.169255        
1051.3           0.47441989       60.716652        0.872335485      -28.317196       0.872335485      -28.317196       0.47441989       60.716652        
1070.75          0.481458237      60.2666627       0.868464238      -28.7762947      0.868464238      -28.7762947      0.481458237      60.2666627       
1090.2           0.488420947      59.8193123       0.864562699      -29.232456       0.864562699      -29.232456       0.488420947      59.8193123       
1109.65          0.495308019      59.3746238       0.860632238      -29.68567        0.860632238      -29.68567        0.495308019      59.3746238       
1129.1           0.502119491      58.9326182       0.856674208      -30.1359279      0.856674208      -30.1359279      0.502119491      58.9326182       
1148.55          0.508855439      58.4933144       0.852689941      -30.5832223      0.852689941      -30.5832223      0.508855439      58.4933144       
1168             0.515515969      58.0567292       0.84868075       -31.027547       0.84868075       -31.027547       0.515515969      58.0567292       
1187.45          0.522101226      57.6228778       0.844647925      -31.4688971      0.844647925      -31.4688971      0.522101226      57.6228778       
1206.9           0.528611384      57.1917733       0.840592737      -31.9072686      0.840592737      -31.9072686      0.528611384      57.1917733       
1226.35          0.535046648      56.7634274       0.836516434      -32.3426589      0.836516434      -32.3426589      0.535046648      56.7634274       
1245.8           0.541407255      56.33785         0.832420242      -32.7750664      0.832420242      -32.7750664      0.541407255      56.33785         
1265.25          0.547693469      55.9150495       0.828305363      -33.2044906      0.828305363      -33.2044906      0.547693469      55.9150495       
1284.7           0.553905582      55.4950329       0.824172976      -33.630932       0.824172976      -33.630932       0.553905582      55.4950329       
1304.15          0.560043913      55.0778055       0.820024239      -34.0543923      0.820024239      -34.0543923      0.560043913      55.0778055       
1323.6           0.566108804      54.6633714       0.815860284      -34.4748738      0.815860284      -34.4748738      0.566108804      54.6633714       
1343.05          0.572100624      54.2517335       0.811682218      -34.8923801      0.811682218      -34.8923801      0.572100624      54.2517335       
1362.5           0.578019761      53.8428933       0.807491128      -35.3069155      0.807491128      -35.3069155      0.578019761      53.8428933       
1381.95          0.583866629      53.4368511       0.803288073      -35.7184854      0.803288073      -35.7184854      0.583866629      53.4368511       
1401.4           0.589641659      53.0336061       0.79907409       -36.1270957      0.79907409       -36.1270957      0.589641659      53.0336061       
1420.85          0.595345303      52.6331564       0.794850191      -36.5327535      0.794850191      -36.5327535      0.595345303      52.6331564       
1440.3           0.600978031      52.235499        0.790617363      -36.9354665      0.790617363      -36.9354665      0.600978031      52.235499        
1459.75          0.606540331      51.8406299       0.78637657       -37.3352431      0.78637657       -37.3352431      0.606540331      51.8406299       
1479.2           0.612032706      51.4485442       0.782128752      -37.7320925      0.782128752      -37.7320925      0.612032706      51.4485442       
1498.65          0.617455676      51.0592361       0.777874822      -38.1260247      0.777874822      -38.1260247      0.617455676      51.0592361       
1518.1           0.622809774      50.6726988       0.773615673      -38.5170502      0.773615673      -38.5170502      0.622809774      50.6726988       
1537.55          0.628095546      50.2889249       0.769352172      -38.9051801      0.769352172      -38.9051801      0.628095546      50.2889249       
1557             0.633313553      49.9079059       0.765085162      -39.2904264      0.765085162      -39.2904264      0.633313553      49.9079059       
1576.45          0.638464364      49.5296329       0.760815463      -39.6728014      0.760815463      -39.6728014      0.638464364      49.5296329       
1595.9           0.643548563      49.1540959       0.756543873      -40.0523181      0.756543873      -40.0523181      0.643548563      49.1540959       
1615.35          0.648566739      48.7812844       0.752271166      -40.4289899      0.752271166      -40.4289899      0.648566739      48.7812844       
1634.8           0.653519494      48.4111874       0.747998092      -40.8028308      0.747998092      -40.8028308      0.653519494      48.4111874       
1654.25          0.658407435      48.0437931       0.74372538       -41.1738553      0.74372538       -41.1738553      0.658407435      48.0437931       
1673.7           0.663231181      47.6790891       0.739453736      -41.5420784      0.739453736      -41.5420784      0.663231181      47.6790891       
1693.15          0.667991352      47.3170626       0.735183845      -41.9075153      0.735183845      -41.9075153      0.667991352      47.3170626       
1712.6           0.672688579      46.9577002       0.730916369      -42.2701818      0.730916369      -42.2701818      0.672688579      46.9577002       
1732.05          0.677323496      46.6009878       0.726651951      -42.630094       0.726651951      -42.630094       0.677323496      46.6009878       
1751.5           0.681896741      46.2469113       0.722391211      -42.9872685      0.722391211      -42.9872685      0.681896741      46.2469113       
1770.95          0.686408958      45.8954558       0.718134748      -43.3417219      0.718134748      -43.3417219      0.686408958      45.8954558       
1790.4           0.690860794      45.546606        0.713883142      -43.6934715      0.713883142      -43.6934715      0.690860794      45.546606        
1809.85          0.695252896      45.2003464       0.709636953      -44.0425348      0.709636953      -44.0425348      0.695252896      45.2003464       
1829.3           0.699585919      44.8566611       0.705396722      -44.3889293      0.705396722      -44.3889293      0.699585919      44.8566611       
1848.75          0.703860513      44.5155337       0.701162968      -44.732673       0.701162968      -44.732673       0.703860513      44.5155337       
1868.2           0.708077335      44.1769476       0.696936196      -45.0737842      0.696936196      -45.0737842      0.708077335      44.1769476       
1887.65          0.71223704       43.8408859       0.692716888      -45.4122813      0.692716888      -45.4122813      0.71223704       43.8408859       
1907.1           0.716340283      43.5073315       0.68850551       -45.7481827      0.68850551       -45.7481827      0.716340283      43.5073315       
1926.55          0.72038772       43.1762669       0.68430251       -46.0815075      0.68430251       -46.0815075      0.72038772       43.1762669       
1946             0.724380005      42.8476745       0.68010832       -46.4122744      0.68010832       -46.4122744      0.724380005      42.8476745       
1965.45          0.728317793      42.5215364       0.675923353      -46.7405026      0.675923353      -46.7405026      0.728317793      42.5215364       
1984.9           0.732201737      42.1978346       0.671748006      -47.0662114      0.671748006      -47.0662114      0.732201737      42.1978346       
2004.35          0.736032486      41.8765508       0.667582662      -47.38942        0.667582662      -47.38942        0.736032486      41.8765508       
2023.8           0.73981069       41.5576666       0.663427685      -47.710148       0.663427685      -47.710148       0.73981069       41.5576666       
2043.25          0.743536996      41.2411635       0.659283426      -48.0284148      0.659283426      -48.0284148      0.743536996      41.2411635       
2062.7           0.747212046      40.9270228       0.65515022       -48.3442402      0.65515022       -48.3442402      0.747212046      40.9270228       
2082.15          0.75083648       40.6152258       0.651028389      -48.6576437      0.651028389      -48.6576437      0.75083648       40.6152258       
2101.6           0.754410938      40.3057535       0.646918237      -48.9686452      0.646918237      -48.9686452      0.754410938      40.3057535       
2121.05          0.757936051      39.998587        0.642820058      -49.2772643      0.642820058      -49.2772643      0.757936051      39.998587        
2140.5           0.76141245       39.6937072       0.638734131      -49.583521       0.638734131      -49.583521       0.76141245       39.6937072       
2159.95          0.764840762      39.3910951       0.634660722      -49.887435       0.634660722      -49.887435       0.764840762      39.3910951       
2179.4           0.768221606      39.0907314       0.630600083      -50.1890262      0.630600083      -50.1890262      0.768221606      39.0907314       
2198.85          0.771555602      38.7925971       0.626552457      -50.4883143      0.626552457      -50.4883143      0.771555602      38.7925971       
2218.3           0.774843361      38.4966729       0.62251807       -50.7853193      0.62251807       -50.7853193      0.774843361      38.4966729       
2237.75          0.778085491      38.2029395       0.61849714       -51.0800608      0.61849714       -51.0800608      0.778085491      38.2029395       
2257.2           0.781282595      37.9113778       0.614489872      -51.3725586      0.614489872      -51.3725586      0.781282595      37.9113778       
2276.65          0.78443527       37.6219685       0.610496462      -51.6628325      0.610496462      -51.6628325      0.78443527       37.6219685       
2296.1           0.78754411       37.3346923       0.606517091      -51.9509021      0.606517091      -51.9509021      0.78754411       37.3346923       
2315.55          0.790609702      37.0495302       0.602551934      -52.236787       0.602551934      -52.236787       0.790609702      37.0495302       
2335             0.793632627      36.7664629       0.598601154      -52.5205068      0.598601154      -52.5205068      0.793632627      36.7664629       
2354.45          0.796613461      36.4854713       0.594664904      -52.802081       0.594664904      -52.802081       0.796613461      36.4854713       
2373.9           0.799552775      36.2065364       0.590743326      -53.0815288      0.590743326      -53.0815288      0.799552775      36.2065364       
2393.35          0.802451133      35.929639        0.586836557      -53.3588698      0.586836557      -53.3588698      0.802451133      35.929639        
2412.8           0.805309096      35.6547603       0.582944722      -53.6341231      0.582944722      -53.6341231      0.805309096      35.6547603       
2432.25          0.808127214      35.3818813       0.579067937      -53.9073078      0.579067937      -53.9073078      0.808127214      35.3818813       
2451.7           0.810906036      35.1109833       0.575206311      -54.1784429      0.575206311      -54.1784429      0.810906036      35.1109833       
2471.15          0.813646103      34.8420473       0.571359944      -54.4475475      0.571359944      -54.4475475      0.813646103      34.8420473       
