! Coilcraft 0805HS-151 Chip Inductor				
! 13 June 2002			
# MHZ S MA R 50
!Freq             MagS11           AngS11           MagS21           AngS21           MagS12           AngS12           MagS22           AngS22
1                0.0121093726     49.5598728       0.992188023      -0.532217625     0.992188023      -0.532217625     0.0121093726     49.5598728       
4.99             0.0473481207     74.5907992       0.98847358       -2.64676621      0.98847358       -2.64676621      0.0473481207     74.5907992       
8.98             0.0836480518     76.9401588       0.984476171      -4.74776641      0.984476171      -4.74776641      0.0836480518     76.9401588       
12.97            0.119700576      76.7629726       0.979545891      -6.83170138      0.979545891      -6.83170138      0.119700576      76.7629726       
16.96            0.155280213      75.786091        0.973579012      -8.89426032      0.973579012      -8.89426032      0.155280213      75.786091        
20.95            0.190243603      74.4608165       0.966571841      -10.9311137      0.966571841      -10.9311137      0.190243603      74.4608165       
24.94            0.224473536      72.9613063       0.95856092       -12.9381382      0.95856092       -12.9381382      0.224473536      72.9613063       
28.93            0.25786983       71.3709131       0.949604527      -14.9115277      0.949604527      -14.9115277      0.25786983       71.3709131       
32.92            0.290347386      69.7355267       0.939774241      -16.8478576      0.939774241      -16.8478576      0.290347386      69.7355267       
36.91            0.321835681      68.0830125       0.929149931      -18.7441231      0.929149931      -18.7441231      0.321835681      68.0830125       
40.9             0.352278428      66.4315205       0.917816246      -20.5977579      0.917816246      -20.5977579      0.352278428      66.4315205       
44.89            0.381633066      64.7934718       0.905859922      -22.4066379      0.905859922      -22.4066379      0.381633066      64.7934718       
48.88            0.409870034      63.1776524       0.893367617      -24.1690733      0.893367617      -24.1690733      0.409870034      63.1776524       
52.87            0.436971823      61.5903955       0.880424191      -25.8837913      0.880424191      -25.8837913      0.436971823      61.5903955       
56.86            0.462931875      60.036295        0.867111334      -27.5499111      0.867111334      -27.5499111      0.462931875      60.036295        
60.85            0.487753383      58.5186599       0.853506525      -29.1669141      0.853506525      -29.1669141      0.487753383      58.5186599       
64.84            0.511448031      57.0398208       0.839682276      -30.7346108      0.839682276      -30.7346108      0.511448031      57.0398208       
68.83            0.534034742      55.6013455       0.825705629      -32.2531056      0.825705629      -32.2531056      0.534034742      55.6013455       
72.82            0.55553847       54.2041976       0.811637869      -33.7227612      0.811637869      -33.7227612      0.55553847       54.2041976       
76.81            0.575989044      52.8488578       0.79753442       -35.1441638      0.79753442       -35.1441638      0.575989044      52.8488578       
80.8             0.59542012       51.5354185       0.783444887      -36.5180896      0.783444887      -36.5180896      0.59542012       51.5354185       
84.79            0.613868226      50.2636601       0.769413216      -37.8454728      0.769413216      -37.8454728      0.613868226      50.2636601       
88.78            0.631371913      49.0331135       0.755477943      -39.1273769      0.755477943      -39.1273769      0.631371913      49.0331135       
92.77            0.647971028      47.8431108       0.7416725        -40.3649679      0.7416725        -40.3649679      0.647971028      47.8431108       
96.76            0.663706075      46.6928286       0.728025571      -41.5594906      0.728025571      -41.5594906      0.663706075      46.6928286       
100.75           0.678617695      45.5813232       0.714561461      -42.7122472      0.714561461      -42.7122472      0.678617695      45.5813232       
104.74           0.692746225      44.5075605       0.701300486      -43.8245794      0.701300486      -43.8245794      0.692746225      44.5075605       
108.73           0.706131343      43.4704411       0.688259345      -44.897852       0.688259345      -44.897852       0.706131343      43.4704411       
112.72           0.718811793      42.4688206       0.675451499      -45.9334395      0.675451499      -45.9334395      0.718811793      42.4688206       
116.71           0.730825163      41.5015273       0.662887519      -46.9327145      0.662887519      -46.9327145      0.730825163      41.5015273       
120.7            0.742207729      40.567376        0.650575424      -47.8970382      0.650575424      -47.8970382      0.742207729      40.567376        
124.69           0.752994342      39.6651797       0.638520985      -48.8277526      0.638520985      -48.8277526      0.752994342      39.6651797       
128.68           0.763218349      38.7937591       0.626728013      -49.7261739      0.626728013      -49.7261739      0.763218349      38.7937591       
132.67           0.772911555      37.9519504       0.615198622      -50.5935879      0.615198622      -50.5935879      0.772911555      37.9519504       
136.66           0.782104209      37.1386107       0.603933457      -51.4312456      0.603933457      -51.4312456      0.782104209      37.1386107       
140.65           0.790825006      36.3526235       0.592931911      -52.2403607      0.592931911      -52.2403607      0.790825006      36.3526235       
144.64           0.799101112      35.5929016       0.582192315      -53.0221075      0.582192315      -53.0221075      0.799101112      35.5929016       
148.63           0.8069582        34.8583901       0.5717121        -53.777619       0.5717121        -53.777619       0.8069582        34.8583901       
152.62           0.814420494      34.1480681       0.561487953      -54.5079869      0.561487953      -54.5079869      0.814420494      34.1480681       
156.61           0.821510822      33.46095         0.551515941      -55.2142607      0.551515941      -55.2142607      0.821510822      33.46095         
160.6            0.828250675      32.7960861       0.541791632      -55.8974482      0.541791632      -55.8974482      0.828250675      32.7960861       
164.59           0.834660264      32.152563        0.532310189      -56.5585157      0.532310189      -56.5585157      0.834660264      32.152563        
168.58           0.840758586      31.5295033       0.523066462      -57.1983886      0.523066462      -57.1983886      0.840758586      31.5295033       
172.57           0.846563484      30.9260654       0.514055061      -57.8179527      0.514055061      -57.8179527      0.846563484      30.9260654       
176.56           0.852091711      30.3414429       0.50527042       -58.4180546      0.50527042       -58.4180546      0.852091711      30.3414429       
180.55           0.85735899       29.7748636       0.496706853      -58.9995035      0.496706853      -58.9995035      0.85735899       29.7748636       
184.54           0.862380072      29.2255887       0.488358602      -59.5630723      0.488358602      -59.5630723      0.862380072      29.2255887       
188.53           0.867168797      28.692912        0.48021988       -60.1094985      0.48021988       -60.1094985      0.867168797      28.692912        
192.52           0.871738149      28.1761584       0.472284898      -60.6394859      0.472284898      -60.6394859      0.871738149      28.1761584       
196.51           0.876100305      27.6746834       0.464547901      -61.153706       0.464547901      -61.153706       0.876100305      27.6746834       
200.5            0.880266689      27.1878712       0.457003188      -61.6527992      0.457003188      -61.6527992      0.880266689      27.1878712       
204.49           0.88424802       26.715134        0.44964513       -62.1373761      0.44964513       -62.1373761      0.88424802       26.715134        
208.48           0.888054352      26.255911        0.442468191      -62.6080191      0.442468191      -62.6080191      0.888054352      26.255911        
212.47           0.891695123      25.8096667       0.435466939      -63.0652832      0.435466939      -63.0652832      0.891695123      25.8096667       
216.46           0.895179193      25.3758902       0.428636052      -63.5096977      0.428636052      -63.5096977      0.895179193      25.3758902       
220.45           0.898514878      24.9540941       0.421970334      -63.9417675      0.421970334      -63.9417675      0.898514878      24.9540941       
224.44           0.90170999       24.543813        0.415464713      -64.3619737      0.415464713      -64.3619737      0.90170999       24.543813        
228.43           0.904771867      24.144603        0.409114251      -64.7707752      0.409114251      -64.7707752      0.904771867      24.144603        
232.42           0.907707407      23.7560404       0.402914146      -65.1686098      0.402914146      -65.1686098      0.907707407      23.7560404       
236.41           0.910523093      23.3777207       0.396859729      -65.5558951      0.396859729      -65.5558951      0.910523093      23.3777207       
240.4            0.913225022      23.0092579       0.390946473      -65.9330293      0.390946473      -65.9330293      0.913225022      23.0092579       
244.39           0.91581893       22.6502832       0.385169984      -66.3003927      0.385169984      -66.3003927      0.91581893       22.6502832       
248.38           0.918310218      22.3004448       0.379526008      -66.658348       0.379526008      -66.658348       0.918310218      22.3004448       
252.37           0.920703968      21.9594063       0.374010423      -67.0072417      0.374010423      -67.0072417      0.920703968      21.9594063       
256.36           0.92300497       21.6268466       0.368619241      -67.3474046      0.368619241      -67.3474046      0.92300497       21.6268466       
260.35           0.925217734      21.3024588       0.363348606      -67.6791524      0.363348606      -67.6791524      0.925217734      21.3024588       
264.34           0.927346516      20.9859494       0.358194788      -68.0027872      0.358194788      -68.0027872      0.927346516      20.9859494       
268.33           0.929395326      20.677038        0.353154182      -68.3185973      0.353154182      -68.3185973      0.929395326      20.677038        
272.32           0.931367952      20.3754564       0.348223306      -68.6268585      0.348223306      -68.6268585      0.931367952      20.3754564       
276.31           0.933267967      20.0809482       0.343398797      -68.9278343      0.343398797      -68.9278343      0.933267967      20.0809482       
280.3            0.935098745      19.7932678       0.338677407      -69.221777       0.338677407      -69.221777       0.935098745      19.7932678       
284.29           0.936863476      19.5121803       0.334055998      -69.5089278      0.334055998      -69.5089278      0.936863476      19.5121803       
288.28           0.938565173      19.237461        0.329531544      -69.7895175      0.329531544      -69.7895175      0.938565173      19.237461        
292.27           0.940206686      18.9688944       0.325101121      -70.0637672      0.325101121      -70.0637672      0.940206686      18.9688944       
296.26           0.941790713      18.7062742       0.32076191       -70.3318885      0.32076191       -70.3318885      0.941790713      18.7062742       
300.25           0.943319805      18.449403        0.316511188      -70.5940841      0.316511188      -70.5940841      0.943319805      18.449403        
304.24           0.94479638       18.1980911       0.312346326      -70.8505483      0.312346326      -70.8505483      0.94479638       18.1980911       
308.23           0.946222726      17.9521571       0.30826479       -71.1014672      0.30826479       -71.1014672      0.946222726      17.9521571       
312.22           0.947601014      17.7114268       0.304264131      -71.3470193      0.304264131      -71.3470193      0.947601014      17.7114268       
316.21           0.948933301      17.475733        0.300341989      -71.5873757      0.300341989      -71.5873757      0.948933301      17.475733        
320.2            0.950221539      17.2449156       0.296496083      -71.8227007      0.296496083      -71.8227007      0.950221539      17.2449156       
324.19           0.951467579      17.0188205       0.292724212      -72.0531519      0.292724212      -72.0531519      0.951467579      17.0188205       
328.18           0.95267318       16.7973          0.289024253      -72.2788804      0.289024253      -72.2788804      0.95267318       16.7973          
332.17           0.953840012      16.5802123       0.285394154      -72.5000315      0.285394154      -72.5000315      0.953840012      16.5802123       
336.16           0.954969661      16.3674209       0.281831937      -72.7167447      0.281831937      -72.7167447      0.954969661      16.3674209       
340.15           0.956063636      16.1587949       0.278335688      -72.9291541      0.278335688      -72.9291541      0.956063636      16.1587949       
344.14           0.957123371      15.9542082       0.274903561      -73.1373883      0.274903561      -73.1373883      0.957123371      15.9542082       
348.13           0.958150231      15.7535398       0.271533775      -73.3415713      0.271533775      -73.3415713      0.958150231      15.7535398       
352.12           0.959145514      15.5566732       0.268224606      -73.5418219      0.268224606      -73.5418219      0.959145514      15.5566732       
356.11           0.960110458      15.3634962       0.26497439       -73.7382549      0.26497439       -73.7382549      0.960110458      15.3634962       
360.1            0.961046239      15.173901        0.261781519      -73.9309802      0.261781519      -73.9309802      0.961046239      15.173901        
364.09           0.96195398       14.9877837       0.258644441      -74.120104       0.258644441      -74.120104       0.96195398       14.9877837       
368.08           0.962834752      14.8050443       0.255561653      -74.3057284      0.255561653      -74.3057284      0.962834752      14.8050443       
372.07           0.963689574      14.6255864       0.252531704      -74.4879515      0.252531704      -74.4879515      0.963689574      14.6255864       
376.06           0.964519419      14.4493172       0.24955319       -74.6668681      0.24955319       -74.6668681      0.964519419      14.4493172       
380.05           0.965325216      14.2761473       0.246624755      -74.8425693      0.246624755      -74.8425693      0.965325216      14.2761473       
384.04           0.966107853      14.1059904       0.243745087      -75.0151432      0.243745087      -75.0151432      0.966107853      14.1059904       
388.03           0.966868175      13.9387633       0.240912915      -75.1846743      0.240912915      -75.1846743      0.966868175      13.9387633       
392.02           0.967606992      13.7743857       0.238127013      -75.3512444      0.238127013      -75.3512444      0.967606992      13.7743857       
396.01           0.968325077      13.6127804       0.235386191      -75.5149322      0.235386191      -75.5149322      0.968325077      13.6127804       
400              0.96902317       13.4538725       0.2326893        -75.6758138      0.2326893        -75.6758138      0.96902317       13.4538725       
403.99           0.969701976      13.29759         0.230035226      -75.8339625      0.230035226      -75.8339625      0.969701976      13.29759         
407.98           0.970362174      13.1438631       0.227422892      -75.9894491      0.227422892      -75.9894491      0.970362174      13.1438631       
411.97           0.97100441       12.9926247       0.224851255      -76.1423419      0.224851255      -76.1423419      0.97100441       12.9926247       
415.96           0.971629303      12.8438098       0.222319303      -76.2927069      0.222319303      -76.2927069      0.971629303      12.8438098       
419.95           0.972237448      12.6973555       0.219826059      -76.4406077      0.219826059      -76.4406077      0.972237448      12.6973555       
423.94           0.972829413      12.5532013       0.217370573      -76.586106       0.217370573      -76.586106       0.972829413      12.5532013       
427.93           0.973405743      12.4112883       0.214951927      -76.7292613      0.214951927      -76.7292613      0.973405743      12.4112883       
431.92           0.97396696       12.2715598       0.21256923       -76.8701309      0.21256923       -76.8701309      0.97396696       12.2715598       
435.91           0.974513566      12.133961        0.210221619      -77.0087706      0.210221619      -77.0087706      0.974513566      12.133961        
439.9            0.97504604       11.9984387       0.207908257      -77.1452339      0.207908257      -77.1452339      0.97504604       11.9984387       
443.89           0.975564844      11.8649416       0.205628333      -77.2795729      0.205628333      -77.2795729      0.975564844      11.8649416       
447.88           0.976070421      11.7334199       0.20338106       -77.4118378      0.20338106       -77.4118378      0.976070421      11.7334199       
451.87           0.976563195      11.6038254       0.201165673      -77.5420772      0.201165673      -77.5420772      0.976563195      11.6038254       
455.86           0.977043573      11.4761115       0.198981433      -77.6703382      0.198981433      -77.6703382      0.977043573      11.4761115       
459.85           0.977511949      11.3502329       0.196827621      -77.7966663      0.196827621      -77.7966663      0.977511949      11.3502329       
463.84           0.977968699      11.226146        0.194703538      -77.9211055      0.194703538      -77.9211055      0.977968699      11.226146        
467.83           0.978414185      11.1038083       0.192608509      -78.0436986      0.192608509      -78.0436986      0.978414185      11.1038083       
471.82           0.978848756      10.9831787       0.190541876      -78.1644868      0.190541876      -78.1644868      0.978848756      10.9831787       
475.81           0.979272745      10.8642172       0.188503         -78.2835102      0.188503         -78.2835102      0.979272745      10.8642172       
479.8            0.979686475      10.7468853       0.186491262      -78.4008075      0.186491262      -78.4008075      0.979686475      10.7468853       
483.79           0.980090257      10.6311455       0.184506059      -78.5164163      0.184506059      -78.5164163      0.980090257      10.6311455       
487.78           0.980484388      10.5169614       0.182546806      -78.6303728      0.182546806      -78.6303728      0.980484388      10.5169614       
491.77           0.980869155      10.4042977       0.180612936      -78.7427125      0.180612936      -78.7427125      0.980869155      10.4042977       
495.76           0.981244837      10.2931201       0.178703895      -78.8534694      0.178703895      -78.8534694      0.981244837      10.2931201       
499.75           0.981611698      10.1833954       0.176819146      -78.9626767      0.176819146      -78.9626767      0.981611698      10.1833954       
503.74           0.981969996      10.0750914       0.174958168      -79.0703665      0.174958168      -79.0703665      0.981969996      10.0750914       
507.73           0.982319978      9.96817659       0.173120452      -79.1765699      0.173120452      -79.1765699      0.982319978      9.96817659       
