! Coilcraft 0805HS-220 Chip Inductor				
! 13 June 2002			
# MHZ S MA R 50
!Freq             MagS11           AngS11           MagS21           AngS21           MagS12           AngS12           MagS22           AngS22
1                0.002951908      27.7640454       0.997388883      -0.0789932298    0.997388883      -0.0789932298    0.002951908      27.7640454       
11.22            0.0158622089     76.0579691       0.996297107      -0.885376822     0.996297107      -0.885376822     0.0158622089     76.0579691       
21.44            0.029787949      80.3744118       0.995452506      -1.6906279       0.995452506      -1.6906279       0.029787949      80.3744118       
31.66            0.0437616898     81.5744149       0.994530413      -2.4947272       0.994530413      -2.4947272       0.0437616898     81.5744149       
41.88            0.0577260461     81.8656956       0.993476987      -3.29750069      0.993476987      -3.29750069      0.0577260461     81.8656956       
52.1             0.0716622072     81.7634475       0.992271519      -4.09873432      0.992271519      -4.09873432      0.0716622072     81.7634475       
62.32            0.0855589417     81.4537991       0.990904153      -4.89819757      0.990904153      -4.89819757      0.0855589417     81.4537991       
72.54            0.0994074094     81.0211511       0.989369918      -5.69565257      0.989369918      -5.69565257      0.0994074094     81.0211511       
82.76            0.113199775      80.5096515       0.987666492      -6.49085865      0.987666492      -6.49085865      0.113199775      80.5096515       
92.98            0.126928737      79.9448038       0.985793182      -7.28357504      0.985793182      -7.28357504      0.126928737      79.9448038       
103.2            0.140587348      79.3424671       0.983750397      -8.07356267      0.983750397      -8.07356267      0.140587348      79.3424671       
113.42           0.154168935      78.7130844       0.981539349      -8.8605855       0.981539349      -8.8605855       0.154168935      78.7130844       
123.64           0.167667072      78.0638557       0.979161867      -9.64441147      0.979161867      -9.64441147      0.167667072      78.0638557       
133.86           0.18107557       77.3999377       0.976620271      -10.4248134      0.976620271      -10.4248134      0.18107557       77.3999377       
144.08           0.194388473      76.7251438       0.97391729       -11.2015694      0.97391729       -11.2015694      0.194388473      76.7251438       
154.3            0.207600063      76.0423729       0.971055998      -11.9744638      0.971055998      -11.9744638      0.207600063      76.0423729       
164.52           0.220704869      75.3538811       0.96803976       -12.7432875      0.96803976       -12.7432875      0.220704869      75.3538811       
174.74           0.233697665      74.661462        0.964872199      -13.5078381      0.964872199      -13.5078381      0.233697665      74.661462        
184.96           0.246573484      73.966567        0.961557158      -14.2679207      0.961557158      -14.2679207      0.246573484      73.966567        
195.18           0.259327619      73.2703899       0.958098671      -15.0233479      0.958098671      -15.0233479      0.259327619      73.2703899       
205.4            0.271955625      72.5739268       0.954500938      -15.7739401      0.954500938      -15.7739401      0.271955625      72.5739268       
215.62           0.284453328      71.8780186       0.9507683        -16.5195258      0.9507683        -16.5195258      0.284453328      71.8780186       
225.84           0.296816823      71.1833835       0.946905222      -17.2599416      0.946905222      -17.2599416      0.296816823      71.1833835       
236.06           0.309042474      70.4906404       0.942916264      -17.9950327      0.942916264      -17.9950327      0.309042474      70.4906404       
246.28           0.32112692       69.8003267       0.938806072      -18.7246524      0.938806072      -18.7246524      0.32112692       69.8003267       
256.5            0.333067068      69.1129128       0.934579354      -19.4486626      0.934579354      -19.4486626      0.333067068      69.1129128       
266.72           0.344860094      68.4288123       0.930240863      -20.1669338      0.930240863      -20.1669338      0.344860094      68.4288123       
276.94           0.356503439      67.7483908       0.925795387      -20.8793448      0.925795387      -20.8793448      0.356503439      67.7483908       
287.16           0.367994807      67.0719727       0.921247729      -21.585783       0.921247729      -21.585783       0.367994807      67.0719727       
297.38           0.379332157      66.3998464       0.916602694      -22.2861441      0.916602694      -22.2861441      0.379332157      66.3998464       
307.6            0.390513702      65.7322693       0.911865077      -22.9803322      0.911865077      -22.9803322      0.390513702      65.7322693       
317.82           0.4015379        65.0694706       0.907039651      -23.6682595      0.907039651      -23.6682595      0.4015379        65.0694706       
328.04           0.412403449      64.4116553       0.902131155      -24.3498462      0.902131155      -24.3498462      0.412403449      64.4116553       
338.26           0.42310928       63.759006        0.897144283      -25.0250206      0.897144283      -25.0250206      0.42310928       63.759006        
348.48           0.433654547      63.1116854       0.892083675      -25.6937185      0.892083675      -25.6937185      0.433654547      63.1116854       
358.7            0.444038622      62.4698381       0.886953909      -26.3558833      0.886953909      -26.3558833      0.444038622      62.4698381       
368.92           0.454261084      61.8335922       0.881759489      -27.011466       0.881759489      -27.011466       0.454261084      61.8335922       
379.14           0.464321716      61.2030606       0.876504844      -27.6604244      0.876504844      -27.6604244      0.464321716      61.2030606       
389.36           0.474220488      60.5783424       0.871194314      -28.3027234      0.871194314      -28.3027234      0.474220488      60.5783424       
399.58           0.483957553      59.9595239       0.865832151      -28.9383346      0.865832151      -28.9383346      0.483957553      59.9595239       
409.8            0.493533241      59.3466792       0.860422508      -29.567236       0.860422508      -29.567236       0.493533241      59.3466792       
420.02           0.502948041      58.7398718       0.854969437      -30.1894119      0.854969437      -30.1894119      0.502948041      58.7398718       
430.24           0.5122026        58.1391548       0.849476887      -30.8048524      0.849476887      -30.8048524      0.5122026        58.1391548       
440.46           0.521297712      57.5445718       0.843948697      -31.4135535      0.843948697      -31.4135535      0.521297712      57.5445718       
450.68           0.530234308      56.9561575       0.838388594      -32.0155167      0.838388594      -32.0155167      0.530234308      56.9561575       
460.9            0.539013444      56.3739385       0.832800194      -32.6107485      0.832800194      -32.6107485      0.539013444      56.3739385       
471.12           0.547636301      55.7979337       0.827186995      -33.1992605      0.827186995      -33.1992605      0.547636301      55.7979337       
481.34           0.556104167      55.2281546       0.821552382      -33.7810693      0.821552382      -33.7810693      0.556104167      55.2281546       
491.56           0.564418435      54.6646064       0.815899621      -34.3561954      0.815899621      -34.3561954      0.564418435      54.6646064       
501.78           0.572580594      54.1072877       0.81023186       -34.9246641      0.81023186       -34.9246641      0.572580594      54.1072877       
512              0.580592218      53.5561917       0.804552132      -35.4865044      0.804552132      -35.4865044      0.580592218      53.5561917       
522.22           0.588454961      53.0113059       0.798863351      -36.0417491      0.798863351      -36.0417491      0.588454961      53.0113059       
532.44           0.596170549      52.472613        0.793168317      -36.5904346      0.793168317      -36.5904346      0.596170549      52.472613        
542.66           0.603740775      51.9400908       0.787469712      -37.1326006      0.787469712      -37.1326006      0.603740775      51.9400908       
552.88           0.611167489      51.4137129       0.781770107      -37.6682898      0.781770107      -37.6682898      0.611167489      51.4137129       
563.1            0.618452593      50.893449        0.77607196       -38.1975479      0.77607196       -38.1975479      0.618452593      50.893449        
573.32           0.625598035      50.379265        0.770377618      -38.7204232      0.770377618      -38.7204232      0.625598035      50.379265        
583.54           0.632605802      49.8711233       0.76468932       -39.2369666      0.76468932       -39.2369666      0.632605802      49.8711233       
593.76           0.639477918      49.3689834       0.759009198      -39.747231       0.759009198      -39.747231       0.639477918      49.3689834       
603.98           0.646216435      48.8728016       0.753339283      -40.2512717      0.753339283      -40.2512717      0.646216435      48.8728016       
614.2            0.652823426      48.3825317       0.7476815        -40.7491458      0.7476815        -40.7491458      0.652823426      48.3825317       
624.42           0.659300989      47.8981252       0.742037677      -41.2409121      0.742037677      -41.2409121      0.659300989      47.8981252       
634.64           0.665651232      47.4195311       0.736409547      -41.7266311      0.736409547      -41.7266311      0.665651232      47.4195311       
644.86           0.671876277      46.9466966       0.730798748      -42.2063645      0.730798748      -42.2063645      0.671876277      46.9466966       
655.08           0.677978251      46.479567        0.725206826      -42.6801755      0.725206826      -42.6801755      0.677978251      46.479567        
665.3            0.683959286      46.0180861       0.719635239      -43.1481283      0.719635239      -43.1481283      0.683959286      46.0180861       
675.52           0.689821513      45.5621961       0.714085362      -43.6102882      0.714085362      -43.6102882      0.689821513      45.5621961       
685.74           0.69556706       45.111838        0.708558484      -44.0667214      0.708558484      -44.0667214      0.69556706       45.111838        
695.96           0.701198047      44.6669516       0.703055815      -44.5174945      0.703055815      -44.5174945      0.701198047      44.6669516       
706.18           0.706716588      44.2274756       0.697578491      -44.9626752      0.697578491      -44.9626752      0.706716588      44.2274756       
716.4            0.712124784      43.793348        0.69212757       -45.4023315      0.69212757       -45.4023315      0.712124784      43.793348        
726.62           0.717424722      43.364506        0.686704039      -45.8365316      0.686704039      -45.8365316      0.717424722      43.364506        
736.84           0.722618475      42.9408863       0.681308819      -46.2653444      0.681308819      -46.2653444      0.722618475      42.9408863       
747.06           0.727708097      42.5224248       0.675942763      -46.6888387      0.675942763      -46.6888387      0.727708097      42.5224248       
757.28           0.732695621      42.1090573       0.670606659      -47.1070837      0.670606659      -47.1070837      0.732695621      42.1090573       
767.5            0.737583063      41.7007191       0.665301238      -47.5201485      0.665301238      -47.5201485      0.737583063      41.7007191       
777.72           0.742372412      41.2973455       0.66002717       -47.9281022      0.66002717       -47.9281022      0.742372412      41.2973455       
787.94           0.747065638      40.8988713       0.65478507       -48.3310137      0.65478507       -48.3310137      0.747065638      40.8988713       
798.16           0.751664683      40.5052316       0.6495755        -48.7289519      0.6495755        -48.7289519      0.751664683      40.5052316       
808.38           0.756171463      40.1163615       0.644398971      -49.1219856      0.644398971      -49.1219856      0.756171463      40.1163615       
818.6            0.760587869      39.7321959       0.639255946      -49.5101828      0.639255946      -49.5101828      0.760587869      39.7321959       
828.82           0.764915763      39.3526702       0.634146841      -49.8936118      0.634146841      -49.8936118      0.764915763      39.3526702       
839.04           0.769156981      38.9777199       0.629072027      -50.2723401      0.629072027      -50.2723401      0.769156981      38.9777199       
849.26           0.773313329      38.6072807       0.624031835      -50.6464349      0.624031835      -50.6464349      0.773313329      38.6072807       
859.48           0.777386583      38.2412887       0.619026555      -51.0159629      0.619026555      -51.0159629      0.777386583      38.2412887       
869.7            0.78137849       37.8796803       0.614056438      -51.3809904      0.614056438      -51.3809904      0.78137849       37.8796803       
879.92           0.785290769      37.5223924       0.6091217        -51.741583       0.6091217        -51.741583       0.785290769      37.5223924       
890.14           0.789125106      37.1693623       0.604222523      -52.0978058      0.604222523      -52.0978058      0.789125106      37.1693623       
900.36           0.79288316       36.8205278       0.599359057      -52.4497233      0.599359057      -52.4497233      0.79288316       36.8205278       
910.58           0.796566556      36.4758272       0.594531419      -52.7973993      0.594531419      -52.7973993      0.796566556      36.4758272       
920.8            0.800176893      36.1351993       0.5897397        -53.140897       0.5897397        -53.140897       0.800176893      36.1351993       
931.02           0.803715736      35.7985837       0.58498396       -53.480279       0.58498396       -53.480279       0.803715736      35.7985837       
941.24           0.807184622      35.4659204       0.580264237      -53.8156071      0.580264237      -53.8156071      0.807184622      35.4659204       
951.46           0.810585057      35.13715         0.575580541      -54.1469423      0.575580541      -54.1469423      0.810585057      35.13715         
961.68           0.813918517      34.8122137       0.57093286       -54.474345       0.57093286       -54.474345       0.813918517      34.8122137       
971.9            0.817186449      34.4910537       0.566321162      -54.7978749      0.566321162      -54.7978749      0.817186449      34.4910537       
982.12           0.820390271      34.1736125       0.561745391      -55.1175909      0.561745391      -55.1175909      0.820390271      34.1736125       
992.34           0.82353137       33.8598335       0.557205476      -55.433551       0.557205476      -55.433551       0.82353137       33.8598335       
1002.56          0.826611105      33.5496605       0.552701324      -55.7458126      0.552701324      -55.7458126      0.826611105      33.5496605       
1012.78          0.829630807      33.2430385       0.548232827      -56.0544322      0.548232827      -56.0544322      0.829630807      33.2430385       
1023             0.832591778      32.9399128       0.543799861      -56.3594657      0.543799861      -56.3594657      0.832591778      32.9399128       
1033.22          0.835495293      32.6402296       0.539402288      -56.660968       0.539402288      -56.660968       0.835495293      32.6402296       
1043.44          0.838342598      32.3439357       0.535039954      -56.9589933      0.535039954      -56.9589933      0.838342598      32.3439357       
1053.66          0.841134912      32.0509788       0.530712694      -57.2535951      0.530712694      -57.2535951      0.841134912      32.0509788       
1063.88          0.84387343       31.7613072       0.52642033       -57.544826       0.52642033       -57.544826       0.84387343       31.7613072       
1074.1           0.846559317      31.47487         0.522162672      -57.8327378      0.522162672      -57.8327378      0.846559317      31.47487         
1084.32          0.849193715      31.1916171       0.517939522      -58.1173815      0.517939522      -58.1173815      0.849193715      31.1916171       
1094.54          0.851777739      30.9114989       0.513750671      -58.3988075      0.513750671      -58.3988075      0.851777739      30.9114989       
1104.76          0.854312478      30.6344668       0.5095959        -58.6770651      0.5095959        -58.6770651      0.854312478      30.6344668       
1114.98          0.856799         30.3604728       0.505474983      -58.9522031      0.505474983      -58.9522031      0.856799         30.3604728       
1125.2           0.859238345      30.0894696       0.501387687      -59.2242695      0.501387687      -59.2242695      0.859238345      30.0894696       
1135.42          0.861631531      29.8214108       0.497333772      -59.4933112      0.497333772      -59.4933112      0.861631531      29.8214108       
1145.64          0.863979554      29.5562504       0.49331299       -59.7593748      0.49331299       -59.7593748      0.863979554      29.5562504       
1155.86          0.866283386      29.2939435       0.489325089      -60.0225058      0.489325089      -60.0225058      0.866283386      29.2939435       
1166.08          0.868543975      29.0344456       0.48536981       -60.2827492      0.48536981       -60.2827492      0.868543975      29.0344456       
1176.3           0.87076225       28.7777131       0.481446892      -60.540149       0.481446892      -60.540149       0.87076225       28.7777131       
1186.52          0.872939118      28.523703        0.477556068      -60.7947486      0.477556068      -60.7947486      0.872939118      28.523703        
1196.74          0.875075463      28.272373        0.473697066      -61.0465908      0.473697066      -61.0465908      0.875075463      28.272373        
1206.96          0.877172152      28.0236815       0.469869613      -61.2957173      0.469869613      -61.2957173      0.877172152      28.0236815       
1217.18          0.879230027      27.7775877       0.466073433      -61.5421695      0.466073433      -61.5421695      0.879230027      27.7775877       
1227.4           0.881249915      27.5340513       0.462308244      -61.7859878      0.462308244      -61.7859878      0.881249915      27.5340513       
1237.62          0.883232622      27.2930328       0.458573767      -62.027212       0.458573767      -62.027212       0.883232622      27.2930328       
1247.84          0.885178935      27.0544931       0.454869716      -62.2658814      0.454869716      -62.2658814      0.885178935      27.0544931       
1258.06          0.887089622      26.8183941       0.451195808      -62.5020342      0.451195808      -62.5020342      0.887089622      26.8183941       
1268.28          0.888965435      26.5846982       0.447551755      -62.7357082      0.447551755      -62.7357082      0.888965435      26.5846982       
1278.5           0.890807106      26.3533683       0.44393727       -62.9669407      0.44393727       -62.9669407      0.890807106      26.3533683       
1288.72          0.892615351      26.1243681       0.440352064      -63.1957679      0.440352064      -63.1957679      0.892615351      26.1243681       
1298.94          0.89439087       25.8976618       0.43679585       -63.4222257      0.43679585       -63.4222257      0.89439087       25.8976618       
