! Coilcraft 0805HS-101 Chip Inductor				
! 13 June 2002			
# MHZ S MA R 50
!Freq             MagS11           AngS11           MagS21           AngS21           MagS12           AngS12           MagS22           AngS22
1                0.00870501306    44.9536651       0.993858681      -0.354571399     0.993858681      -0.354571399     0.00870501306    44.9536651       
5.74             0.0363745768     74.8390615       0.991108942      -2.03004249      0.991108942      -2.03004249      0.0363745768     74.8390615       
10.48            0.0652007147     77.8897503       0.988379362      -3.6981015       0.988379362      -3.6981015       0.0652007147     77.8897503       
15.22            0.0939567484     78.2093221       0.985104173      -5.35722708      0.985104173      -5.35722708      0.0939567484     78.2093221       
19.96            0.122488612      77.6762121       0.981181175      -7.00530722      0.981181175      -7.00530722      0.122488612      77.6762121       
24.7             0.150711635      76.7674838       0.976584456      -8.6401269       0.976584456      -8.6401269       0.150711635      76.7674838       
29.44            0.17855844       75.6636638       0.971316712      -10.2594949      0.971316712      -10.2594949      0.17855844       75.6636638       
34.18            0.205970053      74.4496106       0.965395459      -11.8613028      0.965395459      -11.8613028      0.205970053      74.4496106       
38.92            0.232893781      73.1712343       0.958847352      -13.4435602      0.958847352      -13.4435602      0.232893781      73.1712343       
43.66            0.259282681      71.855983        0.951705234      -15.0044172      0.951705234      -15.0044172      0.259282681      71.855983        
48.4             0.285095444      70.5215393       0.944006279      -16.542181       0.944006279      -16.542181       0.285095444      70.5215393       
53.14            0.310296377      69.1799646       0.935790671      -18.0553255      0.935790671      -18.0553255      0.310296377      69.1799646       
57.88            0.334855348      67.8398547       0.927100569      -19.5424974      0.927100569      -19.5424974      0.334855348      67.8398547       
62.62            0.358747689      66.5075422       0.917979252      -21.0025183      0.917979252      -21.0025183      0.358747689      66.5075422       
67.36            0.381954013      65.1878061       0.908470406      -22.434384       0.908470406      -22.434384       0.381954013      65.1878061       
72.1             0.404459981      63.8843128       0.898617505      -23.8372607      0.898617505      -23.8372607      0.404459981      63.8843128       
76.84            0.426256008      62.5999013       0.888463299      -25.2104796      0.888463299      -25.2104796      0.426256008      62.5999013       
81.58            0.447336933      61.3367757       0.878049379      -26.5535291      0.878049379      -26.5535291      0.447336933      61.3367757       
86.32            0.467701647      60.0966405       0.867415824      -27.8660462      0.867415824      -27.8660462      0.467701647      60.0966405       
91.06            0.48735272       58.8807976       0.856600923      -29.1478064      0.856600923      -29.1478064      0.48735272       58.8807976       
95.8             0.506296003      57.6902198       0.84564096       -30.3987135      0.84564096       -30.3987135      0.506296003      57.6902198       
100.54           0.524540237      56.5256071       0.834570059      -31.6187881      0.834570059      -31.6187881      0.524540237      56.5256071       
105.28           0.542096677      55.3874314       0.823420086      -32.8081569      0.823420086      -32.8081569      0.542096677      55.3874314       
110.02           0.558978722      54.2759724       0.812220598      -33.9670417      0.812220598      -33.9670417      0.558978722      54.2759724       
114.76           0.575201567      53.1913479       0.800998829      -35.0957484      0.800998829      -35.0957484      0.575201567      53.1913479       
119.5            0.590781884      52.1335389       0.789779709      -36.1946568      0.789779709      -36.1946568      0.590781884      52.1335389       
124.24           0.605737519      51.1024104       0.778585922      -37.2642106      0.778585922      -37.2642106      0.605737519      51.1024104       
128.98           0.620087225      50.0977305       0.767437969      -38.3049084      0.767437969      -38.3049084      0.620087225      50.0977305       
133.72           0.633850415      49.1191855       0.756354265      -39.3172946      0.756354265      -39.3172946      0.633850415      49.1191855       
138.46           0.647046946      48.1663944       0.745351237      -40.3019521      0.745351237      -40.3019521      0.647046946      48.1663944       
143.2            0.659696928      47.23892         0.734443436      -41.2594941      0.734443436      -41.2594941      0.659696928      47.23892         
147.94           0.671820556      46.3362803       0.723643656      -42.1905583      0.723643656      -42.1905583      0.671820556      46.3362803       
152.68           0.683437967      45.4579568       0.712963053      -43.0958005      0.712963053      -43.0958005      0.683437967      45.4579568       
157.42           0.694569117      44.6034026       0.702411262      -43.9758893      0.702411262      -43.9758893      0.694569117      44.6034026       
162.16           0.70523368       43.7720497       0.691996521      -44.8315014      0.691996521      -44.8315014      0.70523368       43.7720497       
166.9            0.715450961      42.9633146       0.681725782      -45.6633174      0.681725782      -45.6633174      0.715450961      42.9633146       
171.64           0.725239827      42.1766033       0.671604824      -46.4720183      0.671604824      -46.4720183      0.725239827      42.1766033       
176.38           0.734618653      41.4113162       0.66163836       -47.2582821      0.66163836       -47.2582821      0.734618653      41.4113162       
181.12           0.743605279      40.6668516       0.651830138      -48.0227812      0.651830138      -48.0227812      0.743605279      40.6668516       
185.86           0.752216979      39.942609        0.642183034      -48.7661801      0.642183034      -48.7661801      0.752216979      39.942609        
190.6            0.760470434      39.2379919       0.632699143      -49.4891334      0.632699143      -49.4891334      0.760470434      39.2379919       
195.34           0.768381724      38.55241         0.623379859      -50.1922841      0.623379859      -50.1922841      0.768381724      38.55241         
200.08           0.775966317      37.8852814       0.614225956      -50.8762625      0.614225956      -50.8762625      0.775966317      37.8852814       
204.82           0.783239067      37.2360337       0.605237652      -51.5416848      0.605237652      -51.5416848      0.783239067      37.2360337       
209.56           0.79021422       36.6041057       0.59641468       -52.1891526      0.59641468       -52.1891526      0.79021422       36.6041057       
214.3            0.796905418      35.9889484       0.587756342      -52.8192519      0.587756342      -52.8192519      0.796905418      35.9889484       
219.04           0.803325709      35.3900256       0.579261567      -53.4325529      0.579261567      -53.4325529      0.803325709      35.3900256       
223.78           0.809487566      34.8068146       0.570928958      -54.0296096      0.570928958      -54.0296096      0.809487566      34.8068146       
228.52           0.815402893      34.2388068       0.562756833      -54.6109597      0.562756833      -54.6109597      0.815402893      34.2388068       
233.26           0.821083051      33.6855078       0.554743274      -55.1771241      0.554743274      -55.1771241      0.821083051      33.6855078       
238              0.826538869      33.1464376       0.546886152      -55.7286076      0.546886152      -55.7286076      0.826538869      33.1464376       
242.74           0.831780665      32.6211308       0.539183168      -56.2658986      0.539183168      -56.2658986      0.831780665      32.6211308       
247.48           0.836818266      32.1091366       0.53163188       -56.7894693      0.53163188       -56.7894693      0.836818266      32.1091366       
252.22           0.841661027      31.6100184       0.524229723      -57.2997759      0.524229723      -57.2997759      0.841661027      31.6100184       
256.96           0.846317849      31.1233542       0.516974042      -57.7972591      0.516974042      -57.7972591      0.846317849      31.1233542       
261.7            0.850797202      30.6487357       0.509862104      -58.2823443      0.509862104      -58.2823443      0.850797202      30.6487357       
266.44           0.855107139      30.1857686       0.502891122      -58.7554419      0.502891122      -58.7554419      0.855107139      30.1857686       
271.18           0.85925532       29.7340722       0.496058266      -59.2169476      0.496058266      -59.2169476      0.85925532       29.7340722       
275.92           0.863249026      29.2932789       0.489360683      -59.6672431      0.489360683      -59.6672431      0.863249026      29.2932789       
280.66           0.86709518       28.8630341       0.482795504      -60.1066962      0.482795504      -60.1066962      0.86709518       28.8630341       
285.4            0.870800364      28.4429956       0.476359859      -60.5356614      0.476359859      -60.5356614      0.870800364      28.4429956       
290.14           0.874370834      28.0328337       0.470050883      -60.9544801      0.470050883      -60.9544801      0.874370834      28.0328337       
294.88           0.877812537      27.6322301       0.463865726      -61.3634814      0.463865726      -61.3634814      0.877812537      27.6322301       
299.62           0.881131126      27.2408783       0.457801563      -61.762982       0.457801563      -61.762982       0.881131126      27.2408783       
304.36           0.884331977      26.8584828       0.451855593      -62.1532873      0.451855593      -62.1532873      0.884331977      26.8584828       
309.1            0.887420199      26.4847589       0.446025053      -62.534691       0.446025053      -62.534691       0.887420199      26.4847589       
313.84           0.890400651      26.119432        0.440307213      -62.9074762      0.440307213      -62.9074762      0.890400651      26.119432        
318.58           0.893277956      25.7622378       0.434699389      -63.2719154      0.434699389      -63.2719154      0.893277956      25.7622378       
323.32           0.896056507      25.4129215       0.42919894       -63.6282711      0.42919894       -63.6282711      0.896056507      25.4129215       
328.06           0.898740487      25.0712376       0.423803271      -63.9767959      0.423803271      -63.9767959      0.898740487      25.0712376       
332.8            0.901333873      24.7369496       0.418509838      -64.3177334      0.418509838      -64.3177334      0.901333873      24.7369496       
337.54           0.903840451      24.4098296       0.413316147      -64.6513177      0.413316147      -64.6513177      0.903840451      24.4098296       
342.28           0.906263825      24.0896579       0.408219756      -64.9777748      0.408219756      -64.9777748      0.906263825      24.0896579       
347.02           0.908607425      23.776223        0.403218277      -65.2973221      0.403218277      -65.2973221      0.908607425      23.776223        
351.76           0.910874518      23.4693209       0.398309374      -65.610169       0.398309374      -65.610169       0.910874518      23.4693209       
356.5            0.913068214      23.1687549       0.393490765      -65.9165175      0.393490765      -65.9165175      0.913068214      23.1687549       
361.24           0.915191478      22.8743357       0.388760224      -66.2165618      0.388760224      -66.2165618      0.915191478      22.8743357       
365.98           0.917247134      22.5858806       0.384115575      -66.5104895      0.384115575      -66.5104895      0.917247134      22.5858806       
370.72           0.919237874      22.3032135       0.379554699      -66.7984812      0.379554699      -66.7984812      0.919237874      22.3032135       
375.46           0.921166264      22.0261646       0.375075529      -67.0807109      0.375075529      -67.0807109      0.921166264      22.0261646       
380.2            0.923034751      21.7545702       0.370676049      -67.3573464      0.370676049      -67.3573464      0.923034751      21.7545702       
384.94           0.924845671      21.4882722       0.366354296      -67.6285496      0.366354296      -67.6285496      0.924845671      21.4882722       
389.68           0.92660125       21.2271185       0.362108359      -67.8944765      0.362108359      -67.8944765      0.92660125       21.2271185       
394.42           0.928303614      20.9709619       0.357936376      -68.1552776      0.357936376      -68.1552776      0.928303614      20.9709619       
399.16           0.929954792      20.7196607       0.353836535      -68.4110981      0.353836535      -68.4110981      0.929954792      20.7196607       
403.9            0.931556722      20.473078        0.349807071      -68.6620781      0.349807071      -68.6620781      0.931556722      20.473078        
408.64           0.933111256      20.2310817       0.345846269      -68.9083528      0.345846269      -68.9083528      0.933111256      20.2310817       
413.38           0.93462016       19.9935441       0.341952458      -69.1500527      0.341952458      -69.1500527      0.93462016       19.9935441       
418.12           0.936085126      19.7603422       0.338124014      -69.3873036      0.338124014      -69.3873036      0.936085126      19.7603422       
422.86           0.937507768      19.5313571       0.334359358      -69.6202272      0.334359358      -69.6202272      0.937507768      19.5313571       
427.6            0.938889632      19.3064737       0.330656952      -69.848941       0.330656952      -69.848941       0.938889632      19.3064737       
432.34           0.940232195      19.0855811       0.327015301      -70.0735584      0.327015301      -70.0735584      0.940232195      19.0855811       
437.08           0.941536871      18.8685722       0.323432954      -70.2941889      0.323432954      -70.2941889      0.941536871      18.8685722       
441.82           0.942805012      18.6553431       0.319908495      -70.5109383      0.319908495      -70.5109383      0.942805012      18.6553431       
446.56           0.944037914      18.4457937       0.316440552      -70.7239092      0.316440552      -70.7239092      0.944037914      18.4457937       
451.3            0.945236816      18.2398272       0.313027788      -70.9332002      0.313027788      -70.9332002      0.945236816      18.2398272       
456.04           0.946402907      18.0373498       0.309668904      -71.1389071      0.309668904      -71.1389071      0.946402907      18.0373498       
460.78           0.947537325      17.838271        0.306362638      -71.3411222      0.306362638      -71.3411222      0.947537325      17.838271        
465.52           0.94864116       17.6425032       0.30310776       -71.5399351      0.30310776       -71.5399351      0.94864116       17.6425032       
470.26           0.949715457      17.4499614       0.299903078      -71.7354322      0.299903078      -71.7354322      0.949715457      17.4499614       
475              0.950761219      17.2605637       0.296747429      -71.9276971      0.296747429      -71.9276971      0.950761219      17.2605637       
479.74           0.951779408      17.0742307       0.293639686      -72.1168109      0.293639686      -72.1168109      0.951779408      17.0742307       
484.48           0.952770945      16.8908854       0.290578749      -72.3028519      0.290578749      -72.3028519      0.952770945      16.8908854       
489.22           0.953736716      16.7104534       0.287563552      -72.485896       0.287563552      -72.485896       0.953736716      16.7104534       
493.96           0.954677571      16.5328625       0.284593057      -72.6660166      0.284593057      -72.6660166      0.954677571      16.5328625       
498.7            0.955594325      16.358043        0.281666253      -72.8432849      0.281666253      -72.8432849      0.955594325      16.358043        
503.44           0.956487762      16.1859272       0.278782158      -73.0177699      0.278782158      -73.0177699      0.956487762      16.1859272       
508.18           0.957358634      16.0164495       0.275939818      -73.1895381      0.275939818      -73.1895381      0.957358634      16.0164495       
512.92           0.958207665      15.8495464       0.273138302      -73.3586544      0.273138302      -73.3586544      0.958207665      15.8495464       
517.66           0.959035549      15.6851562       0.270376708      -73.5251814      0.270376708      -73.5251814      0.959035549      15.6851562       
522.4            0.959842955      15.5232193       0.267654155      -73.6891798      0.267654155      -73.6891798      0.959842955      15.5232193       
527.14           0.960630526      15.3636777       0.264969789      -73.8507085      0.264969789      -73.8507085      0.960630526      15.3636777       
531.88           0.96139888       15.2064752       0.262322775      -74.0098247      0.262322775      -74.0098247      0.96139888       15.2064752       
536.62           0.962148611      15.0515574       0.259712305      -74.1665838      0.259712305      -74.1665838      0.962148611      15.0515574       
541.36           0.962880291      14.8988713       0.257137589      -74.3210393      0.257137589      -74.3210393      0.962880291      14.8988713       
546.1            0.963594473      14.7483658       0.25459786       -74.4732435      0.25459786       -74.4732435      0.963594473      14.7483658       
550.84           0.964291685      14.5999909       0.252092371      -74.623247       0.252092371      -74.623247       0.964291685      14.5999909       
555.58           0.964972438      14.4536984       0.249620394      -74.7710987      0.249620394      -74.7710987      0.964972438      14.4536984       
560.32           0.965637226      14.3094412       0.247181221      -74.9168464      0.247181221      -74.9168464      0.965637226      14.3094412       
565.06           0.966286522      14.1671739       0.244774164      -75.0605362      0.244774164      -75.0605362      0.966286522      14.1671739       
569.8            0.966920782      14.0268522       0.242398549      -75.202213       0.242398549      -75.202213       0.966920782      14.0268522       
574.54           0.967540447      13.888433        0.240053725      -75.3419205      0.240053725      -75.3419205      0.967540447      13.888433        
579.28           0.968145942      13.7518745       0.237739052      -75.4797009      0.237739052      -75.4797009      0.968145942      13.7518745       
584.02           0.968737677      13.6171362       0.235453912      -75.6155955      0.235453912      -75.6155955      0.968737677      13.6171362       
588.76           0.969316045      13.4841786       0.233197699      -75.7496441      0.233197699      -75.7496441      0.969316045      13.4841786       
593.5            0.96988143       13.3529633       0.230969825      -75.8818856      0.230969825      -75.8818856      0.96988143       13.3529633       
598.24           0.970434197      13.223453        0.228769716      -76.0123577      0.228769716      -76.0123577      0.970434197      13.223453        
602.98           0.970974703      13.0956115       0.226596813      -76.1410972      0.226596813      -76.1410972      0.970974703      13.0956115       
