! Coilcraft 0805HS-390 Chip Inductor				
! 13 June 2002			
# MHZ S MA R 50
!Freq             MagS11           AngS11           MagS21           AngS21           MagS12           AngS12           MagS22           AngS22
1                0.004323655      34.2435468       0.996428807      -0.139898759     0.996428807      -0.139898759     0.004323655      34.2435468       
8.98             0.0224367779     76.0909832       0.994845047      -1.25440524      0.994845047      -1.25440524      0.0224367779     76.0909832       
16.96            0.041677128      79.8179106       0.993479673      -2.36641406      0.993479673      -2.36641406      0.041677128      79.8179106       
24.94            0.0609456244     80.6378688       0.991910202      -3.47564548      0.991910202      -3.47564548      0.0609456244     80.6378688       
32.92            0.0801615837     80.59483         0.990063974      -4.58153435      0.990063974      -4.58153435      0.0801615837     80.59483         
40.9             0.0992914176     80.175927        0.987914918      -5.6834459       0.987914918      -5.6834459       0.0992914176     80.175927        
48.88            0.118311186      79.5592686       0.985452804      -6.78072297      0.985452804      -6.78072297      0.118311186      79.5592686       
56.86            0.137200298      78.8263953       0.982674875      -7.8727054       0.982674875      -7.8727054       0.137200298      78.8263953       
64.84            0.155939874      78.0203596       0.979582669      -8.95874054      0.979582669      -8.95874054      0.155939874      78.0203596       
72.82            0.174512232      77.1662871       0.976180528      -10.03819        0.976180528      -10.03819        0.174512232      77.1662871       
80.8             0.192900715      76.2799836       0.972474807      -11.1104344      0.972474807      -11.1104344      0.192900715      76.2799836       
88.78            0.211089649      75.3719946       0.968473384      -12.1748771      0.968473384      -12.1748771      0.211089649      75.3719946       
96.76            0.229064342      74.4496976       0.964185341      -13.2309467      0.964185341      -13.2309467      0.229064342      74.4496976       
104.74           0.246811097      73.5184604       0.959620727      -14.2780998      0.959620727      -14.2780998      0.246811097      73.5184604       
112.72           0.26431724       72.5823177       0.954790374      -15.3158226      0.954790374      -15.3158226      0.26431724       72.5823177       
120.7            0.281571125      71.6443866       0.949705745      -16.3436319      0.949705745      -16.3436319      0.281571125      71.6443866       
128.68           0.298562154      70.7071306       0.944378801      -17.3610767      0.944378801      -17.3610767      0.298562154      70.7071306       
136.66           0.315280776      69.772534        0.938821891      -18.3677388      0.938821891      -18.3677388      0.315280776      69.772534        
144.64           0.331718484      68.8422201       0.93304764       -19.3632329      0.93304764       -19.3632329      0.331718484      68.8422201       
152.62           0.347867803      67.9175338       0.927068861      -20.3472069      0.927068861      -20.3472069      0.347867803      67.9175338       
160.6            0.363722276      66.9995998       0.920898467      -21.3193422      0.920898467      -21.3193422      0.363722276      66.9995998       
168.58           0.379276436      66.0893657       0.91454939       -22.2793528      0.91454939       -22.2793528      0.379276436      66.0893657       
176.56           0.394525781      65.1876337       0.908034516      -23.2269851      0.908034516      -23.2269851      0.394525781      65.1876337       
184.54           0.409466733      64.2950849       0.901366611      -24.1620173      0.901366611      -24.1620173      0.409466733      64.2950849       
192.52           0.424096607      63.4122974       0.894558271      -25.0842586      0.894558271      -25.0842586      0.424096607      63.4122974       
200.5            0.438413566      62.5397616       0.887621867      -25.9935479      0.887621867      -25.9935479      0.438413566      62.5397616       
208.48           0.452416576      61.6778913       0.8805695        -26.8897531      0.8805695        -26.8897531      0.452416576      61.6778913       
216.46           0.466105358      60.8270338       0.873412962      -27.7727696      0.873412962      -27.7727696      0.466105358      60.8270338       
224.44           0.479480345      59.9874773       0.8661637        -28.6425195      0.8661637        -28.6425195      0.479480345      59.9874773       
232.42           0.492542627      59.1594577       0.858832789      -29.49895        0.858832789      -29.49895        0.492542627      59.1594577       
240.4            0.505293907      58.3431646       0.851430909      -30.3420319      0.851430909      -30.3420319      0.505293907      58.3431646       
248.38           0.517736449      57.5387453       0.843968326      -31.1717586      0.843968326      -31.1717586      0.517736449      57.5387453       
256.36           0.529873031      56.74631         0.836454877      -31.9881447      0.836454877      -31.9881447      0.529873031      56.74631         
264.34           0.541706897      55.9659348       0.828899961      -32.7912243      0.828899961      -32.7912243      0.541706897      55.9659348       
272.32           0.553241713      55.1976657       0.82131253       -33.5810498      0.82131253       -33.5810498      0.553241713      55.1976657       
280.3            0.564481518      54.4415209       0.813701091      -34.3576907      0.813701091      -34.3576907      0.564481518      54.4415209       
288.28           0.575430687      53.6974941       0.8060737        -35.121232       0.8060737        -35.121232       0.575430687      53.6974941       
296.26           0.586093887      52.9655566       0.798437969      -35.8717733      0.798437969      -35.8717733      0.586093887      52.9655566       
304.24           0.596476039      52.2456596       0.790801072      -36.609427       0.790801072      -36.609427       0.596476039      52.2456596       
312.22           0.606582281      51.5377365       0.783169747      -37.3343175      0.783169747      -37.3343175      0.606582281      51.5377365       
320.2            0.616417937      50.8417044       0.775550309      -38.0465801      0.775550309      -38.0465801      0.616417937      50.8417044       
328.18           0.625988479      50.1574661       0.767948663      -38.7463595      0.767948663      -38.7463595      0.625988479      50.1574661       
336.16           0.635299503      49.4849115       0.760370309      -39.433809       0.760370309      -39.433809       0.635299503      49.4849115       
344.14           0.644356701      48.8239193       0.752820361      -40.1090897      0.752820361      -40.1090897      0.644356701      48.8239193       
352.12           0.653165829      48.1743581       0.745303557      -40.7723692      0.745303557      -40.7723692      0.653165829      48.1743581       
360.1            0.661732695      47.5360877       0.737824276      -41.4238207      0.737824276      -41.4238207      0.661732695      47.5360877       
368.08           0.670063125      46.9089605       0.73038655       -42.0636226      0.73038655       -42.0636226      0.670063125      46.9089605       
376.06           0.678162956      46.2928221       0.722994081      -42.6919572      0.722994081      -42.6919572      0.678162956      46.2928221       
384.04           0.68603801       45.6875126       0.715650256      -43.3090104      0.715650256      -43.3090104      0.68603801       45.6875126       
392.02           0.69369408       45.0928674       0.708358162      -43.9149708      0.708358162      -43.9149708      0.69369408       45.0928674       
400              0.70113692       44.508718        0.701120601      -44.5100289      0.701120601      -44.5100289      0.70113692       44.508718        
407.98           0.708372227      43.9348927       0.693940104      -45.0943772      0.693940104      -45.0943772      0.708372227      43.9348927       
415.96           0.715405636      43.3712172       0.686818946      -45.6682087      0.686818946      -45.6682087      0.715405636      43.3712172       
423.94           0.722242704      42.8175156       0.679759164      -46.2317172      0.679759164      -46.2317172      0.722242704      42.8175156       
431.92           0.728888905      42.2736104       0.672762566      -46.7850967      0.672762566      -46.7850967      0.728888905      42.2736104       
439.9            0.735349626      41.7393234       0.665830746      -47.3285405      0.665830746      -47.3285405      0.735349626      41.7393234       
447.88           0.741630152      41.2144763       0.658965099      -47.8622417      0.658965099      -47.8622417      0.741630152      41.2144763       
455.86           0.747735671      40.6988904       0.652166831      -48.386392       0.652166831      -48.386392       0.747735671      40.6988904       
463.84           0.753671264      40.1923879       0.645436975      -48.9011818      0.645436975      -48.9011818      0.753671264      40.1923879       
471.82           0.759441899      39.6947915       0.638776398      -49.4068002      0.638776398      -49.4068002      0.759441899      39.6947915       
479.8            0.765052438      39.205925        0.632185815      -49.9034343      0.632185815      -49.9034343      0.765052438      39.205925        
487.78           0.770507623      38.7256138       0.6256658        -50.391269       0.6256658        -50.391269       0.770507623      38.7256138       
495.76           0.775812085      38.2536846       0.619216794      -50.8704873      0.619216794      -50.8704873      0.775812085      38.2536846       
503.74           0.780970336      37.7899661       0.612839116      -51.3412696      0.612839116      -51.3412696      0.780970336      37.7899661       
511.72           0.785986773      37.3342889       0.606532974      -51.8037939      0.606532974      -51.8037939      0.785986773      37.3342889       
519.7            0.790865675      36.8864857       0.600298468      -52.2582355      0.600298468      -52.2582355      0.790865675      36.8864857       
527.68           0.795611205      36.4463916       0.594135604      -52.7047668      0.594135604      -52.7047668      0.795611205      36.4463916       
535.66           0.800227412      36.013844        0.5880443        -53.1435576      0.5880443        -53.1435576      0.800227412      36.013844        
543.64           0.804718228      35.588683        0.58202439       -53.5747747      0.58202439       -53.5747747      0.804718228      35.588683        
551.62           0.809087475      35.170751        0.576075637      -53.9985819      0.576075637      -53.9985819      0.809087475      35.170751        
559.6            0.813338861      34.7598933       0.570197733      -54.4151399      0.570197733      -54.4151399      0.813338861      34.7598933       
567.58           0.817475985      34.3559579       0.564390309      -54.8246067      0.564390309      -54.8246067      0.817475985      34.3559579       
575.56           0.821502339      33.9587954       0.558652939      -55.2271368      0.558652939      -55.2271368      0.821502339      33.9587954       
583.54           0.825421309      33.5682594       0.552985148      -55.6228818      0.552985148      -55.6228818      0.825421309      33.5682594       
591.52           0.829236177      33.1842062       0.547386411      -56.0119902      0.547386411      -56.0119902      0.829236177      33.1842062       
599.5            0.832950123      32.806495        0.541856165      -56.3946075      0.541856165      -56.3946075      0.832950123      32.806495        
607.48           0.836566228      32.4349877       0.536393806      -56.770876       0.536393806      -56.770876       0.836566228      32.4349877       
615.46           0.840087478      32.0695492       0.530998699      -57.140935       0.530998699      -57.140935       0.840087478      32.0695492       
623.44           0.843516762      31.7100472       0.525670179      -57.5049207      0.525670179      -57.5049207      0.843516762      31.7100472       
631.42           0.84685688       31.3563522       0.520407555      -57.8629663      0.520407555      -57.8629663      0.84685688       31.3563522       
639.4            0.85011054       31.0083375       0.515210111      -58.2152022      0.515210111      -58.2152022      0.85011054       31.0083375       
647.38           0.853280364      30.6658792       0.510077112      -58.5617554      0.510077112      -58.5617554      0.853280364      30.6658792       
655.36           0.85636889       30.328856        0.505007807      -58.9027506      0.505007807      -58.9027506      0.85636889       30.328856        
663.34           0.859378574      29.9971495       0.500001428      -59.238309       0.500001428      -59.238309       0.859378574      29.9971495       
671.32           0.86231179       29.6706439       0.495057195      -59.5685495      0.495057195      -59.5685495      0.86231179       29.6706439       
679.3            0.865170838      29.3492261       0.490174319      -59.8935879      0.490174319      -59.8935879      0.865170838      29.3492261       
687.28           0.867957941      29.0327856       0.485352002      -60.2135373      0.485352002      -60.2135373      0.867957941      29.0327856       
695.26           0.870675248      28.7212143       0.480589439      -60.5285083      0.480589439      -60.5285083      0.870675248      28.7212143       
703.24           0.873324841      28.4144067       0.47588582       -60.8386086      0.47588582       -60.8386086      0.873324841      28.4144067       
711.22           0.875908732      28.11226         0.471240333      -61.1439435      0.471240333      -61.1439435      0.875908732      28.11226         
719.2            0.878428866      27.8146736       0.466652164      -61.4446157      0.466652164      -61.4446157      0.878428866      27.8146736       
727.18           0.880887126      27.5215493       0.462120496      -61.7407253      0.462120496      -61.7407253      0.880887126      27.5215493       
735.16           0.883285332      27.2327912       0.457644517      -62.0323702      0.457644517      -62.0323702      0.883285332      27.2327912       
743.14           0.885625245      26.9483059       0.453223413      -62.3196457      0.453223413      -62.3196457      0.885625245      26.9483059       
751.12           0.887908567      26.6680021       0.448856375      -62.602645       0.448856375      -62.602645       0.887908567      26.6680021       
759.1            0.890136946      26.3917906       0.444542597      -62.8814587      0.444542597      -62.8814587      0.890136946      26.3917906       
767.08           0.892311974      26.1195845       0.440281276      -63.1561754      0.440281276      -63.1561754      0.892311974      26.1195845       
775.06           0.894435192      25.851299        0.436071617      -63.4268815      0.436071617      -63.4268815      0.894435192      25.851299        
783.04           0.896508091      25.5868512       0.431912829      -63.6936613      0.431912829      -63.6936613      0.896508091      25.5868512       
791.02           0.898532112      25.3261604       0.427804128      -63.9565968      0.427804128      -63.9565968      0.898532112      25.3261604       
799              0.90050865       25.0691477       0.423744737      -64.2157683      0.423744737      -64.2157683      0.90050865       25.0691477       
806.98           0.902439053      24.8157362       0.419733887      -64.4712539      0.419733887      -64.4712539      0.902439053      24.8157362       
814.96           0.904324628      24.5658509       0.415770815      -64.7231298      0.415770815      -64.7231298      0.904324628      24.5658509       
822.94           0.906166638      24.3194185       0.411854768      -64.9714704      0.411854768      -64.9714704      0.906166638      24.3194185       
830.92           0.907966303      24.0763677       0.407985001      -65.2163482      0.407985001      -65.2163482      0.907966303      24.0763677       
838.9            0.909724808      23.8366285       0.404160779      -65.457834       0.404160779      -65.457834       0.909724808      23.8366285       
846.88           0.911443296      23.6001332       0.400381375      -65.6959966      0.400381375      -65.6959966      0.911443296      23.6001332       
854.86           0.913122875      23.3668152       0.39664607       -65.9309034      0.39664607       -65.9309034      0.913122875      23.3668152       
862.84           0.914764618      23.1366098       0.392954158      -66.1626199      0.392954158      -66.1626199      0.914764618      23.1366098       
870.82           0.916369561      22.9094539       0.38930494       -66.3912103      0.38930494       -66.3912103      0.916369561      22.9094539       
878.8            0.91793871       22.6852857       0.385697728      -66.6167369      0.385697728      -66.6167369      0.91793871       22.6852857       
886.78           0.919473037      22.464045        0.382131842      -66.8392606      0.382131842      -66.8392606      0.919473037      22.464045        
894.76           0.920973485      22.2456732       0.378606615      -67.0588409      0.378606615      -67.0588409      0.920973485      22.2456732       
902.74           0.922440965      22.0301129       0.375121387      -67.2755356      0.375121387      -67.2755356      0.922440965      22.0301129       
910.72           0.923876361      21.8173083       0.37167551       -67.4894013      0.37167551       -67.4894013      0.923876361      21.8173083       
918.7            0.925280528      21.6072046       0.368268346      -67.7004931      0.368268346      -67.7004931      0.925280528      21.6072046       
926.68           0.926654295      21.3997486       0.364899266      -67.9088649      0.364899266      -67.9088649      0.926654295      21.3997486       
934.66           0.927998465      21.1948883       0.36156765       -68.1145691      0.36156765       -68.1145691      0.927998465      21.1948883       
942.64           0.929313816      20.992573        0.358272892      -68.317657       0.358272892      -68.317657       0.929313816      20.992573        
950.62           0.930601102      20.7927529       0.355014392      -68.5181785      0.355014392      -68.5181785      0.930601102      20.7927529       
958.6            0.931861052      20.5953799       0.351791561      -68.7161824      0.351791561      -68.7161824      0.931861052      20.5953799       
966.58           0.933094376      20.4004066       0.348603821      -68.9117163      0.348603821      -68.9117163      0.933094376      20.4004066       
974.56           0.93430176       20.2077868       0.345450603      -69.1048266      0.345450603      -69.1048266      0.93430176       20.2077868       
982.54           0.935483868      20.0174756       0.342331346      -69.2955586      0.342331346      -69.2955586      0.935483868      20.0174756       
990.52           0.936641345      19.829429        0.339245501      -69.4839566      0.339245501      -69.4839566      0.936641345      19.829429        
998.5            0.937774818      19.6436039       0.336192528      -69.6700638      0.336192528      -69.6700638      0.937774818      19.6436039       
1006.48          0.938884893      19.4599585       0.333171895      -69.8539223      0.333171895      -69.8539223      0.938884893      19.4599585       
1014.46          0.939972157      19.2784517       0.330183081      -70.0355732      0.330183081      -70.0355732      0.939972157      19.2784517       
