! Coilcraft 0805HS-121 Chip Inductor				
! 13 June 2002			
# MHZ S MA R 50
!Freq             MagS11           AngS11           MagS21           AngS21           MagS12           AngS12           MagS22           AngS22
1                0.0100513415     47.2055808       0.993198808      -0.425490458     0.993198808      -0.425490458     0.0100513415     47.2055808       
5.24             0.0398185543     74.7875392       0.990297337      -2.22362014      0.990297337      -2.22362014      0.0398185543     74.7875392       
9.48             0.0707319851     77.643226        0.987284126      -4.01302843      0.987284126      -4.01302843      0.0707319851     77.643226        
13.72            0.101540387      77.8279757       0.983611392      -5.79165833      0.983611392      -5.79165833      0.101540387      77.8279757       
17.96            0.132068319      77.1718604       0.979181531      -7.55684559      0.979181531      -7.55684559      0.132068319      77.1718604       
22.2             0.16221535       76.1457409       0.973975313      -9.30584429      0.973975313      -9.30584429      0.16221535       76.1457409       
26.44            0.191900913      74.9290034       0.968003844      -11.0359709      0.968003844      -11.0359709      0.191900913      74.9290034       
30.68            0.22105489       73.6064113       0.961294338      -12.7446733      0.961294338      -12.7446733      0.22105489       73.6064113       
34.92            0.249615404      72.2240441       0.953884071      -14.4295728      0.953884071      -14.4295728      0.249615404      72.2240441       
39.16            0.277528279      70.809575        0.945817085      -16.0884911      0.945817085      -16.0884911      0.277528279      70.809575        
43.4             0.304746907      69.3808987       0.937142028      -17.7194677      0.937142028      -17.7194677      0.304746907      69.3808987       
47.64            0.331232158      67.9502493       0.927910553      -19.3207707      0.927910553      -19.3207707      0.331232158      67.9502493       
51.88            0.356952236      66.5263473       0.918176042      -20.890901       0.918176042      -20.890901       0.356952236      66.5263473       
56.12            0.381882432      65.115599        0.90799254       -22.4285919      0.90799254       -22.4285919      0.381882432      65.115599        
60.36            0.40600479       63.7228078       0.897413865      -23.932804       0.897413865      -23.932804       0.40600479       63.7228078       
64.6             0.429307689      62.3516179       0.886492866      -25.4027178      0.886492866      -25.4027178      0.429307689      62.3516179       
68.84            0.451785356      61.0048041       0.875280811      -26.8377222      0.875280811      -26.8377222      0.451785356      61.0048041       
73.08            0.473437346      59.6844692       0.863826891      -28.2374021      0.863826891      -28.2374021      0.473437346      59.6844692       
77.32            0.494267983      58.3921839       0.852177841      -29.6015238      0.852177841      -29.6015238      0.494267983      58.3921839       
81.56            0.514285805      57.1290898       0.840377658      -30.9300198      0.840377658      -30.9300198      0.514285805      57.1290898       
85.8             0.533503006      55.8959775       0.828467411      -32.2229728      0.828467411      -32.2229728      0.533503006      55.8959775       
90.04            0.551934896      54.6933478       0.816485125      -33.4806003      0.816485125      -33.4806003      0.551934896      54.6933478       
94.28            0.569599396      53.5214608       0.804465739      -34.7032385      0.804465739      -34.7032385      0.569599396      53.5214608       
98.52            0.586516553      52.3803761       0.792441113      -35.8913275      0.792441113      -35.8913275      0.586516553      52.3803761       
102.76           0.602708105      51.2699864       0.780440091      -37.0453965      0.780440091      -37.0453965      0.602708105      51.2699864       
107              0.618197081      50.1900454       0.768488589      -38.1660509      0.768488589      -38.1660509      0.618197081      50.1900454       
111.24           0.633007445      49.1401923       0.756609727      -39.2539592      0.756609727      -39.2539592      0.633007445      49.1401923       
115.48           0.647163778      48.1199719       0.744823967      -40.3098417      0.744823967      -40.3098417      0.647163778      48.1199719       
119.72           0.660691001      47.1288528       0.733149271      -41.33446        0.733149271      -41.33446        0.660691001      47.1288528       
123.96           0.673614139      46.166242        0.721601276      -42.3286072      0.721601276      -42.3286072      0.673614139      46.166242        
128.2            0.685958119      45.2314987       0.710193455      -43.2931         0.710193455      -43.2931         0.685958119      45.2314987       
132.44           0.697747598      44.323945        0.698937297      -44.2287707      0.698937297      -44.2287707      0.697747598      44.323945        
136.68           0.709006822      43.4428761       0.687842469      -45.1364608      0.687842469      -45.1364608      0.709006822      43.4428761       
140.92           0.719759513      42.5875682       0.676916985      -46.0170151      0.676916985      -46.0170151      0.719759513      42.5875682       
145.16           0.730028776      41.7572859       0.666167358      -46.8712773      0.666167358      -46.8712773      0.730028776      41.7572859       
149.4            0.739837031      40.9512878       0.655598752      -47.7000849      0.655598752      -47.7000849      0.739837031      40.9512878       
153.64           0.749205961      40.1688323       0.645215119      -48.5042664      0.645215119      -48.5042664      0.749205961      40.1688323       
157.88           0.75815647       39.409181        0.635019333      -49.2846378      0.635019333      -49.2846378      0.75815647       39.409181        
162.12           0.766708665      38.6716031       0.625013306      -50.0420004      0.625013306      -50.0420004      0.766708665      38.6716031       
166.36           0.774881839      37.9553775       0.615198102      -50.7771387      0.615198102      -50.7771387      0.774881839      37.9553775       
170.6            0.782694469      37.2597958       0.60557404       -51.4908187      0.60557404       -51.4908187      0.782694469      37.2597958       
174.84           0.790164221      36.5841642       0.596140785      -52.1837869      0.596140785      -52.1837869      0.790164221      36.5841642       
179.08           0.797307956      35.9278046       0.586897433      -52.8567691      0.586897433      -52.8567691      0.797307956      35.9278046       
183.32           0.80414175       35.290056        0.57784259       -53.51047        0.57784259       -53.51047        0.80414175       35.290056        
187.56           0.81068091       34.6702755       0.568974438      -54.1455726      0.568974438      -54.1455726      0.81068091       34.6702755       
191.8            0.816939999      34.0678388       0.560290799      -54.7627378      0.560290799      -54.7627378      0.816939999      34.0678388       
196.04           0.822932855      33.4821403       0.551789187      -55.3626049      0.551789187      -55.3626049      0.822932855      33.4821403       
200.28           0.828672624      32.9125939       0.543466865      -55.9457912      0.543466865      -55.9457912      0.828672624      32.9125939       
204.52           0.834171783      32.3586327       0.535320881      -56.5128923      0.535320881      -56.5128923      0.834171783      32.3586327       
208.76           0.839442167      31.8197089       0.527348113      -57.0644823      0.527348113      -57.0644823      0.839442167      31.8197089       
213              0.844494998      31.2952939       0.519545299      -57.6011147      0.519545299      -57.6011147      0.844494998      31.2952939       
217.24           0.849340915      30.7848775       0.511909073      -58.1233221      0.511909073      -58.1233221      0.849340915      30.7848775       
221.48           0.853989999      30.2879683       0.504435986      -58.6316172      0.504435986      -58.6316172      0.853989999      30.2879683       
225.72           0.858451799      29.8040927       0.497122535      -59.1264932      0.497122535      -59.1264932      0.858451799      29.8040927       
229.96           0.862735362      29.3327948       0.489965179      -59.6084242      0.489965179      -59.6084242      0.862735362      29.3327948       
234.2            0.866849255      28.8736359       0.48296036       -60.0778661      0.48296036       -60.0778661      0.866849255      28.8736359       
238.44           0.870801594      28.4261938       0.476104518      -60.535257       0.476104518      -60.535257       0.870801594      28.4261938       
242.68           0.874600061      27.9900626       0.469394102      -60.9810176      0.469394102      -60.9810176      0.874600061      27.9900626       
246.92           0.878251934      27.5648518       0.462825586      -61.4155522      0.462825586      -61.4155522      0.878251934      27.5648518       
251.16           0.881764105      27.1501864       0.456395473      -61.8392492      0.456395473      -61.8392492      0.881764105      27.1501864       
255.4            0.885143103      26.7457055       0.450100309      -62.2524815      0.450100309      -62.2524815      0.885143103      26.7457055       
259.64           0.888395111      26.3510625       0.443936686      -62.6556071      0.443936686      -62.6556071      0.888395111      26.3510625       
263.88           0.891525987      25.9659243       0.43790125       -63.0489699      0.43790125       -63.0489699      0.891525987      25.9659243       
268.12           0.894541282      25.589971        0.431990705      -63.4329001      0.431990705      -63.4329001      0.894541282      25.589971        
272.36           0.897446257      25.2228948       0.426201816      -63.807715       0.426201816      -63.807715       0.897446257      25.2228948       
276.6            0.900245897      24.8644003       0.420531415      -64.1737188      0.420531415      -64.1737188      0.900245897      24.8644003       
280.84           0.902944932      24.5142035       0.4149764        -64.5312042      0.4149764        -64.5312042      0.902944932      24.5142035       
285.08           0.905547842      24.1720314       0.409533738      -64.8804521      0.409533738      -64.8804521      0.905547842      24.1720314       
289.32           0.908058882      23.837622        0.404200468      -65.2217321      0.404200468      -65.2217321      0.908058882      23.837622        
293.56           0.910482085      23.510723        0.398973698      -65.5553036      0.398973698      -65.5553036      0.910482085      23.510723        
297.8            0.91282128       23.1910923       0.393850611      -65.8814155      0.393850611      -65.8814155      0.91282128       23.1910923       
302.04           0.915080102      22.878497        0.388828458      -66.2003072      0.388828458      -66.2003072      0.915080102      22.878497        
306.28           0.917262002      22.5727131       0.383904564      -66.5122085      0.383904564      -66.5122085      0.917262002      22.5727131       
310.52           0.919370258      22.2735253       0.379076326      -66.8173405      0.379076326      -66.8173405      0.919370258      22.2735253       
314.76           0.921407983      21.9807266       0.374341209      -67.1159158      0.374341209      -67.1159158      0.921407983      21.9807266       
319              0.923378139      21.6941179       0.369696749      -67.4081385      0.369696749      -67.4081385      0.923378139      21.6941179       
323.24           0.925283538      21.4135075       0.365140549      -67.6942053      0.365140549      -67.6942053      0.925283538      21.4135075       
327.48           0.927126857      21.1387112       0.360670283      -67.974305       0.360670283      -67.974305       0.927126857      21.1387112       
331.72           0.928910641      20.8695516       0.356283686      -68.2486195      0.356283686      -68.2486195      0.928910641      20.8695516       
335.96           0.930637312      20.6058578       0.351978563      -68.5173238      0.351978563      -68.5173238      0.930637312      20.6058578       
340.2            0.932309175      20.3474656       0.347752778      -68.7805861      0.347752778      -68.7805861      0.932309175      20.3474656       
344.44           0.933928426      20.0942167       0.343604261      -69.0385687      0.343604261      -69.0385687      0.933928426      20.0942167       
348.68           0.935497155      19.8459586       0.339530998      -69.2914274      0.339530998      -69.2914274      0.935497155      19.8459586       
352.92           0.937017354      19.6025445       0.335531039      -69.5393127      0.335531039      -69.5393127      0.937017354      19.6025445       
357.16           0.938490922      19.363833        0.331602489      -69.7823692      0.331602489      -69.7823692      0.938490922      19.363833        
361.4            0.93991967       19.1296877       0.327743507      -70.0207365      0.327743507      -70.0207365      0.93991967       19.1296877       
365.64           0.941305322      18.8999771       0.32395231       -70.2545488      0.32395231       -70.2545488      0.941305322      18.8999771       
369.88           0.942649527      18.6745747       0.320227166      -70.4839358      0.320227166      -70.4839358      0.942649527      18.6745747       
374.12           0.943953855      18.4533583       0.316566396      -70.7090222      0.316566396      -70.7090222      0.943953855      18.4533583       
378.36           0.945219807      18.2362101       0.312968368      -70.9299286      0.312968368      -70.9299286      0.945219807      18.2362101       
382.6            0.946448816      18.0230163       0.309431501      -71.146771       0.309431501      -71.146771       0.946448816      18.0230163       
386.84           0.947642249      17.8136673       0.305954261      -71.3596615      0.305954261      -71.3596615      0.947642249      17.8136673       
391.08           0.948801415      17.6080573       0.302535159      -71.5687082      0.302535159      -71.5687082      0.948801415      17.6080573       
395.32           0.949927563      17.406084        0.299172749      -71.7740153      0.299172749      -71.7740153      0.949927563      17.406084        
399.56           0.951021888      17.2076489       0.29586563       -71.9756836      0.29586563       -71.9756836      0.951021888      17.2076489       
403.8            0.952085533      17.0126566       0.292612441      -72.1738104      0.292612441      -72.1738104      0.952085533      17.0126566       
408.04           0.953119592      16.8210151       0.289411862      -72.3684895      0.289411862      -72.3684895      0.953119592      16.8210151       
412.28           0.954125109      16.6326355       0.286262612      -72.5598116      0.286262612      -72.5598116      0.954125109      16.6326355       
416.52           0.955103089      16.4474318       0.283163447      -72.7478644      0.283163447      -72.7478644      0.955103089      16.4474318       
420.76           0.956054488      16.265321        0.280113161      -72.9327326      0.280113161      -72.9327326      0.956054488      16.265321        
425              0.956980227      16.0862227       0.277110581      -73.114498       0.277110581      -73.114498       0.956980227      16.0862227       
429.24           0.957881185      15.9100594       0.27415457       -73.2932398      0.27415457       -73.2932398      0.957881185      15.9100594       
433.48           0.958758206      15.7367558       0.271244025      -73.4690344      0.271244025      -73.4690344      0.958758206      15.7367558       
437.72           0.9596121        15.5662394       0.268377873      -73.6419559      0.268377873      -73.6419559      0.9596121        15.5662394       
441.96           0.960443641      15.3984397       0.265555072      -73.8120759      0.265555072      -73.8120759      0.960443641      15.3984397       
446.2            0.961253574      15.2332888       0.262774612      -73.9794636      0.262774612      -73.9794636      0.961253574      15.2332888       
450.44           0.962042613      15.0707208       0.260035512      -74.1441861      0.260035512      -74.1441861      0.962042613      15.0707208       
454.68           0.962811443      14.9106719       0.257336816      -74.3063083      0.257336816      -74.3063083      0.962811443      14.9106719       
458.92           0.963560723      14.7530803       0.254677598      -74.465893       0.254677598      -74.465893       0.963560723      14.7530803       
463.16           0.964291083      14.5978862       0.252056959      -74.623001       0.252056959      -74.623001       0.964291083      14.5978862       
467.4            0.965003132      14.4450316       0.249474023      -74.7776913      0.249474023      -74.7776913      0.965003132      14.4450316       
471.64           0.965697452      14.2944603       0.246927941      -74.9300209      0.246927941      -74.9300209      0.965697452      14.2944603       
475.88           0.966374605      14.146118        0.244417886      -75.0800451      0.244417886      -75.0800451      0.966374605      14.146118        
480.12           0.967035128      13.9999518       0.241943055      -75.2278175      0.241943055      -75.2278175      0.967035128      13.9999518       
484.36           0.96767954       13.8559106       0.239502667      -75.37339        0.239502667      -75.37339        0.96767954       13.8559106       
488.6            0.96830834       13.7139447       0.237095963      -75.5168131      0.237095963      -75.5168131      0.96830834       13.7139447       
492.84           0.968922007      13.574006        0.234722206      -75.6581355      0.234722206      -75.6581355      0.968922007      13.574006        
497.08           0.969521004      13.4360477       0.232380678      -75.7974046      0.232380678      -75.7974046      0.969521004      13.4360477       
501.32           0.970105774      13.3000247       0.23007068       -75.9346663      0.23007068       -75.9346663      0.970105774      13.3000247       
505.56           0.970676745      13.1658928       0.227791533      -76.0699652      0.227791533      -76.0699652      0.970676745      13.1658928       
509.8            0.971234329      13.0336094       0.225542577      -76.2033444      0.225542577      -76.2033444      0.971234329      13.0336094       
514.04           0.971778925      12.9031331       0.22332317       -76.3348459      0.22332317       -76.3348459      0.971778925      12.9031331       
518.28           0.972310913      12.7744236       0.221132684      -76.4645106      0.221132684      -76.4645106      0.972310913      12.7744236       
522.52           0.972830662      12.6474418       0.218970512      -76.5923778      0.218970512      -76.5923778      0.972830662      12.6474418       
526.76           0.973338529      12.5221496       0.216836062      -76.7184859      0.216836062      -76.7184859      0.973338529      12.5221496       
531              0.973834856      12.3985103       0.214728756      -76.8428723      0.214728756      -76.8428723      0.973834856      12.3985103       
535.24           0.974319973      12.276488        0.212648032      -76.9655732      0.212648032      -76.9655732      0.974319973      12.276488        
539.48           0.9747942        12.1560478       0.210593344      -77.0866236      0.210593344      -77.0866236      0.9747942        12.1560478       
