! Coilcraft 0805HS-060 Chip Inductor				
! 13 June 2002			
# MHZ S MA R 50
!Freq             MagS11           AngS11           MagS21           AngS21           MagS12           AngS12           MagS22           AngS22
1                0.00137171614    17.8790373       0.998694617      -0.0241604211    0.998694617      -0.0241604211    0.00137171614    17.8790373       
29.93            0.0128035187     79.2592983       0.997693182      -0.722421202     0.997693182      -0.722421202     0.0128035187     79.2592983       
58.86            0.0249235192     82.4068197       0.997012775      -1.419877        0.997012775      -1.419877        0.0249235192     82.4068197       
87.79            0.0370565504     83.1956227       0.996289255      -2.1165628       0.996289255      -2.1165628       0.0370565504     83.1956227       
116.72           0.0491779597     83.3145216       0.995473743      -2.81238345      0.995473743      -2.81238345      0.0491779597     83.3145216       
145.65           0.0612788176     83.1440208       0.994547581      -3.50721224      0.994547581      -3.50721224      0.0612788176     83.1440208       
174.58           0.0733531214     82.820494        0.993501673      -4.20090917      0.993501673      -4.20090917      0.0733531214     82.820494        
203.51           0.0853957618     82.4057166       0.992331122      -4.89332771      0.992331122      -4.89332771      0.0853957618     82.4057166       
232.44           0.0974019972     81.9320483       0.991033252      -5.58431811      0.991033252      -5.58431811      0.0974019972     81.9320483       
261.37           0.109367282      81.418227        0.989606719      -6.2737293       0.989606719      -6.2737293       0.109367282      81.418227        
290.3            0.121287205      80.8759356       0.988051056      -6.96141009      0.988051056      -6.96141009      0.121287205      80.8759356       
319.23           0.133157462      80.3128864       0.98636642       -7.64721004      0.98636642       -7.64721004      0.133157462      80.3128864       
348.16           0.144973855      79.7344097       0.984553432      -8.33098005      0.984553432      -8.33098005      0.144973855      79.7344097       
377.09           0.156732284      79.1443309       0.982613079      -9.01257293      0.982613079      -9.01257293      0.156732284      79.1443309       
406.02           0.168428758      78.5454845       0.980546647      -9.69184374      0.980546647      -9.69184374      0.168428758      78.5454845       
434.95           0.180059394      77.9400283       0.978355671      -10.3686502      0.978355671      -10.3686502      0.180059394      77.9400283       
463.88           0.191620424      77.3296448       0.9760419        -11.0428529      0.9760419        -11.0428529      0.191620424      77.3296448       
492.81           0.2031082        76.7156731       0.973607266      -11.7143156      0.973607266      -11.7143156      0.2031082        76.7156731       
521.74           0.214519196      76.099199        0.971053865      -12.3829054      0.971053865      -12.3829054      0.214519196      76.099199        
550.67           0.225850017      75.4811169       0.968383939      -13.0484933      0.968383939      -13.0484933      0.225850017      75.4811169       
579.6            0.237097399      74.862175        0.965599855      -13.7109537      0.965599855      -13.7109537      0.237097399      74.862175        
608.53           0.248258214      74.2430068       0.962704094      -14.370165       0.962704094      -14.370165       0.248258214      74.2430068       
637.46           0.259329472      73.6241552       0.959699239      -15.0260099      0.959699239      -15.0260099      0.259329472      73.6241552       
666.39           0.270308325      73.0060898       0.956587962      -15.6783748      0.956587962      -15.6783748      0.270308325      73.0060898       
695.32           0.281192067      72.389221        0.953373014      -16.3271509      0.953373014      -16.3271509      0.281192067      72.389221        
724.25           0.291978138      71.7739101       0.950057215      -16.9722333      0.950057215      -16.9722333      0.291978138      71.7739101       
753.18           0.30266412       71.1604772       0.946643444      -17.6135217      0.946643444      -17.6135217      0.30266412       71.1604772       
782.11           0.313247746      70.5492078       0.94313463       -18.2509203      0.94313463       -18.2509203      0.313247746      70.5492078       
811.04           0.32372689       69.9403577       0.939533746      -18.8843376      0.939533746      -18.8843376      0.32372689       69.9403577       
839.97           0.334099576      69.3341575       0.935843799      -19.5136869      0.935843799      -19.5136869      0.334099576      69.3341575       
868.9            0.34436397       68.7308151       0.93206782       -20.1388857      0.93206782       -20.1388857      0.34436397       68.7308151       
897.83           0.354518382      68.1305192       0.928208862      -20.7598564      0.928208862      -20.7598564      0.354518382      68.1305192       
926.76           0.364561266      67.533441        0.92426999       -21.3765255      0.92426999       -21.3765255      0.364561266      67.533441        
955.69           0.374491214      66.9397364       0.920254274      -21.9888244      0.920254274      -21.9888244      0.374491214      66.9397364       
984.62           0.384306959      66.3495472       0.916164783      -22.5966885      0.916164783      -22.5966885      0.384306959      66.3495472       
1013.55          0.394007367      65.7630026       0.912004582      -23.2000582      0.912004582      -23.2000582      0.394007367      65.7630026       
1042.48          0.403591439      65.1802206       0.907776722      -23.7988777      0.907776722      -23.7988777      0.403591439      65.1802206       
1071.41          0.413058305      64.6013083       0.903484237      -24.3930958      0.903484237      -24.3930958      0.413058305      64.6013083       
1100.34          0.422407223      64.0263635       0.899130139      -24.9826655      0.899130139      -24.9826655      0.422407223      64.0263635       
1129.27          0.431637573      63.4554746       0.894717413      -25.567544       0.894717413      -25.567544       0.431637573      63.4554746       
1158.2           0.440748857      62.8887222       0.890249015      -26.1476925      0.890249015      -26.1476925      0.440748857      62.8887222       
1187.13          0.44974069       62.3261788       0.885727861      -26.7230763      0.885727861      -26.7230763      0.44974069       62.3261788       
1216.06          0.458612803      61.7679097       0.881156833      -27.2936644      0.881156833      -27.2936644      0.458612803      61.7679097       
1244.99          0.467365034      61.2139736       0.876538768      -27.8594299      0.876538768      -27.8594299      0.467365034      61.2139736       
1273.92          0.475997325      60.6644227       0.871876458      -28.4203494      0.871876458      -28.4203494      0.475997325      60.6644227       
1302.85          0.484509719      60.1193032       0.867172647      -28.9764032      0.867172647      -28.9764032      0.484509719      60.1193032       
1331.78          0.492902355      59.5786559       0.862430027      -29.5275752      0.862430027      -29.5275752      0.492902355      59.5786559       
1360.71          0.501175464      59.042516        0.857651238      -30.0738524      0.857651238      -30.0738524      0.501175464      59.042516        
1389.64          0.509329365      58.5109137       0.852838865      -30.6152255      0.852838865      -30.6152255      0.509329365      58.5109137       
1418.57          0.517364461      57.9838747       0.847995434      -31.151688       0.847995434      -31.151688       0.517364461      57.9838747       
1447.5           0.525281234      57.4614201       0.843123414      -31.6832367      0.843123414      -31.6832367      0.525281234      57.4614201       
1476.43          0.533080242      56.9435666       0.838225214      -32.2098712      0.838225214      -32.2098712      0.533080242      56.9435666       
1505.36          0.540762115      56.4303271       0.833303182      -32.7315942      0.833303182      -32.7315942      0.540762115      56.4303271       
1534.29          0.548327548      55.9217105       0.828359602      -33.2484107      0.828359602      -33.2484107      0.548327548      55.9217105       
1563.22          0.555777302      55.4177225       0.823396698      -33.7603287      0.823396698      -33.7603287      0.555777302      55.4177225       
1592.15          0.563112195      54.9183649       0.818416629      -34.2673586      0.818416629      -34.2673586      0.563112195      54.9183649       
1621.08          0.570333104      54.4236367       0.813421493      -34.7695129      0.813421493      -34.7695129      0.570333104      54.4236367       
1650.01          0.577440954      53.9335337       0.80841332       -35.2668069      0.80841332       -35.2668069      0.577440954      53.9335337       
1678.94          0.584436721      53.4480488       0.80339408       -35.7592575      0.80339408       -35.7592575      0.584436721      53.4480488       
1707.87          0.591321424      52.9671723       0.798365679      -36.2468842      0.798365679      -36.2468842      0.591321424      52.9671723       
1736.8           0.598096125      52.490892        0.793329958      -36.729708       0.793329958      -36.729708       0.598096125      52.490892        
1765.73          0.604761923      52.0191931       0.788288696      -37.2077519      0.788288696      -37.2077519      0.604761923      52.0191931       
1794.66          0.611319952      51.5520588       0.783243609      -37.6810409      0.783243609      -37.6810409      0.611319952      51.5520588       
1823.59          0.617771377      51.08947         0.778196353      -38.1496013      0.778196353      -38.1496013      0.617771377      51.08947         
1852.52          0.624117393      50.6314057       0.773148521      -38.613461       0.773148521      -38.613461       0.624117393      50.6314057       
1881.45          0.63035922       50.1778431       0.768101647      -39.0726496      0.768101647      -39.0726496      0.63035922       50.1778431       
1910.38          0.6364981        49.7287575       0.763057205      -39.5271978      0.763057205      -39.5271978      0.6364981        49.7287575       
1939.31          0.642535298      49.2841227       0.758016609      -39.9771378      0.758016609      -39.9771378      0.642535298      49.2841227       
1968.24          0.648472095      48.843911        0.752981219      -40.4225028      0.752981219      -40.4225028      0.648472095      48.843911        
1997.17          0.654309787      48.4080933       0.747952336      -40.8633272      0.747952336      -40.8633272      0.654309787      48.4080933       
2026.1           0.660049684      47.976639        0.742931207      -41.2996463      0.742931207      -41.2996463      0.660049684      47.976639        
2055.03          0.665693108      47.5495165       0.737919023      -41.7314966      0.737919023      -41.7314966      0.665693108      47.5495165       
2083.96          0.671241389      47.126693        0.732916924      -42.1589153      0.732916924      -42.1589153      0.671241389      47.126693        
2112.89          0.676695862      46.7081347       0.727925998      -42.5819403      0.727925998      -42.5819403      0.676695862      46.7081347       
2141.82          0.682057871      46.2938069       0.722947282      -43.0006105      0.722947282      -43.0006105      0.682057871      46.2938069       
2170.75          0.687328759      45.883674        0.717981765      -43.4149653      0.717981765      -43.4149653      0.687328759      45.883674        
2199.68          0.692509874      45.4776995       0.713030386      -43.8250446      0.713030386      -43.8250446      0.692509874      45.4776995       
2228.61          0.697602563      45.0758463       0.70809404       -44.2308889      0.70809404       -44.2308889      0.697602563      45.0758463       
2257.54          0.702608171      44.6780767       0.703173574      -44.6325394      0.703173574      -44.6325394      0.702608171      44.6780767       
2286.47          0.707528041      44.2843523       0.698269792      -45.0300374      0.698269792      -45.0300374      0.707528041      44.2843523       
2315.4           0.712363511      43.8946342       0.693383457      -45.4234248      0.693383457      -45.4234248      0.712363511      43.8946342       
2344.33          0.717115914      43.5088833       0.68851529       -45.8127436      0.68851529       -45.8127436      0.717115914      43.5088833       
2373.26          0.721786579      43.1270597       0.683665969      -46.1980362      0.683665969      -46.1980362      0.721786579      43.1270597       
2402.19          0.726376823      42.7491234       0.678836136      -46.5793452      0.678836136      -46.5793452      0.726376823      42.7491234       
2431.12          0.730887958      42.3750341       0.674026395      -46.9567134      0.674026395      -46.9567134      0.730887958      42.3750341       
2460.05          0.735321287      42.0047513       0.669237314      -47.3301836      0.669237314      -47.3301836      0.735321287      42.0047513       
2488.98          0.739678099      41.638234        0.664469425      -47.6997989      0.664469425      -47.6997989      0.739678099      41.638234        
2517.91          0.743959677      41.2754415       0.659723227      -48.0656022      0.659723227      -48.0656022      0.743959677      41.2754415       
2546.84          0.74816729       40.9163327       0.654999185      -48.4276366      0.654999185      -48.4276366      0.74816729       40.9163327       
2575.77          0.752302193      40.5608665       0.650297734      -48.7859451      0.650297734      -48.7859451      0.752302193      40.5608665       
2604.7           0.756365632      40.2090016       0.645619279      -49.1405707      0.645619279      -49.1405707      0.756365632      40.2090016       
2633.63          0.760358838      39.8606971       0.640964193      -49.4915562      0.640964193      -49.4915562      0.760358838      39.8606971       
2662.56          0.764283026      39.5159118       0.636332824      -49.8389446      0.636332824      -49.8389446      0.764283026      39.5159118       
2691.49          0.7681394        39.1746046       0.631725492      -50.1827782      0.631725492      -50.1827782      0.7681394        39.1746046       
2720.42          0.771929148      38.8367345       0.627142491      -50.5230998      0.627142491      -50.5230998      0.771929148      38.8367345       
2749.35          0.775653444      38.5022609       0.622584089      -50.8599515      0.622584089      -50.8599515      0.775653444      38.5022609       
2778.28          0.779313445      38.1711428       0.618050533      -51.1933754      0.618050533      -51.1933754      0.779313445      38.1711428       
2807.21          0.782910294      37.8433399       0.613542043      -51.5234135      0.613542043      -51.5234135      0.782910294      37.8433399       
2836.14          0.786445117      37.5188118       0.609058821      -51.8501072      0.609058821      -51.8501072      0.786445117      37.5188118       
2865.07          0.789919026      37.1975183       0.604601045      -52.1734979      0.604601045      -52.1734979      0.789919026      37.1975183       
2894             0.793333115      36.8794196       0.600168874      -52.4936267      0.600168874      -52.4936267      0.793333115      36.8794196       
2922.93          0.796688463      36.564476        0.595762449      -52.8105344      0.595762449      -52.8105344      0.796688463      36.564476        
2951.86          0.799986134      36.2526481       0.591381889      -53.1242613      0.591381889      -53.1242613      0.799986134      36.2526481       
2980.79          0.803227172      35.9438968       0.5870273        -53.4348477      0.5870273        -53.4348477      0.803227172      35.9438968       
3009.72          0.806412608      35.6381832       0.582698768      -53.7423332      0.582698768      -53.7423332      0.806412608      35.6381832       
3038.65          0.809543456      35.3354689       0.578396363      -54.0467574      0.578396363      -54.0467574      0.809543456      35.3354689       
3067.58          0.812620712      35.0357156       0.574120142      -54.3481593      0.574120142      -54.3481593      0.812620712      35.0357156       
3096.51          0.815645358      34.7388855       0.569870144      -54.6465776      0.569870144      -54.6465776      0.815645358      34.7388855       
3125.44          0.818618358      34.4449411       0.565646398      -54.9420506      0.565646398      -54.9420506      0.818618358      34.4449411       
3154.37          0.821540661      34.1538451       0.561448916      -55.2346163      0.561448916      -55.2346163      0.821540661      34.1538451       
3183.3           0.824413199      33.8655606       0.5572777        -55.5243122      0.5572777        -55.5243122      0.824413199      33.8655606       
3212.23          0.827236888      33.5800513       0.553132739      -55.8111756      0.553132739      -55.8111756      0.827236888      33.5800513       
3241.16          0.830012628      33.297281        0.549014011      -56.0952432      0.549014011      -56.0952432      0.830012628      33.297281        
3270.09          0.832741305      33.0172139       0.544921483      -56.3765513      0.544921483      -56.3765513      0.832741305      33.0172139       
3299.02          0.835423787      32.7398147       0.540855111      -56.6551359      0.540855111      -56.6551359      0.835423787      32.7398147       
3327.95          0.838060927      32.4650485       0.536814843      -56.9310325      0.536814843      -56.9310325      0.838060927      32.4650485       
3356.88          0.840653563      32.1928805       0.532800617      -57.2042763      0.532800617      -57.2042763      0.840653563      32.1928805       
3385.81          0.843202518      31.9232767       0.528812362      -57.4749019      0.528812362      -57.4749019      0.843202518      31.9232767       
3414.74          0.8457086        31.6562032       0.524849999      -57.7429436      0.524849999      -57.7429436      0.8457086        31.6562032       
3443.67          0.848172601      31.3916266       0.520913441      -58.0084354      0.520913441      -58.0084354      0.848172601      31.3916266       
3472.6           0.850595299      31.1295138       0.517002594      -58.2714106      0.517002594      -58.2714106      0.850595299      31.1295138       
3501.53          0.852977458      30.8698322       0.513117358      -58.5319022      0.513117358      -58.5319022      0.852977458      30.8698322       
3530.46          0.855319827      30.6125496       0.509257625      -58.7899429      0.509257625      -58.7899429      0.855319827      30.6125496       
3559.39          0.857623141      30.3576342       0.505423281      -59.0455648      0.505423281      -59.0455648      0.857623141      30.3576342       
3588.32          0.859888121      30.1050545       0.501614208      -59.2987998      0.501614208      -59.2987998      0.859888121      30.1050545       
3617.25          0.862115474      29.8547794       0.49783028       -59.549679       0.49783028       -59.549679       0.862115474      29.8547794       
3646.18          0.864305895      29.6067784       0.494071369      -59.7982335      0.494071369      -59.7982335      0.864305895      29.6067784       
3675.11          0.866460063      29.3610212       0.49033734       -60.0444938      0.49033734       -60.0444938      0.866460063      29.3610212       
