! Coilcraft 0805HS-221 Chip Inductor				
! 13 June 2002			
# MHZ S MA R 50
!Freq             MagS11           AngS11           MagS21           AngS21           MagS12           AngS12           MagS22           AngS22
1                0.0168714536     51.6425746       0.989618598      -0.765988105     0.989618598      -0.765988105     0.0168714536     51.6425746       
4.74             0.0645722982     73.7118168       0.983843767      -3.61193353      0.983843767      -3.61193353      0.0645722982     73.7118168       
8.48             0.113160226      75.1796576       0.9771975        -6.42764373      0.9771975        -6.42764373      0.113160226      75.1796576       
12.22            0.160991729      74.2694939       0.968826323      -9.2038995       0.968826323      -9.2038995       0.160991729      74.2694939       
15.96            0.207664872      72.6158235       0.958662413      -11.9304885      0.958662413      -11.9304885      0.207664872      72.6158235       
19.7             0.252899384      70.6565164       0.946795691      -14.5978107      0.946795691      -14.5978107      0.252899384      70.6565164       
23.44            0.296475085      68.5645445       0.933382096      -17.197382       0.933382096      -17.197382       0.296475085      68.5645445       
27.18            0.338222398      66.4245249       0.918610758      -19.7220627      0.918610758      -19.7220627      0.338222398      66.4245249       
30.92            0.378019111      64.2837412       0.902686158      -22.1661488      0.902686158      -22.1661488      0.378019111      64.2837412       
34.66            0.415787141      62.1709096       0.885816224      -24.5253707      0.885816224      -24.5253707      0.415787141      62.1709096       
38.4             0.451488303      60.1043109       0.868203788      -26.7968271      0.868203788      -26.7968271      0.451488303      60.1043109       
42.14            0.485119253      58.0957842       0.850040506      -28.9788731      0.850040506      -28.9788731      0.485119253      58.0957842       
45.88            0.516705971      56.1529022       0.831502748      -31.0709802      0.831502748      -31.0709802      0.516705971      56.1529022       
49.62            0.546298164      54.2802666       0.812749129      -33.0735822      0.812749129      -33.0735822      0.546298164      54.2802666       
53.36            0.573963934      52.4803415       0.793919366      -34.9879181      0.793919366      -34.9879181      0.573963934      52.4803415       
57.1             0.59978489       50.7540237       0.775134157      -36.8158797      0.775134157      -36.8158797      0.59978489       50.7540237       
60.84            0.623851874      49.1010527       0.756495817      -38.5598707      0.756495817      -38.5598707      0.623851874      49.1010527       
64.58            0.646261329      47.5203165       0.738089435      -40.22268        0.738089435      -40.22268        0.646261329      47.5203165       
68.32            0.667112314      46.0100839       0.719984349      -41.8073709      0.719984349      -41.8073709      0.667112314      46.0100839       
72.06            0.686504136      44.5681844       0.702235785      -43.3171869      0.702235785      -43.3171869      0.686504136      44.5681844       
75.8             0.704534518      43.1921478       0.684886548      -44.7554732      0.684886548      -44.7554732      0.704534518      43.1921478       
79.54            0.721298239      41.8793121       0.667968669      -46.1256124      0.667968669      -46.1256124      0.721298239      41.8793121       
83.28            0.736886181      40.626908        0.651504967      -47.4309737      0.651504967      -47.4309737      0.736886181      40.626908        
87.02            0.751384682      39.4321234       0.635510479      -48.6748731      0.635510479      -48.6748731      0.751384682      39.4321234       
90.76            0.764875158      38.2921519       0.61999375       -49.860543       0.61999375       -49.860543       0.764875158      38.2921519       
94.5             0.777433919      37.2042297       0.604957973      -50.9911106      0.604957973      -50.9911106      0.777433919      37.2042297       
98.24            0.789132144      36.1656626       0.590401982      -52.069582       0.590401982      -52.069582       0.789132144      36.1656626       
101.98           0.80003596       35.1738446       0.576321112      -53.0988324      0.576321112      -53.0988324      0.80003596       35.1738446       
105.72           0.810206604      34.2262711       0.562707931      -54.0816004      0.562707931      -54.0816004      0.810206604      34.2262711       
109.46           0.819700643      33.3205468       0.549552857      -55.0204852      0.549552857      -55.0204852      0.819700643      33.3205468       
113.2            0.82857022       32.4543906       0.536844677      -55.9179471      0.536844677      -55.9179471      0.82857022       32.4543906       
116.94           0.836863327      31.6256368       0.524570981      -56.7763098      0.524570981      -56.7763098      0.836863327      31.6256368       
120.68           0.844624083      30.8322348       0.512718514      -57.5977634      0.512718514      -57.5977634      0.844624083      30.8322348       
124.42           0.851893009      30.0722472       0.501273471      -58.3843695      0.501273471      -58.3843695      0.851893009      30.0722472       
128.16           0.858707301      29.3438463       0.490221733      -59.1380664      0.490221733      -59.1380664      0.858707301      29.3438463       
131.9            0.865101089      28.6453108       0.479549057      -59.8606746      0.479549057      -59.8606746      0.865101089      28.6453108       
135.64           0.871105683      27.9750203       0.469241229      -60.5539032      0.469241229      -60.5539032      0.871105683      27.9750203       
139.38           0.87674981       27.3314517       0.459284184      -61.2193557      0.459284184      -61.2193557      0.87674981       27.3314517       
143.12           0.882059823      26.7131734       0.449664098      -61.8585359      0.449664098      -61.8585359      0.882059823      26.7131734       
146.86           0.887059913      26.1188403       0.440367459      -62.4728543      0.440367459      -62.4728543      0.887059913      26.1188403       
150.6            0.891772285      25.5471897       0.431381122      -63.0636333      0.431381122      -63.0636333      0.891772285      25.5471897       
154.34           0.896217336      24.9970353       0.422692344      -63.6321133      0.422692344      -63.6321133      0.896217336      24.9970353       
158.08           0.90041381       24.4672634       0.414288812      -64.1794573      0.414288812      -64.1794573      0.90041381       24.4672634       
161.82           0.904378941      23.9568282       0.40615866       -64.7067565      0.40615866       -64.7067565      0.904378941      23.9568282       
165.56           0.908128585      23.464747        0.398290474      -65.2150348      0.398290474      -65.2150348      0.908128585      23.464747        
169.3            0.911677342      22.990097        0.390673299      -65.7052532      0.390673299      -65.7052532      0.911677342      22.990097        
173.04           0.915038661      22.5320108       0.383296634      -66.1783141      0.383296634      -66.1783141      0.915038661      22.5320108       
176.78           0.918224942      22.0896728       0.376150425      -66.6350651      0.376150425      -66.6350651      0.918224942      22.0896728       
180.52           0.92124763       21.6623164       0.369225057      -67.0763028      0.369225057      -67.0763028      0.92124763       21.6623164       
184.26           0.924117288      21.24922         0.362511342      -67.5027763      0.362511342      -67.5027763      0.924117288      21.24922         
188              0.92684368       20.8497045       0.356000508      -67.91519        0.356000508      -67.91519        0.92684368       20.8497045       
191.74           0.929435838      20.4631306       0.349684183      -68.3142071      0.349684183      -68.3142071      0.929435838      20.4631306       
195.48           0.931902119      20.0888958       0.343554377      -68.700452       0.343554377      -68.700452       0.931902119      20.0888958       
199.22           0.934250266      19.7264322       0.337603476      -69.0745129      0.337603476      -69.0745129      0.934250266      19.7264322       
202.96           0.936487458      19.3752045       0.331824217      -69.4369443      0.331824217      -69.4369443      0.936487458      19.3752045       
206.7            0.938620355      19.0347071       0.326209676      -69.7882694      0.326209676      -69.7882694      0.938620355      19.0347071       
210.44           0.940655142      18.7044633       0.320753256      -70.1289816      0.320753256      -70.1289816      0.940655142      18.7044633       
214.18           0.942597566      18.3840223       0.315448668      -70.4595472      0.315448668      -70.4595472      0.942597566      18.3840223       
217.92           0.944452973      18.0729583       0.310289918      -70.7804064      0.310289918      -70.7804064      0.944452973      18.0729583       
221.66           0.94622634       17.7708688       0.305271291      -71.0919754      0.305271291      -71.0919754      0.94622634       17.7708688       
225.4            0.947922302      17.4773726       0.300387342      -71.394648       0.300387342      -71.394648       0.947922302      17.4773726       
229.14           0.949545181      17.1921093       0.295632876      -71.6887968      0.295632876      -71.6887968      0.949545181      17.1921093       
232.88           0.951099008      16.9147372       0.291002944      -71.9747745      0.291002944      -71.9747745      0.951099008      16.9147372       
236.62           0.952587549      16.6449326       0.286492821      -72.2529154      0.286492821      -72.2529154      0.952587549      16.6449326       
240.36           0.95401432       16.3823888       0.282098004      -72.5235363      0.282098004      -72.5235363      0.95401432       16.3823888       
244.1            0.955382613      16.1268145       0.277814194      -72.7869377      0.277814194      -72.7869377      0.955382613      16.1268145       
247.84           0.956695504      15.8779334       0.273637288      -73.0434048      0.273637288      -73.0434048      0.956695504      15.8779334       
251.58           0.957955876      15.635483        0.269563371      -73.2932084      0.269563371      -73.2932084      0.957955876      15.635483        
255.32           0.959166432      15.3992142       0.265588704      -73.5366056      0.265588704      -73.5366056      0.959166432      15.3992142       
259.06           0.960329704      15.1688898       0.261709715      -73.773841       0.261709715      -73.773841       0.960329704      15.1688898       
262.8            0.96144807       14.9442843       0.257922991      -74.0051469      0.257922991      -74.0051469      0.96144807       14.9442843       
266.54           0.962523763      14.7251833       0.254225272      -74.2307447      0.254225272      -74.2307447      0.962523763      14.7251833       
270.28           0.96355888       14.5113824       0.250613439      -74.4508447      0.250613439      -74.4508447      0.96355888       14.5113824       
274.02           0.964555394      14.3026872       0.247084513      -74.6656476      0.247084513      -74.6656476      0.964555394      14.3026872       
277.76           0.965515162      14.0989121       0.243635639      -74.8753444      0.243635639      -74.8753444      0.965515162      14.0989121       
281.5            0.966439932      13.8998805       0.24026409       -75.0801173      0.24026409       -75.0801173      0.966439932      13.8998805       
285.24           0.96733135       13.7054236       0.236967253      -75.2801399      0.236967253      -75.2801399      0.96733135       13.7054236       
288.98           0.968190968      13.5153806       0.233742627      -75.475578       0.233742627      -75.475578       0.968190968      13.5153806       
292.72           0.969020252      13.3295976       0.230587815      -75.6665899      0.230587815      -75.6665899      0.969020252      13.3295976       
296.46           0.969820582      13.147928        0.227500523      -75.8533267      0.227500523      -75.8533267      0.969820582      13.147928        
300.2            0.970593265      12.9702315       0.224478551      -76.0359328      0.224478551      -76.0359328      0.970593265      12.9702315       
303.94           0.971339534      12.7963739       0.221519788      -76.2145462      0.221519788      -76.2145462      0.971339534      12.7963739       
307.68           0.972060555      12.6262269       0.218622212      -76.389299       0.218622212      -76.389299       0.972060555      12.6262269       
311.42           0.972757431      12.4596679       0.215783882      -76.5603174      0.215783882      -76.5603174      0.972757431      12.4596679       
315.16           0.973431207      12.2965792       0.213002935      -76.7277222      0.213002935      -76.7277222      0.973431207      12.2965792       
318.9            0.974082872      12.1368483       0.210277583      -76.8916293      0.210277583      -76.8916293      0.974082872      12.1368483       
322.64           0.974713364      11.9803674       0.207606109      -77.0521495      0.207606109      -77.0521495      0.974713364      11.9803674       
326.38           0.975323569      11.8270331       0.204986863      -77.209389       0.204986863      -77.209389       0.975323569      11.8270331       
330.12           0.975914333      11.6767464       0.20241826       -77.3634497      0.20241826       -77.3634497      0.975914333      11.6767464       
333.86           0.976486453      11.5294122       0.199898777      -77.5144293      0.199898777      -77.5144293      0.976486453      11.5294122       
337.6            0.977040691      11.3849392       0.197426948      -77.6624213      0.197426948      -77.6624213      0.977040691      11.3849392       
341.34           0.977577766      11.2432399       0.195001363      -77.8075159      0.195001363      -77.8075159      0.977577766      11.2432399       
345.08           0.978098366      11.1042302       0.192620669      -77.9497992      0.192620669      -77.9497992      0.978098366      11.1042302       
348.82           0.978603142      10.9678294       0.190283559      -78.0893542      0.190283559      -78.0893542      0.978603142      10.9678294       
352.56           0.979092715      10.8339597       0.187988778      -78.2262606      0.187988778      -78.2262606      0.979092715      10.8339597       
356.3            0.979567674      10.7025465       0.185735116      -78.3605949      0.185735116      -78.3605949      0.979567674      10.7025465       
360.04           0.980028583      10.5735181       0.183521408      -78.4924307      0.183521408      -78.4924307      0.980028583      10.5735181       
363.78           0.980475976      10.4468054       0.181346532      -78.6218388      0.181346532      -78.6218388      0.980475976      10.4468054       
367.52           0.980910364      10.322342        0.179209404      -78.7488873      0.179209404      -78.7488873      0.980910364      10.322342        
371.26           0.981332234      10.2000639       0.177108983      -78.8736416      0.177108983      -78.8736416      0.981332234      10.2000639       
375              0.98174205       10.0799095       0.175044262      -78.996165       0.175044262      -78.996165       0.98174205       10.0799095       
378.74           0.982140254      9.9618194        0.17301427       -79.116518       0.17301427       -79.116518       0.982140254      9.9618194        
382.48           0.98252727       9.84573649       0.171018071      -79.2347593      0.171018071      -79.2347593      0.98252727       9.84573649       
386.22           0.982903501      9.73160561       0.169054762      -79.3509451      0.169054762      -79.3509451      0.982903501      9.73160561       
389.96           0.983269334      9.61937364       0.167123469      -79.4651298      0.167123469      -79.4651298      0.983269334      9.61937364       
393.7            0.983625136      9.50898931       0.165223351      -79.5773658      0.165223351      -79.5773658      0.983625136      9.50898931       
397.44           0.983971261      9.40040316       0.163353593      -79.6877034      0.163353593      -79.6877034      0.983971261      9.40040316       
401.18           0.984308046      9.29356746       0.161513408      -79.7961915      0.161513408      -79.7961915      0.984308046      9.29356746       
404.92           0.984635813      9.18843615       0.159702038      -79.9028771      0.159702038      -79.9028771      0.984635813      9.18843615       
408.66           0.984954871      9.08496472       0.157918746      -80.0078054      0.157918746      -80.0078054      0.984954871      9.08496472       
412.4            0.985265517      8.98311021       0.156162823      -80.1110202      0.156162823      -80.1110202      0.985265517      8.98311021       
416.14           0.985568033      8.88283109       0.154433581      -80.2125638      0.154433581      -80.2125638      0.985568033      8.88283109       
419.88           0.98586269       8.78408724       0.152730356      -80.3124769      0.152730356      -80.3124769      0.98586269       8.78408724       
423.62           0.98614975       8.68683985       0.151052504      -80.4107991      0.151052504      -80.4107991      0.98614975       8.68683985       
427.36           0.986429462      8.59105143       0.149399403      -80.5075684      0.149399403      -80.5075684      0.986429462      8.59105143       
431.1            0.986702064      8.4966857        0.147770451      -80.6028216      0.147770451      -80.6028216      0.986702064      8.4966857        
434.84           0.986967787      8.40370754       0.146165063      -80.6965943      0.146165063      -80.6965943      0.986967787      8.40370754       
438.58           0.987226851      8.31208299       0.144582674      -80.7889209      0.144582674      -80.7889209      0.987226851      8.31208299       
442.32           0.987479468      8.22177918       0.143022737      -80.8798346      0.143022737      -80.8798346      0.987479468      8.22177918       
446.06           0.987725841      8.13276426       0.14148472       -80.9693676      0.14148472       -80.9693676      0.987725841      8.13276426       
449.8            0.987966165      8.04500742       0.13996811       -81.0575511      0.13996811       -81.0575511      0.987966165      8.04500742       
453.54           0.988200628      7.95847879       0.138472408      -81.1444151      0.138472408      -81.1444151      0.988200628      7.95847879       
457.28           0.988429411      7.87314943       0.136997131      -81.2299888      0.136997131      -81.2299888      0.988429411      7.87314943       
461.02           0.988652686      7.7889913        0.135541809      -81.3143003      0.135541809      -81.3143003      0.988652686      7.7889913        
464.76           0.988870621      7.70597723       0.134105988      -81.3973771      0.134105988      -81.3973771      0.988870621      7.70597723       
468.5            0.989083377      7.62408085       0.132689225      -81.4792454      0.132689225      -81.4792454      0.989083377      7.62408085       
472.24           0.989291108      7.5432766        0.131291094      -81.559931       0.131291094      -81.559931       0.989291108      7.5432766        
475.98           0.989493963      7.46353971       0.129911178      -81.6394586      0.129911178      -81.6394586      0.989493963      7.46353971       
