! Coilcraft 1008LS-822 Chip Inductor				
! 5 August 2002			
# MHZ S MA R 50
!Freq             MagS11           AngS11           MagS21           AngS21           MagS12           AngS12           MagS22           AngS22
1                0.439990056      57.3700363       0.847995308      -25.9105752      0.847995308      -25.9105752      0.439990056      57.3700363       
1.27             0.526115203      52.7482532       0.799914329      -31.5693276      0.799914329      -31.5693276      0.526115203      52.7482532       
1.54             0.598350156      48.4342331       0.751023984      -36.5908017      0.751023984      -36.5908017      0.598350156      48.4342331       
1.81             0.65824246       44.5280552       0.70338582       -41.0146214      0.70338582       -41.0146214      0.65824246       44.5280552       
2.08             0.707636734      41.0410889       0.658251807      -44.899153       0.658251807      -44.899153       0.707636734      41.0410889       
2.35             0.748336816      37.9478416       0.616258663      -48.30879        0.616258663      -48.30879        0.748336816      37.9478416       
2.62             0.781945349      35.2090104       0.577628779      -51.3063436      0.577628779      -51.3063436      0.781945349      35.2090104       
2.89             0.809812913      32.7822957       0.542330651      -53.9492072      0.542330651      -53.9492072      0.809812913      32.7822957       
3.16             0.833043925      30.6273473       0.510191447      -56.2878929      0.510191447      -56.2878929      0.833043925      30.6273473       
3.43             0.852526556      28.7077816       0.480969804      -58.3658931      0.480969804      -58.3658931      0.852526556      28.7077816       
3.7              0.868969121      26.9917491       0.454400062      -60.2201891      0.454400062      -60.2201891      0.868969121      26.9917491       
3.97             0.882934773      25.4518149       0.430217584      -61.8820198      0.430217584      -61.8820198      0.882934773      25.4518149       
4.24             0.894871425      24.0645465       0.408172181      -63.3777012      0.408172181      -63.3777012      0.894871425      24.0645465       
4.51             0.905136249      22.810008        0.388034379      -64.7293973      0.388034379      -64.7293973      0.905136249      22.810008        
4.78             0.914015206      21.6712565       0.369597525      -65.9558027      0.369597525      -65.9558027      0.914015206      21.6712565       
5.05             0.921738363      20.6338808       0.352677598      -67.0727253      0.352677598      -67.0727253      0.921738363      20.6338808       
5.32             0.928491817      19.6855995       0.337111828      -68.0935754      0.337111828      -68.0935754      0.928491817      19.6855995       
5.59             0.934426952      18.8159174       0.322756794      -69.0297709      0.322756794      -69.0297709      0.934426952      18.8159174       
5.86             0.939667628      18.0158372       0.309486353      -69.8910713      0.309486353      -69.8910713      0.939667628      18.0158372       
6.13             0.944315766      17.2776189       0.297189612      -70.6858524      0.297189612      -70.6858524      0.944315766      17.2776189       
6.4              0.94845571       16.5945802       0.285769039      -71.421331       0.285769039      -71.421331       0.94845571       16.5945802       
6.67             0.952157645      15.9609304       0.275138756      -72.1037509      0.275138756      -72.1037509      0.952157645      15.9609304       
6.94             0.955480287      15.3716332       0.265223026      -72.7385349      0.265223026      -72.7385349      0.955480287      15.3716332       
7.21             0.958473012      14.8222928       0.255954935      -73.3304114      0.255954935      -73.3304114      0.958473012      14.8222928       
7.48             0.961177544      14.3090584       0.247275233      -73.8835182      0.247275233      -73.8835182      0.961177544      14.3090584       
7.75             0.963629316      13.8285451       0.239131345      -74.4014896      0.239131345      -74.4014896      0.963629316      13.8285451       
8.02             0.965858551      13.3777678       0.231476508      -74.8875288      0.231476508      -74.8875288      0.965858551      13.3777678       
8.29             0.96789114       12.9540852       0.224269035      -75.3444683      0.224269035      -75.3444683      0.96789114       12.9540852       
8.56             0.969749362      12.5551531       0.217471672      -75.7748211      0.217471672      -75.7748211      0.969749362      12.5551531       
8.83             0.971452459      12.1788846       0.211051053      -76.1808234      0.211051053      -76.1808234      0.971452459      12.1788846       
9.1              0.973017114      11.8234164       0.204977223      -76.5644708      0.204977223      -76.5644708      0.973017114      11.8234164       
9.37             0.974457848      11.4870805       0.199223229      -76.9275499      0.199223229      -76.9275499      0.974457848      11.4870805       
9.64             0.975787339      11.1683796       0.193764764      -77.2716638      0.193764764      -77.2716638      0.975787339      11.1683796       
9.91             0.977016698      10.8659661       0.188579864      -77.5982549      0.188579864      -77.5982549      0.977016698      10.8659661       
10.18            0.978155691      10.5786243       0.183648634      -77.9086247      0.183648634      -77.9086247      0.978155691      10.5786243       
10.45            0.97921293       10.3052548       0.178953022      -78.2039496      0.178953022      -78.2039496      0.97921293       10.3052548       
10.72            0.980196027      10.0448611       0.174476613      -78.4852961      0.174476613      -78.4852961      0.980196027      10.0448611       
10.99            0.981111737      9.79653823       0.17020445       -78.7536325      0.17020445       -78.7536325      0.981111737      9.79653823       
11.26            0.981966062      9.55946221       0.166122883      -79.0098406      0.166122883      -79.0098406      0.981966062      9.55946221       
11.53            0.982764357      9.33288164       0.162219429      -79.2547244      0.162219429      -79.2547244      0.982764357      9.33288164       
11.8             0.983511403      9.11610985       0.158482655      -79.4890185      0.158482655      -79.4890185      0.983511403      9.11610985       
12.07            0.984211487      8.90851815       0.154902068      -79.7133956      0.154902068      -79.7133956      0.984211487      8.90851815       
12.34            0.984868456      8.70952991       0.151468026      -79.9284728      0.151468026      -79.9284728      0.984868456      8.70952991       
12.61            0.985485772      8.51861535       0.148171653      -80.1348168      0.148171653      -80.1348168      0.985485772      8.51861535       
12.88            0.986066558      8.33528689       0.145004764      -80.3329493      0.145004764      -80.3329493      0.986066558      8.33528689       
13.15            0.986613635      8.15909511       0.141959804      -80.5233512      0.141959804      -80.5233512      0.986613635      8.15909511       
13.42            0.987129557      7.98962509       0.139029785      -80.7064664      0.139029785      -80.7064664      0.987129557      7.98962509       
13.69            0.987616641      7.82649321       0.136208238      -80.8827055      0.136208238      -80.8827055      0.987616641      7.82649321       
13.96            0.988076993      7.66934425       0.133489164      -81.0524484      0.133489164      -81.0524484      0.988076993      7.66934425       
14.23            0.98851253       7.51784887       0.130866993      -81.2160475      0.130866993      -81.2160475      0.98851253       7.51784887       
14.5             0.988925         7.37170128       0.128336548      -81.37383        0.128336548      -81.37383        0.988925         7.37170128       
14.77            0.989316         7.23061719       0.125893011      -81.5261         0.125893011      -81.5261         0.989316         7.23061719       
15.04            0.989686989      7.09433199       0.12353189       -81.6731406      0.12353189       -81.6731406      0.989686989      7.09433199       
15.31            0.990039308      6.96259906       0.121248998      -81.8152157      0.121248998      -81.8152157      0.990039308      6.96259906       
15.58            0.990374183      6.8351883        0.11904042       -81.9525713      0.11904042       -81.9525713      0.990374183      6.8351883        
15.85            0.990692744      6.71188476       0.116902499      -82.0854374      0.116902499      -82.0854374      0.990692744      6.71188476       
16.12            0.990996029      6.59248742       0.114831811      -82.2140288      0.114831811      -82.2140288      0.990996029      6.59248742       
16.39            0.991284995      6.47680811       0.112825147      -82.338547       0.112825147      -82.338547       0.991284995      6.47680811       
16.66            0.991560525      6.36467047       0.110879498      -82.4591803      0.110879498      -82.4591803      0.991560525      6.36467047       
16.93            0.991823436      6.25590908       0.10899204       -82.5761056      0.10899204       -82.5761056      0.991823436      6.25590908       
17.2             0.992074481      6.15036859       0.107160117      -82.6894889      0.107160117      -82.6894889      0.992074481      6.15036859       
17.47            0.992314359      6.04790302       0.105381235      -82.7994863      0.105381235      -82.7994863      0.992314359      6.04790302       
17.74            0.99254372       5.948375         0.103653041      -82.9062444      0.103653041      -82.9062444      0.99254372       5.948375         
18.01            0.992763162      5.85165521       0.101973323      -83.0099013      0.101973323      -83.0099013      0.992763162      5.85165521       
18.28            0.992973247      5.75762178       0.100339992      -83.1105873      0.100339992      -83.1105873      0.992973247      5.75762178       
18.55            0.993174493      5.66615973       0.0987510779     -83.2084248      0.0987510779     -83.2084248      0.993174493      5.66615973       
18.82            0.993367384      5.57716056       0.0972047191     -83.3035298      0.0972047191     -83.3035298      0.993367384      5.57716056       
19.09            0.993552372      5.49052173       0.0956991565     -83.3960116      0.0956991565     -83.3960116      0.993552372      5.49052173       
19.36            0.993729878      5.40614632       0.0942327259     -83.4859733      0.0942327259     -83.4859733      0.993729878      5.40614632       
19.63            0.993900294      5.3239426        0.0928038519     -83.5735129      0.0928038519     -83.5735129      0.993900294      5.3239426        
19.9             0.994063989      5.24382373       0.0914110422     -83.6587226      0.0914110422     -83.6587226      0.994063989      5.24382373       
20.17            0.994221305      5.16570742       0.090052882      -83.7416901      0.090052882      -83.7416901      0.994221305      5.16570742       
20.44            0.994372566      5.08951562       0.0887280291     -83.8224984      0.0887280291     -83.8224984      0.994372566      5.08951562       
20.71            0.994518071      5.01517429       0.0874352095     -83.9012262      0.0874352095     -83.9012262      0.994518071      5.01517429       
20.98            0.994658106      4.94261311       0.086173213      -83.977948       0.086173213      -83.977948       0.994658106      4.94261311       
21.25            0.994792935      4.87176529       0.0849408893     -84.0527347      0.0849408893     -84.0527347      0.994792935      4.87176529       
21.52            0.994922807      4.80256732       0.0837371444     -84.1256537      0.0837371444     -84.1256537      0.994922807      4.80256732       
21.79            0.995047958      4.73495876       0.0825609371     -84.196769       0.0825609371     -84.196769       0.995047958      4.73495876       
22.06            0.995168609      4.6688821        0.081411276      -84.2661414      0.081411276      -84.2661414      0.995168609      4.6688821        
22.33            0.995284967      4.60428256       0.0802872167     -84.3338287      0.0802872167     -84.3338287      0.995284967      4.60428256       
22.6             0.995397228      4.54110793       0.0791878585     -84.399886       0.0791878585     -84.399886       0.995397228      4.54110793       
22.87            0.995505577      4.47930843       0.0781123426     -84.4643659      0.0781123426     -84.4643659      0.995505577      4.47930843       
23.14            0.995610189      4.41883655       0.0770598494     -84.5273183      0.0770598494     -84.5273183      0.995610189      4.41883655       
23.41            0.995711228      4.35964696       0.076029596      -84.5887909      0.076029596      -84.5887909      0.995711228      4.35964696       
23.68            0.995808849      4.30169635       0.0750208348     -84.648829       0.0750208348     -84.648829       0.995808849      4.30169635       
23.95            0.9959032        4.24494333       0.0740328511     -84.7074761      0.0740328511     -84.7074761      0.9959032        4.24494333       
24.22            0.99599442       4.18934834       0.0730649613     -84.7647735      0.0730649613     -84.7647735      0.99599442       4.18934834       
24.49            0.996082641      4.13487355       0.0721165115     -84.8207607      0.0721165115     -84.8207607      0.996082641      4.13487355       
24.76            0.996167987      4.08148272       0.0711868758     -84.8754755      0.0711868758     -84.8754755      0.996167987      4.08148272       
25.03            0.996250577      4.02914119       0.0702754546     -84.9289538      0.0702754546     -84.9289538      0.996250577      4.02914119       
25.3             0.996330522      3.97781574       0.0693816737     -84.98123        0.0693816737     -84.98123        0.996330522      3.97781574       
25.57            0.99640793       3.92747454       0.0685049826     -85.0323372      0.0685049826     -85.0323372      0.99640793       3.92747454       
25.84            0.9964829        3.87808706       0.0676448532     -85.0823068      0.0676448532     -85.0823068      0.9964829        3.87808706       
26.11            0.99655553       3.82962403       0.0668007792     -85.1311688      0.0668007792     -85.1311688      0.99655553       3.82962403       
26.38            0.996625911      3.78205737       0.0659722744     -85.1789522      0.0659722744     -85.1789522      0.996625911      3.78205737       
26.65            0.996694128      3.73536011       0.0651588722     -85.2256845      0.0651588722     -85.2256845      0.996694128      3.73536011       
26.92            0.996760266      3.68950636       0.0643601242     -85.271392       0.0643601242     -85.271392       0.996760266      3.68950636       
27.19            0.996824401      3.64447123       0.0635755998     -85.3161         0.0635755998     -85.3161         0.996824401      3.64447123       
27.46            0.99688661       3.60023081       0.0628048847     -85.3598327      0.0628048847     -85.3598327      0.99688661       3.60023081       
27.73            0.996946962      3.55676211       0.0620475808     -85.4026133      0.0620475808     -85.4026133      0.996946962      3.55676211       
28               0.997005527      3.51404301       0.061303305      -85.4444639      0.061303305      -85.4444639      0.997005527      3.51404301       
28.27            0.997062369      3.47205224       0.0605716887     -85.4854058      0.0605716887     -85.4854058      0.997062369      3.47205224       
28.54            0.99711755       3.43076931       0.0598523768     -85.5254593      0.0598523768     -85.5254593      0.99711755       3.43076931       
28.81            0.997171128      3.3901745        0.0591450277     -85.564644       0.0591450277     -85.564644       0.997171128      3.3901745        
29.08            0.997223161      3.35024881       0.058449312      -85.6029786      0.058449312      -85.6029786      0.997223161      3.35024881       
29.35            0.997273701      3.31097393       0.0577649124     -85.6404808      0.0577649124     -85.6404808      0.997273701      3.31097393       
29.62            0.997322801      3.27233222       0.0570915229     -85.6771679      0.0570915229     -85.6771679      0.997322801      3.27233222       
29.89            0.99737051       3.23430667       0.0564288486     -85.7130563      0.0564288486     -85.7130563      0.99737051       3.23430667       
30.16            0.997416874      3.19688085       0.0557766048     -85.7481617      0.0557766048     -85.7481617      0.997416874      3.19688085       
30.43            0.997461939      3.16003895       0.055134517      -85.7824992      0.055134517      -85.7824992      0.997461939      3.16003895       
30.7             0.997505747      3.12376567       0.0545023201     -85.8160833      0.0545023201     -85.8160833      0.997505747      3.12376567       
30.97            0.997548341      3.08804626       0.0538797581     -85.8489277      0.0538797581     -85.8489277      0.997548341      3.08804626       
31.24            0.997589759      3.05286648       0.0532665838     -85.8810456      0.0532665838     -85.8810456      0.997589759      3.05286648       
31.51            0.99763004       3.01821255       0.0526625585     -85.9124498      0.0526625585     -85.9124498      0.99763004       3.01821255       
31.78            0.997669219      2.98407118       0.0520674512     -85.9431524      0.0520674512     -85.9431524      0.997669219      2.98407118       
32.05            0.997707332      2.9504295        0.0514810388     -85.9731648      0.0514810388     -85.9731648      0.997707332      2.9504295        
32.32            0.997744412      2.9172751        0.0509031057     -86.0024983      0.0509031057     -86.0024983      0.997744412      2.9172751        
32.59            0.997780491      2.88459595       0.0503334431     -86.0311633      0.0503334431     -86.0311633      0.997780491      2.88459595       
32.86            0.997815601      2.8523804        0.0497718491     -86.05917        0.0497718491     -86.05917        0.997815601      2.8523804        
33.13            0.997849769      2.82061723       0.0492181284     -86.0865281      0.0492181284     -86.0865281      0.997849769      2.82061723       
33.4             0.997883026      2.78929551       0.0486720917     -86.1132467      0.0486720917     -86.1132467      0.997883026      2.78929551       
33.67            0.997915398      2.75840472       0.0481335561     -86.1393345      0.0481335561     -86.1393345      0.997915398      2.75840472       
33.94            0.997946911      2.72793464       0.0476023441     -86.1648001      0.0476023441     -86.1648001      0.997946911      2.72793464       
34.21            0.997977591      2.69787537       0.0470782839     -86.1896512      0.0470782839     -86.1896512      0.997977591      2.69787537       
34.48            0.998007462      2.66821733       0.0465612091     -86.2138954      0.0465612091     -86.2138954      0.998007462      2.66821733       
34.75            0.998036548      2.63895123       0.0460509582     -86.23754        0.0460509582     -86.23754        0.998036548      2.63895123       
35.02            0.99806487       2.61006806       0.0455473749     -86.2605917      0.0455473749     -86.2605917      0.99806487       2.61006806       
35.29            0.998092451      2.58155908       0.0450503073     -86.2830569      0.0450503073     -86.2830569      0.998092451      2.58155908       
