! Coilcraft 1008LS-182 Chip Inductor				
! 5 August 2002			
# MHZ S MA R 50
!Freq             MagS11           AngS11           MagS21           AngS21           MagS12           AngS12           MagS22           AngS22
1                0.111748017      75.3997642       0.977829345      -6.34940525      0.977829345      -6.34940525      0.111748017      75.3997642       
2                0.217369623      72.4717453       0.957244218      -12.5055954      0.957244218      -12.5055954      0.217369623      72.4717453       
3                0.315653749      67.8392609       0.928172477      -18.3583324      0.928172477      -18.3583324      0.315653749      67.8392609       
4                0.404518768      63.0389485       0.892653454      -23.8229778      0.892653454      -23.8229778      0.404518768      63.0389485       
5                0.483072481      58.4370769       0.853021272      -28.8508633      0.853021272      -28.8508633      0.483072481      58.4370769       
6                0.551349431      54.1619742       0.811394239      -33.4261003      0.811394239      -33.4261003      0.551349431      54.1619742       
7                0.6100054        50.2551068       0.76945936       -37.5577687      0.76945936       -37.5577687      0.6100054        50.2551068       
8                0.66003164       46.7173782       0.728429524      -41.2712789      0.728429524      -41.2712789      0.66003164       46.7173782       
9                0.702539128      43.5295849       0.689095799      -44.6009781      0.689095799      -44.6009781      0.702539128      43.5295849       
10               0.738620807      40.6632486       0.651916743      -47.5847218      0.651916743      -47.5847218      0.738620807      40.6632486       
11               0.769277237      38.0866879       0.617109821      -50.260331       0.617109821      -50.260331       0.769277237      38.0866879       
12               0.795385479      35.7683785       0.584728935      -52.6635319      0.584728935      -52.6635319      0.795385479      35.7683785       
13               0.817693819      33.6786977       0.55472374       -54.8269272      0.55472374       -54.8269272      0.817693819      33.6786977       
14               0.836830036      31.7907146       0.5269821        -56.7796246      0.5269821        -56.7796246      0.836830036      31.7907146       
15               0.853315537      30.0804309       0.501359021      -58.5472528      0.501359021      -58.5472528      0.853315537      30.0804309       
16               0.867581001      28.5267228       0.477695566      -60.1521823      0.477695566      -60.1521823      0.867581001      28.5267228       
17               0.879981326      27.1111336       0.455830744      -61.6138412      0.455830744      -61.6138412      0.879981326      27.1111336       
18               0.890808906      25.8176029       0.4356086        -62.9490586      0.4356086        -62.9490586      0.890808906      25.8176029       
19               0.900304956      24.6321824       0.416882167      -64.1723997      0.416882167      -64.1723997      0.900304956      24.6321824       
20               0.908668937      23.5427629       0.399515393      -65.2964754      0.399515393      -65.2964754      0.908668937      23.5427629       
21               0.916066289      22.5388242       0.383383797      -66.3322175      0.383383797      -66.3322175      0.916066289      22.5388242       
22               0.922634719      21.6112142       0.368374371      -67.2891199      0.368374371      -67.2891199      0.922634719      21.6112142       
23               0.928489286      20.7519551       0.354385044      -68.1754463      0.354385044      -68.1754463      0.928489286      20.7519551       
24               0.933726511      19.9540777       0.341323918      -68.9984075      0.341323918      -68.9984075      0.933726511      19.9540777       
25               0.938427698      19.211478        0.329108407      -69.7643125      0.329108407      -69.7643125      0.938427698      19.211478        
26               0.942661607      18.518796        0.317664363      -70.478697       0.317664363      -70.478697       0.942661607      18.518796        
27               0.946486629      17.8713122       0.306925221      -71.1464314      0.306925221      -71.1464314      0.946486629      17.8713122       
28               0.94995255       17.2648596       0.296831201      -71.7718135      0.296831201      -71.7718135      0.94995255       17.2648596       
29               0.953101982      16.6957489       0.287328583      -72.3586464      0.287328583      -72.3586464      0.953101982      16.6957489       
30               0.955971538      16.1607051       0.278369036      -72.9103046      0.278369036      -72.9103046      0.955971538      16.1607051       
31               0.958592794      15.6568127       0.269909027      -73.4297909      0.269909027      -73.4297909      0.958592794      15.6568127       
32               0.960993078      15.1814699       0.261909288      -73.9197841      0.261909288      -73.9197841      0.960993078      15.1814699       
33               0.963196123      14.7323485       0.254334349      -74.3826802      0.254334349      -74.3826802      0.963196123      14.7323485       
34               0.965222613      14.3073603       0.247152116      -74.8206279      0.247152116      -74.8206279      0.965222613      14.3073603       
35               0.967090627      13.9046277       0.240333505      -75.2355587      0.240333505      -75.2355587      0.967090627      13.9046277       
36               0.968816023      13.5224582       0.233852117      -75.6292129      0.233852117      -75.6292129      0.968816023      13.5224582       
37               0.970412747      13.1593232       0.22768395       -76.0031621      0.22768395       -76.0031621      0.970412747      13.1593232       
38               0.971893103      12.8138387       0.221807143      -76.3588287      0.221807143      -76.3588287      0.971893103      12.8138387       
39               0.973267973      12.4847492       0.216201759      -76.6975031      0.216201759      -76.6975031      0.973267973      12.4847492       
40               0.97454701       12.1709132       0.210849578      -77.0203577      0.210849578      -77.0203577      0.97454701       12.1709132       
41               0.975738798      11.871291        0.205733929      -77.3284605      0.205733929      -77.3284605      0.975738798      11.871291        
42               0.976850989      11.5849338       0.200839532      -77.6227858      0.200839532      -77.6227858      0.976850989      11.5849338       
43               0.977890422      11.310974        0.196152361      -77.9042242      0.196152361      -77.9042242      0.977890422      11.310974        
44               0.97886322       11.0486168       0.19165952       -78.1735912      0.19165952       -78.1735912      0.97886322       11.0486168       
45               0.979774881      10.7971332       0.187349138      -78.4316349      0.187349138      -78.4316349      0.979774881      10.7971332       
46               0.980630352      10.5558529       0.183210267      -78.6790426      0.183210267      -78.6790426      0.980630352      10.5558529       
47               0.981434089      10.3241591       0.179232803      -78.9164468      0.179232803      -78.9164468      0.981434089      10.3241591       
48               0.982190119      10.1014831       0.175407401      -79.1444305      0.175407401      -79.1444305      0.982190119      10.1014831       
49               0.982902087      9.88729951       0.171725411      -79.3635316      0.171725411      -79.3635316      0.982902087      9.88729951       
50               0.983573297      9.68112283       0.168178815      -79.5742476      0.168178815      -79.5742476      0.983573297      9.68112283       
51               0.98420675       9.4825033        0.16476017       -79.7770387      0.16476017       -79.7770387      0.98420675       9.4825033        
52               0.984805175      9.29102392       0.161462561      -79.9723316      0.161462561      -79.9723316      0.984805175      9.29102392       
53               0.985371063      9.10629748       0.158279553      -80.1605223      0.158279553      -80.1605223      0.985371063      9.10629748       
54               0.985906684      8.92796401       0.155205155      -80.3419787      0.155205155      -80.3419787      0.985906684      8.92796401       
55               0.986414115      8.75568846       0.152233776      -80.5170428      0.152233776      -80.5170428      0.986414115      8.75568846       
56               0.98689526       8.58915854       0.1493602        -80.6860336      0.1493602        -80.6860336      0.98689526       8.58915854       
57               0.987351861      8.4280829        0.146579551      -80.8492481      0.146579551      -80.8492481      0.987351861      8.4280829        
58               0.987785521      8.2721894        0.143887269      -81.0069637      0.143887269      -81.0069637      0.987785521      8.2721894        
59               0.988197713      8.12122356       0.141279082      -81.1594395      0.141279082      -81.1594395      0.988197713      8.12122356       
60               0.988589794      7.97494715       0.138750987      -81.3069179      0.138750987      -81.3069179      0.988589794      7.97494715       
61               0.988963014      7.83313696       0.136299227      -81.4496257      0.136299227      -81.4496257      0.988963014      7.83313696       
62               0.989318528      7.6955836        0.133920275      -81.5877755      0.133920275      -81.5877755      0.989318528      7.6955836        
63               0.989657404      7.56209049       0.131610814      -81.7215668      0.131610814      -81.7215668      0.989657404      7.56209049       
64               0.989980629      7.4324729        0.129367725      -81.8511865      0.129367725      -81.8511865      0.989980629      7.4324729        
65               0.990289119      7.30655704       0.127188071      -81.9768106      0.127188071      -81.9768106      0.990289119      7.30655704       
66               0.990583723      7.18417931       0.125069082      -82.0986041      0.125069082      -82.0986041      0.990583723      7.18417931       
67               0.99086523       7.06518555       0.123008147      -82.2167228      0.123008147      -82.2167228      0.99086523       7.06518555       
68               0.991134371      6.94943037       0.121002802      -82.3313129      0.121002802      -82.3313129      0.991134371      6.94943037       
69               0.99139183       6.83677655       0.119050719      -82.4425123      0.119050719      -82.4425123      0.99139183       6.83677655       
70               0.991638241      6.72709447       0.117149695      -82.5504512      0.117149695      -82.5504512      0.991638241      6.72709447       
71               0.991874196      6.6202616        0.115297649      -82.6552522      0.115297649      -82.6552522      0.991874196      6.6202616        
72               0.992100249      6.51616201       0.113492607      -82.7570311      0.113492607      -82.7570311      0.992100249      6.51616201       
73               0.992316915      6.41468594       0.111732703      -82.8558974      0.111732703      -82.8558974      0.992316915      6.41468594       
74               0.992524678      6.31572943       0.110016166      -82.9519544      0.110016166      -82.9519544      0.992524678      6.31572943       
75               0.992723989      6.21919389       0.108341313      -83.0452999      0.108341313      -83.0452999      0.992723989      6.21919389       
76               0.992915271      6.12498579       0.106706552      -83.1360265      0.106706552      -83.1360265      0.992915271      6.12498579       
77               0.993098921      6.03301634       0.105110365      -83.2242216      0.105110365      -83.2242216      0.993098921      6.03301634       
78               0.993275311      5.94320118       0.103551313      -83.3099681      0.103551313      -83.3099681      0.993275311      5.94320118       
79               0.99344479       5.85546014       0.102028025      -83.3933447      0.102028025      -83.3933447      0.99344479       5.85546014       
80               0.993607687      5.76971695       0.100539198      -83.4744256      0.100539198      -83.4744256      0.993607687      5.76971695       
81               0.99376431       5.68589901       0.0990835903     -83.5532815      0.0990835903     -83.5532815      0.99376431       5.68589901       
82               0.99391495       5.60393721       0.0976600183     -83.6299793      0.0976600183     -83.6299793      0.99391495       5.60393721       
83               0.99405988       5.52376567       0.0962673544     -83.7045823      0.0962673544     -83.7045823      0.99405988       5.52376567       
84               0.994199358      5.4453216        0.094904523      -83.7771509      0.094904523      -83.7771509      0.994199358      5.4453216        
85               0.994333628      5.3685451        0.0935704974     -83.8477422      0.0935704974     -83.8477422      0.994333628      5.3685451        
86               0.994462917      5.29337899       0.0922642973     -83.9164104      0.0922642973     -83.9164104      0.994462917      5.29337899       
87               0.994587445      5.21976868       0.0909849863     -83.983207       0.0909849863     -83.983207       0.994587445      5.21976868       
88               0.994707414      5.14766199       0.0897316692     -84.0481808      0.0897316692     -84.0481808      0.994707414      5.14766199       
89               0.994823018      5.07700907       0.0885034902     -84.1113784      0.0885034902     -84.1113784      0.994823018      5.07700907       
90               0.994934441      5.00776223       0.0872996302     -84.1728438      0.0872996302     -84.1728438      0.994934441      5.00776223       
91               0.995041856      4.93987584       0.0861193053     -84.2326189      0.0861193053     -84.2326189      0.995041856      4.93987584       
92               0.995145428      4.87330622       0.084961765      -84.2907433      0.084961765      -84.2907433      0.995145428      4.87330622       
93               0.995245311      4.80801152       0.08382629       -84.3472548      0.08382629       -84.3472548      0.995245311      4.80801152       
94               0.995341653      4.74395168       0.082712191      -84.4021892      0.082712191      -84.4021892      0.995341653      4.74395168       
95               0.995434595      4.68108825       0.0816188071     -84.4555806      0.0816188071     -84.4555806      0.995434595      4.68108825       
96               0.995524269      4.61938439       0.0805455042     -84.507461       0.0805455042     -84.507461       0.995524269      4.61938439       
97               0.995610802      4.55880475       0.0794916737     -84.5578612      0.0794916737     -84.5578612      0.995610802      4.55880475       
98               0.995694313      4.49931538       0.0784567314     -84.60681        0.0784567314     -84.60681        0.995694313      4.49931538       
99               0.995774917      4.44088371       0.0774401163     -84.654335       0.0774401163     -84.654335       0.995774917      4.44088371       
100              0.995852723      4.38347844       0.076441289      -84.7004622      0.076441289      -84.7004622      0.995852723      4.38347844       
101              0.995927833      4.32706948       0.0754597315     -84.7452162      0.0754597315     -84.7452162      0.995927833      4.32706948       
102              0.996000346      4.27162792       0.0744949453     -84.7886201      0.0744949453     -84.7886201      0.996000346      4.27162792       
103              0.996070356      4.21712595       0.0735464511     -84.8306961      0.0735464511     -84.8306961      0.996070356      4.21712595       
104              0.996137952      4.16353681       0.0726137876     -84.8714649      0.0726137876     -84.8714649      0.996137952      4.16353681       
105              0.996203219      4.11083477       0.0716965107     -84.910946       0.0716965107     -84.910946       0.996203219      4.11083477       
106              0.996266239      4.05899502       0.0707941929     -84.9491578      0.0707941929     -84.9491578      0.996266239      4.05899502       
107              0.99632709       4.00799368       0.0699064222     -84.9861177      0.0699064222     -84.9861177      0.99632709       4.00799368       
108              0.996385844      3.95780777       0.0690328017     -85.0218419      0.0690328017     -85.0218419      0.996385844      3.95780777       
109              0.996442574      3.90841511       0.0681729489     -85.0563455      0.0681729489     -85.0563455      0.996442574      3.90841511       
110              0.996497346      3.85979433       0.0673264949     -85.0896428      0.0673264949     -85.0896428      0.996497346      3.85979433       
111              0.996550226      3.81192481       0.0664930837     -85.121747       0.0664930837     -85.121747       0.996550226      3.81192481       
112              0.996601275      3.76478667       0.0656723721     -85.1526704      0.0656723721     -85.1526704      0.996601275      3.76478667       
113              0.996650553      3.71836073       0.0648640287     -85.1824244      0.0648640287     -85.1824244      0.996650553      3.71836073       
114              0.996698115      3.67262845       0.0640677336     -85.2110195      0.0640677336     -85.2110195      0.996698115      3.67262845       
115              0.996744017      3.62757196       0.0632831778     -85.2384653      0.0632831778     -85.2384653      0.996744017      3.62757196       
116              0.99678831       3.58317398       0.0625100628     -85.2647706      0.0625100628     -85.2647706      0.99678831       3.58317398       
117              0.996831044      3.53941782       0.0617481004     -85.2899434      0.0617481004     -85.2899434      0.996831044      3.53941782       
118              0.996872267      3.49628735       0.0609970117     -85.3139909      0.0609970117     -85.3139909      0.996872267      3.49628735       
119              0.996912024      3.45376697       0.0602565273     -85.3369194      0.0602565273     -85.3369194      0.996912024      3.45376697       
120              0.99695036       3.41184159       0.0595263865     -85.3587345      0.0595263865     -85.3587345      0.99695036       3.41184159       
121              0.996987317      3.37049665       0.0588063372     -85.3794411      0.0588063372     -85.3794411      0.996987317      3.37049665       
122              0.997022934      3.32971802       0.0580961355     -85.3990433      0.0580961355     -85.3990433      0.997022934      3.32971802       
123              0.997057252      3.28949204       0.0573955452     -85.4175444      0.0573955452     -85.4175444      0.997057252      3.28949204       
124              0.997090307      3.24980549       0.0567043378     -85.4349471      0.0567043378     -85.4349471      0.997090307      3.24980549       
125              0.997122134      3.21064558       0.0560222919     -85.4512533      0.0560222919     -85.4512533      0.997122134      3.21064558       
126              0.99715277       3.17199989       0.0553491932     -85.4664643      0.0553491932     -85.4664643      0.99715277       3.17199989       
127              0.997182246      3.13385642       0.054684834      -85.4805805      0.054684834      -85.4805805      0.997182246      3.13385642       
128              0.997210594      3.09620353       0.0540290129     -85.4936018      0.0540290129     -85.4936018      0.997210594      3.09620353       
