! Coilcraft 1008LS-472 Chip Inductor				
! 5 August 2002			
# MHZ S MA R 50
!Freq             MagS11           AngS11           MagS21           AngS21           MagS12           AngS12           MagS22           AngS22
1                0.276460181      67.50985         0.930013222      -15.9415392      0.930013222      -15.9415392      0.276460181      67.50985         
1.42             0.376299316      62.8997599       0.893731444      -22.0130037      0.893731444      -22.0130037      0.376299316      62.8997599       
1.84             0.464310229      58.1767555       0.852010512      -27.5834197      0.852010512      -27.5834197      0.464310229      58.1767555       
2.26             0.540229059      53.6975694       0.807567367      -32.6234663      0.807567367      -32.6234663      0.540229059      53.6975694       
2.68             0.604757387      49.5831219       0.762593996      -37.1402951      0.762593996      -37.1402951      0.604757387      49.5831219       
3.1              0.659114005      45.8633958       0.718647991      -41.1648417      0.718647991      -41.1648417      0.659114005      45.8633958       
3.52             0.704700199      42.5276752       0.676715187      -44.7407019      0.676715187      -44.7407019      0.704700199      42.5276752       
3.94             0.742891934      39.5471593       0.637337691      -47.916076       0.637337691      -47.916076       0.742891934      39.5471593       
4.36             0.774933456      36.8863442       0.600745631      -50.7386974      0.600745631      -50.7386974      0.774933456      36.8863442       
4.78             0.801897369      34.5088625       0.566966201      -53.2530502      0.566966201      -53.2530502      0.801897369      34.5088625       
5.2              0.824682178      32.3803468       0.535904139      -55.4991141      0.535904139      -55.4991141      0.824682178      32.3803468       
5.62             0.844027858      30.4696686       0.507396935      -57.5120308      0.507396935      -57.5120308      0.844027858      30.4696686       
6.04             0.86053805       28.7493054       0.481250698      -59.3222738      0.481250698      -59.3222738      0.86053805       28.7493054       
6.46             0.874702925      27.1952617       0.45726237       -60.9560604      0.45726237       -60.9560604      0.874702925      27.1952617       
6.88             0.886920013      25.7867831       0.435232797      -62.4358522      0.435232797      -62.4358522      0.886920013      25.7867831       
7.3              0.897512009      24.5059917       0.414973881      -63.7808617      0.414973881      -63.7808617      0.897512009      24.5059917       
7.72             0.906741508      23.3375121       0.396312047      -65.0075243      0.396312047      -65.0075243      0.906741508      23.3375121       
8.14             0.914822931      22.2681199       0.379089466      -66.1299176      0.379089466      -66.1299176      0.914822931      22.2681199       
8.56             0.921932073      21.2864267       0.363163977      -67.1601249      0.363163977      -67.1601249      0.921932073      21.2864267       
8.98             0.928213709      20.3826061       0.348408294      -68.108545       0.348408294      -68.108545       0.928213709      20.3826061       
9.4              0.933787624      19.5481583       0.33470886       -68.9841533      0.33470886       -68.9841533      0.933787624      19.5481583       
9.82             0.938753399      18.7757106       0.321964565      -69.794722       0.321964565      -69.794722       0.938753399      18.7757106       
10.24            0.943194218      18.0588486       0.310085455      -70.5470027      0.310085455      -70.5470027      0.943194218      18.0588486       
10.66            0.947179896      17.3919745       0.298991495      -71.2468808      0.298991495      -71.2468808      0.947179896      17.3919745       
11.08            0.950769301      16.7701878       0.288611434      -71.8995033      0.288611434      -71.8995033      0.950769301      16.7701878       
11.5             0.954012295      16.1891846       0.278881771      -72.5093865      0.278881771      -72.5093865      0.954012295      16.1891846       
11.92            0.956951298      15.6451738       0.269745839      -73.0805061      0.269745839      -73.0805061      0.956951298      15.6451738       
12.34            0.959622552      15.1348052       0.261152982      -73.616373       0.261152982      -73.616373       0.959622552      15.1348052       
12.76            0.962057149      14.6551099       0.253057849      -74.1200973      0.253057849      -74.1200973      0.962057149      14.6551099       
13.18            0.964281865      14.2034488       0.245419754      -74.5944418      0.245419754      -74.5944418      0.964281865      14.2034488       
13.6             0.966319854      13.7774697       0.238202134      -75.0418686      0.238202134      -75.0418686      0.966319854      13.7774697       
14.02            0.968191201      13.3750702       0.231372067      -75.4645773      0.231372067      -75.4645773      0.968191201      13.3750702       
14.44            0.9699134        12.9943663       0.224899847      -75.8645387      0.224899847      -75.8645387      0.9699134        12.9943663       
14.86            0.971501732      12.6336653       0.218758627      -76.2435227      0.218758627      -76.2435227      0.971501732      12.6336653       
15.28            0.972969592      12.2914427       0.212924087      -76.6031233      0.212924087      -76.6031233      0.972969592      12.2914427       
15.7             0.974328758      11.9663224       0.207374164      -76.9447791      0.207374164      -76.9447791      0.974328758      11.9663224       
16.12            0.975589617      11.6570593       0.202088799      -77.2697915      0.202088799      -77.2697915      0.975589617      11.6570593       
16.54            0.976761352      11.362524        0.197049725      -77.5793407      0.197049725      -77.5793407      0.976761352      11.362524        
16.96            0.97785211       11.0816906       0.192240275      -77.8744988      0.192240275      -77.8744988      0.97785211       11.0816906       
17.38            0.978869132      10.8136246       0.187645219      -78.1562421      0.187645219      -78.1562421      0.978869132      10.8136246       
17.8             0.979818876      10.5574736       0.183250611      -78.4254613      0.183250611      -78.4254613      0.979818876      10.5574736       
18.22            0.980707111      10.3124584       0.179043666      -78.6829704      0.179043666      -78.6829704      0.980707111      10.3124584       
18.64            0.981539003      10.0778654       0.175012641      -78.9295148      0.175012641      -78.9295148      0.981539003      10.0778654       
19.06            0.982319191      9.85303982       0.171146732      -79.1657784      0.171146732      -79.1657784      0.982319191      9.85303982       
19.48            0.983051849      9.6373802        0.167435988      -79.3923895      0.167435988      -79.3923895      0.983051849      9.6373802        
19.9             0.983740738      9.43033279       0.163871227      -79.6099264      0.163871227      -79.6099264      0.983740738      9.43033279       
20.32            0.984389259      9.23138712       0.160443965      -79.8189222      0.160443965      -79.8189222      0.984389259      9.23138712       
20.74            0.985000487      9.04007185       0.157146353      -80.0198692      0.157146353      -80.0198692      0.985000487      9.04007185       
21.16            0.985577212      8.85595118       0.153971119      -80.2132223      0.153971119      -80.2132223      0.985577212      8.85595118       
21.58            0.986121968      8.67862153       0.150911516      -80.399403       0.150911516      -80.399403       0.986121968      8.67862153       
22               0.986637062      8.50770872       0.147961279      -80.578802       0.147961279      -80.578802       0.986637062      8.50770872       
22.42            0.987124597      8.34286529       0.145114581      -80.7517819      0.145114581      -80.7517819      0.987124597      8.34286529       
22.84            0.987586492      8.18376822       0.142365994      -80.91868        0.142365994      -80.91868        0.987586492      8.18376822       
23.26            0.988024504      8.03011684       0.139710462      -81.0798101      0.139710462      -81.0798101      0.988024504      8.03011684       
23.68            0.988440239      7.88163093       0.137143263      -81.2354647      0.137143263      -81.2354647      0.988440239      7.88163093       
24.1             0.988835175      7.73804901       0.134659988      -81.3859165      0.134659988      -81.3859165      0.988835175      7.73804901       
24.52            0.989210665      7.59912685       0.132256512      -81.5314204      0.132256512      -81.5314204      0.989210665      7.59912685       
24.94            0.989567956      7.46463605       0.129928974      -81.6722148      0.129928974      -81.6722148      0.989567956      7.46463605       
25.36            0.989908197      7.33436279       0.127673754      -81.8085225      0.127673754      -81.8085225      0.989908197      7.33436279       
25.78            0.990232446      7.20810672       0.125487458      -81.9405525      0.125487458      -81.9405525      0.990232446      7.20810672       
26.2             0.990541682      7.08567987       0.123366898      -82.0685008      0.123366898      -82.0685008      0.990541682      7.08567987       
26.62            0.990836808      6.96690577       0.121309079      -82.1925513      0.121309079      -82.1925513      0.990836808      6.96690577       
27.04            0.991118663      6.85161856       0.119311182      -82.3128768      0.119311182      -82.3128768      0.991118663      6.85161856       
27.46            0.991388021      6.73966221       0.117370553      -82.42964        0.117370553      -82.42964        0.991388021      6.73966221       
27.88            0.991645602      6.63088982       0.115484694      -82.5429938      0.115484694      -82.5429938      0.991645602      6.63088982       
28.3             0.991892076      6.52516294       0.113651245      -82.6530822      0.113651245      -82.6530822      0.991892076      6.52516294       
28.72            0.992128064      6.422351         0.111867981      -82.7600413      0.111867981      -82.7600413      0.992128064      6.422351         
29.14            0.992354144      6.32233075       0.1101328        -82.8639992      0.1101328        -82.8639992      0.992354144      6.32233075       
29.56            0.992570856      6.22498577       0.108443714      -82.9650771      0.108443714      -82.9650771      0.992570856      6.22498577       
29.98            0.992778702      6.13020597       0.106798843      -83.0633892      0.106798843      -83.0633892      0.992778702      6.13020597       
30.4             0.992978153      6.03788721       0.105196407      -83.1590439      0.105196407      -83.1590439      0.992978153      6.03788721       
30.82            0.993169645      5.94793087       0.103634721      -83.2521434      0.103634721      -83.2521434      0.993169645      5.94793087       
31.24            0.993353591      5.86024352       0.102112184      -83.3427848      0.102112184      -83.3427848      0.993353591      5.86024352       
31.66            0.993530374      5.77473657       0.100627282      -83.43106        0.100627282      -83.43106        0.993530374      5.77473657       
32.08            0.993700353      5.69132595       0.0991785724     -83.517056       0.0991785724     -83.517056       0.993700353      5.69132595       
32.5             0.993863866      5.60993186       0.0977646891     -83.6008555      0.0977646891     -83.6008555      0.993863866      5.60993186       
32.92            0.99402123       5.53047847       0.0963843316     -83.682537       0.0963843316     -83.682537       0.99402123       5.53047847       
33.34            0.994172741      5.4528937        0.0950362633     -83.762175       0.0950362633     -83.762175       0.994172741      5.4528937        
33.76            0.994318679      5.37710897       0.0937193074     -83.8398404      0.0937193074     -83.8398404      0.994318679      5.37710897       
34.18            0.994459308      5.30305901       0.0924323434     -83.9156005      0.0924323434     -83.9156005      0.994459308      5.30305901       
34.6             0.994594873      5.23068166       0.0911743034     -83.9895194      0.0911743034     -83.9895194      0.994594873      5.23068166       
35.02            0.994725609      5.15991767       0.0899441695     -84.0616582      0.0899441695     -84.0616582      0.994725609      5.15991767       
35.44            0.994851735      5.09071057       0.0887409709     -84.1320749      0.0887409709     -84.1320749      0.994851735      5.09071057       
35.86            0.994973458      5.02300648       0.0875637809     -84.200825       0.0875637809     -84.200825       0.994973458      5.02300648       
36.28            0.995090973      4.95675394       0.0864117148     -84.2679612      0.0864117148     -84.2679612      0.995090973      4.95675394       
36.7             0.995204467      4.89190385       0.0852839272     -84.3335339      0.0852839272     -84.3335339      0.995204467      4.89190385       
37.12            0.995314112      4.82840927       0.0841796101     -84.3975911      0.0841796101     -84.3975911      0.995314112      4.82840927       
37.54            0.995420074      4.76622531       0.083097991      -84.4601786      0.083097991      -84.4601786      0.995420074      4.76622531       
37.96            0.99552251       4.70530908       0.0820383305     -84.5213403      0.0820383305     -84.5213403      0.99552251       4.70530908       
38.38            0.995621567      4.64561948       0.0809999209     -84.581118       0.0809999209     -84.581118       0.995621567      4.64561948       
38.8             0.995717386      4.58711722       0.0799820848     -84.6395516      0.0799820848     -84.6395516      0.995717386      4.58711722       
39.22            0.9958101        4.52976461       0.0789841727     -84.6966794      0.0789841727     -84.6966794      0.9958101        4.52976461       
39.64            0.995899834      4.47352558       0.0780055623     -84.7525379      0.0780055623     -84.7525379      0.995899834      4.47352558       
40.06            0.995986708      4.41836552       0.0770456568     -84.807162       0.0770456568     -84.807162       0.995986708      4.41836552       
40.48            0.996070836      4.36425126       0.0761038837     -84.8605852      0.0761038837     -84.8605852      0.996070836      4.36425126       
40.9             0.996152326      4.31115095       0.0751796936     -84.9128396      0.0751796936     -84.9128396      0.996152326      4.31115095       
41.32            0.99623128       4.25903402       0.0742725588     -84.9639557      0.0742725588     -84.9639557      0.99623128       4.25903402       
41.74            0.996307796      4.20787113       0.0733819726     -85.0139629      0.0733819726     -85.0139629      0.996307796      4.20787113       
42.16            0.996381967      4.15763409       0.0725074481     -85.0628894      0.0725074481     -85.0628894      0.996381967      4.15763409       
42.58            0.996453881      4.10829579       0.0716485172     -85.1107621      0.0716485172     -85.1107621      0.996453881      4.10829579       
43               0.996523622      4.05983018       0.0708047297     -85.1576068      0.0708047297     -85.1576068      0.996523622      4.05983018       
43.42            0.996591271      4.01221221       0.0699756527     -85.2034482      0.0699756527     -85.2034482      0.996591271      4.01221221       
43.84            0.996656904      3.96541776       0.0691608695     -85.2483101      0.0691608695     -85.2483101      0.996656904      3.96541776       
44.26            0.996720595      3.91942363       0.0683599789     -85.2922152      0.0683599789     -85.2922152      0.996720595      3.91942363       
44.68            0.996782412      3.87420747       0.0675725946     -85.3351854      0.0675725946     -85.3351854      0.996782412      3.87420747       
45.1             0.996842422      3.82974777       0.0667983444     -85.3772415      0.0667983444     -85.3772415      0.996842422      3.82974777       
45.52            0.996900689      3.78602378       0.0660368697     -85.4184036      0.0660368697     -85.4184036      0.996900689      3.78602378       
45.94            0.996957273      3.74301553       0.0652878246     -85.458691       0.0652878246     -85.458691       0.996957273      3.74301553       
46.36            0.997012232      3.70070374       0.0645508758     -85.4981221      0.0645508758     -85.4981221      0.997012232      3.70070374       
46.78            0.997065622      3.65906982       0.0638257017     -85.5367146      0.0638257017     -85.5367146      0.997065622      3.65906982       
47.2             0.997117495      3.61809586       0.063111992      -85.5744855      0.063111992      -85.5744855      0.997117495      3.61809586       
47.62            0.997167904      3.57776453       0.0624094469     -85.6114512      0.0624094469     -85.6114512      0.997167904      3.57776453       
48.04            0.997216895      3.53805913       0.0617177775     -85.6476272      0.0617177775     -85.6476272      0.997216895      3.53805913       
48.46            0.997264515      3.49896354       0.0610367042     -85.6830286      0.0610367042     -85.6830286      0.997264515      3.49896354       
48.88            0.99731081       3.46046217       0.0603659572     -85.7176697      0.0603659572     -85.7176697      0.99731081       3.46046217       
49.3             0.997355822      3.42253995       0.0597052756     -85.7515644      0.0597052756     -85.7515644      0.997355822      3.42253995       
49.72            0.997399591      3.38518234       0.0590544075     -85.7847258      0.0590544075     -85.7847258      0.997399591      3.38518234       
50.14            0.997442158      3.34837527       0.058413109      -85.8171666      0.058413109      -85.8171666      0.997442158      3.34837527       
50.56            0.99748356       3.31210512       0.0577811443     -85.848899       0.0577811443     -85.848899       0.99748356       3.31210512       
50.98            0.997523832      3.27635873       0.0571582852     -85.8799347      0.0571582852     -85.8799347      0.997523832      3.27635873       
51.4             0.99756301       3.24112337       0.0565443112     -85.9102847      0.0565443112     -85.9102847      0.99756301       3.24112337       
51.82            0.997601128      3.2063867        0.0559390084     -85.9399598      0.0559390084     -85.9399598      0.997601128      3.2063867        
52.24            0.997638216      3.17213679       0.0553421699     -85.9689702      0.0553421699     -85.9689702      0.997638216      3.17213679       
52.66            0.997674306      3.13836209       0.0547535955     -85.9973257      0.0547535955     -85.9973257      0.997674306      3.13836209       
53.08            0.997709428      3.10505139       0.054173091      -86.0250355      0.054173091      -86.0250355      0.997709428      3.10505139       
53.5             0.997743611      3.07219386       0.0536004683     -86.0521088      0.0536004683     -86.0521088      0.997743611      3.07219386       
53.92            0.99777688       3.03977897       0.0530355452     -86.0785539      0.0530355452     -86.0785539      0.99777688       3.03977897       
54.34            0.997809263      3.00779655       0.0524781449     -86.1043791      0.0524781449     -86.1043791      0.997809263      3.00779655       
