! Coilcraft 1008LS-152 Chip Inductor				
! 5 August 2002			
# MHZ S MA R 50
!Freq             MagS11           AngS11           MagS21           AngS21           MagS12           AngS12           MagS22           AngS22
1                0.0935981676     75.8812464       0.981375237      -5.30706941      0.981375237      -5.30706941      0.0935981676     75.8812464       
2                0.182923263      74.1237292       0.966115738      -10.4930631      0.966115738      -10.4930631      0.182923263      74.1237292       
3                0.267785675      70.4251494       0.944601714      -15.4921363      0.944601714      -15.4921363      0.267785675      70.4251494       
4                0.346667819      66.3796792       0.917810986      -20.2469517      0.917810986      -20.2469517      0.346667819      66.3796792       
5                0.418679632      62.3650906       0.887071219      -24.7170127      0.887071219      -24.7170127      0.418679632      62.3650906       
6                0.483462749      58.5239994       0.853735569      -28.8793174      0.853735569      -28.8793174      0.483462749      58.5239994       
7                0.54108353       54.9178318       0.819020893      -32.7262765      0.819020893      -32.7262765      0.54108353       54.9178318       
8                0.591907469      51.5701439       0.783930541      -36.2623874      0.783930541      -36.2623874      0.591907469      51.5701439       
9                0.636481024      48.4840642       0.749234799      -39.5006786      0.749234799      -39.5006786      0.636481024      48.4840642       
10               0.67543647       45.6512208       0.715486797      -42.4595333      0.715486797      -42.4595333      0.67543647       45.6512208       
11               0.709424023      43.0569652       0.683055822      -45.160159       0.683055822      -45.160159       0.709424023      43.0569652       
12               0.73906855       40.6836032       0.652165649      -47.6247409      0.652165649      -47.6247409      0.73906855       40.6836032       
13               0.764945346      38.5124056       0.622930722      -49.8751946      0.622930722      -49.8751946      0.764945346      38.5124056       
14               0.787569222      36.5248302       0.595386924      -51.9323915      0.595386924      -51.9323915      0.787569222      36.5248302       
15               0.807392124      34.7032261       0.569516072      -53.8157272      0.569516072      -53.8157272      0.807392124      34.7032261       
16               0.824805719      33.0312027       0.545264523      -55.5429274      0.545264523      -55.5429274      0.824805719      33.0312027       
17               0.840146557      31.4937863       0.522556824      -57.1300065      0.522556824      -57.1300065      0.840146557      31.4937863       
18               0.853702277      30.0774452       0.501305432      -58.5913199      0.501305432      -58.5913199      0.853702277      30.0774452       
19               0.865717954      28.770039        0.48141744       -59.9396696      0.48141744       -59.9396696      0.865717954      28.770039        
20               0.876402105      27.5607262       0.462799107      -61.1864348      0.462799107      -61.1864348      0.876402105      27.5607262       
21               0.885932112      26.4398531       0.445358799      -62.3417114      0.445358799      -62.3417114      0.885932112      26.4398531       
22               0.894458979      25.3988364       0.429008805      -63.4144495      0.429008805      -63.4144495      0.894458979      25.3988364       
23               0.902111439      24.4300494       0.413666383      -64.4125832      0.413666383      -64.4125832      0.902111439      24.4300494       
24               0.908999441      23.526714        0.399254267      -65.3431499      0.399254267      -65.3431499      0.908999441      23.526714        
25               0.915217107      22.6828026       0.385700826      -66.212398       0.385700826      -66.212398       0.915217107      22.6828026       
26               0.920845207      21.8929492       0.372939995      -67.0258826      0.372939995      -67.0258826      0.920845207      21.8929492       
27               0.92595324       21.15237         0.36091106       -67.7885499      0.36091106       -67.7885499      0.92595324       21.15237         
28               0.930601171      20.4567944       0.349558363      -68.5048117      0.349558363      -68.5048117      0.930601171      20.4567944       
29               0.934840882      19.8024028       0.338830961      -69.1786105      0.338830961      -69.1786105      0.934840882      19.8024028       
30               0.938717396      19.185773        0.328682276      -69.8134757      0.328682276      -69.8134757      0.938717396      19.185773        
31               0.942269887      18.6038333       0.319069733      -70.4125735      0.319069733      -70.4125735      0.942269887      18.6038333       
32               0.945532542      18.0538213       0.309954424      -70.9787496      0.309954424      -70.9787496      0.945532542      18.0538213       
33               0.948535278      17.5332478       0.301300782      -71.5145669      0.301300782      -71.5145669      0.948535278      17.5332478       
34               0.951304345      17.0398659       0.293076278      -72.022338       0.293076278      -72.022338       0.951304345      17.0398659       
35               0.953862839      16.5716429       0.285251144      -72.5041539      0.285251144      -72.5041539      0.953862839      16.5716429       
36               0.956231132      16.1267372       0.277798115      -72.9619085      0.277798115      -72.9619085      0.956231132      16.1267372       
37               0.958427244      15.7034766       0.270692196      -73.3973208      0.270692196      -73.3973208      0.958427244      15.7034766       
38               0.960467148      15.3003403       0.263910453      -73.8119539      0.263910453      -73.8119539      0.960467148      15.3003403       
39               0.962365041      14.9159425       0.257431821      -74.2072315      0.257431821      -74.2072315      0.962365041      14.9159425       
40               0.96413357       14.5490185       0.251236927      -74.5844526      0.251236927      -74.5844526      0.96413357       14.5490185       
41               0.965784027      14.1984117       0.245307939      -74.9448047      0.245307939      -74.9448047      0.965784027      14.1984117       
42               0.967326515      13.8630632       0.239628421      -75.2893751      0.239628421      -75.2893751      0.967326515      13.8630632       
43               0.968770096      13.5420015       0.234183209      -75.6191606      0.234183209      -75.6191606      0.968770096      13.5420015       
44               0.970122911      13.234334        0.228958295      -75.9350772      0.228958295      -75.9350772      0.970122911      13.234334        
45               0.971392292      12.9392394       0.223940726      -76.2379673      0.223940726      -76.2379673      0.971392292      12.9392394       
46               0.972584852      12.655961        0.219118509      -76.528607       0.219118509      -76.528607       0.972584852      12.655961        
47               0.973706569      12.3838002       0.214480527      -76.8077123      0.214480527      -76.8077123      0.973706569      12.3838002       
48               0.974762857      12.1221116       0.210016465      -77.0759449      0.210016465      -77.0759449      0.974762857      12.1221116       
49               0.975758626      11.8702979       0.205716741      -77.3339167      0.205716741      -77.3339167      0.975758626      11.8702979       
50               0.97669834       11.6278056       0.201572445      -77.5821948      0.201572445      -77.5821948      0.97669834       11.6278056       
51               0.977586058      11.3941212       0.197575282      -77.8213051      0.197575282      -77.8213051      0.977586058      11.3941212       
52               0.978425485      11.1687674       0.19371752       -78.0517358      0.19371752       -78.0517358      0.978425485      11.1687674       
53               0.979220002      10.9513007       0.189991949      -78.2739412      0.189991949      -78.2739412      0.979220002      10.9513007       
54               0.9799727        10.7413077       0.186391833      -78.488344       0.186391833      -78.488344       0.9799727        10.7413077       
55               0.980686412      10.5384031       0.182910879      -78.6953381      0.182910879      -78.6953381      0.980686412      10.5384031       
56               0.981363735      10.3422275       0.179543196      -78.895291       0.179543196      -78.895291       0.981363735      10.3422275       
57               0.982007055      10.1524447       0.176283269      -79.0885459      0.176283269      -79.0885459      0.982007055      10.1524447       
58               0.982618566      9.96874071       0.173125927      -79.2754238      0.173125927      -79.2754238      0.982618566      9.96874071       
59               0.983200287      9.79082113       0.170066318      -79.4562249      0.170066318      -79.4562249      0.983200287      9.79082113       
60               0.983754083      9.61841025       0.167099887      -79.6312306      0.167099887      -79.6312306      0.983754083      9.61841025       
61               0.984281672      9.4512494        0.164222353      -79.8007044      0.164222353      -79.8007044      0.984281672      9.4512494        
62               0.984784645      9.28909564       0.161429686      -79.964894       0.161429686      -79.964894       0.984784645      9.28909564       
63               0.985264472      9.13172069       0.158718095      -80.1240316      0.158718095      -80.1240316      0.985264472      9.13172069       
64               0.985722517      8.97890975       0.156084007      -80.278336       0.156084007      -80.278336       0.985722517      8.97890975       
65               0.986160043      8.83046061       0.153524052      -80.4280125      0.153524052      -80.4280125      0.986160043      8.83046061       
66               0.986578224      8.68618272       0.15103505       -80.5732548      0.15103505       -80.5732548      0.986578224      8.68618272       
67               0.98697815       8.54589636       0.148613998      -80.7142452      0.148613998      -80.7142452      0.98697815       8.54589636       
68               0.987360837      8.40943191       0.146258058      -80.8511557      0.146258058      -80.8511557      0.987360837      8.40943191       
69               0.98772723       8.27662914       0.143964545      -80.9841486      0.143964545      -80.9841486      0.98772723       8.27662914       
70               0.98807821       8.14733657       0.141730919      -81.1133772      0.141730919      -81.1133772      0.98807821       8.14733657       
71               0.988414598      8.02141092       0.139554772      -81.2389862      0.139554772      -81.2389862      0.988414598      8.02141092       
72               0.988737164      7.89871653       0.137433825      -81.3611126      0.137433825      -81.3611126      0.988737164      7.89871653       
73               0.989046623      7.77912486       0.135365915      -81.4798859      0.135365915      -81.4798859      0.989046623      7.77912486       
74               0.989343649      7.66251409       0.133348987      -81.5954288      0.133348987      -81.5954288      0.989343649      7.66251409       
75               0.989628869      7.54876862       0.131381094      -81.7078574      0.131381094      -81.7078574      0.989628869      7.54876862       
76               0.989902873      7.43777871       0.129460382      -81.8172819      0.129460382      -81.8172819      0.989902873      7.43777871       
77               0.990166214      7.32944014       0.12758509       -81.9238067      0.12758509       -81.9238067      0.990166214      7.32944014       
78               0.990419411      7.22365382       0.125753544      -82.0275308      0.125753544      -82.0275308      0.990419411      7.22365382       
79               0.990662951      7.12032554       0.123964148      -82.1285483      0.123964148      -82.1285483      0.990662951      7.12032554       
80               0.990897293      7.0193656        0.122215384      -82.2269486      0.122215384      -82.2269486      0.990897293      7.0193656        
81               0.991122866      6.92068862       0.120505804      -82.3228164      0.120505804      -82.3228164      0.991122866      6.92068862       
82               0.991340078      6.82421324       0.118834028      -82.4162325      0.118834028      -82.4162325      0.991340078      6.82421324       
83               0.991549311      6.72986191       0.117198739      -82.5072736      0.117198739      -82.5072736      0.991549311      6.72986191       
84               0.991750925      6.63756064       0.11559868       -82.5960127      0.11559868       -82.5960127      0.991750925      6.63756064       
85               0.991945261      6.54723884       0.114032653      -82.6825192      0.114032653      -82.6825192      0.991945261      6.54723884       
86               0.992132639      6.4588291        0.112499509      -82.7668593      0.112499509      -82.7668593      0.992132639      6.4588291        
87               0.992313363      6.37226702       0.110998153      -82.8490959      0.110998153      -82.8490959      0.992313363      6.37226702       
88               0.99248772       6.28749105       0.109527538      -82.929289       0.109527538      -82.929289       0.99248772       6.28749105       
89               0.992655981      6.20444233       0.108086659      -83.0074958      0.108086659      -83.0074958      0.992655981      6.20444233       
90               0.992818402      6.12306455       0.106674557      -83.0837708      0.106674557      -83.0837708      0.992818402      6.12306455       
91               0.992975228      6.04330381       0.105290313      -83.1581659      0.105290313      -83.1581659      0.992975228      6.04330381       
92               0.993126687      5.96510849       0.103933045      -83.2307307      0.103933045      -83.2307307      0.993126687      5.96510849       
93               0.993272999      5.88842914       0.102601909      -83.3015124      0.102601909      -83.3015124      0.993272999      5.88842914       
94               0.993414371      5.81321837       0.101296096      -83.3705561      0.101296096      -83.3705561      0.993414371      5.81321837       
95               0.993550999      5.73943071       0.100014828      -83.4379048      0.100014828      -83.4379048      0.993550999      5.73943071       
96               0.99368307       5.66702258       0.098757361      -83.5035995      0.098757361      -83.5035995      0.99368307       5.66702258       
97               0.993810762      5.59595213       0.0975229781     -83.5676794      0.0975229781     -83.5676794      0.993810762      5.59595213       
98               0.993934243      5.52617918       0.0963109921     -83.6301818      0.0963109921     -83.6301818      0.993934243      5.52617918       
99               0.994053673      5.45766516       0.0951207424     -83.6911424      0.0951207424     -83.6911424      0.994053673      5.45766516       
100              0.994169206      5.39037299       0.0939515941     -83.7505952      0.0939515941     -83.7505952      0.994169206      5.39037299       
101              0.994280986      5.32426703       0.0928029366     -83.8085727      0.0928029366     -83.8085727      0.994280986      5.32426703       
102              0.994389152      5.25931301       0.0916741825     -83.8651059      0.0916741825     -83.8651059      0.994389152      5.25931301       
103              0.994493836      5.19547797       0.0905647668     -83.9202244      0.0905647668     -83.9202244      0.994493836      5.19547797       
104              0.994595164      5.13273019       0.0894741452     -83.9739563      0.0894741452     -83.9739563      0.994595164      5.13273019       
105              0.994693255      5.07103913       0.0884017939     -84.0263285      0.0884017939     -84.0263285      0.994693255      5.07103913       
106              0.994788224      5.01037539       0.0873472082     -84.0773667      0.0873472082     -84.0773667      0.994788224      5.01037539       
107              0.994880181      4.95071063       0.0863099018     -84.1270953      0.0863099018     -84.1270953      0.994880181      4.95071063       
108              0.994969229      4.89201756       0.0852894059     -84.1755377      0.0852894059     -84.1755377      0.994969229      4.89201756       
109              0.995055468      4.83426987       0.0842852685     -84.222716       0.0842852685     -84.222716       0.995055468      4.83426987       
110              0.995138994      4.77744219       0.0832970535     -84.2686514      0.0832970535     -84.2686514      0.995138994      4.77744219       
111              0.995219898      4.72151003       0.0823243405     -84.3133638      0.0823243405     -84.3133638      0.995219898      4.72151003       
112              0.995298266      4.66644979       0.0813667233     -84.3568726      0.0813667233     -84.3568726      0.995298266      4.66644979       
113              0.995374183      4.61223867       0.08042381       -84.3991958      0.08042381       -84.3991958      0.995374183      4.61223867       
114              0.995447729      4.55885466       0.079495222      -84.4403506      0.079495222      -84.4403506      0.995447729      4.55885466       
115              0.995518978      4.50627652       0.0785805938     -84.4803535      0.0785805938     -84.4803535      0.995518978      4.50627652       
116              0.995588006      4.4544837        0.077679572      -84.51922        0.077679572      -84.51922        0.995588006      4.4544837        
117              0.995654882      4.40345636       0.076791815      -84.5569646      0.076791815      -84.5569646      0.995654882      4.40345636       
118              0.995719674      4.35317534       0.0759169927     -84.5936014      0.0759169927     -84.5936014      0.995719674      4.35317534       
119              0.995782445      4.30362208       0.0750547859     -84.6291434      0.0750547859     -84.6291434      0.995782445      4.30362208       
120              0.995843259      4.25477864       0.0742048855     -84.663603       0.0742048855     -84.663603       0.995843259      4.25477864       
121              0.995902174      4.20662769       0.0733669928     -84.6969917      0.0733669928     -84.6969917      0.995902174      4.20662769       
122              0.995959248      4.15915242       0.0725408184     -84.7293206      0.0725408184     -84.7293206      0.995959248      4.15915242       
123              0.996014535      4.11233659       0.0717260825     -84.7605998      0.0717260825     -84.7605998      0.996014535      4.11233659       
124              0.996068088      4.06616447       0.0709225137     -84.7908388      0.0709225137     -84.7908388      0.996068088      4.06616447       
125              0.996119958      4.02062081       0.0701298494     -84.8200466      0.0701298494     -84.8200466      0.996119958      4.02062081       
126              0.996170193      3.97569086       0.0693478352     -84.8482315      0.0693478352     -84.8482315      0.996170193      3.97569086       
127              0.99621884       3.93136031       0.0685762245     -84.8754009      0.0685762245     -84.8754009      0.99621884       3.93136031       
128              0.996265945      3.88761531       0.0678147783     -84.9015621      0.0678147783     -84.9015621      0.996265945      3.88761531       
