! Coilcraft 1008LS-222 Chip Inductor				
! 5 August 2002			
# MHZ S MA R 50
!Freq             MagS11           AngS11           MagS21           AngS21           MagS12           AngS12           MagS22           AngS22
1                0.135696314      73.8900852       0.971137074      -7.71480817      0.971137074      -7.71480817      0.135696314      73.8900852       
2                0.261596745      69.8728455       0.942549471      -15.1052245      0.942549471      -15.1052245      0.261596745      69.8728455       
3                0.375178639      64.2506541       0.902650301      -21.9853398      0.902650301      -21.9853398      0.375178639      64.2506541       
4                0.473815842      58.6771758       0.855491768      -28.2376048      0.855491768      -28.2376048      0.473815842      58.6771758       
5                0.557179071      53.5274536       0.805004471      -33.8197459      0.805004471      -33.8197459      0.557179071      53.5274536       
6                0.626405535      48.9035357       0.754238138      -38.746721       0.754238138      -38.746721       0.626405535      48.9035357       
7                0.68333587       44.8082192       0.705220386      -43.0680502      0.705220386      -43.0680502      0.68333587       44.8082192       
8                0.72997654       41.2032657       0.659113115      -46.8490869      0.659113115      -46.8490869      0.72997654       41.2032657       
9                0.768202303      38.0354585       0.616455229      -50.1585938      0.616455229      -50.1585938      0.768202303      38.0354585       
10               0.799631537      35.2491683       0.577384199      -53.0617943      0.577384199      -53.0617943      0.799631537      35.2491683       
11               0.825601022      32.7921654       0.541802047      -55.6171817      0.541802047      -55.6171817      0.825601022      32.7921654       
12               0.847187976      30.617925        0.509486783      -57.8755562      0.509486783      -57.8755562      0.847187976      30.617925        
13               0.865249158      28.6861595       0.480161895      -59.8802301      0.480161895      -59.8802301      0.865249158      28.6861595       
14               0.880462022      26.962518        0.453537113      -61.667759       0.453537113      -61.667759       0.880462022      26.962518        
15               0.893361588      25.4179448       0.429330796      -63.2688466      0.429330796      -63.2688466      0.893361588      25.4179448       
16               0.904371128      24.027948        0.407281127      -64.7092429      0.407281127      -64.7092429      0.904371128      24.027948        
17               0.913826723      22.7718943       0.387150742      -66.0105594      0.387150742      -66.0105594      0.913826723      22.7718943       
18               0.921996508      21.632379        0.368727681      -67.1909738      0.368727681      -67.1909738      0.921996508      21.632379        
19               0.929095585      20.5946851       0.351824392      -68.2658227      0.351824392      -68.2658227      0.929095585      20.5946851       
20               0.935297534      19.6463281       0.336275789      -69.2480931      0.336275789      -69.2480931      0.935297534      19.6463281       
21               0.940743272      18.7766792       0.321936968      -70.1488263      0.321936968      -70.1488263      0.940743272      18.7766792       
22               0.945547895      17.9766535       0.308680867      -70.9774488      0.308680867      -70.9774488      0.945547895      17.9766535       
23               0.94980598       17.2384551       0.296396056      -71.7420423      0.296396056      -71.7420423      0.94980598       17.2384551       
24               0.95359569       16.5553667       0.284984727      -72.4495648      0.284984727      -72.4495648      0.95359569       16.5553667       
25               0.956981999      15.9215772       0.274360895      -73.1060319      0.274360895      -73.1060319      0.956981999      15.9215772       
26               0.960019208      15.3320393       0.26444883       -73.7166654      0.26444883       -73.7166654      0.960019208      15.3320393       
27               0.962752941      14.7823527       0.255181694      -74.2860161      0.255181694      -74.2860161      0.962752941      14.7823527       
28               0.965221726      14.2686664       0.24650036       -74.8180648      0.24650036       -74.8180648      0.965221726      14.2686664       
29               0.967458254      13.7875982       0.238352398      -75.3163066      0.238352398      -75.3163066      0.967458254      13.7875982       
30               0.969490393      13.3361671       0.230691205      -75.7838212      0.230691205      -75.7838212      0.969490393      13.3361671       
31               0.971342006      12.911737        0.223475253      -76.2233309      0.223475253      -76.2233309      0.971342006      12.911737        
32               0.973033612      12.5119695       0.21666745       -76.6372504      0.21666745       -76.6372504      0.973033612      12.5119695       
33               0.974582925      12.1347835       0.210234582      -77.027728       0.210234582      -77.027728       0.974582925      12.1347835       
34               0.976005297      11.7783219       0.204146842      -77.3966805      0.204146842      -77.3966805      0.976005297      11.7783219       
35               0.977314084      11.4409223       0.198377412      -77.7458233      0.198377412      -77.7458233      0.977314084      11.4409223       
36               0.978520943      11.1210929       0.192902115      -78.0766955      0.192902115      -78.0766955      0.978520943      11.1210929       
37               0.979636085      10.8174913       0.187699103      -78.3906818      0.187699103      -78.3906818      0.979636085      10.8174913       
38               0.980668481      10.5289066       0.182748594      -78.689031       0.182748594      -78.689031       0.980668481      10.5289066       
39               0.981626038      10.254244        0.178032633      -78.9728718      0.178032633      -78.9728718      0.981626038      10.254244        
40               0.982515749      9.99251128       0.173534897      -79.2432273      0.173534897      -79.2432273      0.982515749      9.99251128       
41               0.983343808      9.74280713       0.169240515      -79.5010262      0.169240515      -79.5010262      0.983343808      9.74280713       
42               0.984115724      9.50431129       0.165135914      -79.7471138      0.165135914      -79.7471138      0.984115724      9.50431129       
43               0.984836407      9.27627562       0.16120868       -79.9822607      0.16120868       -79.9822607      0.984836407      9.27627562       
44               0.98551024       9.05801645       0.157447444      -80.2071711      0.157447444      -80.2071711      0.98551024       9.05801645       
45               0.986141153      8.84890783       0.153841774      -80.4224891      0.153841774      -80.4224891      0.986141153      8.84890783       
46               0.98673267       8.64837568       0.150382078      -80.6288058      0.150382078      -80.6288058      0.98673267       8.64837568       
47               0.987287962      8.45589252       0.147059531      -80.8266638      0.147059531      -80.8266638      0.987287962      8.45589252       
48               0.987809888      8.27097289       0.143865993      -81.0165621      0.143865993      -81.0165621      0.987809888      8.27097289       
49               0.988301032      8.09316932       0.140793948      -81.1989609      0.140793948      -81.1989609      0.988301032      8.09316932       
50               0.98876373       7.92206865       0.137836445      -81.3742845      0.137836445      -81.3742845      0.98876373       7.92206865       
51               0.989200102      7.75728889       0.13498705       -81.5429253      0.13498705       -81.5429253      0.989200102      7.75728889       
52               0.989612074      7.59847631       0.132239795      -81.7052461      0.132239795      -81.7052461      0.989612074      7.59847631       
53               0.990001399      7.44530292       0.129589138      -81.8615833      0.129589138      -81.8615833      0.990001399      7.44530292       
54               0.990369674      7.29746419       0.127029928      -82.0122492      0.127029928      -82.0122492      0.990369674      7.29746419       
55               0.990718359      7.15467698       0.12455737       -82.1575335      0.12455737       -82.1575335      0.990718359      7.15467698       
56               0.991048788      7.01667772       0.122166996      -82.297706       0.122166996      -82.297706       0.991048788      7.01667772       
57               0.991362184      6.88322075       0.119854636      -82.4330179      0.119854636      -82.4330179      0.991362184      6.88322075       
58               0.991659668      6.75407686       0.117616396      -82.5637031      0.117616396      -82.5637031      0.991659668      6.75407686       
59               0.991942269      6.62903191       0.115448634      -82.6899803      0.115448634      -82.6899803      0.991942269      6.62903191       
60               0.992210937      6.50788563       0.113347942      -82.8120534      0.113347942      -82.8120534      0.992210937      6.50788563       
61               0.992466543      6.39045052       0.111311126      -82.9301133      0.111311126      -82.9301133      0.992466543      6.39045052       
62               0.992709894      6.27655087       0.109335189      -83.0443386      0.109335189      -83.0443386      0.992709894      6.27655087       
63               0.992941733      6.16602183       0.107417319      -83.1548965      0.107417319      -83.1548965      0.992941733      6.16602183       
64               0.993162749      6.05870859       0.105554873      -83.2619441      0.105554873      -83.2619441      0.993162749      6.05870859       
65               0.993373577      5.95446564       0.103745364      -83.3656283      0.103745364      -83.3656283      0.993373577      5.95446564       
66               0.993574808      5.8531561        0.101986452      -83.4660876      0.101986452      -83.4660876      0.993574808      5.8531561        
67               0.993766991      5.75465104       0.10027593       -83.5634517      0.10027593       -83.5634517      0.993766991      5.75465104       
68               0.993950634      5.65882898       0.0986117203     -83.6578429      0.0986117203     -83.6578429      0.993950634      5.65882898       
69               0.994126209      5.56557531       0.0969918582     -83.7493762      0.0969918582     -83.7493762      0.994126209      5.56557531       
70               0.994294159      5.47478184       0.0954144897     -83.8381598      0.0954144897     -83.8381598      0.994294159      5.47478184       
71               0.994454892      5.38634636       0.0938778619     -83.9242957      0.0938778619     -83.9242957      0.994454892      5.38634636       
72               0.994608793      5.30017219       0.0923803166     -84.0078803      0.0923803166     -84.0078803      0.994608793      5.30017219       
73               0.994756218      5.2161679        0.0909202839     -84.0890042      0.0909202839     -84.0890042      0.994756218      5.2161679        
74               0.994897501      5.13424687       0.0894962762     -84.167753       0.0894962762     -84.167753       0.994897501      5.13424687       
75               0.995032956      5.05432702       0.0881068836     -84.2442078      0.0881068836     -84.2442078      0.995032956      5.05432702       
76               0.995162874      4.97633053       0.0867507683     -84.3184449      0.0867507683     -84.3184449      0.995162874      4.97633053       
77               0.99528753       4.90018353       0.0854266602     -84.3905366      0.0854266602     -84.3905366      0.99528753       4.90018353       
78               0.995407181      4.8258159        0.0841333529     -84.4605511      0.0841333529     -84.4605511      0.995407181      4.8258159        
79               0.995522067      4.753161         0.0828696996     -84.528553       0.0828696996     -84.528553       0.995522067      4.753161         
80               0.995632417      4.68215545       0.0816346095     -84.5946034      0.0816346095     -84.5946034      0.995632417      4.68215545       
81               0.995738441      4.61273898       0.0804270444     -84.6587602      0.0804270444     -84.6587602      0.995738441      4.61273898       
82               0.995840342      4.54485421       0.0792460158     -84.7210781      0.0792460158     -84.7210781      0.995840342      4.54485421       
83               0.995938307      4.47844646       0.0780905816     -84.7816088      0.0780905816     -84.7816088      0.995938307      4.47844646       
84               0.996032515      4.41346365       0.076959844      -84.8404015      0.076959844      -84.8404015      0.996032515      4.41346365       
85               0.996123132      4.34985608       0.0758529461     -84.8975026      0.0758529461     -84.8975026      0.996123132      4.34985608       
86               0.996210317      4.28757637       0.0747690706     -84.952956       0.0747690706     -84.952956       0.996210317      4.28757637       
87               0.996294219      4.22657925       0.0737074365     -85.0068034      0.0737074365     -85.0068034      0.996294219      4.22657925       
88               0.996374979      4.16682151       0.0726672981     -85.0590842      0.0726672981     -85.0590842      0.996374979      4.16682151       
89               0.99645273       4.10826184       0.0716479424     -85.1098357      0.0716479424     -85.1098357      0.99645273       4.10826184       
90               0.996527598      4.05086075       0.0706486875     -85.1590934      0.0706486875     -85.1590934      0.996527598      4.05086075       
91               0.996599703      3.99458045       0.0696688809     -85.2068905      0.0696688809     -85.2068905      0.996599703      3.99458045       
92               0.996669157      3.9393848        0.0687078982     -85.2532587      0.0687078982     -85.2532587      0.996669157      3.9393848        
93               0.996736067      3.88523917       0.0677651413     -85.2982279      0.0677651413     -85.2982279      0.996736067      3.88523917       
94               0.996800535      3.83211041       0.0668400369     -85.3418264      0.0668400369     -85.3418264      0.996800535      3.83211041       
95               0.996862657      3.77996673       0.0659320359     -85.3840807      0.0659320359     -85.3840807      0.996862657      3.77996673       
96               0.996922525      3.72877765       0.0650406113     -85.4250162      0.0650406113     -85.4250162      0.996922525      3.72877765       
97               0.996980224      3.67851395       0.0641652578     -85.4646565      0.0641652578     -85.4646565      0.996980224      3.67851395       
98               0.997035839      3.62914758       0.0633054903     -85.503024       0.0633054903     -85.503024       0.997035839      3.62914758       
99               0.997089446      3.58065161       0.062460843      -85.5401397      0.062460843      -85.5401397      0.997089446      3.58065161       
100              0.997141121      3.53300019       0.0616308685     -85.5760234      0.0616308685     -85.5760234      0.997141121      3.53300019       
101              0.997190934      3.48616845       0.0608151369     -85.6106938      0.0608151369     -85.6106938      0.997190934      3.48616845       
102              0.997238953      3.44013252       0.0600132349     -85.644168       0.0600132349     -85.644168       0.997238953      3.44013252       
103              0.997285243      3.39486944       0.059224765      -85.6764625      0.059224765      -85.6764625      0.997285243      3.39486944       
104              0.997329864      3.35035711       0.0584493449     -85.7075923      0.0584493449     -85.7075923      0.997329864      3.35035711       
105              0.997372875      3.30657428       0.0576866065     -85.7375716      0.0576866065     -85.7375716      0.997372875      3.30657428       
106              0.997414333      3.26350049       0.0569361957     -85.7664135      0.0569361957     -85.7664135      0.997414333      3.26350049       
107              0.997454289      3.22111604       0.0561977712     -85.7941301      0.0561977712     -85.7941301      0.997454289      3.22111604       
108              0.997492795      3.17940195       0.0554710044     -85.8207324      0.0554710044     -85.8207324      0.997492795      3.17940195       
109              0.9975299        3.13833993       0.0547555784     -85.8462308      0.0547555784     -85.8462308      0.9975299        3.13833993       
110              0.997565649      3.09791234       0.0540511881     -85.8706345      0.0540511881     -85.8706345      0.997565649      3.09791234       
111              0.997600088      3.05810221       0.0533575387     -85.8939519      0.0533575387     -85.8939519      0.997600088      3.05810221       
112              0.997633258      3.01889311       0.0526743464     -85.9161907      0.0526743464     -85.9161907      0.997633258      3.01889311       
113              0.997665201      2.98026924       0.052001337      -85.9373574      0.052001337      -85.9373574      0.997665201      2.98026924       
114              0.997695954      2.94221533       0.0513382459     -85.9574581      0.0513382459     -85.9574581      0.997695954      2.94221533       
115              0.997725555      2.90471663       0.0506848176     -85.9764977      0.0506848176     -85.9764977      0.997725555      2.90471663       
116              0.99775404       2.86775891       0.0500408054     -85.9944806      0.0500408054     -85.9944806      0.99775404       2.86775891       
117              0.997781443      2.8313284        0.0494059709     -86.0114103      0.0494059709     -86.0114103      0.997781443      2.8313284        
118              0.997807796      2.79541182       0.0487800838     -86.0272895      0.0487800838     -86.0272895      0.997807796      2.79541182       
119              0.997833131      2.75999633       0.0481629214     -86.0421202      0.0481629214     -86.0421202      0.997833131      2.75999633       
120              0.997857478      2.72506949       0.0475542684     -86.0559036      0.0475542684     -86.0559036      0.997857478      2.72506949       
121              0.997880866      2.69061929       0.0469539165     -86.0686403      0.0469539165     -86.0686403      0.997880866      2.69061929       
122              0.997903322      2.65663412       0.0463616642     -86.0803298      0.0463616642     -86.0803298      0.997903322      2.65663412       
123              0.997924874      2.62310272       0.0457773167     -86.0909713      0.0457773167     -86.0909713      0.997924874      2.62310272       
124              0.997945546      2.5900142        0.0452006852     -86.100563       0.0452006852     -86.100563       0.997945546      2.5900142        
125              0.997965363      2.55735802       0.044631587      -86.1091024      0.044631587      -86.1091024      0.997965363      2.55735802       
126              0.997984349      2.52512398       0.0440698451     -86.1165864      0.0440698451     -86.1165864      0.997984349      2.52512398       
127              0.998002527      2.49330219       0.0435152883     -86.1230111      0.0435152883     -86.1230111      0.998002527      2.49330219       
128              0.998019917      2.46188306       0.0429677503     -86.1283718      0.0429677503     -86.1283718      0.998019917      2.46188306       
