! Coilcraft 1008LS-103 Chip Inductor				
! 5 August 2002			
# MHZ S MA R 50
!Freq             MagS11           AngS11           MagS21           AngS21           MagS12           AngS12           MagS22           AngS22
1                0.510111062      53.3573326       0.807045053      -30.4747198      0.807045053      -30.4747198      0.510111062      53.3573326       
1.25             0.593423088      48.5046355       0.752193333      -36.2216929      0.752193333      -36.2216929      0.593423088      48.5046355       
1.5              0.660959928      44.1432442       0.698754044      -41.2072652      0.698754044      -41.2072652      0.660959928      44.1432442       
1.75             0.715328855      40.3003418       0.648524144      -45.5139313      0.648524144      -45.5139313      0.715328855      40.3003418       
2                0.759066954      36.9410127       0.602334647      -49.233376       0.602334647      -49.233376       0.759066954      36.9410127       
2.25             0.794372015      34.0098296       0.56040239       -52.4535132      0.56040239       -52.4535132      0.794372015      34.0098296       
2.5              0.823037308      31.448473        0.522597523      -55.2526707      0.522597523      -55.2526707      0.823037308      31.448473        
2.75             0.846480434      29.2029098       0.488618619      -57.6979179      0.488618619      -57.6979179      0.846480434      29.2029098       
3                0.865804464      27.2258183       0.458097         -59.8454565      0.458097         -59.8454565      0.865804464      27.2258183       
3.25             0.881862275      25.4768933       0.430654338      -61.7418627      0.430654338      -61.7418627      0.881862275      25.4768933       
3.5              0.895312875      23.9222785       0.40593186       -63.425556       0.40593186       -63.425556       0.895312875      23.9222785       
3.75             0.906666945      22.53371         0.383603244      -64.9282051      0.383603244      -64.9282051      0.906666945      22.53371         
4                0.916322205      21.2876333       0.363378613      -66.2759605      0.363378613      -66.2759605      0.916322205      21.2876333       
4.25             0.92459034       20.164399        0.345003941      -67.4904873      0.345003941      -67.4904873      0.92459034       20.164399        
4.5              0.931717309      19.1475733       0.328258308      -68.5898105      0.328258308      -68.5898105      0.931717309      19.1475733       
4.75             0.937898606      18.2233618       0.312950321      -69.5889985      0.312950321      -69.5889985      0.937898606      18.2233618       
5                0.943290759      17.3801376       0.298914404      -70.5007108      0.298914404      -70.5007108      0.943290759      17.3801376       
5.25             0.948019996      16.6080568       0.286007297      -71.3356382      0.286007297      -71.3356382      0.948019996      16.6080568       
5.5              0.952188836      15.8987468       0.274104892      -72.1028548      0.274104892      -72.1028548      0.952188836      15.8987468       
5.75             0.955881107      15.245053        0.263099469      -72.8101012      0.263099469      -72.8101012      0.955881107      15.245053        
6                0.959165804      14.6408344       0.252897306      -73.4640128      0.252897306      -73.4640128      0.959165804      14.6408344       
6.25             0.962100071      14.0807958       0.243416645      -74.0703044      0.243416645      -74.0703044      0.962100071      14.0807958       
6.5              0.96473152       13.5603519       0.234585961      -74.6339199      0.234585961      -74.6339199      0.96473152       13.5603519       
6.75             0.967100044      13.0755153       0.226342495      -75.1591556      0.226342495      -75.1591556      0.967100044      13.0755153       
7                0.969239256      12.6228049       0.218631019      -75.6497598      0.218631019      -75.6497598      0.969239256      12.6228049       
7.25             0.97117762       12.1991697       0.211402786      -76.1090163      0.211402786      -76.1090163      0.97117762       12.1991697       
7.5              0.972939358      11.8019257       0.204614643      -76.5398122      0.204614643      -76.5398122      0.972939358      11.8019257       
7.75             0.974545178      11.4287036       0.198228282      -76.9446958      0.198228282      -76.9446958      0.974545178      11.4287036       
8                0.976012865      11.0774047       0.192209595      -77.3259235      0.192209595      -77.3259235      0.976012865      11.0774047       
8.25             0.977357755      10.7461641       0.186528136      -77.6854998      0.186528136      -77.6854998      0.977357755      10.7461641       
8.5              0.978593128      10.4333195       0.181156654      -78.0252115      0.181156654      -78.0252115      0.978593128      10.4333195       
8.75             0.979730525      10.1373848       0.176070691      -78.3466556      0.176070691      -78.3466556      0.979730525      10.1373848       
9                0.980780015      9.85702767       0.171248247      -78.6512639      0.171248247      -78.6512639      0.980780015      9.85702767       
9.25             0.981750408      9.59105051       0.166669483      -78.9403231      0.166669483      -78.9403231      0.981750408      9.59105051       
9.5              0.982649447      9.33837397       0.162316468      -79.214993       0.162316468      -79.214993       0.982649447      9.33837397       
9.75             0.98348395       9.09802288       0.158172957      -79.4763216      0.158172957      -79.4763216      0.98348395       9.09802288       
10               0.984259942      8.86911416       0.154224203      -79.7252577      0.154224203      -79.7252577      0.984259942      8.86911416       
10.25            0.984982765      8.65084627       0.150456792      -79.9626625      0.150456792      -79.9626625      0.984982765      8.65084627       
10.5             0.985657164      8.44249013       0.146858495      -80.1893197      0.146858495      -80.1893197      0.985657164      8.44249013       
10.75            0.986287368      8.24338117       0.143418145      -80.4059433      0.143418145      -80.4059433      0.986287368      8.24338117       
11               0.986877156      8.05291244       0.140125523      -80.6131857      0.140125523      -80.6131857      0.986877156      8.05291244       
11.25            0.98742991       7.87052852       0.136971264      -80.8116439      0.136971264      -80.8116439      0.98742991       7.87052852       
11.5             0.987948667      7.69572022       0.133946767      -81.0018651      0.133946767      -81.0018651      0.987948667      7.69572022       
11.75            0.988436158      7.52801993       0.131044123      -81.184352       0.131044123      -81.184352       0.988436158      7.52801993       
12               0.988894846      7.36699746       0.128256046      -81.3595671      0.128256046      -81.3595671      0.988894846      7.36699746       
12.25            0.989326957      7.2122564        0.125575813      -81.5279364      0.125575813      -81.5279364      0.989326957      7.2122564        
12.5             0.989734503      7.06343092       0.122997211      -81.6898534      0.122997211      -81.6898534      0.989734503      7.06343092       
12.75            0.990119313      6.92018286       0.120514493      -81.8456817      0.120514493      -81.8456817      0.990119313      6.92018286       
13               0.990483044      6.7821992        0.118122332      -81.9957576      0.118122332      -81.9957576      0.990483044      6.7821992        
13.25            0.990827209      6.64918977       0.115815785      -82.1403934      0.115815785      -82.1403934      0.990827209      6.64918977       
13.5             0.991153184      6.52088524       0.11359026       -82.2798785      0.11359026       -82.2798785      0.991153184      6.52088524       
13.75            0.991462228      6.39703524       0.111441484      -82.4144821      0.111441484      -82.4144821      0.991462228      6.39703524       
14               0.991755492      6.27740679       0.109365478      -82.5444549      0.109365478      -82.5444549      0.991755492      6.27740679       
14.25            0.99203403       6.16178278       0.107358531      -82.6700301      0.107358531      -82.6700301      0.99203403       6.16178278       
14.5             0.99229881       6.04996067       0.105417177      -82.7914257      0.105417177      -82.7914257      0.99229881       6.04996067       
14.75            0.992550721      5.94175129       0.10353818       -82.9088449      0.10353818       -82.9088449      0.992550721      5.94175129       
15               0.992790581      5.83697776       0.101718509      -83.0224779      0.101718509      -83.0224779      0.992790581      5.83697776       
15.25            0.993019145      5.73547449       0.0999553246     -83.1325028      0.0999553246     -83.1325028      0.993019145      5.73547449       
15.5             0.993237107      5.63708633       0.0982459671     -83.2390862      0.0982459671     -83.2390862      0.993237107      5.63708633       
15.75            0.993445112      5.54166777       0.0965879386     -83.3423846      0.0965879386     -83.3423846      0.993445112      5.54166777       
16               0.993643753      5.44908215       0.0949788929     -83.4425447      0.0949788929     -83.4425447      0.993643753      5.44908215       
16.25            0.99383358       5.35920107       0.0934166238     -83.5397046      0.0934166238     -83.5397046      0.99383358       5.35920107       
16.5             0.994015105      5.27190372       0.0918990549     -83.6339939      0.0918990549     -83.6339939      0.994015105      5.27190372       
16.75            0.994188802      5.18707636       0.0904242303     -83.7255348      0.0904242303     -83.7255348      0.994188802      5.18707636       
17               0.99435511       5.10461182       0.088990306      -83.8144422      0.088990306      -83.8144422      0.99435511       5.10461182       
17.25            0.994514439      5.024409         0.0875955418     -83.9008248      0.0875955418     -83.9008248      0.994514439      5.024409         
17.5             0.994667171      4.94637248       0.0862382947     -83.9847848      0.0862382947     -83.9847848      0.994667171      4.94637248       
17.75            0.994813661      4.87041211       0.0849170118     -84.066419       0.0849170118     -84.066419       0.994813661      4.87041211       
18               0.994954241      4.79644266       0.0836302243     -84.1458185      0.0836302243     -84.1458185      0.994954241      4.79644266       
18.25            0.995089221      4.72438349       0.0823765419     -84.2230699      0.0823765419     -84.2230699      0.995089221      4.72438349       
18.5             0.99521889       4.65415824       0.0811546478     -84.2982549      0.0811546478     -84.2982549      0.99521889       4.65415824       
18.75            0.99534352       4.58569455       0.0799632939     -84.3714509      0.0799632939     -84.3714509      0.99534352       4.58569455       
19               0.995463364      4.51892382       0.0788012962     -84.4427312      0.0788012962     -84.4427312      0.995463364      4.51892382       
19.25            0.995578661      4.45378095       0.0776675309     -84.5121655      0.0776675309     -84.5121655      0.995578661      4.45378095       
19.5             0.995689633      4.39020412       0.0765609306     -84.5798197      0.0765609306     -84.5798197      0.995689633      4.39020412       
19.75            0.995796489      4.32813459       0.075480481      -84.6457564      0.075480481      -84.6457564      0.995796489      4.32813459       
20               0.995899428      4.26751654       0.0744252173     -84.7100353      0.0744252173     -84.7100353      0.995899428      4.26751654       
20.25            0.995998633      4.20829684       0.0733942215     -84.7727128      0.0733942215     -84.7727128      0.995998633      4.20829684       
20.5             0.99609428       4.15042492       0.0723866195     -84.8338428      0.0723866195     -84.8338428      0.99609428       4.15042492       
20.75            0.996186531      4.09385262       0.0714015786     -84.8934765      0.0714015786     -84.8934765      0.996186531      4.09385262       
21               0.996275542      4.03853404       0.070438305      -84.9516625      0.070438305      -84.9516625      0.996275542      4.03853404       
21.25            0.996361458      3.98442541       0.0694960415     -85.0084473      0.0694960415     -85.0084473      0.996361458      3.98442541       
21.5             0.996444418      3.93148498       0.0685740657     -85.0638751      0.0685740657     -85.0638751      0.996444418      3.93148498       
21.75            0.99652455       3.87967287       0.0676716876     -85.117988       0.0676716876     -85.117988       0.99652455       3.87967287       
22               0.996601978      3.82895102       0.0667882483     -85.1708262      0.0667882483     -85.1708262      0.996601978      3.82895102       
22.25            0.996676818      3.77928303       0.0659231178     -85.2224281      0.0659231178     -85.2224281      0.996676818      3.77928303       
22.5             0.996749179      3.73063413       0.0650756938     -85.2728302      0.0650756938     -85.2728302      0.996749179      3.73063413       
22.75            0.996819166      3.68297104       0.0642454        -85.3220675      0.0642454        -85.3220675      0.996819166      3.68297104       
23               0.996886877      3.63626191       0.0634316849     -85.3701733      0.0634316849     -85.3701733      0.996886877      3.63626191       
23.25            0.996952405      3.59047627       0.0626340201     -85.4171795      0.0626340201     -85.4171795      0.996952405      3.59047627       
23.5             0.99701584       3.54558489       0.0618518997     -85.4631167      0.0618518997     -85.4631167      0.99701584       3.54558489       
23.75            0.997077264      3.50155979       0.0610848385     -85.5080139      0.0610848385     -85.5080139      0.997077264      3.50155979       
24               0.997136758      3.45837414       0.0603323714     -85.551899       0.0603323714     -85.551899       0.997136758      3.45837414       
24.25            0.997194398      3.41600219       0.0595940521     -85.5947986      0.0595940521     -85.5947986      0.997194398      3.41600219       
24.5             0.997250256      3.37441925       0.0588694524     -85.6367383      0.0588694524     -85.6367383      0.997250256      3.37441925       
24.75            0.997304399      3.3336016        0.0581581611     -85.6777425      0.0581581611     -85.6777425      0.997304399      3.3336016        
25               0.997356894      3.29352647       0.0574597833     -85.7178345      0.0574597833     -85.7178345      0.997356894      3.29352647       
25.25            0.997407803      3.25417198       0.0567739393     -85.7570367      0.0567739393     -85.7570367      0.997407803      3.25417198       
25.5             0.997457184      3.2155171        0.0561002645     -85.7953705      0.0561002645     -85.7953705      0.997457184      3.2155171        
25.75            0.997505094      3.17754162       0.055438408      -85.8328564      0.055438408      -85.8328564      0.997505094      3.17754162       
26               0.997551586      3.14022607       0.0547880323     -85.8695142      0.0547880323     -85.8695142      0.997551586      3.14022607       
26.25            0.997596712      3.10355175       0.0541488126     -85.9053626      0.0541488126     -85.9053626      0.997596712      3.10355175       
26.5             0.997640521      3.06750064       0.0535204363     -85.9404197      0.0535204363     -85.9404197      0.997640521      3.06750064       
26.75            0.997683059      3.03205539       0.0529026022     -85.9747028      0.0529026022     -85.9747028      0.997683059      3.03205539       
27               0.997724371      2.9971993        0.0522950203     -86.0082284      0.0522950203     -86.0082284      0.997724371      2.9971993        
27.25            0.997764499      2.96291626       0.051697411      -86.0410125      0.051697411      -86.0410125      0.997764499      2.96291626       
27.5             0.997803484      2.92919075       0.0511095049     -86.0730702      0.0511095049     -86.0730702      0.997803484      2.92919075       
27.75            0.997841366      2.89600781       0.0505310419     -86.1044162      0.0505310419     -86.1044162      0.997841366      2.89600781       
28               0.99787818       2.863353         0.0499617715     -86.1350644      0.0499617715     -86.1350644      0.99787818       2.863353         
28.25            0.997913963      2.83121238       0.0494014517     -86.1650283      0.0494014517     -86.1650283      0.997913963      2.83121238       
28.5             0.997948749      2.79957252       0.048849849      -86.1943206      0.048849849      -86.1943206      0.997948749      2.79957252       
28.75            0.99798257       2.76842044       0.048306738      -86.2229538      0.048306738      -86.2229538      0.99798257       2.76842044       
29               0.998015458      2.7377436        0.0477719008     -86.2509394      0.0477719008     -86.2509394      0.998015458      2.7377436        
29.25            0.998047443      2.7075299        0.0472451271     -86.2782889      0.0472451271     -86.2782889      0.998047443      2.7075299        
29.5             0.998078553      2.67776762       0.0467262135     -86.3050131      0.0467262135     -86.3050131      0.998078553      2.67776762       
29.75            0.998108816      2.64844546       0.0462149635     -86.3311222      0.0462149635     -86.3311222      0.998108816      2.64844546       
30               0.998138259      2.61955248       0.045711187      -86.3566262      0.045711187      -86.3566262      0.998138259      2.61955248       
30.25            0.998166907      2.59107811       0.0452147003     -86.3815345      0.0452147003     -86.3815345      0.998166907      2.59107811       
30.5             0.998194784      2.56301211       0.0447253253     -86.4058562      0.0447253253     -86.4058562      0.998194784      2.56301211       
30.75            0.998221914      2.53534457       0.0442428901     -86.4295999      0.0442428901     -86.4295999      0.998221914      2.53534457       
31               0.998248319      2.50806592       0.043767228      -86.4527739      0.043767228      -86.4527739      0.998248319      2.50806592       
31.25            0.99827402       2.48116686       0.0432981776     -86.4753861      0.0432981776     -86.4753861      0.99827402       2.48116686       
31.5             0.99829904       2.45463843       0.0428355827     -86.497444       0.0428355827     -86.497444       0.99829904       2.45463843       
31.75            0.998323397      2.42847189       0.042379292      -86.5189548      0.042379292      -86.5189548      0.998323397      2.42847189       
32               0.998347111      2.40265884       0.0419291588     -86.5399252      0.0419291588     -86.5399252      0.998347111      2.40265884       
32.25            0.9983702        2.37719107       0.0414850409     -86.5603618      0.0414850409     -86.5603618      0.9983702        2.37719107       
32.5             0.998392682      2.35206068       0.0410468004     -86.5802708      0.0410468004     -86.5802708      0.998392682      2.35206068       
32.75            0.998414575      2.32725997       0.0406143039     -86.599658       0.0406143039     -86.599658       0.998414575      2.32725997       
