! Coilcraft 1008LS-682 Chip Inductor				
! 5 August 2002			
# MHZ S MA R 50
!Freq             MagS11           AngS11           MagS21           AngS21           MagS12           AngS12           MagS22           AngS22
1                0.37988042       61.385374        0.883429418      -22.1780375      0.883429418      -22.1780375      0.37988042       61.385374        
1.32             0.474437331      56.5013025       0.837490148      -28.1903673      0.837490148      -28.1903673      0.474437331      56.5013025       
1.64             0.554714606      51.8518337       0.788934075      -33.5692272      0.788934075      -33.5692272      0.554714606      51.8518337       
1.96             0.621784564      47.6044305       0.740368439      -38.332324       0.740368439      -38.332324       0.621784564      47.6044305       
2.28             0.677322946      43.7972395       0.693535632      -42.52634        0.693535632      -42.52634        0.677322946      43.7972395       
2.6              0.723149953      40.4148985       0.649443495      -46.2112911      0.649443495      -46.2112911      0.723149953      40.4148985       
2.92             0.760974567      37.4203959       0.608566172      -49.4500677      0.608566172      -49.4500677      0.760974567      37.4203959       
3.24             0.792284018      34.7700146       0.571028963      -52.302485       0.571028963      -52.302485       0.792284018      34.7700146       
3.56             0.818318184      32.4204007       0.536748727      -54.8224708      0.536748727      -54.8224708      0.818318184      32.4204007       
3.88             0.840085698      30.3316768       0.505529775      -57.0571541      0.505529775      -57.0571541      0.840085698      30.3316768       
4.2              0.85839618       28.4685519       0.477124823      -59.0469769      0.477124823      -59.0469769      0.85839618       28.4685519       
4.52             0.873895394      26.800444        0.451271532      -60.8262876      0.451271532      -60.8262876      0.873895394      26.800444        
4.84             0.887097478      25.3011546       0.427713123      -62.4241079      0.427713123      -62.4241079      0.887097478      25.3011546       
5.16             0.898412229      23.948369        0.40620906       -63.8649128      0.40620906       -63.8649128      0.898412229      23.948369        
5.48             0.908167272      22.723124        0.386539804      -65.1693494      0.386539804      -65.1693494      0.908167272      22.723124        
5.8              0.916625645      21.6093041       0.368508131      -66.3548662      0.368508131      -66.3548662      0.916625645      21.6093041       
6.12             0.923999586      20.5931943       0.351938586      -67.4362486      0.351938586      -67.4362486      0.923999586      20.5931943       
6.44             0.930461272      19.6630948       0.336675987      -68.4260666      0.336675987      -68.4260666      0.930461272      19.6630948       
6.76             0.936151166      18.8089945       0.322583525      -69.3350461      0.322583525      -69.3350461      0.936151166      18.8089945       
7.08             0.941184509      18.0222992       0.309540762      -70.1723752      0.309540762      -70.1723752      0.941184509      18.0222992       
7.4              0.945656388      17.2956045       0.297441699      -70.9459555      0.297441699      -70.9459555      0.945656388      17.2956045       
7.72             0.949645694      16.6225077       0.286192987      -71.6626094      0.286192987      -71.6626094      0.949645694      16.6225077       
8.04             0.953218236      15.997452        0.275712318      -72.3282511      0.275712318      -72.3282511      0.953218236      15.997452        
8.36             0.956429195      15.415597        0.265927001      -72.9480267      0.265927001      -72.9480267      0.956429195      15.415597        
8.68             0.959325081      14.8727114       0.256772721      -73.5264314      0.256772721      -73.5264314      0.959325081      14.8727114       
9                0.961945278      14.365083        0.248192448      -74.0674058      0.248192448      -74.0674058      0.961945278      14.365083        
9.32             0.964323297      13.8894444       0.240135505      -74.5744167      0.240135505      -74.5744167      0.964323297      13.8894444       
9.64             0.966487778      13.4429099       0.232556759      -75.0505242      0.232556759      -75.0505242      0.966487778      13.4429099       
9.96             0.968463301      13.0229226       0.225415918      -75.4984386      0.225415918      -75.4984386      0.968463301      13.0229226       
10.28            0.970271049      12.6272106       0.218676931      -75.9205675      0.218676931      -75.9205675      0.970271049      12.6272106       
10.6             0.97192935       12.2537485       0.212307468      -76.3190565      0.212307468      -76.3190565      0.97192935       12.2537485       
10.92            0.973454119      11.9007263       0.20627847       -76.6958229      0.20627847       -76.6958229      0.973454119      11.9007263       
11.24            0.974859226      11.5665215       0.200563759      -77.0525847      0.200563759      -77.0525847      0.974859226      11.5665215       
11.56            0.976156803      11.2496761       0.195139702      -77.3908859      0.195139702      -77.3908859      0.976156803      11.2496761       
11.88            0.97735749       10.9488764       0.189984917      -77.7121171      0.189984917      -77.7121171      0.97735749       10.9488764       
12.2             0.978470654      10.6629364       0.185080023      -78.017534       0.185080023      -78.017534       0.978470654      10.6629364       
12.52            0.979504564      10.3907824       0.18040741       -78.3082733      0.18040741       -78.3082733      0.979504564      10.3907824       
12.84            0.98046654       10.1314401       0.175951054      -78.5853662      0.175951054      -78.5853662      0.98046654       10.1314401       
13.16            0.981363079      9.88402404       0.171696339      -78.8497499      0.171696339      -78.8497499      0.981363079      9.88402404       
13.48            0.982199966      9.64772744       0.167629915      -79.1022785      0.167629915      -79.1022785      0.982199966      9.64772744       
13.8             0.982982363      9.42181386       0.163739564      -79.3437315      0.163739564      -79.3437315      0.982982363      9.42181386       
14.12            0.983714886      9.20560975       0.160014084      -79.5748218      0.160014084      -79.5748218      0.983714886      9.20560975       
14.44            0.984401676      8.99849802       0.156443188      -79.7962027      0.156443188      -79.7962027      0.984401676      8.99849802       
14.76            0.985046452      8.79991225       0.153017415      -80.0084737      0.153017415      -80.0084737      0.985046452      8.79991225       
15.08            0.985652565      8.60933167       0.149728049      -80.2121862      0.149728049      -80.2121862      0.985652565      8.60933167       
15.4             0.986223039      8.42627668       0.14656705       -80.4078477      0.14656705       -80.4078477      0.986223039      8.42627668       
15.72            0.986760607      8.25030492       0.143526988      -80.5959267      0.143526988      -80.5959267      0.986760607      8.25030492       
16.04            0.987267748      8.08100773       0.140600988      -80.7768556      0.140600988      -80.7768556      0.987267748      8.08100773       
16.36            0.98774671       7.91800705       0.13778268       -80.9510348      0.13778268       -80.9510348      0.98774671       7.91800705       
16.68            0.988199538      7.76095262       0.135066155      -81.118835       0.135066155      -81.118835       0.988199538      7.76095262       
17               0.988628094      7.60951949       0.132445924      -81.2806002      0.132445924      -81.2806002      0.988628094      7.60951949       
17.32            0.98903408       7.46340579       0.12991688       -81.4366501      0.12991688       -81.4366501      0.98903408       7.46340579       
17.64            0.989419047      7.32233074       0.127474268      -81.5872818      0.127474268      -81.5872818      0.989419047      7.32233074       
17.96            0.989784418      7.18603285       0.125113655      -81.7327722      0.125113655      -81.7327722      0.989784418      7.18603285       
18.28            0.990131498      7.05426829       0.122830902      -81.8733793      0.122830902      -81.8733793      0.990131498      7.05426829       
18.6             0.990461482      6.92680946       0.120622142      -82.0093441      0.120622142      -82.0093441      0.990461482      6.92680946       
18.92            0.990775471      6.80344364       0.118483759      -82.1408918      0.118483759      -82.1408918      0.990775471      6.80344364       
19.24            0.991074479      6.68397182       0.116412364      -82.2682329      0.116412364      -82.2682329      0.991074479      6.68397182       
19.56            0.991359439      6.56820761       0.114404783      -82.3915647      0.114404783      -82.3915647      0.991359439      6.56820761       
19.88            0.991631214      6.45597626       0.112458036      -82.5110721      0.112458036      -82.5110721      0.991631214      6.45597626       
20.2             0.9918906        6.34711378       0.110569325      -82.6269287      0.110569325      -82.6269287      0.9918906        6.34711378       
20.52            0.992138335      6.24146614       0.108736019      -82.7392972      0.108736019      -82.7392972      0.992138335      6.24146614       
20.84            0.992375103      6.13888847       0.106955645      -82.8483311      0.106955645      -82.8483311      0.992375103      6.13888847       
21.16            0.992601536      6.03924448       0.10522587       -82.9541743      0.10522587       -82.9541743      0.992601536      6.03924448       
21.48            0.992818224      5.94240577       0.103544499      -83.0569626      0.103544499      -83.0569626      0.992818224      5.94240577       
21.8             0.993025713      5.84825128       0.101909458      -83.156824       0.101909458      -83.156824       0.993025713      5.84825128       
22.12            0.993224512      5.75666681       0.100318792      -83.2538792      0.100318792      -83.2538792      0.993224512      5.75666681       
22.44            0.993415095      5.66754451       0.0987706516     -83.348242       0.0987706516     -83.348242       0.993415095      5.66754451       
22.76            0.993597904      5.58078246       0.0972632895     -83.44002        0.0972632895     -83.44002        0.993597904      5.58078246       
23.08            0.993773352      5.49628426       0.0957950515     -83.5293151      0.0957950515     -83.5293151      0.993773352      5.49628426       
23.4             0.993941824      5.41395866       0.0943643716     -83.6162235      0.0943643716     -83.6162235      0.993941824      5.41395866       
23.72            0.994103681      5.33371926       0.0929697655     -83.7008362      0.0929697655     -83.7008362      0.994103681      5.33371926       
24.04            0.994259259      5.25548413       0.0916098258     -83.7832398      0.0916098258     -83.7832398      0.994259259      5.25548413       
24.36            0.994408875      5.17917559       0.0902832171     -83.863516       0.0902832171     -83.863516       0.994408875      5.17917559       
24.68            0.994552825      5.10471989       0.0889886713     -83.9417424      0.0889886713     -83.9417424      0.994552825      5.10471989       
25               0.994691386      5.03204698       0.0877249833     -84.0179928      0.0877249833     -84.0179928      0.994691386      5.03204698       
25.32            0.99482482       4.96109031       0.0864910077     -84.0923371      0.0864910077     -84.0923371      0.99482482       4.96109031       
25.64            0.994953371      4.89178656       0.0852856545     -84.1648419      0.0852856545     -84.1648419      0.994953371      4.89178656       
25.96            0.99507727       4.8240755        0.0841078865     -84.2355704      0.0841078865     -84.2355704      0.99507727       4.8240755        
26.28            0.995196735      4.75789977       0.0829567154     -84.3045828      0.0829567154     -84.3045828      0.995196735      4.75789977       
26.6             0.995311969      4.69320474       0.0818311996     -84.3719364      0.0818311996     -84.3719364      0.995311969      4.69320474       
26.92            0.995423166      4.6299383        0.0807304412     -84.4376857      0.0807304412     -84.4376857      0.995423166      4.6299383        
27.24            0.995530506      4.5680508        0.0796535834     -84.5018826      0.0796535834     -84.5018826      0.995530506      4.5680508        
27.56            0.995634162      4.5074948        0.0785998086     -84.5645767      0.0785998086     -84.5645767      0.995634162      4.5074948        
27.88            0.995734295      4.44822506       0.0775683357     -84.6258152      0.0775683357     -84.6258152      0.995734295      4.44822506       
28.2             0.995831058      4.39019833       0.0765584184     -84.6856432      0.0765584184     -84.6856432      0.995831058      4.39019833       
28.52            0.995924597      4.33337327       0.0755693431     -84.7441037      0.0755693431     -84.7441037      0.995924597      4.33337327       
28.84            0.996015048      4.27771036       0.0746004275     -84.8012379      0.0746004275     -84.8012379      0.996015048      4.27771036       
29.16            0.99610254       4.2231718        0.0736510184     -84.8570848      0.0736510184     -84.8570848      0.99610254       4.2231718        
29.48            0.996187198      4.16972138       0.0727204905     -84.9116821      0.0727204905     -84.9116821      0.996187198      4.16972138       
29.8             0.996269136      4.11732445       0.0718082449     -84.9650655      0.0718082449     -84.9650655      0.996269136      4.11732445       
30.12            0.996348466      4.06594781       0.0709137076     -85.0172694      0.0709137076     -85.0172694      0.996348466      4.06594781       
30.44            0.996425293      4.01555961       0.0700363284     -85.0683266      0.0700363284     -85.0683266      0.996425293      4.01555961       
30.76            0.996499715      3.96612934       0.0691755795     -85.1182684      0.0691755795     -85.1182684      0.996499715      3.96612934       
31.08            0.996571828      3.91762772       0.0683309545     -85.1671248      0.0683309545     -85.1671248      0.996571828      3.91762772       
31.4             0.996641722      3.87002664       0.0675019674     -85.2149247      0.0675019674     -85.2149247      0.996641722      3.87002664       
31.72            0.996709481      3.82329913       0.0666881512     -85.2616956      0.0666881512     -85.2616956      0.996709481      3.82329913       
32.04            0.996775188      3.77741927       0.0658890576     -85.3074638      0.0658890576     -85.3074638      0.996775188      3.77741927       
32.36            0.996838919      3.73236216       0.0651042555     -85.3522547      0.0651042555     -85.3522547      0.996838919      3.73236216       
32.68            0.996900749      3.68810385       0.0643333305     -85.3960924      0.0643333305     -85.3960924      0.996900749      3.68810385       
33               0.996960747      3.64462133       0.0635758841     -85.4390003      0.0635758841     -85.4390003      0.996960747      3.64462133       
33.32            0.997018982      3.60189245       0.0628315327     -85.4810006      0.0628315327     -85.4810006      0.997018982      3.60189245       
33.64            0.997075516      3.5598959        0.0620999072     -85.5221146      0.0620999072     -85.5221146      0.997075516      3.5598959        
33.96            0.99713041       3.51861116       0.0613806523     -85.5623629      0.0613806523     -85.5623629      0.99713041       3.51861116       
34.28            0.997183724      3.47801846       0.0606734256     -85.6017651      0.0606734256     -85.6017651      0.997183724      3.47801846       
34.6             0.997235512      3.43809879       0.0599778973     -85.6403401      0.0599778973     -85.6403401      0.997235512      3.43809879       
34.92            0.997285828      3.39883378       0.0592937495     -85.6781059      0.0592937495     -85.6781059      0.997285828      3.39883378       
35.24            0.997334722      3.36020575       0.0586206756     -85.7150799      0.0586206756     -85.7150799      0.997334722      3.36020575       
35.56            0.997382243      3.32219765       0.0579583801     -85.7512788      0.0579583801     -85.7512788      0.997382243      3.32219765       
35.88            0.997428437      3.28479302       0.0573065776     -85.7867185      0.0573065776     -85.7867185      0.997428437      3.28479302       
36.2             0.997473349      3.24797599       0.0566649929     -85.8214144      0.0566649929     -85.8214144      0.997473349      3.24797599       
36.52            0.997517021      3.21173124       0.0560333604     -85.8553813      0.0560333604     -85.8553813      0.997517021      3.21173124       
36.84            0.997559495      3.17604396       0.0554114233     -85.8886331      0.0554114233     -85.8886331      0.997559495      3.17604396       
37.16            0.997600809      3.14089986       0.0547989338     -85.9211836      0.0547989338     -85.9211836      0.997600809      3.14089986       
37.48            0.997641         3.10628514       0.0541956524     -85.9530457      0.0541956524     -85.9530457      0.997641         3.10628514       
37.8             0.997680105      3.07218645       0.0536013475     -85.9842318      0.0536013475     -85.9842318      0.997680105      3.07218645       
38.12            0.997718158      3.03859089       0.0530157954     -86.014754       0.0530157954     -86.014754       0.997718158      3.03859089       
38.44            0.997755191      3.00548598       0.0524387796     -86.0446236      0.0524387796     -86.0446236      0.997755191      3.00548598       
38.76            0.997791238      2.97285966       0.0518700906     -86.0738518      0.0518700906     -86.0738518      0.997791238      2.97285966       
39.08            0.997826327      2.94070026       0.0513095259     -86.102449       0.0513095259     -86.102449       0.997826327      2.94070026       
39.4             0.997860489      2.90899647       0.0507568895     -86.1304254      0.0507568895     -86.1304254      0.997860489      2.90899647       
39.72            0.997893751      2.87773737       0.0502119914     -86.1577906      0.0502119914     -86.1577906      0.997893751      2.87773737       
40.04            0.99792614       2.84691235       0.0496746479     -86.1845539      0.0496746479     -86.1845539      0.99792614       2.84691235       
40.36            0.997957683      2.81651117       0.0491446808     -86.2107241      0.0491446808     -86.2107241      0.997957683      2.81651117       
40.68            0.997988404      2.78652388       0.0486219177     -86.2363098      0.0486219177     -86.2363098      0.997988404      2.78652388       
41               0.998018327      2.75694087       0.0481061914     -86.2613191      0.0481061914     -86.2613191      0.998018327      2.75694087       
41.32            0.998047476      2.72775279       0.0475973398     -86.2857597      0.0475973398     -86.2857597      0.998047476      2.72775279       
41.64            0.998075872      2.69895061       0.0470952059     -86.309639       0.0470952059     -86.309639       0.998075872      2.69895061       
