! Coilcraft 1008LS-392 Chip Inductor				
! 5 August 2002			
# MHZ S MA R 50
!Freq             MagS11           AngS11           MagS21           AngS21           MagS12           AngS12           MagS22           AngS22
1                0.233216788      69.7025895       0.94476844       -13.3867211      0.94476844       -13.3867211      0.233216788      69.7025895       
1.42             0.320778505      66.0353192       0.917777447      -18.6258529      0.917777447      -18.6258529      0.320778505      66.0353192       
1.84             0.400658294      62.0242577       0.885794163      -23.5444632      0.885794163      -23.5444632      0.400658294      62.0242577       
2.26             0.472190975      58.0592811       0.850498106      -28.1079903      0.850498106      -28.1079903      0.472190975      58.0592811       
2.68             0.535349576      54.291879        0.813436447      -32.303551       0.813436447      -32.303551       0.535349576      54.291879        
3.1              0.590548735      50.7835868       0.775884935      -36.1353748      0.775884935      -36.1353748      0.590548735      50.7835868       
3.52             0.638464614      47.5536666       0.738808755      -39.6196171      0.738808755      -39.6196171      0.638464614      47.5536666       
3.94             0.67989227       44.5995615       0.702882765      -42.7796887      0.702882765      -42.7796887      0.67989227       44.5995615       
4.36             0.715646795      41.9073902       0.668539669      -45.6425942      0.668539669      -45.6425942      0.715646795      41.9073902       
4.78             0.746503027      39.4578422       0.636025273      -48.2363395      0.636025273      -48.2363395      0.746503027      39.4578422       
5.2              0.773164133      37.2295897       0.60544945       -50.5882557      0.60544945       -50.5882557      0.773164133      37.2295897       
5.62             0.796249442      35.2012421       0.576828169      -52.7240205      0.576828169      -52.7240205      0.796249442      35.2012421       
6.04             0.816293877      33.3524158       0.550115795      -54.6671653      0.550115795      -54.6671653      0.816293877      33.3524158       
6.46             0.833753638      31.6642667       0.525228729      -56.4389017      0.525228729      -56.4389017      0.833753638      31.6642667       
6.88             0.849014705      30.119701        0.502062061      -58.0581404      0.502062061      -58.0581404      0.849014705      30.119701        
7.3              0.862402146      28.7033981       0.480500907      -59.541621       0.480500907      -59.541621       0.862402146      28.7033981       
7.72             0.874189113      27.4017323       0.460427893      -60.9040952      0.460427893      -60.9040952      0.874189113      27.4017323       
8.14             0.884605015      26.2026415       0.441727901      -62.15853        0.441727901      -62.15853        0.884605015      26.2026415       
8.56             0.893842649      25.0954765       0.424290923      -63.3163116      0.424290923      -63.3163116      0.893842649      25.0954765       
8.98             0.902064307      24.0708468       0.40801364       -64.3874367      0.40801364       -64.3874367      0.902064307      24.0708468       
9.4              0.909406895      23.1204732       0.392800161      -65.3806879      0.392800161      -65.3806879      0.909406895      23.1204732       
9.82             0.915986211      22.2370523       0.378562209      -66.3037908      0.378562209      -66.3037908      0.915986211      22.2370523       
10.24            0.921900488      21.4141343       0.365218981      -67.1635517      0.365218981      -67.1635517      0.921900488      21.4141343       
10.66            0.92723332       20.6460153       0.352696788      -67.9659783      0.352696788      -67.9659783      0.92723332       20.6460153       
11.08            0.93205607       19.9276413       0.340928607      -68.7163844      0.340928607      -68.7163844      0.93205607       19.9276413       
11.5             0.936429867      19.2545267       0.329853562      -69.4194799      0.329853562      -69.4194799      0.936429867      19.2545267       
11.92            0.940407241      18.622681        0.319416411      -70.0794495      0.319416411      -70.0794495      0.940407241      18.622681        
12.34            0.944033487      18.0285475       0.309567034      -70.7000193      0.309567034      -70.7000193      0.944033487      18.0285475       
12.76            0.947347789      17.4689487       0.300259949      -71.2845151      0.300259949      -71.2845151      0.947347789      17.4689487       
13.18            0.950384149      16.94104         0.291453869      -71.835912       0.291453869      -71.835912       0.950384149      16.94104         
13.6             0.95317217       16.4422691       0.283111279      -72.3568776      0.283111279      -72.3568776      0.95317217       16.4422691       
14.02            0.955737699      15.9703408       0.275198067      -72.8498092      0.275198067      -72.8498092      0.955737699      15.9703408       
14.44            0.958103377      15.5231871       0.267683181      -73.3168658      0.267683181      -73.3168658      0.958103377      15.5231871       
14.86            0.960289089      15.0989404       0.26053832       -73.7599962      0.26053832       -73.7599962      0.960289089      15.0989404       
15.28            0.96231235       14.6959111       0.253737662      -74.180963       0.253737662      -74.180963       0.96231235       14.6959111       
15.7             0.964188631      14.3125668       0.247257615      -74.5813636      0.247257615      -74.5813636      0.964188631      14.3125668       
16.12            0.965931632      13.947516        0.241076595      -74.9626488      0.241076595      -74.9626488      0.965931632      13.947516        
16.54            0.967553515      13.5994916       0.235174832      -75.3261389      0.235174832      -75.3261389      0.967553515      13.5994916       
16.96            0.969065106      13.2673386       0.229534192      -75.673037       0.229534192      -75.673037       0.969065106      13.2673386       
17.38            0.970476062      12.9500016       0.224138017      -76.0044424      0.224138017      -76.0044424      0.970476062      12.9500016       
17.8             0.97179502       12.6465151       0.218970987      -76.3213605      0.218970987      -76.3213605      0.97179502       12.6465151       
18.22            0.973029716      12.3559939       0.214018996      -76.624713       0.214018996      -76.624713       0.973029716      12.3559939       
18.64            0.974187103      12.0776252       0.209269032      -76.9153456      0.209269032      -76.9153456      0.974187103      12.0776252       
19.06            0.975273435      11.8106617       0.204709084      -77.1940362      0.204709084      -77.1940362      0.975273435      11.8106617       
19.48            0.976294353      11.5544149       0.200328046      -77.4615012      0.200328046      -77.4615012      0.976294353      11.5544149       
19.9             0.977254953      11.30825         0.196115638      -77.718401       0.196115638      -77.718401       0.977254953      11.30825         
20.32            0.97815985       11.0715802       0.192062335      -77.9653458      0.192062335      -77.9653458      0.97815985       11.0715802       
20.74            0.979013227      10.8438631       0.188159295      -78.2028999      0.188159295      -78.2028999      0.979013227      10.8438631       
21.16            0.979818885      10.624596        0.184398306      -78.431586       0.184398306      -78.431586       0.979818885      10.624596        
21.58            0.980580284      10.4133126       0.180771732      -78.6518887      0.180771732      -78.6518887      0.980580284      10.4133126       
22               0.981300576      10.2095801       0.177272459      -78.8642582      0.177272459      -78.8642582      0.981300576      10.2095801       
22.42            0.981982641      10.0129958       0.173893861      -79.0691128      0.173893861      -79.0691128      0.981982641      10.0129958       
22.84            0.98262911       9.8231848        0.170629751      -79.2668423      0.170629751      -79.2668423      0.98262911       9.8231848        
23.26            0.983242395      9.63979776       0.167474352      -79.4578094      0.167474352      -79.4578094      0.983242395      9.63979776       
23.68            0.983824706      9.46250863       0.164422262      -79.642353       0.164422262      -79.642353       0.983824706      9.46250863       
24.1             0.984378073      9.29101281       0.161468426      -79.8207893      0.161468426      -79.8207893      0.984378073      9.29101281       
24.52            0.984904364      9.12502547       0.158608105      -79.9934142      0.158608105      -79.9934142      0.984904364      9.12502547       
24.94            0.985405298      8.96427994       0.155836859      -80.1605045      0.155836859      -80.1605045      0.985405298      8.96427994       
25.36            0.985882461      8.80852634       0.153150516      -80.3223194      0.153150516      -80.3223194      0.985882461      8.80852634       
25.78            0.986337316      8.65753025       0.150545162      -80.4791023      0.150545162      -80.4791023      0.986337316      8.65753025       
26.2             0.986771216      8.51107159       0.148017112      -80.6310815      0.148017112      -80.6310815      0.986771216      8.51107159       
26.62            0.987185413      8.36894351       0.145562899      -80.7784714      0.145562899      -80.7784714      0.987185413      8.36894351       
27.04            0.987581068      8.23095144       0.14317926       -80.9214738      0.14317926       -80.9214738      0.987581068      8.23095144       
27.46            0.987959256      8.09691222       0.140863117      -81.0602785      0.140863117      -81.0602785      0.987959256      8.09691222       
27.88            0.988320977      7.96665323       0.138611566      -81.1950643      0.138611566      -81.1950643      0.988320977      7.96665323       
28.3             0.988667158      7.8400117        0.136421866      -81.3259998      0.136421866      -81.3259998      0.988667158      7.8400117        
28.72            0.988998665      7.71683398       0.134291427      -81.4532441      0.134291427      -81.4532441      0.988998665      7.71683398       
29.14            0.989316301      7.59697497       0.132217799      -81.5769473      0.132217799      -81.5769473      0.989316301      7.59697497       
29.56            0.989620817      7.48029746       0.130198666      -81.6972514      0.130198666      -81.6972514      0.989620817      7.48029746       
29.98            0.989912914      7.36667169       0.128231832      -81.8142904      0.128231832      -81.8142904      0.989912914      7.36667169       
30.4             0.990193244      7.2559748        0.12631522       -81.9281913      0.12631522       -81.9281913      0.990193244      7.2559748        
30.82            0.99046242       7.14809038       0.124446855      -82.0390743      0.124446855      -82.0390743      0.99046242       7.14809038       
31.24            0.990721014      7.04290809       0.122624869      -82.1470533      0.122624869      -82.1470533      0.990721014      7.04290809       
31.66            0.990969561      6.94032323       0.120847485      -82.2522363      0.120847485      -82.2522363      0.990969561      6.94032323       
32.08            0.991208563      6.84023645       0.119113015      -82.3547256      0.119113015      -82.3547256      0.991208563      6.84023645       
32.5             0.991438492      6.74255331       0.117419855      -82.4546186      0.117419855      -82.4546186      0.991438492      6.74255331       
32.92            0.99165979       6.64718411       0.115766479      -82.5520074      0.115766479      -82.5520074      0.99165979       6.64718411       
33.34            0.991872872      6.55404348       0.114151435      -82.64698        0.114151435      -82.64698        0.991872872      6.55404348       
33.76            0.992078129      6.46305021       0.11257334       -82.7396197      0.11257334       -82.7396197      0.992078129      6.46305021       
34.18            0.992275929      6.37412695       0.111030877      -82.830006       0.111030877      -82.830006       0.992275929      6.37412695       
34.6             0.992466617      6.28720002       0.109522787      -82.9182143      0.109522787      -82.9182143      0.992466617      6.28720002       
35.02            0.99265052       6.20219915       0.108047875      -83.0043166      0.108047875      -83.0043166      0.99265052       6.20219915       
35.44            0.992827945      6.11905734       0.106604995      -83.0883815      0.106604995      -83.0883815      0.992827945      6.11905734       
35.86            0.992999183      6.03771064       0.105193055      -83.1704743      0.105193055      -83.1704743      0.992999183      6.03771064       
36.28            0.993164508      5.95809798       0.103811012      -83.2506573      0.103811012      -83.2506573      0.993164508      5.95809798       
36.7             0.993324177      5.88016102       0.102457869      -83.32899        0.102457869      -83.32899        0.993324177      5.88016102       
37.12            0.993478437      5.803844         0.101132672      -83.4055291      0.101132672      -83.4055291      0.993478437      5.803844         
37.54            0.993627518      5.72909359       0.0998345088     -83.4803289      0.0998345088     -83.4803289      0.993627518      5.72909359       
37.96            0.99377164       5.65585878       0.0985625054     -83.553441       0.0985625054     -83.553441       0.99377164       5.65585878       
38.38            0.993911011      5.58409072       0.0973158255     -83.624915       0.0973158255     -83.624915       0.993911011      5.58409072       
38.8             0.994045826      5.51374265       0.0960936678     -83.694798       0.0960936678     -83.694798       0.994045826      5.51374265       
39.22            0.994176273      5.44476974       0.0948952643     -83.7631354      0.0948952643     -83.7631354      0.994176273      5.44476974       
39.64            0.994302528      5.37712907       0.0937198783     -83.8299703      0.0937198783     -83.8299703      0.994302528      5.37712907       
40.06            0.99442476       5.31077942       0.0925668033     -83.8953442      0.0925668033     -83.8953442      0.99442476       5.31077942       
40.48            0.994543128      5.2456813        0.0914353613     -83.9592966      0.0914353613     -83.9592966      0.994543128      5.2456813        
40.9             0.994657783      5.18179678       0.0903249012     -84.0218655      0.0903249012     -84.0218655      0.994657783      5.18179678       
41.32            0.99476887       5.11908945       0.0892347976     -84.0830872      0.0892347976     -84.0830872      0.99476887       5.11908945       
41.74            0.994876526      5.05752433       0.0881644499     -84.1429964      0.0881644499     -84.1429964      0.994876526      5.05752433       
42.16            0.994980881      4.99706782       0.0871132804     -84.2016265      0.0871132804     -84.2016265      0.994980881      4.99706782       
42.58            0.995082059      4.93768762       0.0860807339     -84.2590095      0.0860807339     -84.2590095      0.995082059      4.93768762       
43               0.99518018       4.87935265       0.0850662761     -84.315176       0.0850662761     -84.315176       0.99518018       4.87935265       
43.42            0.995275354      4.82203304       0.0840693931     -84.3701553      0.0840693931     -84.3701553      0.995275354      4.82203304       
43.84            0.995367691      4.76570002       0.08308959       -84.4239755      0.08308959       -84.4239755      0.995367691      4.76570002       
44.26            0.995457293      4.71032591       0.0821263902     -84.4766638      0.0821263902     -84.4766638      0.995457293      4.71032591       
44.68            0.995544258      4.65588404       0.0811793349     -84.5282459      0.0811793349     -84.5282459      0.995544258      4.65588404       
45.1             0.995628678      4.60234873       0.0802479816     -84.5787468      0.0802479816     -84.5787468      0.995628678      4.60234873       
45.52            0.995710645      4.54969523       0.0793319041     -84.6281903      0.0793319041     -84.6281903      0.995710645      4.54969523       
45.94            0.995790241      4.49789966       0.0784306912     -84.6765991      0.0784306912     -84.6765991      0.995790241      4.49789966       
46.36            0.99586755       4.44693903       0.0775439463     -84.7239954      0.0775439463     -84.7239954      0.99586755       4.44693903       
46.78            0.99594265       4.39679113       0.0766712868     -84.7704001      0.0766712868     -84.7704001      0.99594265       4.39679113       
47.2             0.996015614      4.34743454       0.0758123436     -84.8158334      0.0758123436     -84.8158334      0.996015614      4.34743454       
47.62            0.996086515      4.29884858       0.0749667599     -84.8603148      0.0749667599     -84.8603148      0.996086515      4.29884858       
48.04            0.99615542       4.2510133        0.0741341915     -84.9038628      0.0741341915     -84.9038628      0.99615542       4.2510133        
48.46            0.996222396      4.20390942       0.0733143058     -84.9464953      0.0733143058     -84.9464953      0.996222396      4.20390942       
48.88            0.996287504      4.1575183        0.0725067814     -84.9882294      0.0725067814     -84.9882294      0.996287504      4.1575183        
49.3             0.996350806      4.11182194       0.0717113076     -85.0290816      0.0717113076     -85.0290816      0.996350806      4.11182194       
49.72            0.996412359      4.06680295       0.070927584      -85.0690676      0.070927584      -85.0690676      0.996412359      4.06680295       
50.14            0.996472217      4.0224445        0.07015532       -85.1082025      0.07015532       -85.1082025      0.996472217      4.0224445        
50.56            0.996530435      3.97873031       0.0693942348     -85.1465008      0.0693942348     -85.1465008      0.996530435      3.97873031       
50.98            0.996587063      3.93564463       0.0686440563     -85.1839764      0.0686440563     -85.1839764      0.996587063      3.93564463       
51.4             0.99664215       3.89317224       0.0679045213     -85.2206427      0.0679045213     -85.2206427      0.99664215       3.89317224       
51.82            0.996695743      3.85129838       0.067175375      -85.2565122      0.067175375      -85.2565122      0.996695743      3.85129838       
52.24            0.996747887      3.81000877       0.0664563707     -85.2915973      0.0664563707     -85.2915973      0.996747887      3.81000877       
52.66            0.996798626      3.76928959       0.0657472693     -85.3259097      0.0657472693     -85.3259097      0.996798626      3.76928959       
53.08            0.996848001      3.72912742       0.0650478393     -85.3594605      0.0650478393     -85.3594605      0.996848001      3.72912742       
53.5             0.996896053      3.6895093        0.0643578561     -85.3922603      0.0643578561     -85.3922603      0.996896053      3.6895093        
53.92            0.99694282       3.65042263       0.0636771023     -85.4243195      0.0636771023     -85.4243195      0.99694282       3.65042263       
54.34            0.996988339      3.61185523       0.0630053669     -85.4556478      0.0630053669     -85.4556478      0.996988339      3.61185523       
