! Coilcraft 1008LS-272 Chip Inductor				
! 5 August 2002			
# MHZ S MA R 50
!Freq             MagS11           AngS11           MagS21           AngS21           MagS12           AngS12           MagS22           AngS22
1                0.165062348      72.3798378       0.962972006      -9.40241156      0.962972006      -9.40241156      0.165062348      72.3798378       
1.75             0.278615107      68.4082562       0.934115043      -16.1013255      0.934115043      -16.1013255      0.278615107      68.4082562       
2.5              0.381293501      63.3688366       0.896414331      -22.3478381      0.896414331      -22.3478381      0.381293501      63.3688366       
3.25             0.471314198      58.3558644       0.85299166       -28.0597594      0.85299166       -28.0597594      0.471314198      58.3558644       
4                0.548483739      53.6713331       0.806828952      -33.2073139      0.806828952      -33.2073139      0.548483739      53.6713331       
4.75             0.613648129      49.4103409       0.760289064      -37.8010448      0.760289064      -37.8010448      0.613648129      49.4103409       
5.5              0.668188527      45.586891        0.715012898      -41.8770275      0.715012898      -41.8770275      0.668188527      45.586891        
6.25             0.713651391      42.1789709       0.672007464      -45.4842661      0.672007464      -45.4842661      0.713651391      42.1789709       
7                0.751527019      39.149423        0.631800044      -48.6758369      0.631800044      -48.6758369      0.751527019      39.149423        
7.75             0.78314263       36.4565135       0.594589333      -51.5035109      0.594589333      -51.5035109      0.78314263       36.4565135       
8.5              0.809627585      34.0592495       0.560366416      -54.0149458      0.560366416      -54.0149458      0.809627585      34.0592495       
9.25             0.831917373      31.9198503       0.529001533      -56.2525338      0.529001533      -56.2525338      0.831917373      31.9198503       
10               0.85077494       30.0046814       0.500302003      -58.2532096      0.500302003      -58.2532096      0.85077494       30.0046814       
10.75            0.866817379      28.2843857       0.474048835      -60.0487586      0.474048835      -60.0487586      0.866817379      28.2843857       
11.5             0.880542059      26.7336277       0.450018714      -61.6663464      0.450018714      -61.6663464      0.880542059      26.7336277       
12.25            0.892349706      25.3306743       0.427996451      -63.1291132      0.427996451      -63.1291132      0.892349706      25.3306743       
13               0.902563738      24.0569337       0.407781413      -64.4567522      0.407781413      -64.4567522      0.902563738      24.0569337       
13.75            0.911445997      22.8965094       0.389190304      -65.6660347      0.389190304      -65.6660347      0.911445997      22.8965094       
14.5             0.919209317      21.8357971       0.372057805      -66.7712698      0.372057805      -66.7712698      0.919209317      21.8357971       
15.25            0.926027496      20.8631326       0.356236003      -67.7846965      0.356236003      -67.7846965      0.926027496      20.8631326       
16               0.932043144      19.9684893       0.341593214      -68.7168146      0.341593214      -68.7168146      0.932043144      19.9684893       
16.75            0.937373875      19.1432232       0.328012528      -69.5766617      0.328012528      -69.5766617      0.937373875      19.1432232       
17.5             0.942117181      18.379859        0.315390289      -70.3720438      0.315390289      -70.3720438      0.942117181      18.379859        
18.25            0.946354289      17.6719101       0.303634617      -71.1097272      0.303634617      -71.1097272      0.946354289      17.6719101       
19               0.950153207      17.0137288       0.292664032      -71.7955973      0.292664032      -71.7955973      0.950153207      17.0137288       
19.75            0.953571156      16.4003817       0.282406206      -72.4347921      0.282406206      -72.4347921      0.953571156      16.4003817       
20.5             0.956656509      15.8275443       0.272796848      -73.031812       0.272796848      -73.031812       0.956656509      15.8275443       
21.25            0.959450343      15.2914138       0.263778713      -73.5906127      0.263778713      -73.5906127      0.959450343      15.2914138       
22               0.961987697      14.7886351       0.255300745      -74.1146825      0.255300745      -74.1146825      0.961987697      14.7886351       
22.75            0.964298583      14.3162393       0.247317313      -74.6071073      0.247317313      -74.6071073      0.964298583      14.3162393       
23.5             0.966408814      13.8715905       0.239787557      -75.0706253      0.239787557      -75.0706253      0.966408814      13.8715905       
24.25            0.968340678      13.4523426       0.232674814      -75.5076737      0.232674814      -75.5076737      0.968340678      13.4523426       
25               0.970113489      13.0564006       0.225946118      -75.9204277      0.225946118      -75.9204277      0.970113489      13.0564006       
25.75            0.97174405       12.6818893       0.219571765      -76.3108342      0.219571765      -76.3108342      0.97174405       12.6818893       
26.5             0.973247023      12.3271254       0.21352494       -76.6806403      0.21352494       -76.6806403      0.973247023      12.3271254       
27.25            0.974635248      11.9905944       0.207781385      -77.031418       0.207781385      -77.031418       0.974635248      11.9905944       
28               0.975920006      11.67093         0.202319109      -77.3645848      0.202319109      -77.3645848      0.975920006      11.67093         
28.75            0.977111234      11.3668971       0.197118142      -77.6814221      0.197118142      -77.6814221      0.977111234      11.3668971       
29.5             0.978217715      11.0773763       0.192160315      -77.9830911      0.192160315      -77.9830911      0.978217715      11.0773763       
30.25            0.979247231      10.8013511       0.187429062      -78.2706461      0.187429062      -78.2706461      0.979247231      10.8013511       
31               0.980206698      10.5378965       0.182909257      -78.5450462      0.182909257      -78.5450462      0.980206698      10.5378965       
31.75            0.981102276      10.2861691       0.178587064      -78.8071661      0.178587064      -78.8071661      0.981102276      10.2861691       
32.5             0.981939466      10.0453982       0.174449801      -79.0578046      0.174449801      -79.0578046      0.981939466      10.0453982       
33.25            0.982723193      9.81487848       0.170485832      -79.297693       0.170485832      -79.297693       0.982723193      9.81487848       
34               0.983457874      9.59396328       0.166684455      -79.5275014      0.166684455      -79.5275014      0.983457874      9.59396328       
34.75            0.984147483      9.38205852       0.16303582       -79.7478454      0.16303582       -79.7478454      0.984147483      9.38205852       
35.5             0.9847956        9.17861764       0.159530843      -79.9592913      0.159530843      -79.9592913      0.9847956        9.17861764       
36.25            0.985405457      8.98313699       0.156161133      -80.1623608      0.156161133      -80.1623608      0.985405457      8.98313699       
37               0.985979979      8.79515169       0.152918934      -80.3575353      0.152918934      -80.3575353      0.985979979      8.79515169       
37.75            0.986521817      8.61423209       0.14979706       -80.5452597      0.14979706       -80.5452597      0.986521817      8.61423209       
38.5             0.987033378      8.43998043       0.146788851      -80.7259458      0.146788851      -80.7259458      0.987033378      8.43998043       
39.25            0.987516852      8.27202803       0.143888119      -80.8999749      0.143888119      -80.8999749      0.987516852      8.27202803       
40               0.987974234      8.11003267       0.141089115      -81.0677012      0.141089115      -81.0677012      0.987974234      8.11003267       
40.75            0.988407347      7.95367629       0.138386487      -81.2294536      0.138386487      -81.2294536      0.988407347      7.95367629       
41.5             0.988817856      7.8026629        0.135775247      -81.3855381      0.135775247      -81.3855381      0.988817856      7.8026629        
42.25            0.989207284      7.65671673       0.133250742      -81.5362396      0.133250742      -81.5362396      0.989207284      7.65671673       
43               0.989577032      7.51558053       0.130808626      -81.681824       0.130808626      -81.681824       0.989577032      7.51558053       
43.75            0.989928382      7.37901405       0.128444836      -81.8225392      0.128444836      -81.8225392      0.989928382      7.37901405       
44.5             0.990262516      7.2467927        0.12615557       -81.958617       0.12615557       -81.958617       0.990262516      7.2467927        
45.25            0.990580521      7.11870624       0.123937263      -82.0902743      0.123937263      -82.0902743      0.990580521      7.11870624       
46               0.990883399      6.99455773       0.121786575      -82.2177141      0.121786575      -82.2177141      0.990883399      6.99455773       
46.75            0.991172077      6.87416246       0.119700369      -82.3411266      0.119700369      -82.3411266      0.991172077      6.87416246       
47.5             0.99144741       6.75734701       0.117675696      -82.4606904      0.117675696      -82.4606904      0.99144741       6.75734701       
48.25            0.99171019       6.64394845       0.115709786      -82.576573       0.115709786      -82.576573       0.99171019       6.64394845       
49               0.991961151      6.53381352       0.113800029      -82.6889321      0.113800029      -82.6889321      0.991961151      6.53381352       
49.75            0.992200974      6.42679795       0.111943966      -82.7979156      0.111943966      -82.7979156      0.992200974      6.42679795       
50.5             0.99243029       6.32276581       0.11013928       -82.9036632      0.11013928       -82.9036632      0.99243029       6.32276581       
51.25            0.992649688      6.22158892       0.108383783      -83.0063062      0.108383783      -83.0063062      0.992649688      6.22158892       
52               0.992859715      6.12314629       0.10667541       -83.1059684      0.10667541       -83.1059684      0.992859715      6.12314629       
52.75            0.993060879      6.02732366       0.105012207      -83.2027667      0.105012207      -83.2027667      0.993060879      6.02732366       
53.5             0.993253656      5.93401301       0.10339233       -83.2968114      0.10339233       -83.2968114      0.993253656      5.93401301       
54.25            0.99343849       5.84311215       0.101814028      -83.3882068      0.101814028      -83.3882068      0.99343849       5.84311215       
55               0.993615794      5.75452434       0.100275647      -83.4770514      0.100275647      -83.4770514      0.993615794      5.75452434       
55.75            0.993785956      5.66815793       0.0987756161     -83.5634385      0.0987756161     -83.5634385      0.993785956      5.66815793       
56.5             0.993949338      5.58392604       0.0973124474     -83.6474562      0.0973124474     -83.6474562      0.993949338      5.58392604       
57.25            0.994106281      5.50174623       0.0958847272     -83.729188       0.0958847272     -83.729188       0.994106281      5.50174623       
58               0.994257101      5.42154024       0.0944911134     -83.8087133      0.0944911134     -83.8087133      0.994257101      5.42154024       
58.75            0.994402099      5.34323372       0.0931303302     -83.886107       0.0931303302     -83.886107       0.994402099      5.34323372       
59.5             0.994541554      5.26675602       0.0918011644     -83.9614403      0.0918011644     -83.9614403      0.994541554      5.26675602       
60.25            0.99467573       5.19203991       0.0905024616     -84.0347809      0.0905024616     -84.0347809      0.99467573       5.19203991       
61               0.994804875      5.11902143       0.0892331226     -84.1061929      0.0892331226     -84.1061929      0.994804875      5.11902143       
61.75            0.994929222      5.04763964       0.0879921003     -84.1757372      0.0879921003     -84.1757372      0.994929222      5.04763964       
62.5             0.995048992      4.97783651       0.0867783965     -84.2434717      0.0867783965     -84.2434717      0.995048992      4.97783651       
63.25            0.99516439       4.90955668       0.0855910592     -84.3094516      0.0855910592     -84.3094516      0.99516439       4.90955668       
64               0.995275613      4.84274736       0.0844291799     -84.3737291      0.0844291799     -84.3737291      0.995275613      4.84274736       
64.75            0.995382844      4.77735817       0.0832918912     -84.4363541      0.0832918912     -84.4363541      0.995382844      4.77735817       
65.5             0.995486258      4.71334097       0.0821783646     -84.4973739      0.0821783646     -84.4973739      0.995486258      4.71334097       
66.25            0.99558602       4.65064981       0.0810878083     -84.5568337      0.0810878083     -84.5568337      0.99558602       4.65064981       
67               0.995682285      4.58924073       0.0800194649     -84.6147765      0.0800194649     -84.6147765      0.995682285      4.58924073       
67.75            0.9957752        4.52907169       0.0789726101     -84.6712432      0.0789726101     -84.6712432      0.9957752        4.52907169       
68.5             0.995864904      4.47010249       0.0779465505     -84.7262727      0.0779465505     -84.7262727      0.995864904      4.47010249       
69.25            0.99595153       4.41229461       0.0769406223     -84.7799021      0.0769406223     -84.7799021      0.99595153       4.41229461       
70               0.996035203      4.35561119       0.0759541893     -84.8321669      0.0759541893     -84.8321669      0.996035203      4.35561119       
70.75            0.996116042      4.30001689       0.0749866419     -84.8831009      0.0749866419     -84.8831009      0.996116042      4.30001689       
71.5             0.996194158      4.24547784       0.0740373956     -84.932736       0.0740373956     -84.932736       0.996194158      4.24547784       
72.25            0.99626966       4.19196155       0.0731058897     -84.981103       0.0731058897     -84.981103       0.99626966       4.19196155       
73               0.996342649      4.13943686       0.0721915861     -85.0282311      0.0721915861     -85.0282311      0.996342649      4.13943686       
73.75            0.996413221      4.08787386       0.0712939682     -85.0741482      0.0712939682     -85.0741482      0.996413221      4.08787386       
74.5             0.996481469      4.03724382       0.0704125398     -85.1188807      0.0704125398     -85.1188807      0.996481469      4.03724382       
75.25            0.996547479      3.98751914       0.0695468241     -85.162454       0.0695468241     -85.162454       0.996547479      3.98751914       
76               0.996611335      3.93867331       0.0686963629     -85.2048922      0.0686963629     -85.2048922      0.996611335      3.93867331       
76.75            0.996673116      3.89068083       0.0678607156     -85.2462183      0.0678607156     -85.2462183      0.996673116      3.89068083       
77.5             0.996732898      3.84351719       0.0670394584     -85.2864542      0.0670394584     -85.2864542      0.996732898      3.84351719       
78.25            0.996790753      3.79715879       0.0662321833     -85.3256208      0.0662321833     -85.3256208      0.996790753      3.79715879       
79               0.996846749      3.75158293       0.0654384979     -85.3637378      0.0654384979     -85.3637378      0.996846749      3.75158293       
79.75            0.996900951      3.70676776       0.0646580239     -85.4008243      0.0646580239     -85.4008243      0.996900951      3.70676776       
80.5             0.996953423      3.66269221       0.0638903973     -85.4368981      0.0638903973     -85.4368981      0.996953423      3.66269221       
81.25            0.997004224      3.61933601       0.063135267      -85.4719765      0.063135267      -85.4719765      0.997004224      3.61933601       
82               0.997053411      3.57667961       0.0623922948     -85.5060757      0.0623922948     -85.5060757      0.997053411      3.57667961       
82.75            0.997101038      3.53470415       0.0616611546     -85.5392111      0.0616611546     -85.5392111      0.997101038      3.53470415       
83.5             0.997147158      3.49339147       0.0609415316     -85.5713974      0.0609415316     -85.5713974      0.997147158      3.49339147       
84.25            0.997191821      3.45272402       0.0602331223     -85.6026486      0.0602331223     -85.6026486      0.997191821      3.45272402       
85               0.997235074      3.41268487       0.0595356336     -85.6329778      0.0595356336     -85.6329778      0.997235074      3.41268487       
85.75            0.997276963      3.37325771       0.0588487828     -85.6623974      0.0588487828     -85.6623974      0.997276963      3.37325771       
86.5             0.997317532      3.33442673       0.0581722965     -85.6909194      0.0581722965     -85.6909194      0.997317532      3.33442673       
87.25            0.997356822      3.29617672       0.0575059109     -85.7185549      0.0575059109     -85.7185549      0.997356822      3.29617672       
88               0.997394875      3.25849294       0.0568493709     -85.7453143      0.0568493709     -85.7453143      0.997394875      3.25849294       
88.75            0.997431727      3.22136116       0.05620243       -85.7712076      0.05620243       -85.7712076      0.997431727      3.22136116       
89.5             0.997467417      3.18476764       0.0555648499     -85.7962441      0.0555648499     -85.7962441      0.997467417      3.18476764       
90.25            0.99750198       3.14869905       0.0549364        -85.8204325      0.0549364        -85.8204325      0.99750198       3.14869905       
91               0.997535449      3.11314254       0.0543168573     -85.8437809      0.0543168573     -85.8437809      0.997535449      3.11314254       
91.75            0.997567858      3.07808565       0.0537060061     -85.8662971      0.0537060061     -85.8662971      0.997567858      3.07808565       
92.5             0.997599237      3.04351634       0.0531036374     -85.887988       0.0531036374     -85.887988       0.997599237      3.04351634       
93.25            0.997629618      3.00942293       0.0525095491     -85.9088602      0.0525095491     -85.9088602      0.997629618      3.00942293       
94               0.997659028      2.97579412       0.0519235454     -85.9289198      0.0519235454     -85.9289198      0.997659028      2.97579412       
94.75            0.997687496      2.94261899       0.0513454365     -85.9481723      0.0513454365     -85.9481723      0.997687496      2.94261899       
95.5             0.997715048      2.90988692       0.0507750387     -85.9666228      0.0507750387     -85.9666228      0.997715048      2.90988692       
96.25            0.997741711      2.87758764       0.0502121738     -85.9842759      0.0502121738     -85.9842759      0.997741711      2.87758764       
