! Coilcraft 1008LS-562 Chip Inductor				
! 5 August 2002			
# MHZ S MA R 50
!Freq             MagS11           AngS11           MagS21           AngS21           MagS12           AngS12           MagS22           AngS22
1                0.322815686      65.0226768       0.911913357      -18.7167878      0.911913357      -18.7167878      0.322815686      65.0226768       
1.35             0.416479702      60.4438613       0.87325619       -24.5108826      0.87325619       -24.5108826      0.416479702      60.4438613       
1.7              0.49830485       55.9151748       0.830534799      -29.7957301      0.830534799      -29.7957301      0.49830485       55.9151748       
2.05             0.568499561      51.6723204       0.786175905      -34.5601393      0.786175905      -34.5601393      0.568499561      51.6723204       
2.4              0.628005136      47.7943243       0.742031215      -38.8225649      0.742031215      -38.8225649      0.628005136      47.7943243       
2.75             0.678108559      44.2943066       0.699358537      -42.6193874      0.699358537      -42.6193874      0.678108559      44.2943066       
3.1              0.720175742      41.1553026       0.658916814      -45.9955208      0.658916814      -45.9955208      0.720175742      41.1553026       
3.45             0.755497373      38.3473279       0.62109361       -48.9979923      0.62109361       -48.9979923      0.755497373      38.3473279       
3.8              0.785216875      35.8361087       0.586022814      -51.6720944      0.586022814      -51.6720944      0.785216875      35.8361087       
4.15             0.810309113      33.5875397       0.55367726       -54.0593928      0.55367726       -54.0593928      0.810309113      33.5875397       
4.5              0.831586252      31.5698225       0.523935175      -56.1969276      0.523935175      -56.1969276      0.831586252      31.5698225       
4.85             0.84971578       29.7543413       0.496624949      -58.1171135      0.496624949      -58.1171135      0.84971578       29.7543413       
5.2              0.865242262      28.1158641       0.471553836      -59.8480067      0.471553836      -59.8480067      0.865242262      28.1158641       
5.55             0.87860855       26.6324062       0.448525513      -61.413739       0.448525513      -61.413739       0.87860855       26.6324062       
5.9              0.890174636      25.2849388       0.427350239      -62.8350022      0.427350239      -62.8350022      0.890174636      25.2849388       
6.25             0.900233581      24.0570466       0.407850279      -64.1295209      0.407850279      -64.1295209      0.900233581      24.0570466       
6.6              0.909024622      22.9345847       0.389862367      -65.3124868      0.389862367      -65.3124868      0.909024622      22.9345847       
6.95             0.916743752      21.9053597       0.373238408      -66.3969401      0.373238408      -66.3969401      0.916743752      21.9053597       
7.3              0.923552202      20.9588464       0.357845143      -67.3940992      0.357845143      -67.3940992      0.923552202      20.9588464       
7.65             0.929583197      20.0859409       0.343563272      -68.3136414      0.343563272      -68.3136414      0.929583197      20.0859409       
8                0.934947327      19.2787493       0.330286313      -69.1639394      0.330286313      -69.1639394      0.934947327      19.2787493       
8.35             0.939736825      18.5304078       0.317919377      -69.95226        0.317919377      -69.95226        0.939736825      18.5304078       
8.7              0.944028976      17.8349308       0.306377946      -70.6849306      0.306377946      -70.6849306      0.944028976      17.8349308       
9.05             0.947888834      17.1870827       0.295586731      -71.3674788      0.295586731      -71.3674788      0.947888834      17.1870827       
9.4              0.951371412      16.5822699       0.285478609      -72.0047493      0.285478609      -72.0047493      0.951371412      16.5822699       
9.75             0.954523433      16.01645         0.275993674      -72.6010018      0.275993674      -72.6010018      0.954523433      16.01645         
10.1             0.95738475       15.4860541       0.267078387      -73.1599937      0.267078387      -73.1599937      0.95738475       15.4860541       
10.45            0.959989497      14.9879231       0.258684821      -73.6850495      0.258684821      -73.6850495      0.959989497      14.9879231       
10.8             0.962367026      14.5192517       0.25077          -74.1791194      0.25077          -74.1791194      0.962367026      14.5192517       
11.15            0.964542677      14.0775419       0.24329532       -74.6448289      0.24329532       -74.6448289      0.964542677      14.0775419       
11.5             0.966538402      13.6605635       0.236226035      -75.0845216      0.236226035      -75.0845216      0.966538402      13.6605635       
11.85            0.96837329       13.26632         0.229530817      -75.5002947      0.229530817      -75.5002947      0.96837329       13.26632         
12.2             0.970063993      12.8930194       0.223181364      -75.8940298      0.223181364      -75.8940298      0.970063993      12.8930194       
12.55            0.971625091      12.5390493       0.21715206       -76.2674197      0.21715206       -76.2674197      0.971625091      12.5390493       
12.9             0.973069383      12.2029555       0.211419675      -76.6219906      0.211419675      -76.6219906      0.973069383      12.2029555       
13.25            0.974408144      11.8834236       0.205963106      -76.9591221      0.205963106      -76.9591221      0.974408144      11.8834236       
13.6             0.975651332      11.5792625       0.200763147      -77.2800639      0.200763147      -77.2800639      0.975651332      11.5792625       
13.95            0.976807768      11.2893909       0.195802287      -77.5859502      0.195802287      -77.5859502      0.976807768      11.2893909       
14.3             0.977885285      11.0128251       0.191064531      -77.8778132      0.191064531      -77.8778132      0.977885285      11.0128251       
14.65            0.978890861      10.7486682       0.186535248      -78.1565935      0.186535248      -78.1565935      0.978890861      10.7486682       
15               0.979830721      10.4961011       0.182201029      -78.4231503      0.182201029      -78.4231503      0.979830721      10.4961011       
15.35            0.980710438      10.2543743       0.178049566      -78.6782696      0.178049566      -78.6782696      0.980710438      10.2543743       
15.7             0.981535008      10.0228005       0.174069544      -78.9226721      0.174069544      -78.9226721      0.981535008      10.0228005       
16.05            0.982308923      9.80074896       0.170250546      -79.1570193      0.170250546      -79.1570193      0.982308923      9.80074896       
16.4             0.983036228      9.58763921       0.166582967      -79.3819198      0.166582967      -79.3819198      0.983036228      9.58763921       
16.75            0.983720574      9.38293666       0.163057936      -79.5979342      0.163057936      -79.5979342      0.983720574      9.38293666       
17.1             0.984365263      9.18614798       0.159667252      -79.8055797      0.159667252      -79.8055797      0.984365263      9.18614798       
17.45            0.984973287      8.99681733       0.156403319      -80.0053343      0.156403319      -80.0053343      0.984973287      8.99681733       
17.8             0.985547362      8.81452285       0.153259097      -80.1976402      0.153259097      -80.1976402      0.985547362      8.81452285       
18.15            0.986089957      8.63887364       0.150228048      -80.3829073      0.150228048      -80.3829073      0.986089957      8.63887364       
18.5             0.986603323      8.46950693       0.147304096      -80.5615158      0.147304096      -80.5615158      0.986603323      8.46950693       
18.85            0.987089512      8.30608568       0.144481587      -80.7338191      0.144481587      -80.7338191      0.987089512      8.30608568       
19.2             0.987550399      8.14829632       0.141755251      -80.9001458      0.141755251      -80.9001458      0.987550399      8.14829632       
19.55            0.987987702      7.99584676       0.139120175      -81.060802       0.139120175      -81.060802       0.987987702      7.99584676       
19.9             0.988402995      7.84846464       0.136571768      -81.2160733      0.136571768      -81.2160733      0.988402995      7.84846464       
20.25            0.988797723      7.70589562       0.13410574       -81.3662261      0.13410574       -81.3662261      0.988797723      7.70589562       
20.6             0.989173214      7.56790204       0.131718077      -81.5115095      0.131718077      -81.5115095      0.989173214      7.56790204       
20.95            0.989530691      7.43426147       0.129405018      -81.6521566      0.129405018      -81.6521566      0.989530691      7.43426147       
21.3             0.989871282      7.30476559       0.127163037      -81.7883855      0.127163037      -81.7883855      0.989871282      7.30476559       
21.65            0.990196026      7.17921909       0.124988823      -81.9204009      0.124988823      -81.9204009      0.990196026      7.17921909       
22               0.990505885      7.05743863       0.122879266      -82.0483947      0.122879266      -82.0483947      0.990505885      7.05743863       
22.35            0.990801749      6.93925201       0.120831444      -82.1725473      0.120831444      -82.1725473      0.990801749      6.93925201       
22.7             0.991084441      6.82449729       0.118842604      -82.2930283      0.118842604      -82.2930283      0.991084441      6.82449729       
23.05            0.991354727      6.71302206       0.116910154      -82.4099971      0.116910154      -82.4099971      0.991354727      6.71302206       
23.4             0.991613314      6.60468274       0.115031651      -82.523604       0.115031651      -82.523604       0.991613314      6.60468274       
23.75            0.991860863      6.499344         0.113204788      -82.6339906      0.113204788      -82.6339906      0.991860863      6.499344         
24.1             0.992097987      6.39687811       0.11142739       -82.7412905      0.11142739       -82.7412905      0.992097987      6.39687811       
24.45            0.992325257      6.29716446       0.109697397      -82.8456298      0.109697397      -82.8456298      0.992325257      6.29716446       
24.8             0.992543205      6.20008908       0.108012865      -82.9471277      0.108012865      -82.9471277      0.992543205      6.20008908       
25.15            0.99275233       6.10554416       0.106371952      -83.0458967      0.106371952      -83.0458967      0.99275233       6.10554416       
25.5             0.992953094      6.01342766       0.104772915      -83.1420435      0.104772915      -83.1420435      0.992953094      6.01342766       
25.85            0.993145932      5.92364294       0.1032141        -83.2356689      0.1032141        -83.2356689      0.993145932      5.92364294       
26.2             0.99333125       5.83609838       0.101693939      -83.3268686      0.101693939      -83.3268686      0.99333125       5.83609838       
26.55            0.993509428      5.75070708       0.100210945      -83.4157333      0.100210945      -83.4157333      0.993509428      5.75070708       
26.9             0.993680823      5.66738658       0.0987637058     -83.5023488      0.0987637058     -83.5023488      0.993680823      5.66738658       
27.25            0.993845768      5.58605853       0.0973508778     -83.5867968      0.0973508778     -83.5867968      0.993845768      5.58605853       
27.6             0.994004577      5.50664848       0.0959711849     -83.6691549      0.0959711849     -83.6691549      0.994004577      5.50664848       
27.95            0.994157546      5.42908564       0.0946234125     -83.7494967      0.0946234125     -83.7494967      0.994157546      5.42908564       
28.3             0.994304952      5.35330264       0.0933064043     -83.8278922      0.0933064043     -83.8278922      0.994304952      5.35330264       
28.65            0.994447056      5.27923532       0.0920190589     -83.9044082      0.0920190589     -83.9044082      0.994447056      5.27923532       
29               0.994584103      5.20682258       0.0907603268     -83.9791081      0.0907603268     -83.9791081      0.994584103      5.20682258       
29.35            0.994716324      5.13600615       0.0895292067     -84.0520522      0.0895292067     -84.0520522      0.994716324      5.13600615       
29.7             0.994843939      5.06673049       0.0883247437     -84.1232982      0.0883247437     -84.1232982      0.994843939      5.06673049       
30.05            0.994967153      4.99894257       0.087146026      -84.192901       0.087146026      -84.192901       0.994967153      4.99894257       
30.4             0.995086161      4.93259176       0.0859921828     -84.2609129      0.0859921828     -84.2609129      0.995086161      4.93259176       
30.75            0.995201146      4.86762972       0.0848623818     -84.3273839      0.0848623818     -84.3273839      0.995201146      4.86762972       
31.1             0.995312283      4.80401021       0.0837558274     -84.3923617      0.0837558274     -84.3923617      0.995312283      4.80401021       
31.45            0.995419735      4.74168904       0.0826717585     -84.4558918      0.0826717585     -84.4558918      0.995419735      4.74168904       
31.8             0.995523659      4.68062393       0.0816094468     -84.5180178      0.0816094468     -84.5180178      0.995523659      4.68062393       
32.15            0.995624202      4.62077439       0.0805681949     -84.5787812      0.0805681949     -84.5787812      0.995624202      4.62077439       
32.5             0.995721503      4.56210168       0.0795473347     -84.6382218      0.0795473347     -84.6382218      0.995721503      4.56210168       
32.85            0.995815695      4.50456866       0.0785462261     -84.6963776      0.0785462261     -84.6963776      0.995815695      4.50456866       
33.2             0.995906904      4.44813974       0.0775642553     -84.7532851      0.0775642553     -84.7532851      0.995906904      4.44813974       
33.55            0.995995249      4.39278079       0.0766008338     -84.808979       0.0766008338     -84.808979       0.995995249      4.39278079       
33.9             0.996080843      4.33845907       0.0756553964     -84.8634928      0.0756553964     -84.8634928      0.996080843      4.33845907       
34.25            0.996163795      4.28514316       0.0747274012     -84.9168583      0.0747274012     -84.9168583      0.996163795      4.28514316       
34.6             0.996244206      4.2328029        0.0738163271     -84.9691062      0.0738163271     -84.9691062      0.996244206      4.2328029        
34.95            0.996322174      4.1814093        0.0729216741     -85.0202658      0.0729216741     -85.0202658      0.996322174      4.1814093        
35.3             0.996397793      4.13093453       0.0720429612     -85.0703652      0.0720429612     -85.0703652      0.996397793      4.13093453       
35.65            0.996471149      4.08135183       0.0711797262     -85.1194313      0.0711797262     -85.1194313      0.996471149      4.08135183       
36               0.996542328      4.03263545       0.0703315244     -85.16749        0.0703315244     -85.16749        0.996542328      4.03263545       
36.35            0.996611409      3.98476064       0.0694979279     -85.2145661      0.0694979279     -85.2145661      0.996611409      3.98476064       
36.7             0.99667847       3.93770357       0.0686785249     -85.2606833      0.0686785249     -85.2606833      0.99667847       3.93770357       
37.05            0.996743583      3.8914413        0.067872919      -85.3058645      0.067872919      -85.3058645      0.996743583      3.8914413        
37.4             0.996806817      3.84595176       0.0670807282     -85.3501316      0.0670807282     -85.3501316      0.996806817      3.84595176       
37.75            0.996868239      3.80121366       0.0663015845     -85.3935056      0.0663015845     -85.3935056      0.996868239      3.80121366       
38.1             0.996927914      3.75720648       0.0655351332     -85.4360066      0.0655351332     -85.4360066      0.996927914      3.75720648       
38.45            0.9969859        3.71391048       0.0647810324     -85.477654       0.0647810324     -85.477654       0.9969859        3.71391048       
38.8             0.997042258      3.67130657       0.0640389521     -85.5184664      0.0640389521     -85.5184664      0.997042258      3.67130657       
39.15            0.997097041      3.62937638       0.0633085741     -85.5584617      0.0633085741     -85.5584617      0.997097041      3.62937638       
39.5             0.997150304      3.58810215       0.0625895914     -85.597657       0.0625895914     -85.597657       0.997150304      3.58810215       
39.85            0.997202096      3.54746676       0.0618817074     -85.6360688      0.0618817074     -85.6360688      0.997202096      3.54746676       
40.2             0.997252467      3.50745368       0.0611846358     -85.6737129      0.0611846358     -85.6737129      0.997252467      3.50745368       
40.55            0.997301464      3.46804693       0.0604981        -85.7106044      0.0604981        -85.7106044      0.997301464      3.46804693       
40.9             0.997349131      3.42923107       0.0598218328     -85.746758       0.0598218328     -85.746758       0.997349131      3.42923107       
41.25            0.997395511      3.3909912        0.0591555758     -85.7821876      0.0591555758     -85.7821876      0.997395511      3.3909912        
41.6             0.997440644      3.3533129        0.0584990794     -85.8169066      0.0584990794     -85.8169066      0.997440644      3.3533129        
41.95            0.997484572      3.31618223       0.057852102      -85.850928       0.057852102      -85.850928       0.997484572      3.31618223       
42.3             0.99752733       3.27958571       0.0572144099     -85.8842642      0.0572144099     -85.8842642      0.99752733       3.27958571       
42.65            0.997568956      3.24351029       0.0565857773     -85.9169269      0.0565857773     -85.9169269      0.997568956      3.24351029       
43               0.997609485      3.20794334       0.0559659852     -85.9489276      0.0559659852     -85.9489276      0.997609485      3.20794334       
43.35            0.997648949      3.17287266       0.0553548218     -85.9802772      0.0553548218     -85.9802772      0.997648949      3.17287266       
43.7             0.997687382      3.1382864        0.0547520821     -86.0109862      0.0547520821     -86.0109862      0.997687382      3.1382864        
44.05            0.997724814      3.10417311       0.0541575673     -86.0410646      0.0541575673     -86.0410646      0.997724814      3.10417311       
44.4             0.997761274      3.07052169       0.053571085      -86.0705221      0.053571085      -86.0705221      0.997761274      3.07052169       
44.75            0.997796793      3.03732138       0.0529924487     -86.0993678      0.0529924487     -86.0993678      0.997796793      3.03732138       
45.1             0.997831396      3.00456175       0.0524214776     -86.1276105      0.0524214776     -86.1276105      0.997831396      3.00456175       
45.45            0.99786511       2.9722327        0.0518579963     -86.1552587      0.0518579963     -86.1552587      0.99786511       2.9722327        
