! Coilcraft 1008LS-122 Chip Inductor				
! 5 August 2002			
# MHZ S MA R 50
!Freq             MagS11           AngS11           MagS21           AngS21           MagS12           AngS12           MagS22           AngS22
1                0.0753603558     75.6600416       0.984047493      -4.25502681      0.984047493      -4.25502681      0.0753603558     75.6600416       
2.24             0.164653425      74.7933021       0.969913867      -9.42850911      0.969913867      -9.42850911      0.164653425      74.7933021       
3.48             0.249901452      71.2497061       0.949627258      -14.4296596      0.949627258      -14.4296596      0.249901452      71.2497061       
4.72             0.329503916      67.2462189       0.923951932      -19.2002264      0.923951932      -19.2002264      0.329503916      67.2462189       
5.96             0.402483235      63.2335839       0.894132353      -23.6973843      0.894132353      -23.6973843      0.402483235      63.2335839       
7.2              0.46838886       59.3743718       0.861492222      -27.8952886      0.861492222      -27.8952886      0.46838886       59.3743718       
8.44             0.527204406      55.7387068       0.827252219      -31.7835329      0.827252219      -31.7835329      0.527204406      55.7387068       
9.68             0.579229793      52.3551118       0.792439134      -35.3641436      0.792439134      -35.3641436      0.579229793      52.3551118       
10.92            0.624964892      49.2299212       0.757855842      -38.6481654      0.757855842      -38.6481654      0.624964892      49.2299212       
12.16            0.665012466      46.3569072       0.724089942      -41.6525016      0.724089942      -41.6525016      0.665012466      46.3569072       
13.4             0.70000677       43.7228421       0.691542751      -44.39733        0.691542751      -44.39733        0.70000677       43.7228421       
14.64            0.730566492      41.3109405       0.660465559      -46.9041721      0.660465559      -46.9041721      0.730566492      41.3109405       
15.88            0.757267262      39.1030192       0.630995218      -49.1945597      0.630995218      -49.1945597      0.757267262      39.1030192       
17.12            0.780628214      37.0808289       0.603185154      -51.2891822      0.603185154      -51.2891822      0.780628214      37.0808289       
18.36            0.80110778       35.22684         0.577030493      -53.2073934      0.577030493      -53.2073934      0.80110778       35.22684         
19.6             0.819105067      33.52467         0.552487423      -54.9669691      0.552487423      -54.9669691      0.819105067      33.52467         
20.84            0.834964241      31.9592818       0.529487567      -56.5840309      0.529487567      -56.5840309      0.834964241      31.9592818       
22.08            0.848980277      30.5170377       0.507948334      -58.0730739      0.507948334      -58.0730739      0.848980277      30.5170377       
23.32            0.86140506       29.1856681       0.487780172      -59.4470558      0.487780172      -59.4470558      0.86140506       29.1856681       
24.56            0.87245328       27.9541926       0.468891504      -60.7175156      0.468891504      -60.7175156      0.87245328       27.9541926       
25.8             0.882307825      26.8128171       0.451191993      -61.8947068      0.451191993      -61.8947068      0.882307825      26.8128171       
27.04            0.891124561      25.7528216       0.434594604      -62.9877299      0.434594604      -62.9877299      0.891124561      25.7528216       
28.28            0.899036481      24.7664498       0.419016826      -64.0046603      0.419016826      -64.0046603      0.899036481      24.7664498       
29.52            0.906157251      23.8468024       0.404381318      -64.9526662      0.404381318      -64.9526662      0.906157251      23.8468024       
30.76            0.912584228      22.9877399       0.390616168      -65.8381159      0.390616168      -65.8381159      0.912584228      22.9877399       
32               0.918400993      22.1837939       0.377654895      -66.666674       0.377654895      -66.666674       0.918400993      22.1837939       
33.24            0.923679483      21.4300872       0.365436283      -67.443386       0.365436283      -67.443386       0.923679483      21.4300872       
34.48            0.928481783      20.7222643       0.35390413       -68.1727536      0.35390413       -68.1727536      0.928481783      20.7222643       
35.72            0.932861618      20.056429        0.343006928      -68.8588003      0.343006928      -68.8588003      0.932861618      20.056429        
36.96            0.936865614      19.4290896       0.332697529      -69.505129       0.332697529      -69.505129       0.936865614      19.4290896       
38.2             0.940534343      18.8371118       0.322932804      -70.1149718      0.322932804      -70.1149718      0.940534343      18.8371118       
39.44            0.943903212      18.2776764       0.313673308      -70.691234       0.313673308      -70.691234       0.943903212      18.2776764       
40.68            0.947003205      17.7482434       0.30488296       -71.2365322      0.30488296       -71.2365322      0.947003205      17.7482434       
41.92            0.949861507      17.2465194       0.296528745      -71.7532275      0.296528745      -71.7532275      0.949861507      17.2465194       
43.16            0.952502036      16.7704302       0.288580436      -72.2434546      0.288580436      -72.2434546      0.952502036      16.7704302       
44.4             0.954945889      16.3180964       0.28101034       -72.7091472      0.28101034       -72.7091472      0.954945889      16.3180964       
45.64            0.957211721      15.8878114       0.273793062      -73.15206        0.273793062      -73.15206        0.957211721      15.8878114       
46.88            0.959316071      15.4780236       0.266905294      -73.5737886      0.266905294      -73.5737886      0.959316071      15.4780236       
48.12            0.961273634      15.087319        0.260325621      -73.9757861      0.260325621      -73.9757861      0.961273634      15.087319        
49.36            0.963097502      14.7144072       0.25403435       -74.3593782      0.25403435       -74.3593782      0.963097502      14.7144072       
50.6             0.96479936       14.3581085       0.248013348      -74.7257769      0.248013348      -74.7257769      0.96479936       14.3581085       
51.84            0.966389665      14.0173426       0.242245901      -75.0760913      0.242245901      -75.0760913      0.966389665      14.0173426       
53.08            0.96787779       13.6911187       0.236716589      -75.4113389      0.236716589      -75.4113389      0.96787779       13.6911187       
54.32            0.969272159      13.3785265       0.231411163      -75.7324536      0.231411163      -75.7324536      0.969272159      13.3785265       
55.56            0.970580355      13.0787286       0.22631645       -76.040295       0.22631645       -76.040295       0.970580355      13.0787286       
56.8             0.971809219      12.7909534       0.22142025       -76.3356545      0.22142025       -76.3356545      0.971809219      12.7909534       
58.04            0.972964933      12.5144887       0.216711256      -76.6192622      0.216711256      -76.6192622      0.972964933      12.5144887       
59.28            0.974053094      12.2486767       0.212178977      -76.8917928      0.212178977      -76.8917928      0.974053094      12.2486767       
60.52            0.975078779      11.9929086       0.207813666      -77.1538701      0.207813666      -77.1538701      0.975078779      11.9929086       
61.76            0.976046601      11.7466201       0.20360626       -77.4060721      0.20360626       -77.4060721      0.976046601      11.7466201       
63               0.976960757      11.5092881       0.199548322      -77.6489347      0.199548322      -77.6489347      0.976960757      11.5092881       
64.24            0.977825076      11.2804265       0.195631988      -77.8829557      0.195631988      -77.8829557      0.977825076      11.2804265       
65.48            0.97864305       11.0595831       0.191849925      -78.1085976      0.191849925      -78.1085976      0.97864305       11.0595831       
66.72            0.979417874      10.846337        0.188195283      -78.3262911      0.188195283      -78.3262911      0.979417874      10.846337        
67.96            0.980152475      10.6402958       0.184661661      -78.5364374      0.184661661      -78.5364374      0.980152475      10.6402958       
69.2             0.980849534      10.4410934       0.181243069      -78.7394109      0.181243069      -78.7394109      0.980849534      10.4410934       
70.44            0.981511516      10.2483875       0.177933899      -78.935561       0.177933899      -78.935561       0.981511516      10.2483875       
71.68            0.982140687      10.0618583       0.174728893      -79.1252143      0.174728893      -79.1252143      0.982140687      10.0618583       
72.92            0.982739133      9.88120625       0.171623118      -79.3086765      0.171623118      -79.3086765      0.982739133      9.88120625       
74.16            0.983308777      9.70615057       0.168611942      -79.4862339      0.168611942      -79.4862339      0.983308777      9.70615057       
75.4             0.983851395      9.53642798       0.165691012      -79.6581548      0.165691012      -79.6581548      0.983851395      9.53642798       
76.64            0.984368627      9.37179128       0.162856233      -79.8246909      0.162856233      -79.8246909      0.984368627      9.37179128       
77.88            0.984861992      9.21200811       0.16010375       -79.9860788      0.16010375       -79.9860788      0.984861992      9.21200811       
79.12            0.985332897      9.05685995       0.157429932      -80.1425405      0.157429932      -80.1425405      0.985332897      9.05685995       
80.36            0.985782646      8.90614104       0.154831353      -80.2942851      0.154831353      -80.2942851      0.985782646      8.90614104       
81.6             0.98621245       8.75965754       0.152304781      -80.4415094      0.152304781      -80.4415094      0.98621245       8.75965754       
82.84            0.986623434      8.61722664       0.149847165      -80.5843987      0.149847165      -80.5843987      0.986623434      8.61722664       
84.08            0.987016645      8.4786758        0.14745562       -80.7231277      0.14745562       -80.7231277      0.987016645      8.4786758        
85.32            0.987393059      8.34384206       0.145127418      -80.8578614      0.145127418      -80.8578614      0.987393059      8.34384206       
86.56            0.987753583      8.21257139       0.142859978      -80.9887553      0.142859978      -80.9887553      0.987753583      8.21257139       
87.8             0.988099067      8.08471808       0.140650855      -81.1159565      0.140650855      -81.1159565      0.988099067      8.08471808       
89.04            0.988430301      7.9601442        0.138497731      -81.239604       0.138497731      -81.239604       0.988430301      7.9601442        
90.28            0.988748026      7.83871909       0.136398409      -81.3598292      0.136398409      -81.3598292      0.988748026      7.83871909       
91.52            0.989052935      7.72031888       0.134350803      -81.4767566      0.134350803      -81.4767566      0.989052935      7.72031888       
92.76            0.989345675      7.60482608       0.132352933      -81.5905041      0.132352933      -81.5905041      0.989345675      7.60482608       
94               0.989626854      7.49212915       0.130402919      -81.7011833      0.130402919      -81.7011833      0.989626854      7.49212915       
95.24            0.989897043      7.38212216       0.12849897       -81.8089         0.12849897       -81.8089         0.989897043      7.38212216       
96.48            0.990156776      7.27470442       0.126639387      -81.9137546      0.126639387      -81.9137546      0.990156776      7.27470442       
97.72            0.990406555      7.16978019       0.124822548      -82.0158424      0.124822548      -82.0158424      0.990406555      7.16978019       
98.96            0.990646852      7.06725834       0.123046913      -82.1152539      0.123046913      -82.1152539      0.990646852      7.06725834       
100.2            0.990878113      6.96705212       0.121311011      -82.2120749      0.121311011      -82.2120749      0.990878113      6.96705212       
101.44           0.991100755      6.86907886       0.11961344       -82.3063871      0.11961344       -82.3063871      0.991100755      6.86907886       
102.68           0.991315172      6.7732598        0.117952864      -82.3982681      0.117952864      -82.3982681      0.991315172      6.7732598        
103.92           0.991521736      6.67951978       0.116328008      -82.4877916      0.116328008      -82.4877916      0.991521736      6.67951978       
105.16           0.991720797      6.58778709       0.114737653      -82.5750278      0.114737653      -82.5750278      0.991720797      6.58778709       
106.4            0.991912687      6.49799327       0.113180635      -82.6600436      0.113180635      -82.6600436      0.991912687      6.49799327       
107.64           0.992097717      6.41007293       0.111655842      -82.7429023      0.111655842      -82.7429023      0.992097717      6.41007293       
108.88           0.992276184      6.32396357       0.110162209      -82.8236647      0.110162209      -82.8236647      0.992276184      6.32396357       
110.12           0.992448366      6.2396054        0.108698719      -82.9023883      0.108698719      -82.9023883      0.992448366      6.2396054        
111.36           0.992614529      6.15694126       0.107264398      -82.979128       0.107264398      -82.979128       0.992614529      6.15694126       
112.6            0.992774921      6.07591642       0.105858312      -83.0539361      0.105858312      -83.0539361      0.992774921      6.07591642       
113.84           0.992929782      5.99647849       0.104479567      -83.1268625      0.104479567      -83.1268625      0.992929782      5.99647849       
115.08           0.993079335      5.91857725       0.103127308      -83.1979546      0.103127308      -83.1979546      0.993079335      5.91857725       
116.32           0.993223794      5.84216461       0.101800711      -83.2672577      0.101800711      -83.2672577      0.993223794      5.84216461       
117.56           0.993363362      5.76719441       0.100498989      -83.3348149      0.100498989      -83.3348149      0.993363362      5.76719441       
118.8            0.99349823       5.69362242       0.0992213863     -83.4006675      0.0992213863     -83.4006675      0.99349823       5.69362242       
120.04           0.993628582      5.62140617       0.0979671758     -83.4648545      0.0979671758     -83.4648545      0.993628582      5.62140617       
121.28           0.993754591      5.55050488       0.0967356603     -83.5274134      0.0967356603     -83.5274134      0.993754591      5.55050488       
122.52           0.993876423      5.48087941       0.0955261699     -83.5883798      0.0955261699     -83.5883798      0.993876423      5.48087941       
123.76           0.993994234      5.41249213       0.0943380604     -83.6477877      0.0943380604     -83.6477877      0.993994234      5.41249213       
125              0.994108174      5.34530688       0.0931707124     -83.7056694      0.0931707124     -83.7056694      0.994108174      5.34530688       
126.24           0.994218385      5.27928889       0.0920235304     -83.7620558      0.0920235304     -83.7620558      0.994218385      5.27928889       
127.48           0.994325005      5.21440472       0.0908959411     -83.8169761      0.0908959411     -83.8169761      0.994325005      5.21440472       
128.72           0.994428161      5.15062219       0.0897873927     -83.8704585      0.0897873927     -83.8704585      0.994428161      5.15062219       
129.96           0.994527977      5.08791032       0.0886973539     -83.9225295      0.0886973539     -83.9225295      0.994527977      5.08791032       
131.2            0.994624572      5.02623928       0.087625313      -83.9732144      0.087625313      -83.9732144      0.994624572      5.02623928       
132.44           0.994718057      4.96558033       0.0865707769     -84.0225375      0.0865707769     -84.0225375      0.994718057      4.96558033       
133.68           0.99480854       4.9059058        0.0855332702     -84.0705215      0.0855332702     -84.0705215      0.99480854       4.9059058        
134.92           0.994896124      4.84718899       0.0845123346     -84.1171882      0.0845123346     -84.1171882      0.994896124      4.84718899       
136.16           0.994980907      4.78940417       0.0835075282     -84.1625584      0.0835075282     -84.1625584      0.994980907      4.78940417       
137.4            0.995062982      4.73252651       0.0825184244     -84.2066516      0.0825184244     -84.2066516      0.995062982      4.73252651       
138.64           0.99514244       4.67653208       0.0815446118     -84.2494865      0.0815446118     -84.2494865      0.99514244       4.67653208       
139.88           0.995219366      4.62139775       0.0805856929     -84.2910805      0.0805856929     -84.2910805      0.995219366      4.62139775       
141.12           0.995293842      4.56710121       0.0796412841     -84.3314505      0.0796412841     -84.3314505      0.995293842      4.56710121       
142.36           0.995365947      4.51362092       0.0787110148     -84.370612       0.0787110148     -84.370612       0.995365947      4.51362092       
143.6            0.995435757      4.46093604       0.0777945268     -84.40858        0.0777945268     -84.40858        0.995435757      4.46093604       
144.84           0.995503343      4.40902648       0.076891474      -84.4453683      0.076891474      -84.4453683      0.995503343      4.40902648       
146.08           0.995568775      4.35787277       0.0760015219     -84.4809902      0.0760015219     -84.4809902      0.995568775      4.35787277       
147.32           0.99563212       4.30745614       0.0751243468     -84.5154579      0.0751243468     -84.5154579      0.99563212       4.30745614       
148.56           0.995693441      4.25775838       0.0742596357     -84.5487831      0.0742596357     -84.5487831      0.995693441      4.25775838       
149.8            0.995752799      4.20876192       0.0734070859     -84.5809763      0.0734070859     -84.5809763      0.995752799      4.20876192       
151.04           0.995810254      4.16044974       0.0725664041     -84.6120477      0.0725664041     -84.6120477      0.995810254      4.16044974       
152.28           0.995865861      4.11280536       0.0717373067     -84.6420064      0.0717373067     -84.6420064      0.995865861      4.11280536       
153.52           0.995919675      4.06581285       0.070919519      -84.6708612      0.070919519      -84.6708612      0.995919675      4.06581285       
154.76           0.995971747      4.01945674       0.0701127748     -84.6986198      0.0701127748     -84.6986198      0.995971747      4.01945674       
156              0.996022129      3.9737221        0.0693168164     -84.7252894      0.0693168164     -84.7252894      0.996022129      3.9737221        
157.24           0.996070868      3.92859441       0.068531394      -84.7508766      0.068531394      -84.7508766      0.996070868      3.92859441       
158.48           0.99611801       3.88405965       0.0677562655     -84.7753871      0.0677562655     -84.7753871      0.99611801       3.88405965       
