! Coilcraft 1008LS-332 Chip Inductor				
! 5 August 2002			
# MHZ S MA R 50
!Freq             MagS11           AngS11           MagS21           AngS21           MagS12           AngS12           MagS22           AngS22
1                0.199489164      70.7751561       0.953111692      -11.3984587      0.953111692      -11.3984587      0.199489164      70.7751561       
1.5              0.29014018       67.3930176       0.927963906      -16.7765063      0.927963906      -16.7765063      0.29014018       67.3930176       
2                0.373412819      63.3964233       0.897216518      -21.8468359      0.897216518      -21.8468359      0.373412819      63.3964233       
2.5              0.44836355       59.3589412       0.862557616      -26.5661059      0.862557616      -26.5661059      0.44836355       59.3589412       
3                0.514770138      55.487183        0.825627322      -30.9142861      0.825627322      -30.9142861      0.514770138      55.487183        
3.5              0.57292941       51.8652672       0.787823342      -34.8905973      0.787823342      -34.8905973      0.57292941       51.8652672       
4                0.62346342       48.5231523       0.750230199      -38.5082085      0.750230199      -38.5082085      0.62346342       48.5231523       
4.5              0.667158255      45.463483        0.713623825      -41.7891603      0.713623825      -41.7891603      0.667158255      45.463483        
5                0.704847754      42.6746918       0.678514832      -44.7602304      0.678514832      -44.7602304      0.704847754      42.6746918       
5.5              0.737339793      40.1381885       0.645204892      -47.4499243      0.645204892      -47.4499243      0.737339793      40.1381885       
6                0.765375841      37.8324937       0.613841459      -49.8864794      0.613841459      -49.8864794      0.765375841      37.8324937       
6.5              0.789613388      35.7356133       0.584464116      -52.096665       0.584464116      -52.096665       0.789613388      35.7356133       
7                0.810622533      33.8263568       0.557040793      -54.1051482      0.557040793      -54.1051482      0.810622533      33.8263568       
7.5              0.828890452      32.0850127       0.531494543      -55.934236       0.531494543      -55.934236       0.828890452      32.0850127       
8                0.844829646      30.4936377       0.507722557      -57.6038517      0.507722557      -57.6038517      0.844829646      30.4936377       
8.5              0.858787472      29.0361211       0.485609189      -59.131644       0.485609189      -59.131644       0.858787472      29.0361211       
9                0.871055607      27.6981233       0.465034603      -60.5331676      0.465034603      -60.5331676      0.871055607      27.6981233       
9.5              0.881878744      26.4669497       0.445880297      -61.8220897      0.445880297      -61.8220897      0.881878744      26.4669497       
10               0.891462247      25.3313974       0.428032469      -63.0104025      0.428032469      -63.0104025      0.891462247      25.3313974       
10.5             0.899978715      24.2815944       0.411383918      -64.1086253      0.411383918      -64.1086253      0.899978715      24.2815944       
11               0.907573514      23.3088453       0.395834971      -65.1259895      0.395834971      -65.1259895      0.907573514      23.3088453       
11.5             0.914369387      22.4054878       0.381293786      -66.0706061      0.381293786      -66.0706061      0.914369387      22.4054878       
12               0.92047028       21.5647629       0.367676257      -66.949612       0.367676257      -66.949612       0.92047028       21.5647629       
12.5             0.925964497      20.7806998       0.35490569       -67.7692989      0.35490569       -67.7692989      0.925964497      20.7806998       
13               0.930927296      20.0480155       0.342912341      -68.5352246      0.342912341      -68.5352246      0.930927296      20.0480155       
13.5             0.935423034      19.3620259       0.331632895      -69.2523094      0.331632895      -69.2523094      0.935423034      19.3620259       
14               0.939506929      18.7185696       0.32100993       -69.9249193      0.32100993       -69.9249193      0.939506929      18.7185696       
14.5             0.943226519      18.1139417       0.31099138       -70.5569372      0.31099138       -70.5569372      0.943226519      18.1139417       
15               0.946622864      17.5448362       0.301530039      -71.1518248      0.301530039      -71.1518248      0.946622864      17.5448362       
15.5             0.949731545      17.0082969       0.292583081      -71.7126751      0.292583081      -71.7126751      0.949731545      17.0082969       
16               0.952583495      16.5016741       0.284111629      -72.2422586      0.284111629      -72.2422586      0.952583495      16.5016741       
16.5             0.955205686      16.0225878       0.27608036       -72.7430621      0.27608036       -72.7430621      0.955205686      16.0225878       
17               0.957621715      15.5688957       0.268457144      -73.217323       0.268457144      -73.217323       0.957621715      15.5688957       
17.5             0.959852278      15.1386651       0.261212725      -73.667059       0.261212725      -73.667059       0.959852278      15.1386651       
18               0.961915587      14.7301489       0.25432043       -74.094093       0.25432043       -74.094093       0.961915587      14.7301489       
18.5             0.963827707      14.3417646       0.247755905      -74.5000757      0.247755905      -74.5000757      0.963827707      14.3417646       
19               0.965602849      13.9720757       0.241496893      -74.8865051      0.241496893      -74.8865051      0.965602849      13.9720757       
19.5             0.967253617      13.6197761       0.235523018      -75.2547427      0.235523018      -75.2547427      0.967253617      13.6197761       
20               0.968791218      13.2836757       0.229815605      -75.6060288      0.229815605      -75.6060288      0.968791218      13.2836757       
20.5             0.970225638      12.962688        0.224357513      -75.9414953      0.224357513      -75.9414953      0.970225638      12.962688        
21               0.9715658        12.6558199       0.219132988      -76.262177       0.219132988      -76.262177       0.9715658        12.6558199       
21.5             0.972819694      12.3621614       0.214127533      -76.5690214      0.214127533      -76.5690214      0.972819694      12.3621614       
22               0.973994487      12.0808778       0.209327788      -76.8628976      0.209327788      -76.8628976      0.973994487      12.0808778       
22.5             0.975096626      11.8112019       0.204721423      -77.1446045      0.204721423      -77.1446045      0.975096626      11.8112019       
23               0.97613192       11.5524277       0.200297051      -77.4148769      0.200297051      -77.4148769      0.97613192       11.5524277       
23.5             0.977105613      11.3039042       0.196044133      -77.6743923      0.196044133      -77.6743923      0.977105613      11.3039042       
24               0.978022448      11.0650306       0.19195291       -77.9237759      0.19195291       -77.9237759      0.978022448      11.0650306       
24.5             0.978886725      10.8352512       0.188014332      -78.1636057      0.188014332      -78.1636057      0.978886725      10.8352512       
25               0.979702347      10.6140518       0.184219995      -78.3944166      0.184219995      -78.3944166      0.979702347      10.6140518       
25.5             0.980472863      10.4009557       0.180562089      -78.6167045      0.180562089      -78.6167045      0.980472863      10.4009557       
26               0.981201506      10.1955202       0.177033344      -78.8309297      0.177033344      -78.8309297      0.981201506      10.1955202       
26.5             0.981891227      9.99733404       0.173626988      -79.0375196      0.173626988      -79.0375196      0.981891227      9.99733404       
27               0.982544721      9.8060145        0.170336705      -79.2368722      0.170336705      -79.2368722      0.982544721      9.8060145        
27.5             0.983164457      9.62120497       0.167156598      -79.429358       0.167156598      -79.429358       0.983164457      9.62120497       
28               0.983752696      9.44257288       0.164081157      -79.6153225      0.164081157      -79.6153225      0.983752696      9.44257288       
28.5             0.984311514      9.26980766       0.161105225      -79.7950885      0.161105225      -79.7950885      0.984311514      9.26980766       
29               0.984842819      9.102619         0.158223974      -79.9689573      0.158223974      -79.9689573      0.984842819      9.102619         
29.5             0.985348369      8.94073525       0.155432878      -80.137211       0.155432878      -80.137211       0.985348369      8.94073525       
30               0.985829781      8.78390194       0.15272769       -80.3001138      0.15272769       -80.3001138      0.985829781      8.78390194       
30.5             0.986288551      8.63188047       0.150104424      -80.4579133      0.150104424      -80.4579133      0.986288551      8.63188047       
31               0.986726057      8.48444691       0.14755933       -80.6108416      0.14755933       -80.6108416      0.986726057      8.48444691       
31.5             0.987143576      8.34139086       0.145088882      -80.7591171      0.145088882      -80.7591171      0.987143576      8.34139086       
32               0.987542291      8.20251452       0.142689762      -80.9029448      0.142689762      -80.9029448      0.987542291      8.20251452       
32.5             0.987923298      8.0676317        0.140358839      -81.0425175      0.140358839      -81.0425175      0.987923298      8.0676317        
33               0.988287615      7.93656703       0.138093165      -81.178017       0.138093165      -81.178017       0.988287615      7.93656703       
33.5             0.988636186      7.80915518       0.135889953      -81.3096143      0.135889953      -81.3096143      0.988636186      7.80915518       
34               0.988969892      7.68524017       0.133746574      -81.437471       0.133746574      -81.437471       0.988969892      7.68524017       
34.5             0.98928955       7.56467469       0.131660541      -81.5617394      0.131660541      -81.5617394      0.98928955       7.56467469       
35               0.989595923      7.44731954       0.129629504      -81.6825634      0.129629504      -81.6825634      0.989595923      7.44731954       
35.5             0.989889724      7.33304308       0.127651234      -81.8000789      0.127651234      -81.8000789      0.989889724      7.33304308       
36               0.990171618      7.22172072       0.125723623      -81.9144146      0.125723623      -81.9144146      0.990171618      7.22172072       
36.5             0.990442224      7.11323445       0.123844672      -82.0256922      0.123844672      -82.0256922      0.990442224      7.11323445       
37               0.990702124      7.00747243       0.122012485      -82.1340271      0.122012485      -82.1340271      0.990702124      7.00747243       
37.5             0.990951863      6.90432859       0.120225261      -82.2395286      0.120225261      -82.2395286      0.990951863      6.90432859       
38               0.991191949      6.80370227       0.118481291      -82.3423002      0.118481291      -82.3423002      0.991191949      6.80370227       
38.5             0.991422861      6.70549786       0.11677895       -82.4424402      0.11677895       -82.4424402      0.991422861      6.70549786       
39               0.991645047      6.6096245        0.115116692      -82.5400421      0.115116692      -82.5400421      0.991645047      6.6096245        
39.5             0.991858929      6.51599583       0.113493049      -82.6351944      0.113493049      -82.6351944      0.991858929      6.51599583       
40               0.992064903      6.42452963       0.111906618      -82.7279815      0.111906618      -82.7279815      0.992064903      6.42452963       
40.5             0.992263341      6.33514767       0.110356068      -82.8184835      0.110356068      -82.8184835      0.992263341      6.33514767       
41               0.992454594      6.2477754        0.108840128      -82.9067766      0.108840128      -82.9067766      0.992454594      6.2477754        
41.5             0.992638993      6.16234178       0.107357584      -82.9929335      0.107357584      -82.9929335      0.992638993      6.16234178       
42               0.992816849      6.07877906       0.105907282      -83.0770231      0.105907282      -83.0770231      0.992816849      6.07877906       
42.5             0.992988456      5.99702261       0.104488115      -83.1591115      0.104488115      -83.1591115      0.992988456      5.99702261       
43               0.993154091      5.91701069       0.10309903       -83.2392613      0.10309903       -83.2392613      0.993154091      5.91701069       
43.5             0.993314016      5.83868438       0.10173902       -83.3175323      0.10173902       -83.3175323      0.993314016      5.83868438       
44               0.99346848       5.76198733       0.100407119      -83.3939818      0.100407119      -83.3939818      0.99346848       5.76198733       
44.5             0.993617715      5.68686569       0.0991024076     -83.4686642      0.0991024076     -83.4686642      0.993617715      5.68686569       
45               0.993761945      5.61326794       0.0978240022     -83.5416314      0.0978240022     -83.5416314      0.993761945      5.61326794       
45.5             0.993901379      5.54114477       0.0965710585     -83.6129333      0.0965710585     -83.6129333      0.993901379      5.54114477       
46               0.994036215      5.47044897       0.0953427676     -83.6826172      0.0953427676     -83.6826172      0.994036215      5.47044897       
46.5             0.994166642      5.40113532       0.0941383541     -83.7507285      0.0941383541     -83.7507285      0.994166642      5.40113532       
47               0.99429284       5.33316047       0.0929570747     -83.8173107      0.0929570747     -83.8173107      0.99429284       5.33316047       
47.5             0.994414978      5.26648287       0.0917982164     -83.882405       0.0917982164     -83.882405       0.994414978      5.26648287       
48               0.994533216      5.20106266       0.090661095      -83.9460513      0.090661095      -83.9460513      0.994533216      5.20106266       
48.5             0.994647709      5.13686159       0.089545054      -84.0082874      0.089545054      -84.0082874      0.994647709      5.13686159       
49               0.994758602      5.07384296       0.0884494626     -84.0691497      0.0884494626     -84.0691497      0.994758602      5.07384296       
49.5             0.994866033      5.01197148       0.0873737151     -84.128673       0.0873737151     -84.128673       0.994866033      5.01197148       
50               0.994970134      4.9512133        0.0863172291     -84.1868904      0.0863172291     -84.1868904      0.994970134      4.9512133        
50.5             0.995071031      4.89153585       0.0852794448     -84.2438339      0.0852794448     -84.2438339      0.995071031      4.89153585       
51               0.995168842      4.83290782       0.0842598239     -84.2995339      0.0842598239     -84.2995339      0.995168842      4.83290782       
51.5             0.995263683      4.77529909       0.0832578484     -84.3540198      0.0832578484     -84.3540198      0.995263683      4.77529909       
52               0.99535566       4.7186807        0.0822730195     -84.4073195      0.0822730195     -84.4073195      0.99535566       4.7186807        
52.5             0.995444879      4.66302475       0.0813048573     -84.4594597      0.0813048573     -84.4594597      0.995444879      4.66302475       
53               0.995531437      4.60830439       0.0803528993     -84.5104664      0.0803528993     -84.5104664      0.995531437      4.60830439       
53.5             0.995615429      4.55449375       0.0794167002     -84.5603639      0.0794167002     -84.5603639      0.995615429      4.55449375       
54               0.995696945      4.50156791       0.0784958305     -84.609176       0.0784958305     -84.609176       0.995696945      4.50156791       
54.5             0.995776071      4.44950283       0.0775898763     -84.6569253      0.0775898763     -84.6569253      0.995776071      4.44950283       
55               0.995852889      4.39827537       0.0766984383     -84.7036334      0.0766984383     -84.7036334      0.995852889      4.39827537       
55.5             0.995927478      4.34786316       0.0758211314     -84.749321       0.0758211314     -84.749321       0.995927478      4.34786316       
56               0.995999913      4.29824466       0.0749575838     -84.7940081      0.0749575838     -84.7940081      0.995999913      4.29824466       
56.5             0.996070267      4.24939906       0.0741074368     -84.8377137      0.0741074368     -84.8377137      0.996070267      4.24939906       
57               0.996138607      4.20130628       0.073270344      -84.8804561      0.073270344      -84.8804561      0.996138607      4.20130628       
57.5             0.996205         4.15394691       0.0724459705     -84.9222526      0.0724459705     -84.9222526      0.996205         4.15394691       
58               0.99626951       4.10730222       0.0716339931     -84.9631201      0.0716339931     -84.9631201      0.99626951       4.10730222       
58.5             0.996332196      4.06135411       0.0708340993     -85.0030746      0.0708340993     -85.0030746      0.996332196      4.06135411       
59               0.996393118      4.01608507       0.0700459869     -85.0421313      0.0700459869     -85.0421313      0.996393118      4.01608507       
59.5             0.99645233       3.97147818       0.0692693638     -85.0803049      0.0692693638     -85.0803049      0.99645233       3.97147818       
60               0.996509886      3.92751708       0.0685039474     -85.1176095      0.0685039474     -85.1176095      0.996509886      3.92751708       
60.5             0.996565838      3.88418594       0.0677494643     -85.1540584      0.0677494643     -85.1540584      0.996565838      3.88418594       
61               0.996620234      3.84146945       0.0670056498     -85.1896645      0.0670056498     -85.1896645      0.996620234      3.84146945       
61.5             0.996673123      3.79935277       0.0662722479     -85.2244398      0.0662722479     -85.2244398      0.996673123      3.79935277       
62               0.996724549      3.75782155       0.0655490104     -85.2583962      0.0655490104     -85.2583962      0.996724549      3.75782155       
62.5             0.996774556      3.7168619        0.0648356972     -85.2915446      0.0648356972     -85.2915446      0.996774556      3.7168619        
63               0.996823186      3.67646036       0.0641320756     -85.3238957      0.0641320756     -85.3238957      0.996823186      3.67646036       
63.5             0.99687048       3.63660387       0.0634379199     -85.3554595      0.0634379199     -85.3554595      0.99687048       3.63660387       
64               0.996916476      3.5972798        0.0627530118     -85.3862456      0.0627530118     -85.3862456      0.996916476      3.5972798        
64.5             0.996961212      3.55847589       0.0620771391     -85.4162631      0.0620771391     -85.4162631      0.996961212      3.55847589       
