! Coilcraft 0402CS-68N Chip Inductor				
! 22 July 2002			
# MHZ S MA R 50
!Freq             MagS11           AngS11           MagS21           AngS21           MagS12           AngS12           MagS22           AngS22
1                0.00513223505    55.8655563       0.997129164      -0.244097971     0.997129164      -0.244097971     0.00513223505    55.8655563       
10.97            0.0472562518     76.4196877       0.989970126      -2.65950428      0.989970126      -2.65950428      0.0472562518     76.4196877       
20.94            0.0888744323     77.0472826       0.98389878       -5.05031059      0.98389878       -5.05031059      0.0888744323     77.0472826       
30.91            0.129865442      76.0869567       0.976940631      -7.41358889      0.976940631      -7.41358889      0.129865442      76.0869567       
40.88            0.170070544      74.6079641       0.968835913      -9.74391698      0.968835913      -9.74391698      0.170070544      74.6079641       
50.85            0.209336636      72.9025183       0.959548118      -12.0356483      0.959548118      -12.0356483      0.209336636      72.9025183       
60.82            0.247525456      71.089834        0.949120719      -14.2834357      0.949120719      -14.2834357      0.247525456      71.089834        
70.79            0.284517942      69.2301285       0.937636179      -16.482456       0.937636179      -16.482456       0.284517942      69.2301285       
80.76            0.320216338      67.3581876       0.925198255      -18.6285248      0.925198255      -18.6285248      0.320216338      67.3581876       
90.73            0.354544847      65.4959655       0.911922096      -20.7181496      0.911922096      -20.7181496      0.354544847      65.4959655       
100.7            0.387449232      63.6581329       0.897927722      -22.7485437      0.897927722      -22.7485437      0.387449232      63.6581329       
110.67           0.418895648      61.8548266       0.883335359      -24.7176122      0.883335359      -24.7176122      0.418895648      61.8548266       
120.64           0.448868918      60.0931466       0.868262008      -26.6239164      0.868262008      -26.6239164      0.448868918      60.0931466       
130.61           0.477370458      58.3780415       0.852818948      -28.4666242      0.852818948      -28.4666242      0.477370458      58.3780415       
140.58           0.504416019      56.7128699       0.837109984      -30.2454514      0.837109984      -30.2454514      0.504416019      56.7128699       
150.55           0.530033385      55.099781        0.82123032       -31.9605973      0.82123032       -31.9605973      0.530033385      55.099781        
160.52           0.554260125      53.5399864       0.805265937      -33.6126793      0.805265937      -33.6126793      0.554260125      53.5399864       
170.49           0.577141489      52.0339637       0.789293383      -35.2026682      0.789293383      -35.2026682      0.577141489      52.0339637       
180.46           0.598728492      50.5816139       0.773379873      -36.7318269      0.773379873      -36.7318269      0.598728492      50.5816139       
190.43           0.619076216      49.1823867       0.757583633      -38.2016534      0.757583633      -38.2016534      0.619076216      49.1823867       
200.4            0.638242341      47.8353807       0.741954405      -39.6138292      0.741954405      -39.6138292      0.638242341      47.8353807       
210.37           0.656285906      46.5394262       0.726534068      -40.970173       0.726534068      -40.970173       0.656285906      46.5394262       
220.34           0.67326628       45.2931522       0.711357315      -42.2726007      0.711357315      -42.2726007      0.67326628       45.2931522       
230.31           0.689242333      44.0950415       0.696452358      -43.5230906      0.696452358      -43.5230906      0.689242333      44.0950415       
240.28           0.704271786      42.9434762       0.681841633      -44.7236541      0.681841633      -44.7236541      0.704271786      42.9434762       
250.25           0.718410707      41.8367738       0.667542472      -45.8763116      0.667542472      -45.8763116      0.718410707      41.8367738       
260.22           0.731713146      40.7732177       0.653567747      -46.9830718      0.653567747      -46.9830718      0.731713146      40.7732177       
270.19           0.744230874      39.7510806       0.63992647       -48.0459157      0.63992647       -48.0459157      0.744230874      39.7510806       
280.16           0.756013215      38.7686438       0.62662433       -49.0667841      0.62662433       -49.0667841      0.756013215      38.7686438       
290.13           0.767106956      37.8242118       0.61366419       -50.0475672      0.61366419       -50.0475672      0.767106956      37.8242118       
300.1            0.777556307      36.9161241       0.601046526      -50.9900976      0.601046526      -50.9900976      0.777556307      36.9161241       
310.07           0.787402913      36.0427637       0.588769819      -51.8961447      0.588769819      -51.8961447      0.787402913      36.0427637       
320.04           0.796685902      35.2025635       0.576830894      -52.7674111      0.576830894      -52.7674111      0.796685902      35.2025635       
330.01           0.805441954      34.3940107       0.565225226      -53.6055307      0.565225226      -53.6055307      0.805441954      34.3940107       
339.98           0.813705393      33.6156498       0.553947196      -54.4120675      0.553947196      -54.4120675      0.813705393      33.6156498       
349.95           0.821508288      32.8660845       0.542990316      -55.1885154      0.542990316      -55.1885154      0.821508288      32.8660845       
359.92           0.82888057       32.1439779       0.532347422      -55.9362992      0.532347422      -55.9362992      0.82888057       32.1439779       
369.89           0.835850142      31.4480528       0.52201084       -56.6567757      0.52201084       -56.6567757      0.835850142      31.4480528       
379.86           0.842442998      30.7770908       0.511972521      -57.3512354      0.511972521      -57.3512354      0.842442998      30.7770908       
389.83           0.848683342      30.1299313       0.502224163      -58.0209045      0.502224163      -58.0209045      0.848683342      30.1299313       
399.8            0.854593699      29.50547         0.492757305      -58.6669471      0.492757305      -58.6669471      0.854593699      29.50547         
409.77           0.860195025      28.9026569       0.483563416      -59.2904679      0.483563416      -59.2904679      0.860195025      28.9026569       
419.74           0.865506816      28.3204945       0.474633953      -59.8925143      0.474633953      -59.8925143      0.865506816      28.3204945       
429.71           0.870547206      27.7580357       0.465960428      -60.4740793      0.465960428      -60.4740793      0.870547206      27.7580357       
439.68           0.875333065      27.2143816       0.457534442      -61.0361039      0.457534442      -61.0361039      0.875333065      27.2143816       
449.65           0.879880086      26.6886796       0.449347732      -61.5794798      0.449347732      -61.5794798      0.879880086      26.6886796       
459.62           0.884202872      26.1801207       0.441392192      -62.1050514      0.441392192      -62.1050514      0.884202872      26.1801207       
469.59           0.888315015      25.6879379       0.433659899      -62.6136191      0.433659899      -62.6136191      0.888315015      25.6879379       
479.56           0.892229169      25.2114039       0.426143131      -63.1059407      0.426143131      -63.1059407      0.892229169      25.2114039       
489.53           0.895957118      24.7498289       0.418834377      -63.5827344      0.418834377      -63.5827344      0.895957118      24.7498289       
499.5            0.899509841      24.3025587       0.411726347      -64.0446808      0.411726347      -64.0446808      0.899509841      24.3025587       
509.47           0.902897572      23.8689732       0.404811978      -64.4924245      0.404811978      -64.4924245      0.902897572      23.8689732       
519.44           0.906129853      23.4484838       0.398084438      -64.9265768      0.398084438      -64.9265768      0.906129853      23.4484838       
529.41           0.909215586      23.0405325       0.391537123      -65.3477172      0.391537123      -65.3477172      0.909215586      23.0405325       
539.38           0.912163082      22.6445894       0.385163663      -65.7563951      0.385163663      -65.7563951      0.912163082      22.6445894       
549.35           0.914980098      22.260152        0.37895791       -66.1531317      0.37895791       -66.1531317      0.914980098      22.260152        
559.32           0.917673885      21.8867429       0.372913946      -66.5384217      0.372913946      -66.5384217      0.917673885      21.8867429       
569.29           0.920251221      21.523909        0.367026068      -66.9127343      0.367026068      -66.9127343      0.920251221      21.523909        
579.26           0.922718444      21.1712198       0.361288791      -67.2765153      0.361288791      -67.2765153      0.922718444      21.1712198       
589.23           0.925081488      20.8282661       0.355696837      -67.630188       0.355696837      -67.630188       0.925081488      20.8282661       
599.2            0.927345908      20.4946593       0.350245133      -67.9741545      0.350245133      -67.9741545      0.927345908      20.4946593       
609.17           0.929516909      20.1700296       0.344928801      -68.3087972      0.344928801      -68.3087972      0.929516909      20.1700296       
619.14           0.93159937       19.8540253       0.339743156      -68.6344794      0.339743156      -68.6344794      0.93159937       19.8540253       
629.11           0.933597868      19.5463118       0.334683696      -68.9515469      0.334683696      -68.9515469      0.933597868      19.5463118       
639.08           0.935516698      19.2465706       0.329746095      -69.2603287      0.329746095      -69.2603287      0.935516698      19.2465706       
649.05           0.937359895      18.9544983       0.3249262        -69.5611378      0.3249262        -69.5611378      0.937359895      18.9544983       
659.02           0.939131248      18.6698062       0.320220021      -69.8542725      0.320220021      -69.8542725      0.939131248      18.6698062       
668.99           0.94083432       18.3922188       0.315623728      -70.1400168      0.315623728      -70.1400168      0.94083432       18.3922188       
678.96           0.942472463      18.1214737       0.31113364       -70.4186415      0.31113364       -70.4186415      0.942472463      18.1214737       
688.93           0.944048832      17.8573205       0.306746225      -70.6904047      0.306746225      -70.6904047      0.944048832      17.8573205       
698.9            0.945566397      17.5995205       0.302458088      -70.9555525      0.302458088      -70.9555525      0.945566397      17.5995205       
708.87           0.947027957      17.3478457       0.29826597       -71.2143199      0.29826597       -71.2143199      0.947027957      17.3478457       
718.84           0.948436151      17.1020784       0.294166738      -71.4669309      0.294166738      -71.4669309      0.948436151      17.1020784       
728.81           0.949793468      16.8620108       0.290157386      -71.7135999      0.290157386      -71.7135999      0.949793468      16.8620108       
738.78           0.951102258      16.6274443       0.286235022      -71.9545311      0.286235022      -71.9545311      0.951102258      16.6274443       
748.75           0.952364738      16.3981889       0.282396869      -72.1899201      0.282396869      -72.1899201      0.952364738      16.3981889       
758.72           0.953583005      16.1740632       0.278640258      -72.4199536      0.278640258      -72.4199536      0.953583005      16.1740632       
768.69           0.954759039      15.9548933       0.274962622      -72.6448104      0.274962622      -72.6448104      0.954759039      15.9548933       
778.66           0.955894715      15.7405132       0.271361493      -72.8646613      0.271361493      -72.8646613      0.955894715      15.7405132       
788.63           0.956991805      15.5307636       0.267834501      -73.0796699      0.267834501      -73.0796699      0.956991805      15.5307636       
798.6            0.958051987      15.3254922       0.264379362      -73.2899928      0.264379362      -73.2899928      0.958051987      15.3254922       
808.57           0.959076853      15.124553        0.260993882      -73.49578        0.260993882      -73.49578        0.959076853      15.124553        
818.54           0.960067908      14.927806        0.25767595       -73.6971752      0.25767595       -73.6971752      0.960067908      14.927806        
828.51           0.96102658       14.7351171       0.254423532      -73.8943161      0.254423532      -73.8943161      0.96102658       14.7351171       
838.48           0.961954226      14.5463576       0.251234673      -74.0873348      0.251234673      -74.0873348      0.961954226      14.5463576       
848.45           0.962852131      14.361404        0.248107488      -74.2763578      0.248107488      -74.2763578      0.962852131      14.361404        
858.42           0.963721517      14.1801379       0.245040165      -74.4615066      0.245040165      -74.4615066      0.963721517      14.1801379       
868.39           0.964563542      14.0024455       0.242030955      -74.6428979      0.242030955      -74.6428979      0.964563542      14.0024455       
878.36           0.96537931       13.8282176       0.239078176      -74.8206435      0.239078176      -74.8206435      0.96537931       13.8282176       
888.33           0.966169869      13.6573492       0.236180206      -74.994851       0.236180206      -74.994851       0.966169869      13.6573492       
898.3            0.966936215      13.4897394       0.233335481      -75.1656235      0.233335481      -75.1656235      0.966936215      13.4897394       
908.27           0.967679298      13.3252913       0.230542494      -75.3330602      0.230542494      -75.3330602      0.967679298      13.3252913       
918.24           0.968400021      13.1639115       0.227799792      -75.4972566      0.227799792      -75.4972566      0.968400021      13.1639115       
928.21           0.969099243      13.0055104       0.225105974      -75.6583044      0.225105974      -75.6583044      0.969099243      13.0055104       
938.18           0.969777785      12.8500016       0.222459686      -75.8162916      0.222459686      -75.8162916      0.969777785      12.8500016       
948.15           0.970436428      12.697302        0.219859623      -75.9713032      0.219859623      -75.9713032      0.970436428      12.697302        
958.12           0.971075917      12.5473315       0.217304527      -76.1234208      0.217304527      -76.1234208      0.971075917      12.5473315       
968.09           0.971696963      12.4000132       0.21479318       -76.2727229      0.21479318       -76.2727229      0.971696963      12.4000132       
978.06           0.972300245      12.2552726       0.21232441       -76.4192853      0.21232441       -76.4192853      0.972300245      12.2552726       
988.03           0.972886409      12.1130381       0.209897081      -76.5631808      0.209897081      -76.5631808      0.972886409      12.1130381       
998              0.973456076      11.9732409       0.207510098      -76.7044797      0.207510098      -76.7044797      0.973456076      11.9732409       
1007.97          0.974009836      11.8358143       0.205162402      -76.8432495      0.205162402      -76.8432495      0.974009836      11.8358143       
1017.94          0.974548254      11.7006941       0.20285297       -76.9795555      0.20285297       -76.9795555      0.974548254      11.7006941       
1027.91          0.97507187       11.5678184       0.200580812      -77.1134605      0.200580812      -77.1134605      0.97507187       11.5678184       
1037.88          0.975581202      11.4371274       0.198344973      -77.2450252      0.198344973      -77.2450252      0.975581202      11.4371274       
1047.85          0.976076743      11.3085633       0.196144527      -77.374308       0.196144527      -77.374308       0.976076743      11.3085633       
1057.82          0.976558968      11.1820704       0.193978579      -77.5013653      0.193978579      -77.5013653      0.976558968      11.1820704       
1067.79          0.977028329      11.0575948       0.191846263      -77.6262517      0.191846263      -77.6262517      0.977028329      11.0575948       
1077.76          0.977485261      10.9350845       0.18974674       -77.7490195      0.18974674       -77.7490195      0.977485261      10.9350845       
1087.73          0.97793018       10.8144892       0.187679201      -77.8697195      0.187679201      -77.8697195      0.97793018       10.8144892       
1097.7           0.978363485      10.6957603       0.185642859      -77.9884007      0.185642859      -77.9884007      0.978363485      10.6957603       
1107.67          0.978785558      10.5788507       0.183636953      -78.1051104      0.183636953      -78.1051104      0.978785558      10.5788507       
1117.64          0.979196766      10.4637151       0.181660747      -78.2198942      0.181660747      -78.2198942      0.979196766      10.4637151       
1127.61          0.979597462      10.3503093       0.179713526      -78.3327964      0.179713526      -78.3327964      0.979597462      10.3503093       
1137.58          0.979987982      10.2385909       0.1777946        -78.4438594      0.1777946        -78.4438594      0.979987982      10.2385909       
1147.55          0.980368651      10.1285186       0.175903298      -78.5531246      0.175903298      -78.5531246      0.980368651      10.1285186       
1157.52          0.980739782      10.0200525       0.174038968      -78.6606318      0.174038968      -78.6606318      0.980739782      10.0200525       
1167.49          0.981101672      9.9131539        0.172200983      -78.7664194      0.172200983      -78.7664194      0.981101672      9.9131539        
1177.46          0.98145461       9.80778547       0.170388729      -78.8705248      0.170388729      -78.8705248      0.98145461       9.80778547       
1187.43          0.981798872      9.70391092       0.168601614      -78.9729838      0.168601614      -78.9729838      0.981798872      9.70391092       
1197.4           0.982134724      9.6014951        0.166839064      -79.0738314      0.166839064      -79.0738314      0.982134724      9.6014951        
1207.37          0.982462421      9.50050394       0.165100519      -79.1731013      0.165100519      -79.1731013      0.982462421      9.50050394       
1217.34          0.98278221       9.40090443       0.163385438      -79.2708259      0.163385438      -79.2708259      0.98278221       9.40090443       
1227.31          0.983094328      9.30266452       0.161693295      -79.3670369      0.161693295      -79.3670369      0.983094328      9.30266452       
1237.28          0.983399001      9.20575317       0.16002358       -79.4617647      0.16002358       -79.4617647      0.983399001      9.20575317       
1247.25          0.98369645       9.11014024       0.158375795      -79.5550388      0.158375795      -79.5550388      0.98369645       9.11014024       
1257.22          0.983986886      9.01579647       0.15674946       -79.6468878      0.15674946       -79.6468878      0.983986886      9.01579647       
1267.19          0.984270512      8.92269349       0.155144107      -79.7373393      0.155144107      -79.7373393      0.984270512      8.92269349       
