! Coilcraft 0402CS-2N0 Chip Inductor				
! 29 May 2002			
# MHZ S MA R 50
!Freq             MagS11           AngS11           MagS21           AngS21           MagS12           AngS12           MagS22           AngS22
1                0.000165028903   49.5791052       0.999893004      -0.00719922965   0.999893004      -0.00719922965   0.000165028903   49.5791051       
46.13            0.00582535663    83.6521803       0.999372697      -0.331932101     0.999372697      -0.331932101     0.00582535663    83.6521803       
91.26            0.0114894305     85.0988994       0.999083972      -0.656504651     0.999083972      -0.656504651     0.0114894305     85.0988994       
136.39           0.0171514544     85.5595838       0.998818483      -0.980963138     0.998818483      -0.980963138     0.0171514544     85.5595838       
181.52           0.0228112714     85.7025896       0.998549794      -1.30532074      0.998549794      -1.30532074      0.0228112714     85.7025896       
226.65           0.0284687361     85.6967823       0.99826759       -1.62958254      0.99826759       -1.62958254      0.0284687361     85.6967823       
271.78           0.0341236729     85.6073515       0.997966576      -1.95375001      0.997966576      -1.95375001      0.0341236729     85.6073515       
316.91           0.039775882      85.4654746       0.997643611      -2.27782263      0.997643611      -2.27782263      0.039775882      85.4654746       
362.04           0.0454251474     85.2881799       0.99729666       -2.60179863      0.99729666       -2.60179863      0.0454251474     85.2881799       
407.17           0.0510712407     85.0856572       0.99692432       -2.92567538      0.99692432       -2.92567538      0.0510712407     85.0856572       
452.3            0.0567139252     84.8644263       0.996525582      -3.2494497       0.996525582      -3.2494497       0.0567139252     84.8644263       
497.43           0.0623529574     84.6288783       0.996099696      -3.57311795      0.996099696      -3.57311795      0.0623529574     84.6288783       
542.56           0.0679880892     84.3820939       0.995646091      -3.89667616      0.995646091      -3.89667616      0.0679880892     84.3820939       
587.69           0.0736190688     84.1263067       0.995164324      -4.2201201       0.995164324      -4.2201201       0.0736190688     84.1263067       
632.82           0.0792456413     83.8631814       0.994654048      -4.54344535      0.994654048      -4.54344535      0.0792456413     83.8631814       
677.95           0.0848675499     83.5939879       0.994114989      -4.86664729      0.994114989      -4.86664729      0.0848675499     83.5939879       
723.08           0.0904845362     83.3197141       0.993546929      -5.1897212       0.993546929      -5.1897212       0.0904845362     83.3197141       
768.21           0.0960963403     83.0411423       0.992949694      -5.51266223      0.992949694      -5.51266223      0.0960963403     83.0411423       
813.34           0.101702702      82.7589008       0.99232315       -5.83546544      0.99232315       -5.83546544      0.101702702      82.7589008       
858.47           0.107303359      82.4735015       0.991667188      -6.1581258       0.991667188      -6.1581258       0.107303359      82.4735015       
903.6            0.112898051      82.1853663       0.990981729      -6.48063823      0.990981729      -6.48063823      0.112898051      82.1853663       
948.73           0.118486517      81.8948465       0.990266712      -6.8029976       0.990266712      -6.8029976       0.118486517      81.8948465       
993.86           0.124068493      81.6022377       0.989522095      -7.1251987       0.989522095      -7.1251987       0.124068493      81.6022377       
1038.99          0.129643719      81.3077906       0.988747851      -7.44723631      0.988747851      -7.44723631      0.129643719      81.3077906       
1084.12          0.135211935      81.0117196       0.98794397       -7.76910518      0.98794397       -7.76910518      0.135211935      81.0117196       
1129.25          0.140772878      80.7142096       0.987110451      -8.0908          0.987110451      -8.0908          0.140772878      80.7142096       
1174.38          0.14632629       80.4154209       0.986247304      -8.41231547      0.986247304      -8.41231547      0.14632629       80.4154209       
1219.51          0.151871911      80.1154935       0.98535455       -8.73364624      0.98535455       -8.73364624      0.151871911      80.1154935       
1264.64          0.157409482      79.8145502       0.98443222       -9.05478697      0.98443222       -9.05478697      0.157409482      79.8145502       
1309.77          0.162938746      79.5126996       0.983480351      -9.3757323       0.983480351      -9.3757323       0.162938746      79.5126996       
1354.9           0.168459446      79.210038        0.982498988      -9.69647685      0.982498988      -9.69647685      0.168459446      79.210038        
1400.03          0.173971326      78.9066513       0.981488184      -10.0170152      0.981488184      -10.0170152      0.173971326      78.9066513       
1445.16          0.179474132      78.6026166       0.980447997      -10.3373421      0.980447997      -10.3373421      0.179474132      78.6026166       
1490.29          0.18496761       78.2980031       0.979378491      -10.657452       0.979378491      -10.657452       0.18496761       78.2980031       
1535.42          0.190451509      77.9928733       0.978279737      -10.9773396      0.978279737      -10.9773396      0.190451509      77.9928733       
1580.55          0.195925576      77.6872842       0.977151811      -11.2969995      0.977151811      -11.2969995      0.195925576      77.6872842       
1625.68          0.201389562      77.3812872       0.975994794      -11.6164262      0.975994794      -11.6164262      0.201389562      77.3812872       
1670.81          0.20684322       77.0749298       0.97480877       -11.9356145      0.97480877       -11.9356145      0.20684322       77.0749298       
1715.94          0.212286303      76.7682551       0.973593829      -12.254559       0.973593829      -12.254559       0.212286303      76.7682551       
1761.07          0.217718564      76.4613029       0.972350067      -12.5732542      0.972350067      -12.5732542      0.217718564      76.4613029       
1806.2           0.223139762      76.15411         0.971077581      -12.8916948      0.971077581      -12.8916948      0.223139762      76.15411         
1851.33          0.228549652      75.8467103       0.969776474      -13.2098754      0.969776474      -13.2098754      0.228549652      75.8467103       
1896.46          0.233947996      75.5391354       0.968446852      -13.5277907      0.968446852      -13.5277907      0.233947996      75.5391354       
1941.59          0.239334555      75.2314146       0.967088825      -13.8454354      0.967088825      -13.8454354      0.239334555      75.2314146       
1986.72          0.24470909       74.9235752       0.965702507      -14.1628042      0.965702507      -14.1628042      0.24470909       74.9235752       
2031.85          0.250071368      74.6156427       0.964288015      -14.4798916      0.964288015      -14.4798916      0.250071368      74.6156427       
2076.98          0.255421154      74.3076413       0.962845469      -14.7966925      0.962845469      -14.7966925      0.255421154      74.3076413       
2122.11          0.260758218      73.9995932       0.961374993      -15.1132016      0.961374993      -15.1132016      0.260758218      73.9995932       
2167.24          0.266082329      73.6915198       0.959876714      -15.4294135      0.959876714      -15.4294135      0.266082329      73.6915198       
2212.37          0.271393259      73.383441        0.958350761      -15.745323       0.958350761      -15.745323       0.271393259      73.383441        
2257.5           0.276690784      73.0753758       0.956797268      -16.0609248      0.956797268      -16.0609248      0.276690784      73.0753758       
2302.63          0.281974678      72.7673419       0.955216369      -16.3762139      0.955216369      -16.3762139      0.281974678      72.7673419       
2347.76          0.287244721      72.4593565       0.953608204      -16.6911849      0.953608204      -16.6911849      0.287244721      72.4593565       
2392.89          0.292500692      72.1514356       0.951972913      -17.0058326      0.951972913      -17.0058326      0.292500692      72.1514356       
2438.02          0.297742374      71.8435947       0.950310641      -17.3201519      0.950310641      -17.3201519      0.297742374      71.8435947       
2483.15          0.302969552      71.5358483       0.948621534      -17.6341377      0.948621534      -17.6341377      0.302969552      71.5358483       
2528.28          0.308182012      71.2282105       0.946905741      -17.9477848      0.946905741      -17.9477848      0.308182012      71.2282105       
2573.41          0.313379543      70.9206948       0.945163413      -18.261088       0.945163413      -18.261088       0.313379543      70.9206948       
2618.54          0.318561935      70.6133139       0.943394705      -18.5740424      0.943394705      -18.5740424      0.318561935      70.6133139       
2663.67          0.323728983      70.3060801       0.941599772      -18.8866428      0.941599772      -18.8866428      0.323728983      70.3060801       
2708.8           0.328880482      69.9990054       0.939778773      -19.1988841      0.939778773      -19.1988841      0.328880482      69.9990054       
2753.93          0.334016229      69.692101        0.937931869      -19.5107615      0.937931869      -19.5107615      0.334016229      69.692101        
2799.06          0.339136025      69.3853781       0.936059222      -19.8222697      0.936059222      -19.8222697      0.339136025      69.3853781       
2844.19          0.344239672      69.078847        0.934160998      -20.1334039      0.934160998      -20.1334039      0.344239672      69.078847        
2889.32          0.349326974      68.7725182       0.932237363      -20.4441592      0.932237363      -20.4441592      0.349326974      68.7725182       
2934.45          0.35439774       68.4664014       0.930288487      -20.7545304      0.930288487      -20.7545304      0.35439774       68.4664014       
2979.58          0.359451778      68.1605061       0.92831454       -21.0645128      0.92831454       -21.0645128      0.359451778      68.1605061       
3024.71          0.364488901      67.8548417       0.926315696      -21.3741015      0.926315696      -21.3741015      0.364488901      67.8548417       
3069.84          0.369508922      67.549417        0.924292129      -21.6832915      0.924292129      -21.6832915      0.369508922      67.549417        
3114.97          0.374511659      67.2442408       0.922244016      -21.992078       0.922244016      -21.992078       0.374511659      67.2442408       
3160.1           0.379496932      66.9393216       0.920171535      -22.3004562      0.920171535      -22.3004562      0.379496932      66.9393216       
3205.23          0.38446456       66.6346674       0.918074866      -22.6084214      0.918074866      -22.6084214      0.38446456       66.6346674       
3250.36          0.38941437       66.3302863       0.915954191      -22.9159686      0.915954191      -22.9159686      0.38941437       66.3302863       
3295.49          0.394346188      66.026186        0.913809693      -23.2230933      0.913809693      -23.2230933      0.394346188      66.026186        
3340.62          0.399259843      65.7223741       0.911641557      -23.5297906      0.911641557      -23.5297906      0.399259843      65.7223741       
3385.75          0.404155167      65.418858        0.909449969      -23.8360558      0.909449969      -23.8360558      0.404155167      65.418858        
3430.88          0.409031994      65.1156447       0.907235117      -24.1418844      0.907235117      -24.1418844      0.409031994      65.1156447       
3476.01          0.413890161      64.8127413       0.904997191      -24.4472715      0.904997191      -24.4472715      0.413890161      64.8127413       
3521.14          0.418729508      64.5101547       0.902736381      -24.7522127      0.902736381      -24.7522127      0.418729508      64.5101547       
3566.27          0.423549878      64.2078915       0.900452879      -25.0567032      0.900452879      -25.0567032      0.423549878      64.2078915       
3611.4           0.428351113      63.9059581       0.898146878      -25.3607386      0.898146878      -25.3607386      0.428351113      63.9059581       
3656.53          0.433133063      63.6043611       0.895818574      -25.6643143      0.895818574      -25.6643143      0.433133063      63.6043611       
3701.66          0.437895576      63.3031065       0.89346816       -25.9674258      0.89346816       -25.9674258      0.437895576      63.3031065       
3746.79          0.442638506      63.0022005       0.891095836      -26.2700685      0.891095836      -26.2700685      0.442638506      63.0022005       
3791.92          0.447361707      62.7016491       0.888701798      -26.572238       0.888701798      -26.572238       0.447361707      62.7016491       
3837.05          0.452065038      62.401458        0.886286245      -26.8739299      0.886286245      -26.8739299      0.452065038      62.401458        
3882.18          0.456748358      62.1016331       0.883849379      -27.1751397      0.883849379      -27.1751397      0.456748358      62.1016331       
3927.31          0.461411531      61.8021798       0.881391399      -27.475863       0.881391399      -27.475863       0.461411531      61.8021798       
3972.44          0.466054422      61.5031037       0.878912508      -27.7760956      0.878912508      -27.7760956      0.466054422      61.5031037       
4017.57          0.4706769        61.2044101       0.87641291       -28.0758329      0.87641291       -28.0758329      0.4706769        61.2044101       
4062.7           0.475278836      60.9061043       0.873892807      -28.3750708      0.873892807      -28.3750708      0.475278836      60.9061043       
4107.83          0.479860103      60.6081916       0.871352404      -28.673805       0.871352404      -28.673805       0.479860103      60.6081916       
4152.96          0.484420578      60.3106769       0.868791907      -28.9720311      0.868791907      -28.9720311      0.484420578      60.3106769       
4198.09          0.488960139      60.0135652       0.866211523      -29.2697449      0.866211523      -29.2697449      0.488960139      60.0135652       
4243.22          0.493478668      59.7168614       0.863611457      -29.5669423      0.863611457      -29.5669423      0.493478668      59.7168614       
4288.35          0.49797605       59.4205703       0.860991918      -29.863619       0.860991918      -29.863619       0.49797605       59.4205703       
4333.48          0.502452171      59.1246965       0.858353114      -30.1597709      0.858353114      -30.1597709      0.502452171      59.1246965       
4378.61          0.50690692       58.8292448       0.855695254      -30.4553939      0.855695254      -30.4553939      0.50690692       58.8292448       
4423.74          0.51134019       58.5342197       0.853018546      -30.7504838      0.853018546      -30.7504838      0.51134019       58.5342197       
4468.87          0.515751876      58.2396255       0.850323201      -31.0450366      0.850323201      -31.0450366      0.515751876      58.2396255       
4514             0.520141875      57.9454667       0.84760943       -31.3390481      0.84760943       -31.3390481      0.520141875      57.9454667       
4559.13          0.524510088      57.6517476       0.844877442      -31.6325145      0.844877442      -31.6325145      0.524510088      57.6517476       
4604.26          0.528856416      57.3584723       0.842127449      -31.9254316      0.842127449      -31.9254316      0.528856416      57.3584723       
4649.39          0.533180765      57.065645        0.839359663      -32.2177954      0.839359663      -32.2177954      0.533180765      57.065645        
4694.52          0.537483043      56.7732698       0.836574295      -32.5096021      0.836574295      -32.5096021      0.537483043      56.7732698       
4739.65          0.541763161      56.4813507       0.833771557      -32.8008477      0.833771557      -32.8008477      0.541763161      56.4813507       
4784.78          0.546021031      56.1898916       0.830951662      -33.0915282      0.830951662      -33.0915282      0.546021031      56.1898916       
4829.91          0.55025657       55.8988964       0.828114823      -33.3816399      0.828114823      -33.3816399      0.55025657       55.8988964       
4875.04          0.554469696      55.6083689       0.825261252      -33.6711787      0.825261252      -33.6711787      0.554469696      55.6083689       
4920.17          0.558660329      55.3183127       0.822391162      -33.960141       0.822391162      -33.960141       0.558660329      55.3183127       
4965.3           0.562828394      55.0287316       0.819504767      -34.2485228      0.819504767      -34.2485228      0.562828394      55.0287316       
5010.43          0.566973815      54.7396292       0.816602278      -34.5363203      0.816602278      -34.5363203      0.566973815      54.7396292       
5055.56          0.571096522      54.4510089       0.813683911      -34.8235299      0.813683911      -34.8235299      0.571096522      54.4510089       
5100.69          0.575196446      54.1628743       0.810749876      -35.1101477      0.810749876      -35.1101477      0.575196446      54.1628743       
5145.82          0.57927352       53.8752288       0.807800389      -35.3961701      0.807800389      -35.3961701      0.57927352       53.8752288       
5190.95          0.583327681      53.5880757       0.804835662      -35.6815932      0.804835662      -35.6815932      0.583327681      53.5880757       
5236.08          0.587358866      53.3014183       0.801855907      -35.9664135      0.801855907      -35.9664135      0.587358866      53.3014183       
5281.21          0.591367018      53.0152599       0.798861338      -36.2506273      0.798861338      -36.2506273      0.591367018      53.0152599       
5326.34          0.595352079      52.7296037       0.795852168      -36.5342309      0.795852168      -36.5342309      0.595352079      52.7296037       
5371.47          0.599313996      52.4444527       0.792828609      -36.8172206      0.792828609      -36.8172206      0.599313996      52.4444527       
5416.6           0.603252717      52.15981         0.789790873      -37.099593       0.789790873      -37.099593       0.603252717      52.15981         
5461.73          0.607168193      51.8756787       0.786739173      -37.3813444      0.786739173      -37.3813444      0.607168193      51.8756787       
5506.86          0.611060378      51.5920617       0.78367372       -37.6624713      0.78367372       -37.6624713      0.611060378      51.5920617       
5551.99          0.614929227      51.3089619       0.780594726      -37.94297        0.780594726      -37.94297        0.614929227      51.3089619       
5597.12          0.618774698      51.0263821       0.777502402      -38.2228371      0.777502402      -38.2228371      0.618774698      51.0263821       
5642.25          0.622596752      50.7443253       0.774396959      -38.5020691      0.774396959      -38.5020691      0.622596752      50.7443253       
5687.38          0.626395351      50.462794        0.771278608      -38.7806625      0.771278608      -38.7806625      0.626395351      50.462794        
5732.51          0.630170462      50.1817911       0.768147558      -39.0586137      0.768147558      -39.0586137      0.630170462      50.1817911       
