! Coilcraft 0402CS-5N1 Chip Inductor				
! 29 May 2002			
# MHZ S MA R 50
!Freq             MagS11           AngS11           MagS21           AngS21           MagS12           AngS12           MagS22           AngS22
1                0.000389175281   55.3887243       0.999778998      -0.0183559428    0.999778998      -0.0183559428    0.000389175281   55.3887243       
33.92            0.0109118457     83.6296176       0.998848145      -0.622071075     0.998848145      -0.622071075     0.0109118457     83.6296176       
66.84            0.0214354129     84.7159851       0.998254168      -1.22517169      0.998254168      -1.22517169      0.0214354129     84.7159851       
99.76            0.031947612      84.8638331       0.997647511      -1.8277225       0.997647511      -1.8277225       0.031947612      84.8638331       
132.68           0.0424461616     84.7088218       0.996982015      -2.42968168      0.996982015      -2.42968168      0.0424461616     84.7088218       
165.6            0.0529286302     84.4121383       0.996239881      -3.03098145      0.996239881      -3.03098145      0.0529286302     84.4121383       
198.52           0.063392463      84.0361368       0.995412226      -3.63154275      0.995412226      -3.63154275      0.063392463      84.0361368       
231.44           0.0738350361     83.6107029       0.994494042      -4.23128067      0.994494042      -4.23128067      0.0738350361     83.6107029       
264.36           0.084253692      83.1522058       0.993482347      -4.830107        0.993482347      -4.830107        0.084253692      83.1522058       
297.28           0.0946457613     82.6704788       0.992375347      -5.42793175      0.992375347      -5.42793175      0.0946457613     82.6704788       
330.2            0.105008579      82.1718464       0.991172015      -6.02466394      0.991172015      -6.02466394      0.105008579      82.1718464       
363.12           0.115339495      81.6605972       0.989871853      -6.62021231      0.989871853      -6.62021231      0.115339495      81.6605972       
396.04           0.125635883      81.1397658       0.988474747      -7.21448568      0.988474747      -7.21448568      0.125635883      81.1397658       
428.96           0.13589515       80.6115759       0.986980879      -7.80739333      0.986980879      -7.80739333      0.13589515       80.6115759       
461.88           0.146114738      80.0777063       0.985390662      -8.39884526      0.985390662      -8.39884526      0.146114738      80.0777063       
494.8            0.156292133      79.5394564       0.983704702      -8.98875235      0.983704702      -8.98875235      0.156292133      79.5394564       
527.72           0.166424866      78.9978551       0.981923766      -9.57702665      0.981923766      -9.57702665      0.166424866      78.9978551       
560.64           0.176510521      78.4537328       0.980048756      -10.1635814      0.980048756      -10.1635814      0.176510521      78.4537328       
593.56           0.186546736      77.9077713       0.978080696      -10.7483313      0.978080696      -10.7483313      0.186546736      77.9077713       
626.48           0.196531206      77.3605394       0.976020716      -11.3311926      0.976020716      -11.3311926      0.196531206      77.3605394       
659.4            0.206461687      76.812518        0.973870038      -11.9120831      0.973870038      -11.9120831      0.206461687      76.812518        
692.32           0.216335998      76.2641187       0.971629971      -12.4909222      0.971629971      -12.4909222      0.216335998      76.2641187       
725.24           0.226152023      75.7156979       0.969301899      -13.0676315      0.969301899      -13.0676315      0.226152023      75.7156979       
758.16           0.235907714      75.1675673       0.966887276      -13.6421341      0.966887276      -13.6421341      0.235907714      75.1675673       
791.08           0.245601093      74.6200018       0.964387619      -14.2143552      0.964387619      -14.2143552      0.245601093      74.6200018       
824              0.255230251      74.0732458       0.9618045        -14.7842221      0.9618045        -14.7842221      0.255230251      74.0732458       
856.92           0.264793352      73.5275183       0.959139544      -15.3516639      0.959139544      -15.3516639      0.264793352      73.5275183       
889.84           0.274288634      72.9830167       0.956394421      -15.9166122      0.956394421      -15.9166122      0.274288634      72.9830167       
922.76           0.283714408      72.4399198       0.953570846      -16.4790004      0.953570846      -16.4790004      0.283714408      72.4399198       
955.68           0.293069062      71.8983906       0.950670566      -17.0387643      0.950670566      -17.0387643      0.293069062      71.8983906       
988.6            0.302351058      71.358578        0.947695367      -17.5958419      0.947695367      -17.5958419      0.302351058      71.358578        
1021.52          0.311558934      70.8206188       0.944647058      -18.1501734      0.944647058      -18.1501734      0.311558934      70.8206188       
1054.44          0.320691304      70.284639        0.941527479      -18.7017014      0.941527479      -18.7017014      0.320691304      70.284639        
1087.36          0.329746858      69.7507548       0.938338488      -19.2503705      0.938338488      -19.2503705      0.329746858      69.7507548       
1120.28          0.338724365      69.2190739       0.935081961      -19.7961278      0.935081961      -19.7961278      0.338724365      69.2190739       
1153.2           0.347622664      68.6896959       0.93175979       -20.3389227      0.93175979       -20.3389227      0.347622664      68.6896959       
1186.12          0.356440675      68.1627134       0.928373879      -20.8787069      0.928373879      -20.8787069      0.356440675      68.1627134       
1219.04          0.365177389      67.6382125       0.924926139      -21.4154343      0.924926139      -21.4154343      0.365177389      67.6382125       
1251.96          0.373831871      67.1162731       0.921418486      -21.9490611      0.921418486      -21.9490611      0.373831871      67.1162731       
1284.88          0.382403262      66.5969696       0.917852838      -22.4795459      0.917852838      -22.4795459      0.382403262      66.5969696       
1317.8           0.390890771      66.080371        0.914231116      -23.0068495      0.914231116      -23.0068495      0.390890771      66.080371        
1350.72          0.399293682      65.5665417       0.910555234      -23.5309349      0.910555234      -23.5309349      0.399293682      65.5665417       
1383.64          0.407611345      65.0555415       0.906827103      -24.0517672      0.906827103      -24.0517672      0.407611345      65.0555415       
1416.56          0.415843183      64.5474257       0.903048625      -24.569314       0.903048625      -24.569314       0.415843183      64.5474257       
1449.48          0.423988682      64.0422458       0.899221693      -25.0835449      0.899221693      -25.0835449      0.423988682      64.0422458       
1482.4           0.432047395      63.5400492       0.895348186      -25.5944316      0.895348186      -25.5944316      0.432047395      63.5400492       
1515.32          0.440018942      63.04088         0.891429971      -26.101948       0.891429971      -26.101948       0.440018942      63.04088         
1548.24          0.447903002      62.5447785       0.887468897      -26.6060699      0.887468897      -26.6060699      0.447903002      62.5447785       
1581.16          0.455699316      62.0517821       0.883466795      -27.1067755      0.883466795      -27.1067755      0.455699316      62.0517821       
1614.08          0.463407687      61.5619247       0.879425478      -27.6040445      0.879425478      -27.6040445      0.463407687      61.5619247       
1647             0.471027972      61.0752374       0.875346736      -28.097859       0.875346736      -28.097859       0.471027972      61.0752374       
1679.92          0.478560087      60.5917484       0.871232338      -28.5882028      0.871232338      -28.5882028      0.478560087      60.5917484       
1712.84          0.486003999      60.1114833       0.867084026      -29.0750616      0.867084026      -29.0750616      0.486003999      60.1114833       
1745.76          0.493359731      59.6344649       0.86290352       -29.5584229      0.86290352       -29.5584229      0.493359731      59.6344649       
1778.68          0.500627354      59.1607135       0.858692512      -30.0382761      0.858692512      -30.0382761      0.500627354      59.1607135       
1811.6           0.507806988      58.6902472       0.854452666      -30.5146122      0.854452666      -30.5146122      0.507806988      58.6902472       
1844.52          0.514898801      58.2230815       0.850185618      -30.987424       0.850185618      -30.987424       0.514898801      58.2230815       
1877.44          0.521903004      57.7592301       0.845892975      -31.4567058      0.845892975      -31.4567058      0.521903004      57.7592301       
1910.36          0.528819854      57.2987041       0.841576315      -31.9224536      0.841576315      -31.9224536      0.528819854      57.2987041       
1943.28          0.535649647      56.841513        0.837237181      -32.384665       0.837237181      -32.384665       0.535649647      56.841513        
1976.2           0.542392719      56.3876641       0.83287709       -32.843339       0.83287709       -32.843339       0.542392719      56.3876641       
2009.12          0.549049444      55.9371631       0.828497524      -33.2984761      0.828497524      -33.2984761      0.549049444      55.9371631       
2042.04          0.555620233      55.4900135       0.824099934      -33.750078       0.824099934      -33.750078       0.555620233      55.4900135       
2074.96          0.562105529      55.0462176       0.819685736      -34.1981482      0.819685736      -34.1981482      0.562105529      55.0462176       
2107.88          0.568505809      54.6057756       0.815256316      -34.642691       0.815256316      -34.642691       0.568505809      54.6057756       
2140.8           0.57482158       54.1686865       0.810813026      -35.0837122      0.810813026      -35.0837122      0.57482158       54.1686865       
2173.72          0.581053379      53.7349477       0.806357183      -35.5212188      0.806357183      -35.5212188      0.581053379      53.7349477       
2206.64          0.58720177       53.304555        0.801890074      -35.9552191      0.801890074      -35.9552191      0.58720177       53.304555        
2239.56          0.593267341      52.8775031       0.797412949      -36.3857221      0.797412949      -36.3857221      0.593267341      52.8775031       
2272.48          0.599250707      52.4537852       0.792927027      -36.8127382      0.792927027      -36.8127382      0.599250707      52.4537852       
2305.4           0.605152505      52.0333934       0.788433493      -37.2362788      0.788433493      -37.2362788      0.605152505      52.0333934       
2338.32          0.610973391      51.6163186       0.783933498      -37.6563561      0.783933498      -37.6563561      0.610973391      51.6163186       
2371.24          0.616714043      51.2025504       0.779428162      -38.0729834      0.779428162      -38.0729834      0.616714043      51.2025504       
2404.16          0.622375157      50.7920776       0.774918571      -38.4861747      0.774918571      -38.4861747      0.622375157      50.7920776       
2437.08          0.627957445      50.3848878       0.770405778      -38.8959451      0.770405778      -38.8959451      0.627957445      50.3848878       
2470             0.633461635      49.9809678       0.765890805      -39.3023102      0.765890805      -39.3023102      0.633461635      49.9809678       
2502.92          0.638888471      49.5803032       0.761374641      -39.7052867      0.761374641      -39.7052867      0.638888471      49.5803032       
2535.84          0.644238707      49.1828791       0.756858245      -40.1048916      0.756858245      -40.1048916      0.644238707      49.1828791       
2568.76          0.649513111      48.7886796       0.752342544      -40.501143       0.752342544      -40.501143       0.649513111      48.7886796       
2601.68          0.654712461      48.3976879       0.747828433      -40.8940594      0.747828433      -40.8940594      0.654712461      48.3976879       
2634.6           0.659837545      48.0098867       0.743316779      -41.2836598      0.743316779      -41.2836598      0.659837545      48.0098867       
2667.52          0.664889158      47.625258        0.738808418      -41.6699642      0.738808418      -41.6699642      0.664889158      47.625258        
2700.44          0.669868105      47.2437829       0.734304157      -42.0529926      0.734304157      -42.0529926      0.669868105      47.2437829       
2733.36          0.674775195      46.8654423       0.729804774      -42.4327658      0.729804774      -42.4327658      0.674775195      46.8654423       
2766.28          0.679611245      46.4902161       0.72531102       -42.809305       0.72531102       -42.809305       0.679611245      46.4902161       
2799.2           0.684377074      46.118084        0.720823616      -43.182632       0.720823616      -43.182632       0.684377074      46.118084        
2832.12          0.689073506      45.7490251       0.716343258      -43.5527686      0.716343258      -43.5527686      0.689073506      45.7490251       
2865.04          0.693701369      45.383018        0.711870613      -43.9197374      0.711870613      -43.9197374      0.693701369      45.383018        
2897.96          0.698261491      45.020041        0.707406323      -44.2835611      0.707406323      -44.2835611      0.698261491      45.020041        
2930.88          0.702754703      44.6600719       0.702951006      -44.6442626      0.702951006      -44.6442626      0.702754703      44.6600719       
2963.8           0.707181836      44.3030881       0.698505253      -45.0018655      0.698505253      -45.0018655      0.707181836      44.3030881       
2996.72          0.711543721      43.9490668       0.694069631      -45.3563932      0.694069631      -45.3563932      0.711543721      43.9490668       
3029.64          0.715841188      43.5979847       0.689644683      -45.7078696      0.689644683      -45.7078696      0.715841188      43.5979847       
3062.56          0.720075066      43.2498186       0.68523093       -46.0563187      0.68523093       -46.0563187      0.720075066      43.2498186       
3095.48          0.724246183      42.9045445       0.680828869      -46.4017648      0.680828869      -46.4017648      0.724246183      42.9045445       
3128.4           0.728355364      42.5621388       0.676438975      -46.7442322      0.676438975      -46.7442322      0.728355364      42.5621388       
3161.32          0.732403429      42.2225772       0.672061702      -47.0837455      0.672061702      -47.0837455      0.732403429      42.2225772       
3194.24          0.736391199      41.8858354       0.667697483      -47.4203293      0.667697483      -47.4203293      0.736391199      41.8858354       
3227.16          0.740319487      41.5518889       0.66334673       -47.7540083      0.66334673       -47.7540083      0.740319487      41.5518889       
3260.08          0.744189104      41.2207133       0.659009836      -48.0848074      0.659009836      -48.0848074      0.744189104      41.2207133       
3293             0.748000855      40.8922838       0.654687174      -48.4127514      0.654687174      -48.4127514      0.748000855      40.8922838       
3325.92          0.751755541      40.5665756       0.650379098      -48.7378652      0.650379098      -48.7378652      0.751755541      40.5665756       
3358.84          0.755453957      40.2435639       0.646085945      -49.0601738      0.646085945      -49.0601738      0.755453957      40.2435639       
3391.76          0.759096892      39.9232237       0.641808033      -49.3797021      0.641808033      -49.3797021      0.759096892      39.9232237       
3424.68          0.762685131      39.6055301       0.637545664      -49.6964751      0.637545664      -49.6964751      0.762685131      39.6055301       
3457.6           0.766219449      39.2904581       0.633299122      -50.0105176      0.633299122      -50.0105176      0.766219449      39.2904581       
3490.52          0.769700617      38.9779826       0.629068676      -50.3218546      0.629068676      -50.3218546      0.769700617      38.9779826       
3523.44          0.773129399      38.6680788       0.624854579      -50.6305109      0.624854579      -50.6305109      0.773129399      38.6680788       
3556.36          0.776506551      38.3607216       0.62065707       -50.9365112      0.62065707       -50.9365112      0.776506551      38.3607216       
3589.28          0.779832824      38.0558861       0.616476371      -51.2398802      0.616476371      -51.2398802      0.779832824      38.0558861       
3622.2           0.783108957      37.7535473       0.612312691      -51.5406426      0.612312691      -51.5406426      0.783108957      37.7535473       
3655.12          0.786335686      37.4536806       0.608166227      -51.8388229      0.608166227      -51.8388229      0.786335686      37.4536806       
3688.04          0.789513738      37.156261        0.60403716       -52.1344454      0.60403716       -52.1344454      0.789513738      37.156261        
3720.96          0.792643831      36.8612639       0.599925661      -52.4275344      0.599925661      -52.4275344      0.792643831      36.8612639       
3753.88          0.795726675      36.5686647       0.595831885      -52.7181142      0.595831885      -52.7181142      0.795726675      36.5686647       
3786.8           0.798762974      36.2784389       0.591755978      -53.0062086      0.591755978      -53.0062086      0.798762974      36.2784389       
3819.72          0.801753421      35.9905621       0.587698074      -53.2918416      0.587698074      -53.2918416      0.801753421      35.9905621       
3852.64          0.804698703      35.70501         0.583658295      -53.575037       0.583658295      -53.575037       0.804698703      35.70501         
3885.56          0.807599498      35.4217584       0.579636754      -53.8558182      0.579636754      -53.8558182      0.807599498      35.4217584       
3918.48          0.810456475      35.1407833       0.575633552      -54.1342086      0.575633552      -54.1342086      0.810456475      35.1407833       
3951.4           0.813270295      34.8620608       0.57164878       -54.4102316      0.57164878       -54.4102316      0.813270295      34.8620608       
3984.32          0.816041611      34.5855672       0.56768252       -54.6839101      0.56768252       -54.6839101      0.816041611      34.5855672       
4017.24          0.818771066      34.3112788       0.563734846      -54.9552669      0.563734846      -54.9552669      0.818771066      34.3112788       
4050.16          0.821459297      34.0391722       0.559805821      -55.2243248      0.559805821      -55.2243248      0.821459297      34.0391722       
4083.08          0.82410693       33.7692241       0.555895501      -55.4911062      0.555895501      -55.4911062      0.82410693       33.7692241       
4116             0.826714584      33.5014114       0.552003933      -55.7556334      0.552003933      -55.7556334      0.826714584      33.5014114       
4148.92          0.829282868      33.2357111       0.548131157      -56.0179285      0.548131157      -56.0179285      0.829282868      33.2357111       
4181.84          0.831812386      32.9721004       0.544277204      -56.2780132      0.544277204      -56.2780132      0.831812386      32.9721004       
