! Coilcraft 0402CS-1N9 Chip Inductor				
! 22 July 2002			
# MHZ S MA R 50
!Freq             MagS11           AngS11           MagS21           AngS21           MagS12           AngS12           MagS22           AngS22
1                0.000169957989   44.6071562       0.999879008      -0.00683917241   0.999879008      -0.00683917241   0.000169957989   44.6071562       
53.87            0.00647092374    82.8805394       0.999218634      -0.36818827      0.999218634      -0.36818827      0.00647092374    82.8805394       
106.74           0.0127727511     84.4997973       0.998856659      -0.729308825     0.998856659      -0.729308825     0.0127727511     84.4997973       
159.61           0.0190714846     85.0184297       0.998524694      -1.09026221      0.998524694      -1.09026221      0.0190714846     85.0184297       
212.48           0.0253669144     85.1817796       0.998189414      -1.45106315      0.998189414      -1.45106315      0.0253669144     85.1817796       
265.35           0.0316587933     85.1785325       0.997837843      -1.81171504      0.997837843      -1.81171504      0.0316587933     85.1785325       
318.22           0.0379468218     85.0816165       0.997463332      -2.17221621      0.997463332      -2.17221621      0.0379468218     85.0816165       
371.09           0.0442306641     84.9259403       0.997061952      -2.53256222      0.997061952      -2.53256222      0.0442306641     84.9259403       
423.96           0.0505099598     84.7305843       0.996631166      -2.89274689      0.996631166      -2.89274689      0.0505099598     84.7305843       
476.83           0.0567843321     84.5069736       0.996169235      -3.25276289      0.996169235      -3.25276289      0.0567843321     84.5069736       
529.7            0.0630533924     84.2624231       0.995674918      -3.6126021       0.995674918      -3.6126021       0.0630533924     84.2624231       
582.57           0.0693167433     84.001863        0.9951473        -3.97225581      0.9951473        -3.97225581      0.0693167433     84.001863        
635.44           0.0755739818     83.7287543       0.994585696      -4.33171485      0.994585696      -4.33171485      0.0755739818     83.7287543       
688.31           0.0818247002     83.4456085       0.993989586      -4.69096972      0.993989586      -4.69096972      0.0818247002     83.4456085       
741.18           0.0880684878     83.1542992       0.993358568      -5.05001069      0.993358568      -5.05001069      0.0880684878     83.1542992       
794.05           0.0943049321     82.8562571       0.992692338      -5.40882779      0.992692338      -5.40882779      0.0943049321     82.8562571       
846.92           0.100533619      82.5525964       0.991990663      -5.76741091      0.991990663      -5.76741091      0.100533619      82.5525964       
899.79           0.106754135      82.2442004       0.991253369      -6.1257498       0.991253369      -6.1257498       0.106754135      82.2442004       
952.66           0.112966064      81.9317801       0.990480332      -6.48383415      0.990480332      -6.48383415      0.112966064      81.9317801       
1005.53          0.119168993      81.6159152       0.989671465      -6.84165354      0.989671465      -6.84165354      0.119168993      81.6159152       
1058.4           0.12536251       81.2970846       0.988826717      -7.19919752      0.988826717      -7.19919752      0.12536251       81.2970846       
1111.27          0.131546201      80.9756881       0.987946064      -7.55645558      0.987946064      -7.55645558      0.131546201      80.9756881       
1164.14          0.137719657      80.6520623       0.987029509      -7.91341721      0.987029509      -7.91341721      0.137719657      80.6520623       
1217.01          0.14388247       80.3264941       0.986077074      -8.27007188      0.986077074      -8.27007188      0.14388247       80.3264941       
1269.88          0.150034231      79.999229        0.985088804      -8.62640905      0.985088804      -8.62640905      0.150034231      79.999229        
1322.75          0.156174539      79.6704797       0.984064759      -8.9824182       0.984064759      -8.9824182       0.156174539      79.6704797       
1375.62          0.16230299       79.3404308       0.983005014      -9.33808882      0.983005014      -9.33808882      0.16230299       79.3404308       
1428.49          0.168419185      79.0092445       0.98190966       -9.69341041      0.98190966       -9.69341041      0.168419185      79.0092445       
1481.36          0.174522729      78.6770634       0.980778801      -10.0483725      0.980778801      -10.0483725      0.174522729      78.6770634       
1534.23          0.180613228      78.344014        0.97961255       -10.4029647      0.97961255       -10.4029647      0.180613228      78.344014        
1587.1           0.186690293      78.0102093       0.978411036      -10.7571767      0.978411036      -10.7571767      0.186690293      78.0102093       
1639.97          0.192753536      77.67575         0.977174393      -11.110998       0.977174393      -11.110998       0.192753536      77.67575         
1692.84          0.198802574      77.3407273       0.97590277       -11.4644184      0.97590277       -11.4644184      0.198802574      77.3407273       
1745.71          0.204837028      77.0052232       0.97459632       -11.8174276      0.97459632       -11.8174276      0.204837028      77.0052232       
1798.58          0.210856522      76.6693124       0.973255208      -12.1700156      0.973255208      -12.1700156      0.210856522      76.6693124       
1851.45          0.216860684      76.3330629       0.971879607      -12.5221721      0.971879607      -12.5221721      0.216860684      76.3330629       
1904.32          0.222849146      75.996537        0.970469695      -12.8738871      0.970469695      -12.8738871      0.222849146      75.996537        
1957.19          0.228821545      75.6597917       0.969025659      -13.2251507      0.969025659      -13.2251507      0.228821545      75.6597917       
2010.06          0.234777519      75.3228798       0.967547694      -13.575953       0.967547694      -13.575953       0.234777519      75.3228798       
2062.93          0.240716714      74.9858499       0.966036         -13.926284       0.966036         -13.926284       0.240716714      74.9858499       
2115.8           0.246638779      74.6487471       0.964490784      -14.2761341      0.964490784      -14.2761341      0.246638779      74.6487471       
2168.67          0.252543367      74.3116135       0.962912259      -14.6254936      0.962912259      -14.6254936      0.252543367      74.3116135       
2221.54          0.258430136      73.9744882       0.961300643      -14.9743529      0.961300643      -14.9743529      0.258430136      73.9744882       
2274.41          0.264298749      73.6374077       0.95965616       -15.3227025      0.95965616       -15.3227025      0.264298749      73.6374077       
2327.28          0.270148872      73.3004064       0.957979041      -15.670533       0.957979041      -15.670533       0.270148872      73.3004064       
2380.15          0.275980179      72.9635166       0.95626952       -16.017835       0.95626952       -16.017835       0.275980179      72.9635166       
2433.02          0.281792344      72.6267685       0.954527836      -16.3645993      0.954527836      -16.3645993      0.281792344      72.6267685       
2485.89          0.287585051      72.2901909       0.952754233      -16.7108167      0.952754233      -16.7108167      0.287585051      72.2901909       
2538.76          0.293357987      71.9538107       0.950948961      -17.0564782      0.950948961      -17.0564782      0.293357987      71.9538107       
2591.63          0.299110842      71.6176538       0.949112272      -17.4015749      0.949112272      -17.4015749      0.299110842      71.6176538       
2644.5           0.304843313      71.2817443       0.947244424      -17.7460978      0.947244424      -17.7460978      0.304843313      71.2817443       
2697.37          0.310555104      70.9461055       0.945345677      -18.0900382      0.945345677      -18.0900382      0.310555104      70.9461055       
2750.24          0.31624592       70.6107593       0.943416297      -18.4333874      0.943416297      -18.4333874      0.31624592       70.6107593       
2803.11          0.321915474      70.2757269       0.941456553      -18.7761369      0.941456553      -18.7761369      0.321915474      70.2757269       
2855.98          0.327563484      69.9410283       0.939466716      -19.1182783      0.939466716      -19.1182783      0.327563484      69.9410283       
2908.85          0.333189672      69.6066826       0.937447062      -19.459803       0.937447062      -19.459803       0.333189672      69.6066826       
2961.72          0.338793767      69.2727082       0.93539787       -19.800703       0.93539787       -19.800703       0.338793767      69.2727082       
3014.59          0.344375503      68.9391227       0.933319422      -20.1409701      0.933319422      -20.1409701      0.344375503      68.9391227       
3067.46          0.349934618      68.6059431       0.931212002      -20.4805961      0.931212002      -20.4805961      0.349934618      68.6059431       
3120.33          0.355470856      68.2731855       0.929075897      -20.8195732      0.929075897      -20.8195732      0.355470856      68.2731855       
3173.2           0.360983969      67.9408655       0.926911399      -21.1578936      0.926911399      -21.1578936      0.360983969      67.9408655       
3226.07          0.36647371       67.6089982       0.924718799      -21.4955495      0.924718799      -21.4955495      0.36647371       67.6089982       
3278.94          0.37193984       67.277598        0.922498392      -21.8325333      0.922498392      -21.8325333      0.37193984       67.277598        
3331.81          0.377382126      66.9466787       0.920250476      -22.1688375      0.920250476      -22.1688375      0.377382126      66.9466787       
3384.68          0.38280034       66.6162539       0.91797535       -22.5044548      0.91797535       -22.5044548      0.38280034       66.6162539       
3437.55          0.388194258      66.2863365       0.915673315      -22.8393777      0.915673315      -22.8393777      0.388194258      66.2863365       
3490.42          0.393563663      65.956939        0.913344675      -23.1735993      0.913344675      -23.1735993      0.393563663      65.956939        
3543.29          0.398908344      65.6280735       0.910989734      -23.5071124      0.910989734      -23.5071124      0.398908344      65.6280735       
3596.16          0.404228094      65.2997517       0.908608798      -23.83991        0.908608798      -23.83991        0.404228094      65.2997517       
3649.03          0.409522711      64.9719849       0.906202176      -24.1719853      0.906202176      -24.1719853      0.409522711      64.9719849       
3701.9           0.414792002      64.644784        0.903770178      -24.5033317      0.903770178      -24.5033317      0.414792002      64.644784        
3754.77          0.420035775      64.3181596       0.901313113      -24.8339424      0.901313113      -24.8339424      0.420035775      64.3181596       
3807.64          0.425253847      63.9921219       0.898831294      -25.163811       0.898831294      -25.163811       0.425253847      63.9921219       
3860.51          0.430446038      63.6666808       0.896325034      -25.4929311      0.896325034      -25.4929311      0.430446038      63.6666808       
3913.38          0.435612175      63.341846        0.893794646      -25.8212964      0.893794646      -25.8212964      0.435612175      63.341846        
3966.25          0.44075209       63.0176267       0.891240446      -26.1489007      0.891240446      -26.1489007      0.44075209       63.0176267       
4019.12          0.44586562       62.694032        0.888662747      -26.4757381      0.888662747      -26.4757381      0.44586562       62.694032        
4071.99          0.450952608      62.3710705       0.886061868      -26.8018024      0.886061868      -26.8018024      0.450952608      62.3710705       
4124.86          0.456012901      62.0487509       0.883438123      -27.1270879      0.883438123      -27.1270879      0.456012901      62.0487509       
4177.73          0.461046353      61.7270812       0.880791831      -27.4515889      0.880791831      -27.4515889      0.461046353      61.7270812       
4230.6           0.466052823      61.4060694       0.878123308      -27.7752997      0.878123308      -27.7752997      0.466052823      61.4060694       
4283.47          0.471032174      61.0857232       0.875432871      -28.0982149      0.875432871      -28.0982149      0.471032174      61.0857232       
4336.34          0.475984275      60.7660501       0.87272084       -28.420329       0.87272084       -28.420329       0.475984275      60.7660501       
4389.21          0.480909002      60.4470574       0.869987531      -28.7416367      0.869987531      -28.7416367      0.480909002      60.4470574       
4442.08          0.485806232      60.128752        0.867233261      -29.0621329      0.867233261      -29.0621329      0.485806232      60.128752        
4494.95          0.490675852      59.8111408       0.864458349      -29.3818124      0.864458349      -29.3818124      0.490675852      59.8111408       
4547.82          0.49551775       59.4942303       0.861663112      -29.7006703      0.861663112      -29.7006703      0.49551775       59.4942303       
4600.69          0.500331821      59.1780269       0.858847867      -30.0187018      0.858847867      -30.0187018      0.500331821      59.1780269       
4653.56          0.505117965      58.8625369       0.85601293       -30.335902       0.85601293       -30.335902       0.505117965      58.8625369       
4706.43          0.509876087      58.5477661       0.853158618      -30.6522664      0.853158618      -30.6522664      0.509876087      58.5477661       
4759.3           0.514606096      58.2337205       0.850285246      -30.9677903      0.850285246      -30.9677903      0.514606096      58.2337205       
4812.17          0.519307907      57.9204055       0.84739313       -31.2824693      0.84739313       -31.2824693      0.519307907      57.9204055       
4865.04          0.523981439      57.6078267       0.844482583      -31.596299       0.844482583      -31.596299       0.523981439      57.6078267       
4917.91          0.528626615      57.2959893       0.841553918      -31.9092753      0.841553918      -31.9092753      0.528626615      57.2959893       
4970.78          0.533243366      56.9848984       0.83860745       -32.2213939      0.83860745       -32.2213939      0.533243366      56.9848984       
5023.65          0.537831624      56.6745588       0.835643489      -32.5326508      0.835643489      -32.5326508      0.537831624      56.6745588       
5076.52          0.542391327      56.3649754       0.832662346      -32.843042       0.832662346      -32.843042       0.542391327      56.3649754       
5129.39          0.546922419      56.0561526       0.82966433       -33.1525637      0.82966433       -33.1525637      0.546922419      56.0561526       
5182.26          0.551424846      55.748095        0.826649751      -33.4612122      0.826649751      -33.4612122      0.551424846      55.748095        
5235.13          0.55589856       55.4408068       0.823618916      -33.7689836      0.823618916      -33.7689836      0.55589856       55.4408068       
5288             0.560343516      55.1342921       0.82057213       -34.0758746      0.82057213       -34.0758746      0.560343516      55.1342921       
5340.87          0.564759677      54.8285549       0.817509699      -34.3818816      0.817509699      -34.3818816      0.564759677      54.8285549       
5393.74          0.569147005      54.5235989       0.814431926      -34.6870012      0.814431926      -34.6870012      0.569147005      54.5235989       
5446.61          0.573505471      54.2194279       0.811339113      -34.9912301      0.811339113      -34.9912301      0.573505471      54.2194279       
5499.48          0.577835046      53.9160454       0.808231561      -35.2945651      0.808231561      -35.2945651      0.577835046      53.9160454       
5552.35          0.58213571       53.6134548       0.805109569      -35.5970031      0.805109569      -35.5970031      0.58213571       53.6134548       
5605.22          0.586407442      53.3116593       0.801973433      -35.898541       0.801973433      -35.898541       0.586407442      53.3116593       
5658.09          0.590650228      53.0106622       0.798823451      -36.1991759      0.798823451      -36.1991759      0.590650228      53.0106622       
5710.96          0.594864058      52.7104663       0.795659915      -36.498905       0.795659915      -36.498905       0.594864058      52.7104663       
5763.83          0.599048924      52.4110745       0.792483119      -36.7977254      0.792483119      -36.7977254      0.599048924      52.4110745       
5816.7           0.603204824      52.1124896       0.789293353      -37.0956344      0.789293353      -37.0956344      0.603204824      52.1124896       
5869.57          0.607331759      51.8147142       0.786090906      -37.3926294      0.786090906      -37.3926294      0.607331759      51.8147142       
5922.44          0.611429732      51.5177508       0.782876065      -37.6887079      0.782876065      -37.6887079      0.611429732      51.5177508       
5975.31          0.615498752      51.2216018       0.779649115      -37.9838674      0.779649115      -37.9838674      0.615498752      51.2216018       
6028.18          0.619538831      50.9262695       0.776410339      -38.2781055      0.776410339      -38.2781055      0.619538831      50.9262695       
6081.05          0.623549984      50.6317559       0.773160019      -38.5714199      0.773160019      -38.5714199      0.623549984      50.6317559       
6133.92          0.627532229      50.3380632       0.769898433      -38.8638084      0.769898433      -38.8638084      0.627532229      50.3380632       
6186.79          0.631485589      50.0451933       0.766625859      -39.1552687      0.766625859      -39.1552687      0.631485589      50.0451933       
6239.66          0.635410088      49.7531479       0.763342571      -39.4457989      0.763342571      -39.4457989      0.635410088      49.7531479       
6292.53          0.639305757      49.4619288       0.760048843      -39.7353967      0.760048843      -39.7353967      0.639305757      49.4619288       
6345.4           0.643172626      49.1715377       0.756744946      -40.0240604      0.756744946      -40.0240604      0.643172626      49.1715377       
6398.27          0.647010731      48.8819759       0.753431149      -40.3117879      0.753431149      -40.3117879      0.647010731      48.8819759       
6451.14          0.650820109      48.593245        0.750107717      -40.5985775      0.750107717      -40.5985775      0.650820109      48.593245        
6504.01          0.654600802      48.3053461       0.746774916      -40.8844273      0.746774916      -40.8844273      0.654600802      48.3053461       
6556.88          0.658352855      48.0182807       0.743433007      -41.1693357      0.743433007      -41.1693357      0.658352855      48.0182807       
6609.75          0.662076313      47.7320497       0.74008225       -41.4533011      0.74008225       -41.4533011      0.662076313      47.7320497       
6662.62          0.665771228      47.4466541       0.736722903      -41.7363217      0.736722903      -41.7363217      0.665771228      47.4466541       
6715.49          0.669437651      47.162095        0.733355221      -42.0183961      0.733355221      -42.0183961      0.669437651      47.162095        
