! Coilcraft 0402CS-11N Chip Inductor				
! 29 May 2002			
# MHZ S MA R 50
!Freq             MagS11           AngS11           MagS21           AngS21           MagS12           AngS12           MagS22           AngS22
1                0.000820573484   57.3021554       0.999556958      -0.0395824591    0.999556958      -0.0395824591    0.000820573484   57.3021554       
22.44            0.0155836822     82.4945316       0.998084037      -0.886964134     0.998084037      -0.886964134     0.0155836822     82.4945316       
43.88            0.0303409441     83.5835165       0.997065233      -1.73286728      0.997065233      -1.73286728      0.0303409441     83.5835165       
65.32            0.0450679953     83.6031929       0.995986322      -2.57733967      0.995986322      -2.57733967      0.0450679953     83.6031929       
86.76            0.0597575989     83.2759301       0.994774939      -3.42019836      0.994774939      -3.42019836      0.0597575989     83.2759301       
108.2            0.0744022482     82.786599        0.993403753      -4.26120444      0.993403753      -4.26120444      0.0744022482     82.786599        
129.64           0.0889942419     82.2070619       0.991859819      -5.10009625      0.991859819      -5.10009625      0.0889942419     82.2070619       
151.08           0.10352582       81.5719139       0.990136587      -5.93660193      0.990136587      -5.93660193      0.10352582       81.5719139       
172.52           0.117989253      80.9002023       0.988230936      -6.77044559      0.988230936      -6.77044559      0.117989253      80.9002023       
193.96           0.132376911      80.2034449       0.986141834      -7.60135103      0.986141834      -7.60135103      0.132376911      80.2034449       
215.4            0.146681303      79.4891113       0.983869655      -8.42904408      0.983869655      -8.42904408      0.146681303      79.4891113       
236.84           0.160895118      78.7623188       0.981415781      -9.25325434      0.981415781      -9.25325434      0.160895118      78.7623188       
258.28           0.175011256      78.0267324       0.978782364      -10.0737165      0.978782364      -10.0737165      0.175011256      78.0267324       
279.72           0.189022847      77.2850755       0.975972164      -10.8901713      0.975972164      -10.8901713      0.189022847      77.2850755       
301.16           0.202923276      76.5394361       0.97298844       -11.7023666      0.97298844       -11.7023666      0.202923276      76.5394361       
322.6            0.216706202      75.7914576       0.969834868      -12.5100578      0.969834868      -12.5100578      0.216706202      75.7914576       
344.04           0.230365566      75.0424636       0.966515474      -13.3130084      0.966515474      -13.3130084      0.230365566      75.0424636       
365.48           0.243895613      74.2935414       0.963034586      -14.1109912      0.963034586      -14.1109912      0.243895613      74.2935414       
386.92           0.257290892      73.545599        0.959396786      -14.9037875      0.959396786      -14.9037875      0.257290892      73.545599        
408.36           0.27054627       72.7994058       0.955606877      -15.6911887      0.955606877      -15.6911887      0.27054627       72.7994058       
429.8            0.283656939      72.0556219       0.951669847      -16.4729958      0.951669847      -16.4729958      0.283656939      72.0556219       
451.24           0.296618414      71.3148193       0.947590837      -17.2490198      0.947590837      -17.2490198      0.296618414      71.3148193       
472.68           0.30942654       70.5774981       0.943375119      -18.019082       0.943375119      -18.019082       0.30942654       70.5774981       
494.12           0.322077492      69.8440982       0.939028065      -18.783014       0.939028065      -18.783014       0.322077492      69.8440982       
515.56           0.334567773      69.1150093       0.934555125      -19.5406578      0.934555125      -19.5406578      0.334567773      69.1150093       
537              0.346894212      68.3905776       0.929961807      -20.2918658      0.929961807      -20.2918658      0.346894212      68.3905776       
558.44           0.359053961      67.671112        0.925253653      -21.0365008      0.925253653      -21.0365008      0.359053961      67.671112        
579.88           0.371044489      66.9568882       0.920436223      -21.7744361      0.920436223      -21.7744361      0.371044489      66.9568882       
601.32           0.382863575      66.2481532       0.915515074      -22.505555       0.915515074      -22.505555       0.382863575      66.2481532       
622.76           0.394509304      65.5451275       0.910495746      -23.229751       0.910495746      -23.229751       0.394509304      65.5451275       
644.2            0.405980057      64.8480086       0.905383744      -23.9469278      0.905383744      -23.9469278      0.405980057      64.8480086       
665.64           0.417274502      64.1569724       0.900184526      -24.6569985      0.900184526      -24.6569985      0.417274502      64.1569724       
687.08           0.428391586      63.4721753       0.894903488      -25.3598861      0.894903488      -25.3598861      0.428391586      63.4721753       
708.52           0.439330523      62.793756        0.889545953      -26.0555227      0.889545953      -26.0555227      0.439330523      62.793756        
729.96           0.450090785      62.1218367       0.88411716       -26.7438497      0.88411716       -26.7438497      0.450090785      62.1218367       
751.4            0.460672091      61.4565243       0.878622253      -27.4248171      0.878622253      -27.4248171      0.460672091      61.4565243       
772.84           0.471074394      60.7979115       0.873066275      -28.0983836      0.873066275      -28.0983836      0.471074394      60.7979115       
794.28           0.481297873      60.1460779       0.867454155      -28.7645161      0.867454155      -28.7645161      0.481297873      60.1460779       
815.72           0.491342917      59.5010907       0.861790706      -29.4231894      0.861790706      -29.4231894      0.491342917      59.5010907       
837.16           0.501210117      58.8630059       0.856080619      -30.0743861      0.856080619      -30.0743861      0.501210117      58.8630059       
858.6            0.510900254      58.2318684       0.850328452      -30.7180957      0.850328452      -30.7180957      0.510900254      58.2318684       
880.04           0.520414283      57.6077134       0.844538634      -31.3543153      0.844538634      -31.3543153      0.520414283      57.6077134       
901.48           0.529753329      56.9905666       0.838715455      -31.983048       0.838715455      -31.983048       0.529753329      56.9905666       
922.92           0.538918668      56.3804449       0.832863067      -32.6043039      0.832863067      -32.6043039      0.538918668      56.3804449       
944.36           0.547911722      55.7773571       0.826985479      -33.2180985      0.826985479      -33.2180985      0.547911722      55.7773571       
965.8            0.556734043      55.1813043       0.821086561      -33.8244534      0.821086561      -33.8244534      0.556734043      55.1813043       
987.24           0.565387307      54.5922806       0.815170035      -34.4233955      0.815170035      -34.4233955      0.565387307      54.5922806       
1008.68          0.573873301      54.0102732       0.809239482      -35.0149568      0.809239482      -35.0149568      0.573873301      54.0102732       
1030.12          0.582193915      53.4352632       0.80329834       -35.5991738      0.80329834       -35.5991738      0.582193915      53.4352632       
1051.56          0.590351128      52.867226        0.797349903      -36.1760878      0.797349903      -36.1760878      0.590351128      52.867226        
1073             0.598347005      52.3061316       0.791397325      -36.7457442      0.791397325      -36.7457442      0.598347005      52.3061316       
1094.44          0.606183683      51.751945        0.785443619      -37.308192       0.785443619      -37.308192       0.606183683      51.751945        
1115.88          0.613863367      51.2046267       0.779491661      -37.8634841      0.779491661      -37.8634841      0.613863367      51.2046267       
1137.32          0.621388317      50.6641329       0.773544191      -38.4116767      0.773544191      -38.4116767      0.621388317      50.6641329       
1158.76          0.628760845      50.1304158       0.767603817      -38.952829       0.767603817      -38.952829       0.628760845      50.1304158       
1180.2           0.635983305      49.6034242       0.761673016      -39.4870029      0.761673016      -39.4870029      0.635983305      49.6034242       
1201.64          0.643058086      49.0831035       0.755754136      -40.0142632      0.755754136      -40.0142632      0.643058086      49.0831035       
1223.08          0.649987609      48.5693961       0.749849403      -40.5346768      0.749849403      -40.5346768      0.649987609      48.5693961       
1244.52          0.656774316      48.0622418       0.74396092       -41.0483128      0.74396092       -41.0483128      0.656774316      48.0622418       
1265.96          0.663420666      47.5615778       0.738090676      -41.5552422      0.738090676      -41.5552422      0.663420666      47.5615778       
1287.4           0.669929134      47.067339        0.732240541      -42.0555378      0.732240541      -42.0555378      0.669929134      47.067339        
1308.84          0.6763022        46.5794586       0.726412278      -42.5492738      0.726412278      -42.5492738      0.6763022        46.5794586       
1330.28          0.682542346      46.0978677       0.720607541      -43.0365257      0.720607541      -43.0365257      0.682542346      46.0978677       
1351.72          0.688652054      45.6224961       0.714827881      -43.5173704      0.714827881      -43.5173704      0.688652054      45.6224961       
1373.16          0.6946338        45.153272        0.70907475       -43.9918856      0.70907475       -43.9918856      0.6946338        45.153272        
1394.6           0.700490051      44.6901226       0.703349503      -44.4601499      0.703349503      -44.4601499      0.700490051      44.6901226       
1416.04          0.706223261      44.232974        0.697653403      -44.9222425      0.697653403      -44.9222425      0.706223261      44.232974        
1437.48          0.71183587       43.7817512       0.691987624      -45.3782434      0.691987624      -45.3782434      0.71183587       43.7817512       
1458.92          0.717330298      43.336379        0.686353254      -45.8282328      0.686353254      -45.8282328      0.717330298      43.336379        
1480.36          0.722708944      42.8967811       0.6807513        -46.2722913      0.6807513        -46.2722913      0.722708944      42.8967811       
1501.8           0.727974185      42.4628811       0.675182689      -46.7104997      0.675182689      -46.7104997      0.727974185      42.4628811       
1523.24          0.733128372      42.0346021       0.669648276      -47.1429388      0.669648276      -47.1429388      0.733128372      42.0346021       
1544.68          0.738173829      41.6118671       0.664148841      -47.5696894      0.664148841      -47.5696894      0.738173829      41.6118671       
1566.12          0.74311285       41.194599        0.658685097      -47.9908324      0.658685097      -47.9908324      0.74311285       41.194599        
1587.56          0.7479477        40.7827207       0.653257692      -48.4064482      0.653257692      -48.4064482      0.7479477        40.7827207       
1609             0.752680612      40.376155        0.64786721       -48.816617       0.64786721       -48.816617       0.752680612      40.376155        
1630.44          0.757313786      39.9748251       0.642514179      -49.2214189      0.642514179      -49.2214189      0.757313786      39.9748251       
1651.88          0.761849388      39.5786545       0.637199067      -49.6209332      0.637199067      -49.6209332      0.761849388      39.5786545       
1673.32          0.76628955       39.1875669       0.631922291      -50.015239       0.631922291      -50.015239       0.76628955       39.1875669       
1694.76          0.770636369      38.8014863       0.626684216      -50.4044147      0.626684216      -50.4044147      0.770636369      38.8014863       
1716.2           0.774891904      38.4203373       0.621485159      -50.7885381      0.621485159      -50.7885381      0.774891904      38.4203373       
1737.64          0.779058181      38.0440451       0.616325391      -51.1676866      0.616325391      -51.1676866      0.779058181      38.0440451       
1759.08          0.783137186      37.6725353       0.61120514       -51.5419366      0.61120514       -51.5419366      0.783137186      37.6725353       
1780.52          0.78713087       37.3057342       0.606124593      -51.911364       0.606124593      -51.911364       0.78713087       37.3057342       
1801.96          0.791041147      36.9435687       0.601083899      -52.2760437      0.601083899      -52.2760437      0.791041147      36.9435687       
1823.4           0.794869893      36.5859663       0.59608317       -52.63605        0.59608317       -52.63605        0.794869893      36.5859663       
1844.84          0.798618947      36.2328555       0.591122483      -52.9914563      0.591122483      -52.9914563      0.798618947      36.2328555       
1866.28          0.802290112      35.8841653       0.586201883      -53.3423351      0.586201883      -53.3423351      0.802290112      35.8841653       
1887.72          0.805885151      35.5398256       0.581321386      -53.6887582      0.581321386      -53.6887582      0.805885151      35.5398256       
1909.16          0.809405795      35.1997672       0.576480977      -54.0307963      0.576480977      -54.0307963      0.809405795      35.1997672       
1930.6           0.812853734      34.8639214       0.571680616      -54.3685193      0.571680616      -54.3685193      0.812853734      34.8639214       
1952.04          0.816230624      34.5322207       0.566920236      -54.7019961      0.566920236      -54.7019961      0.816230624      34.5322207       
1973.48          0.819538086      34.2045983       0.562199748      -55.0312948      0.562199748      -55.0312948      0.819538086      34.2045983       
1994.92          0.822777702      33.8809884       0.557519041      -55.3564823      0.557519041      -55.3564823      0.822777702      33.8809884       
2016.36          0.825951024      33.5613258       0.552877981      -55.6776248      0.552877981      -55.6776248      0.825951024      33.5613258       
2037.8           0.829059565      33.2455466       0.548276417      -55.9947873      0.548276417      -55.9947873      0.829059565      33.2455466       
2059.24          0.832104805      32.9335875       0.543714179      -56.3080341      0.543714179      -56.3080341      0.832104805      32.9335875       
2080.68          0.835088192      32.6253861       0.539191082      -56.6174283      0.539191082      -56.6174283      0.835088192      32.6253861       
2102.12          0.838011139      32.3208813       0.534706923      -56.9230322      0.534706923      -56.9230322      0.838011139      32.3208813       
2123.56          0.840875027      32.0200124       0.530261487      -57.2249069      0.530261487      -57.2249069      0.840875027      32.0200124       
2145             0.843681205      31.72272         0.525854543      -57.5231126      0.525854543      -57.5231126      0.843681205      31.72272         
2166.44          0.84643099       31.4289455       0.52148585       -57.8177088      0.52148585       -57.8177088      0.84643099       31.4289455       
2187.88          0.849125667      31.1386311       0.517155156      -58.1087536      0.517155156      -58.1087536      0.849125667      31.1386311       
2209.32          0.851766494      30.85172         0.512862196      -58.3963045      0.512862196      -58.3963045      0.851766494      30.85172         
2230.76          0.854354696      30.5681565       0.508606698      -58.6804178      0.508606698      -58.6804178      0.854354696      30.5681565       
2252.2           0.856891469      30.2878854       0.50438838       -58.961149       0.50438838       -58.961149       0.856891469      30.2878854       
2273.64          0.859377982      30.0108528       0.500206954      -59.2385525      0.500206954      -59.2385525      0.859377982      30.0108528       
2295.08          0.861815374      29.7370055       0.496062121      -59.512682       0.496062121      -59.512682       0.861815374      29.7370055       
2316.52          0.864204759      29.4662912       0.491953579      -59.7835899      0.491953579      -59.7835899      0.864204759      29.4662912       
2337.96          0.86654722       29.1986585       0.48788102       -60.0513281      0.48788102       -60.0513281      0.86654722       29.1986585       
2359.4           0.868843819      28.9340568       0.483844129      -60.3159473      0.483844129      -60.3159473      0.868843819      28.9340568       
2380.84          0.871095586      28.6724365       0.479842587      -60.5774974      0.479842587      -60.5774974      0.871095586      28.6724365       
2402.28          0.873303532      28.4137488       0.475876071      -60.8360274      0.475876071      -60.8360274      0.873303532      28.4137488       
2423.72          0.875468639      28.1579457       0.471944256      -61.0915854      0.471944256      -61.0915854      0.875468639      28.1579457       
2445.16          0.877591866      27.90498         0.468046812      -61.3442187      0.468046812      -61.3442187      0.877591866      27.90498         
2466.6           0.87967415       27.6548055       0.464183406      -61.5939735      0.464183406      -61.5939735      0.87967415       27.6548055       
2488.04          0.881716403      27.4073766       0.460353705      -61.8408955      0.460353705      -61.8408955      0.881716403      27.4073766       
2509.48          0.883719516      27.1626487       0.456557374      -62.0850293      0.456557374      -62.0850293      0.883719516      27.1626487       
2530.92          0.885684356      26.9205779       0.452794074      -62.3264189      0.452794074      -62.3264189      0.885684356      26.9205779       
2552.36          0.887611772      26.6811209       0.449063467      -62.5651071      0.449063467      -62.5651071      0.887611772      26.6811209       
2573.8           0.889502589      26.4442356       0.445365215      -62.8011364      0.445365215      -62.8011364      0.889502589      26.4442356       
2595.24          0.891357612      26.2098803       0.441698978      -63.0345481      0.441698978      -63.0345481      0.891357612      26.2098803       
2616.68          0.893177629      25.9780141       0.438064417      -63.265383       0.438064417      -63.265383       0.893177629      25.9780141       
2638.12          0.894963406      25.748597        0.434461194      -63.4936809      0.434461194      -63.4936809      0.894963406      25.748597        
2659.56          0.89671569       25.5215895       0.430888968      -63.719481       0.430888968      -63.719481       0.89671569       25.5215895       
2681             0.89843521       25.2969531       0.427347402      -63.9428216      0.427347402      -63.9428216      0.89843521       25.2969531       
2702.44          0.900122678      25.0746497       0.42383616       -64.1637406      0.42383616       -64.1637406      0.900122678      25.0746497       
2723.88          0.901778788      24.8546421       0.420354904      -64.3822748      0.420354904      -64.3822748      0.901778788      24.8546421       
