! Coilcraft 0402CS-2N2 Chip Inductor				
! 29 May 2002			
# MHZ S MA R 50
!Freq             MagS11           AngS11           MagS21           AngS21           MagS12           AngS12           MagS22           AngS22
1                0.000167147544   55.7753726       0.999905999      -0.00791925554   0.999905999      -0.00791925555   0.000167147544   55.7753726       
45.64            0.00632684356    84.927454        0.999460468      -0.361279028     0.999460468      -0.361279028     0.00632684356    84.927454        
90.28            0.0124907288     85.9691323       0.999199667      -0.714486047     0.999199667      -0.714486047     0.0124907288     85.9691323       
134.92           0.0186523803     86.2321314       0.998947673      -1.06757779      0.998947673      -1.06757779      0.0186523803     86.2321314       
179.56           0.0248115186     86.2452755       0.998682145      -1.42056132      0.998682145      -1.42056132      0.0248115186     86.2452755       
224.2            0.0309678607     86.1416231       0.998394372      -1.77343626      0.998394372      -1.77343626      0.0309678607     86.1416231       
268.84           0.0371210928     85.9724374       0.998079894      -2.12619891      0.998079894      -2.12619891      0.0371210928     85.9724374       
313.48           0.0432708785     85.7622055       0.997736075      -2.47884375      0.997736075      -2.47884375      0.0432708785     85.7622055       
358.12           0.0494168657     85.5242914       0.997361216      -2.83136412      0.997361216      -2.83136412      0.0494168657     85.5242914       
402.76           0.0555586919     85.2666886       0.996954157      -3.18375261      0.996954157      -3.18375261      0.0555586919     85.2666886       
447.4            0.0616959869     84.9945105       0.996514073      -3.53600129      0.996514073      -3.53600129      0.0616959869     84.9945105       
492.04           0.0678283753     84.7112016       0.996040362      -3.88810182      0.996040362      -3.88810182      0.0678283753     84.7112016       
536.68           0.073955478      84.4191787       0.995532575      -4.2400456       0.995532575      -4.2400456       0.073955478      84.4191787       
581.32           0.080076913      84.1201952       0.994990375      -4.59182378      0.994990375      -4.59182378      0.080076913      84.1201952       
625.96           0.0861922969     83.815559        0.994413508      -4.94342739      0.994413508      -4.94342739      0.0861922969     83.815559        
670.6            0.092301245      83.5062686       0.993801787      -5.29484727      0.993801787      -5.29484727      0.092301245      83.5062686       
715.24           0.0984033723     83.1931021       0.993155072      -5.64607421      0.993155072      -5.64607421      0.0984033723     83.1931021       
759.88           0.104498294      82.8766765       0.992473266      -5.99709889      0.992473266      -5.99709889      0.104498294      82.8766765       
804.52           0.110585624      82.5574883       0.991756306      -6.34791195      0.991756306      -6.34791195      0.110585624      82.5574883       
849.16           0.116664979      82.235943        0.991004154      -6.69850397      0.991004154      -6.69850397      0.116664979      82.235943        
893.8            0.122735976      81.9123757       0.990216801      -7.04886552      0.990216801      -7.04886552      0.122735976      81.9123757       
938.44           0.128798233      81.5870662       0.989394253      -7.39898713      0.989394253      -7.39898713      0.128798233      81.5870662       
983.08           0.13485137       81.2602508       0.988536539      -7.74885932      0.988536539      -7.74885932      0.13485137       81.2602508       
1027.72          0.140895006      80.9321305       0.987643701      -8.09847263      0.987643701      -8.09847263      0.140895006      80.9321305       
1072.36          0.146928765      80.6028784       0.986715796      -8.44781758      0.986715796      -8.44781758      0.146928765      80.6028784       
1117             0.152952273      80.2726438       0.985752894      -8.7968847       0.985752894      -8.7968847       0.152952273      80.2726438       
1161.64          0.158965155      79.9415572       0.984755077      -9.14566456      0.984755077      -9.14566456      0.158965155      79.9415572       
1206.28          0.164967041      79.6097331       0.983722437      -9.49414773      0.983722437      -9.49414773      0.164967041      79.6097331       
1250.92          0.170957563      79.2772725       0.982655077      -9.84232482      0.982655077      -9.84232482      0.170957563      79.2772725       
1295.56          0.176936355      78.9442654       0.981553108      -10.1901864      0.981553108      -10.1901864      0.176936355      78.9442654       
1340.2           0.182903054      78.610792        0.980416651      -10.5377233      0.980416651      -10.5377233      0.182903054      78.610792        
1384.84          0.188857299      78.2769244       0.979245833      -10.884926       0.979245833      -10.884926       0.188857299      78.2769244       
1429.48          0.194798734      77.9427276       0.978040792      -11.2317855      0.978040792      -11.2317855      0.194798734      77.9427276       
1474.12          0.200727004      77.6082607       0.97680167       -11.5782923      0.97680167       -11.5782923      0.200727004      77.6082607       
1518.76          0.206641757      77.2735774       0.975528619      -11.9244375      0.975528619      -11.9244375      0.206641757      77.2735774       
1563.4           0.212542646      76.9387268       0.974221794      -12.2702118      0.974221794      -12.2702118      0.212542646      76.9387268       
1608.04          0.218429326      76.603754        0.972881359      -12.6156061      0.972881359      -12.6156061      0.218429326      76.603754        
1652.68          0.224301455      76.2687007       0.971507482      -12.9606116      0.971507482      -12.9606116      0.224301455      76.2687007       
1697.32          0.230158696      75.9336053       0.97010034       -13.3052192      0.97010034       -13.3052192      0.230158696      75.9336053       
1741.96          0.236000715      75.5985034       0.968660113      -13.6494201      0.968660113      -13.6494201      0.236000715      75.5985034       
1786.6           0.24182718       75.2634284       0.967186985      -13.9932053      0.967186985      -13.9932053      0.24182718       75.2634284       
1831.24          0.247637766      74.9284111       0.965681149      -14.3365662      0.965681149      -14.3365662      0.247637766      74.9284111       
1875.88          0.253432148      74.5934808       0.9641428        -14.679494       0.9641428        -14.679494       0.253432148      74.5934808       
1920.52          0.259210008      74.2586646       0.962572139      -15.02198        0.962572139      -15.02198        0.259210008      74.2586646       
1965.16          0.26497103       73.9239882       0.960969371      -15.3640158      0.960969371      -15.3640158      0.26497103       73.9239882       
2009.8           0.270714904      73.5894759       0.959334706      -15.7055927      0.959334706      -15.7055927      0.270714904      73.5894759       
2054.44          0.276441321      73.2551506       0.957668357      -16.0467024      0.957668357      -16.0467024      0.276441321      73.2551506       
2099.08          0.282149979      72.9210339       0.955970544      -16.3873365      0.955970544      -16.3873365      0.282149979      72.9210339       
2143.72          0.287840578      72.5871466       0.954241489      -16.7274866      0.954241489      -16.7274866      0.287840578      72.5871466       
2188.36          0.293512825      72.2535083       0.952481416      -17.0671447      0.952481416      -17.0671447      0.293512825      72.2535083       
2233             0.299166428      71.9201376       0.950690557      -17.4063025      0.950690557      -17.4063025      0.299166428      71.9201376       
2277.64          0.304801101      71.5870525       0.948869145      -17.7449519      0.948869145      -17.7449519      0.304801101      71.5870525       
2322.28          0.310416563      71.25427         0.947017417      -18.083085       0.947017417      -18.083085       0.310416563      71.25427         
2366.92          0.316012536      70.9218065       0.945135612      -18.4206939      0.945135612      -18.4206939      0.316012536      70.9218065       
2411.56          0.321588748      70.5896777       0.943223975      -18.7577708      0.943223975      -18.7577708      0.321588748      70.5896777       
2456.2           0.327144929      70.2578988       0.941282752      -19.0943079      0.941282752      -19.0943079      0.327144929      70.2578988       
2500.84          0.332680816      69.9264841       0.939312193      -19.4302975      0.939312193      -19.4302975      0.332680816      69.9264841       
2545.48          0.33819615       69.5954477       0.937312551      -19.765732       0.937312551      -19.765732       0.33819615       69.5954477       
2590.12          0.343690675      69.2648031       0.93528408       -20.100604       0.93528408       -20.100604       0.343690675      69.2648031       
2634.76          0.349164142      68.9345632       0.933227039      -20.4349061      0.933227039      -20.4349061      0.349164142      68.9345632       
2679.4           0.354616305      68.6047405       0.931141689      -20.7686309      0.931141689      -20.7686309      0.354616305      68.6047405       
2724.04          0.360046923      68.2753472       0.929028292      -21.1017711      0.929028292      -21.1017711      0.360046923      68.2753472       
2768.68          0.36545576       67.946395        0.926887114      -21.4343197      0.926887114      -21.4343197      0.36545576       67.946395        
2813.32          0.370842584      67.6178953       0.924718423      -21.7662694      0.924718423      -21.7662694      0.370842584      67.6178953       
2857.96          0.376207168      67.289859        0.922522489      -22.0976135      0.922522489      -22.0976135      0.376207168      67.289859        
2902.6           0.381549291      66.9622968       0.920299582      -22.4283449      0.920299582      -22.4283449      0.381549291      66.9622968       
2947.24          0.386868735      66.635219        0.918049978      -22.7584568      0.918049978      -22.7584568      0.386868735      66.635219        
2991.88          0.392165287      66.3086357       0.915773952      -23.0879425      0.915773952      -23.0879425      0.392165287      66.3086357       
3036.52          0.39743874       65.9825565       0.913471781      -23.4167955      0.913471781      -23.4167955      0.39743874       65.9825565       
3081.16          0.40268889       65.656991        0.911143744      -23.745009       0.911143744      -23.745009       0.40268889       65.656991        
3125.8           0.407915538      65.3319484       0.908790121      -24.0725768      0.908790121      -24.0725768      0.407915538      65.3319484       
3170.44          0.413118493      65.0074374       0.906411196      -24.3994924      0.906411196      -24.3994924      0.413118493      65.0074374       
3215.08          0.418297563      64.6834669       0.904007251      -24.7257495      0.904007251      -24.7257495      0.418297563      64.6834669       
3259.72          0.423452566      64.3600452       0.901578571      -25.0513419      0.901578571      -25.0513419      0.423452566      64.3600452       
3304.36          0.428583322      64.0371806       0.899125442      -25.3762636      0.899125442      -25.3762636      0.428583322      64.0371806       
3349             0.433689656      63.7148811       0.89664815       -25.7005085      0.89664815       -25.7005085      0.433689656      63.7148811       
3393.64          0.438771399      63.3931543       0.894146985      -26.0240707      0.894146985      -26.0240707      0.438771399      63.3931543       
3438.28          0.443828386      63.072008        0.891622234      -26.3469443      0.891622234      -26.3469443      0.443828386      63.072008        
3482.92          0.448860455      62.7514494       0.889074187      -26.6691237      0.889074187      -26.6691237      0.448860455      62.7514494       
3527.56          0.453867451      62.4314858       0.886503135      -26.9906032      0.886503135      -26.9906032      0.453867451      62.4314858       
3572.2           0.458849224      62.112124        0.883909369      -27.3113771      0.883909369      -27.3113771      0.458849224      62.112124        
3616.84          0.463805626      61.7933709       0.881293181      -27.6314401      0.881293181      -27.6314401      0.463805626      61.7933709       
3661.48          0.468736516      61.4752332       0.878654862      -27.9507867      0.878654862      -27.9507867      0.468736516      61.4752332       
3706.12          0.473641757      61.1577172       0.875994706      -28.2694116      0.875994706      -28.2694116      0.473641757      61.1577172       
3750.76          0.478521217      60.8408292       0.873313005      -28.5873096      0.873313005      -28.5873096      0.478521217      60.8408292       
3795.4           0.483374767      60.5245754       0.870610053      -28.9044756      0.870610053      -28.9044756      0.483374767      60.5245754       
3840.04          0.488202284      60.2089617       0.867886142      -29.2209045      0.867886142      -29.2209045      0.488202284      60.2089617       
3884.68          0.493003649      59.8939938       0.865141567      -29.5365913      0.865141567      -29.5365913      0.493003649      59.8939938       
3929.32          0.497778748      59.5796774       0.86237662       -29.8515313      0.86237662       -29.8515313      0.497778748      59.5796774       
3973.96          0.502527471      59.2660179       0.859591596      -30.1657195      0.859591596      -30.1657195      0.502527471      59.2660179       
4018.6           0.507249713      58.9530208       0.856786787      -30.4791514      0.856786787      -30.4791514      0.507249713      58.9530208       
4063.24          0.511945372      58.6406912       0.853962487      -30.7918223      0.853962487      -30.7918223      0.511945372      58.6406912       
4107.88          0.516614352      58.3290341       0.851118988      -31.1037276      0.851118988      -31.1037276      0.516614352      58.3290341       
4152.52          0.521256561      58.0180545       0.848256584      -31.4148629      0.848256584      -31.4148629      0.521256561      58.0180545       
4197.16          0.525871911      57.707757        0.845375566      -31.7252238      0.845375566      -31.7252238      0.525871911      57.707757        
4241.8           0.530460318      57.3981465       0.842476226      -32.0348061      0.842476226      -32.0348061      0.530460318      57.3981465       
4286.44          0.535021703      57.0892273       0.839558856      -32.3436055      0.839558856      -32.3436055      0.535021703      57.0892273       
4331.08          0.539555989      56.7810038       0.836623745      -32.651618       0.836623745      -32.651618       0.539555989      56.7810038       
4375.72          0.544063108      56.4734803       0.833671184      -32.9588394      0.833671184      -32.9588394      0.544063108      56.4734803       
4420.36          0.54854299       56.1666609       0.830701463      -33.2652658      0.830701463      -33.2652658      0.54854299       56.1666609       
4465             0.552995574      55.8605497       0.827714869      -33.5708933      0.827714869      -33.5708933      0.552995574      55.8605497       
4509.64          0.557420801      55.5551504       0.824711691      -33.8757181      0.824711691      -33.8757181      0.557420801      55.5551504       
4554.28          0.561818616      55.2504669       0.821692215      -34.1797365      0.821692215      -34.1797365      0.561818616      55.2504669       
4598.92          0.566188967      54.9465028       0.818656727      -34.4829448      0.818656727      -34.4829448      0.566188967      54.9465028       
4643.56          0.570531809      54.6432616       0.815605512      -34.7853394      0.815605512      -34.7853394      0.570531809      54.6432616       
4688.2           0.574847098      54.3407468       0.812538855      -35.0869169      0.812538855      -35.0869169      0.574847098      54.3407468       
4732.84          0.579134794      54.0389617       0.809457037      -35.3876737      0.809457037      -35.3876737      0.579134794      54.0389617       
4777.48          0.583394863      53.7379094       0.806360341      -35.6876065      0.806360341      -35.6876065      0.583394863      53.7379094       
4822.12          0.587627272      53.4375932       0.803249047      -35.986712       0.803249047      -35.986712       0.587627272      53.4375932       
4866.76          0.591831994      53.1380158       0.800123434      -36.284987       0.800123434      -36.284987       0.591831994      53.1380158       
4911.4           0.596009004      52.8391804       0.796983781      -36.5824283      0.796983781      -36.5824283      0.596009004      52.8391804       
4956.04          0.600158281      52.5410895       0.793830364      -36.8790329      0.793830364      -36.8790329      0.600158281      52.5410895       
5000.68          0.604279808      52.243746        0.790663458      -37.1747977      0.790663458      -37.1747977      0.604279808      52.243746        
5045.32          0.608373572      51.9471524       0.787483338      -37.4697197      0.787483338      -37.4697197      0.608373572      51.9471524       
5089.96          0.612439562      51.6513112       0.784290276      -37.7637962      0.784290276      -37.7637962      0.612439562      51.6513112       
5134.6           0.616477771      51.3562247       0.781084543      -38.0570242      0.781084543      -38.0570242      0.616477771      51.3562247       
5179.24          0.620488195      51.0618953       0.777866408      -38.3494009      0.777866408      -38.3494009      0.620488195      51.0618953       
5223.88          0.624470835      50.7683252       0.77463614       -38.6409238      0.77463614       -38.6409238      0.624470835      50.7683252       
5268.52          0.628425693      50.4755165       0.771394005      -38.9315901      0.771394005      -38.9315901      0.628425693      50.4755165       
5313.16          0.632352776      50.1834712       0.768140268      -39.2213973      0.768140268      -39.2213973      0.632352776      50.1834712       
5357.8           0.636252093      49.8921912       0.764875191      -39.5103428      0.764875191      -39.5103428      0.636252093      49.8921912       
5402.44          0.640123656      49.6016784       0.761599037      -39.7984242      0.761599037      -39.7984242      0.640123656      49.6016784       
5447.08          0.643967481      49.3119345       0.758312065      -40.0856391      0.758312065      -40.0856391      0.643967481      49.3119345       
5491.72          0.647783587      49.0229613       0.755014534      -40.3719851      0.755014534      -40.3719851      0.647783587      49.0229613       
5536.36          0.651571995      48.7347603       0.751706698      -40.6574599      0.751706698      -40.6574599      0.651571995      48.7347603       
5581             0.655332729      48.447333        0.748388814      -40.9420613      0.748388814      -40.9420613      0.655332729      48.447333        
5625.64          0.659065817      48.1606808       0.745061132      -41.225787       0.745061132      -41.225787       0.659065817      48.1606808       
5670.28          0.662771288      47.8748051       0.741723905      -41.5086349      0.741723905      -41.5086349      0.662771288      47.8748051       
