! Coilcraft 0402CS-40N Chip Inductor				
! 29 May 2002			
# MHZ S MA R 50
!Freq             MagS11           AngS11           MagS21           AngS21           MagS12           AngS12           MagS22           AngS22
1                0.00289240102    60.0453174       0.998558926      -0.143792643     0.998558926      -0.143792643     0.00289240102    60.0453174       
12.97            0.0327768359     79.7275966       0.994677961      -1.85808514      0.994677961      -1.85808514      0.0327768359     79.7275966       
24.94            0.0624970483     80.3966234       0.991490549      -3.56323432      0.991490549      -3.56323432      0.0624970483     80.3966234       
36.91            0.0919891376     79.7890574       0.987850027      -5.25828922      0.987850027      -5.25828922      0.0919891376     79.7890574       
48.88            0.121191729      78.7619453       0.98359053       -6.94122408      0.98359053       -6.94122408      0.121191729      78.7619453       
60.85            0.150042749      77.5434057       0.978664602      -8.60981428      0.978664602      -8.60981428      0.150042749      77.5434057       
72.82            0.178482138      76.2246223       0.973065739      -10.261826       0.973065739      -10.261826       0.178482138      76.2246223       
84.79            0.206453343      74.850793        0.966807426      -11.8950975      0.966807426      -11.8950975      0.206453343      74.850793        
96.76            0.233904266      73.4476484       0.959914903      -13.5075841      0.959914903      -13.5075841      0.233904266      73.4476484       
108.73           0.260787877      72.0313376       0.952421062      -15.0973873      0.952421062      -15.0973873      0.260787877      72.0313376       
120.7            0.287062614      70.6127488       0.944363997      -16.6627733      0.944363997      -16.6627733      0.287062614      70.6127488       
132.67           0.312692592      69.1996233       0.935785328      -18.2021849      0.935785328      -18.2021849      0.312692592      69.1996233       
144.64           0.337647679      67.7976828       0.926728946      -19.7142483      0.926728946      -19.7142483      0.337647679      67.7976828       
156.61           0.361903431      66.411273        0.917240002      -21.1977753      0.917240002      -21.1977753      0.361903431      66.411273        
168.58           0.385440941      65.0437536       0.907364082      -22.6517624      0.907364082      -22.6517624      0.385440941      65.0437536       
180.55           0.408246584      63.697746        0.897146519      -24.0753863      0.897146519      -24.0753863      0.408246584      63.697746        
192.52           0.430311711      62.375299        0.886631818      -25.4679977      0.886631818      -25.4679977      0.430311711      62.375299        
204.49           0.451632284      61.0780042       0.875863186      -26.8291127      0.875863186      -26.8291127      0.451632284      61.0780042       
216.46           0.472208478      59.8070796       0.864882154      -28.1584028      0.864882154      -28.1584028      0.472208478      59.8070796       
228.43           0.492044267      58.563433        0.853728282      -29.4556841      0.853728282      -29.4556841      0.492044267      58.563433        
240.4            0.511146999      57.3477108       0.842438939      -30.7209056      0.842438939      -30.7209056      0.511146999      57.3477108       
252.37           0.529526974      56.1603387       0.831049154      -31.9541371      0.831049154      -31.9541371      0.529526974      56.1603387       
264.34           0.547197033      55.0015535       0.819591515      -33.1555574      0.819591515      -33.1555574      0.547197033      55.0015535       
276.31           0.564172173      53.8714312       0.808096132      -34.3254421      0.808096132      -34.3254421      0.564172173      53.8714312       
288.28           0.580469171      52.7699108       0.796590634      -35.4641523      0.796590634      -35.4641523      0.580469171      52.7699108       
300.25           0.596106246      51.6968144       0.785100207      -36.5721233      0.785100207      -36.5721233      0.596106246      51.6968144       
312.22           0.611102748      50.6518654       0.773647654      -37.6498543      0.773647654      -37.6498543      0.611102748      50.6518654       
324.19           0.625478873      49.634704        0.762253487      -38.6978986      0.762253487      -38.6978986      0.625478873      49.634704        
336.16           0.639255409      48.644901        0.750936031      -39.7168541      0.750936031      -39.7168541      0.639255409      48.644901        
348.13           0.652453516      47.68197         0.739711536      -40.7073557      0.739711536      -40.7073557      0.652453516      47.68197         
360.1            0.665094529      46.7453782       0.728594307      -41.6700672      0.728594307      -41.6700672      0.665094529      46.7453782       
372.07           0.677199787      45.8345556       0.717596833      -42.6056744      0.717596833      -42.6056744      0.677199787      45.8345556       
384.04           0.688790493      44.9489034       0.706729914      -43.5148793      0.706729914      -43.5148793      0.688790493      44.9489034       
396.01           0.699887589      44.0878011       0.696002797      -44.3983946      0.696002797      -44.3983946      0.699887589      44.0878011       
407.98           0.710511658      43.2506128       0.6854233        -45.2569386      0.6854233        -45.2569386      0.710511658      43.2506128       
419.95           0.720682836      42.4366927       0.674997936      -46.0912314      0.674997936      -46.0912314      0.720682836      42.4366927       
431.92           0.730420754      41.6453897       0.664732035      -46.9019909      0.664732035      -46.9019909      0.730420754      41.6453897       
443.89           0.73974448       40.8760515       0.65462985       -47.6899299      0.65462985       -47.6899299      0.73974448       40.8760515       
455.86           0.748672483      40.128028        0.64469467       -48.4557533      0.64469467       -48.4557533      0.748672483      40.128028        
467.83           0.757222604      39.4006742       0.634928913      -49.2001559      0.634928913      -49.2001559      0.757222604      39.4006742       
479.8            0.765412041      38.6933526       0.625334225      -49.9238206      0.625334225      -49.9238206      0.765412041      38.6933526       
491.77           0.773257332      38.0054355       0.615911558      -50.6274168      0.615911558      -50.6274168      0.773257332      38.0054355       
503.74           0.780774358      37.3363062       0.606661254      -51.311599       0.606661254      -51.311599       0.780774358      37.3363062       
515.71           0.787978342      36.6853607       0.597583117      -51.977006       0.597583117      -51.977006       0.787978342      36.6853607       
527.68           0.794883857      36.0520088       0.588676477      -52.6242601      0.588676477      -52.6242601      0.794883857      36.0520088       
539.65           0.801504835      35.4356745       0.579940249      -53.2539668      0.579940249      -53.2539668      0.801504835      35.4356745       
551.62           0.807854583      34.8357972       0.571372992      -53.8667138      0.571372992      -53.8667138      0.807854583      34.8357972       
563.59           0.813945797      34.2518317       0.562972954      -54.4630713      0.562972954      -54.4630713      0.813945797      34.2518317       
575.56           0.819790582      33.6832488       0.55473812       -55.0435921      0.55473812       -55.0435921      0.819790582      33.6832488       
587.53           0.82540047       33.1295351       0.546666248      -55.6088108      0.546666248      -55.6088108      0.82540047       33.1295351       
599.5            0.83078644       32.5901934       0.538754909      -56.1592447      0.538754909      -56.1592447      0.83078644       32.5901934       
611.47           0.835958942      32.0647424       0.531001516      -56.6953936      0.531001516      -56.6953936      0.835958942      32.0647424       
623.44           0.840927912      31.5527168       0.523403354      -57.2177403      0.523403354      -57.2177403      0.840927912      31.5527168       
635.41           0.845702801      31.0536667       0.515957605      -57.7267505      0.515957605      -57.7267505      0.845702801      31.0536667       
647.38           0.850292591      30.5671579       0.508661372      -58.2228736      0.508661372      -58.2228736      0.850292591      30.5671579       
659.35           0.854705817      30.0927712       0.501511695      -58.7065429      0.501511695      -58.7065429      0.854705817      30.0927712       
671.32           0.858950589      29.630102        0.494505574      -59.178176       0.494505574      -59.178176       0.858950589      29.630102        
683.29           0.863034611      29.1787603       0.487639982      -59.638175       0.487639982      -59.638175       0.863034611      29.1787603       
695.26           0.866965201      28.7383703       0.480911875      -60.0869276      0.480911875      -60.0869276      0.866965201      28.7383703       
707.23           0.870749308      28.3085694       0.474318212      -60.5248067      0.474318212      -60.5248067      0.870749308      28.3085694       
719.2            0.874393536      27.8890086       0.467855955      -60.9521718      0.467855955      -60.9521718      0.874393536      27.8890086       
731.17           0.877904153      27.4793517       0.461522089      -61.3693684      0.461522089      -61.3693684      0.877904153      27.4793517       
743.14           0.881287116      27.0792746       0.455313619      -61.7767295      0.455313619      -61.7767295      0.881287116      27.0792746       
755.11           0.884548081      26.6884656       0.449227586      -62.1745753      0.449227586      -62.1745753      0.884548081      26.6884656       
767.08           0.887692422      26.3066243       0.443261064      -62.563214       0.443261064      -62.563214       0.887692422      26.3066243       
779.05           0.890725245      25.9334615       0.437411173      -62.9429422      0.437411173      -62.9429422      0.890725245      25.9334615       
791.02           0.893651403      25.568699        0.431675076      -63.3140453      0.431675076      -63.3140453      0.893651403      25.568699        
802.99           0.896475505      25.2120686       0.426049985      -63.6767979      0.426049985      -63.6767979      0.896475505      25.2120686       
814.96           0.899201933      24.8633123       0.420533165      -64.0314642      0.420533165      -64.0314642      0.899201933      24.8633123       
826.93           0.901834856      24.5221819       0.415121935      -64.3782985      0.415121935      -64.3782985      0.901834856      24.5221819       
838.9            0.904378234      24.1884379       0.409813668      -64.7175456      0.409813668      -64.7175456      0.904378234      24.1884379       
850.87           0.906835835      23.8618503       0.404605793      -65.0494408      0.404605793      -65.0494408      0.906835835      23.8618503       
862.84           0.909211244      23.5421972       0.399495799      -65.3742111      0.399495799      -65.3742111      0.909211244      23.5421972       
874.81           0.91150787       23.2292651       0.394481232      -65.6920745      0.394481232      -65.6920745      0.91150787       23.2292651       
886.78           0.913728961      22.9228483       0.389559694      -66.0032411      0.389559694      -66.0032411      0.913728961      22.9228483       
898.75           0.915877606      22.6227487       0.384728847      -66.3079133      0.384728847      -66.3079133      0.915877606      22.6227487       
910.72           0.917956746      22.3287755       0.379986411      -66.6062857      0.379986411      -66.6062857      0.917956746      22.3287755       
922.69           0.919969185      22.0407449       0.375330165      -66.898546       0.375330165      -66.898546       0.919969185      22.0407449       
934.66           0.921917592      21.7584796       0.370757941      -67.1848748      0.370757941      -67.1848748      0.921917592      21.7584796       
946.63           0.92380451       21.481809        0.366267631      -67.4654463      0.366267631      -67.4654463      0.92380451       21.481809        
958.6            0.925632366      21.2105684       0.361857181      -67.740428       0.361857181      -67.740428       0.925632366      21.2105684       
970.57           0.927403472      20.9445993       0.357524592      -68.0099817      0.357524592      -68.0099817      0.927403472      20.9445993       
982.54           0.929120032      20.6837487       0.353267919      -68.274263       0.353267919      -68.274263       0.929120032      20.6837487       
994.51           0.93078415       20.4278691       0.349085271      -68.5334222      0.349085271      -68.5334222      0.93078415       20.4278691       
1006.48          0.932397834      20.1768183       0.344974805      -68.787604       0.344974805      -68.787604       0.932397834      20.1768183       
1018.45          0.933963001      19.9304589       0.340934733      -69.036948       0.340934733      -69.036948       0.933963001      19.9304589       
1030.42          0.935481481      19.6886587       0.336963314      -69.2815888      0.336963314      -69.2815888      0.935481481      19.6886587       
1042.39          0.93695502       19.4512897       0.333058856      -69.5216563      0.333058856      -69.5216563      0.93695502       19.4512897       
1054.36          0.938385289      19.2182288       0.329219714      -69.7572759      0.329219714      -69.7572759      0.938385289      19.2182288       
1066.33          0.939773883      18.9893567       0.325444289      -69.9885684      0.325444289      -69.9885684      0.939773883      18.9893567       
1078.3           0.941122328      18.7645587       0.321731027      -70.2156505      0.321731027      -70.2156505      0.941122328      18.7645587       
1090.27          0.942432082      18.5437236       0.318078418      -70.438635       0.318078418      -70.438635       0.942432082      18.5437236       
1102.24          0.94370454       18.3267441       0.314484994      -70.6576306      0.314484994      -70.6576306      0.94370454       18.3267441       
1114.21          0.944941037      18.1135168       0.310949329      -70.8727423      0.310949329      -70.8727423      0.944941037      18.1135168       
1126.18          0.94614285       17.9039414       0.307470037      -71.0840716      0.307470037      -71.0840716      0.94614285       17.9039414       
1138.15          0.947311201      17.6979213       0.30404577       -71.2917165      0.30404577       -71.2917165      0.947311201      17.6979213       
1150.12          0.948447263      17.4953628       0.30067522       -71.4957718      0.30067522       -71.4957718      0.948447263      17.4953628       
1162.09          0.949552155      17.2961756       0.297357115      -71.6963289      0.297357115      -71.6963289      0.949552155      17.2961756       
1174.06          0.950626953      17.1002721       0.294090217      -71.8934764      0.294090217      -71.8934764      0.950626953      17.1002721       
1186.03          0.951672687      16.9075678       0.290873327      -72.0872997      0.290873327      -72.0872997      0.951672687      16.9075678       
1198             0.952690344      16.7179807       0.287705275      -72.2778815      0.287705275      -72.2778815      0.952690344      16.7179807       
1209.97          0.95368087       16.5314318       0.284584927      -72.4653019      0.284584927      -72.4653019      0.95368087       16.5314318       
1221.94          0.954645174      16.3478444       0.281511181      -72.6496381      0.281511181      -72.6496381      0.954645174      16.3478444       
1233.91          0.955584126      16.1671442       0.278482963      -72.830965       0.278482963      -72.830965       0.955584126      16.1671442       
1245.88          0.956498564      15.9892595       0.275499231      -73.009355       0.275499231      -73.009355       0.956498564      15.9892595       
1257.85          0.957389289      15.8141205       0.272558973      -73.1848782      0.272558973      -73.1848782      0.957389289      15.8141205       
1269.82          0.958257072      15.6416601       0.269661202      -73.3576024      0.269661202      -73.3576024      0.958257072      15.6416601       
1281.79          0.959102653      15.4718128       0.266804961      -73.5275933      0.266804961      -73.5275933      0.959102653      15.4718128       
1293.76          0.959926744      15.3045155       0.263989318      -73.6949144      0.263989318      -73.6949144      0.959926744      15.3045155       
1305.73          0.960730028      15.1397067       0.261213368      -73.8596273      0.261213368      -73.8596273      0.960730028      15.1397067       
1317.7           0.961513162      14.9773272       0.25847623       -74.0217916      0.25847623       -74.0217916      0.961513162      14.9773272       
1329.67          0.962276778      14.8173192       0.255777046      -74.1814651      0.255777046      -74.1814651      0.962276778      14.8173192       
1341.64          0.963021483      14.6596269       0.253114983      -74.3387038      0.253114983      -74.3387038      0.963021483      14.6596269       
1353.61          0.96374786       14.5041962       0.25048923       -74.4935618      0.25048923       -74.4935618      0.96374786       14.5041962       
1365.58          0.964456474      14.3509744       0.247898999      -74.6460917      0.247898999      -74.6460917      0.964456474      14.3509744       
1377.55          0.965147864      14.1999106       0.245343521      -74.7963444      0.245343521      -74.7963444      0.965147864      14.1999106       
1389.52          0.965822552      14.0509553       0.24282205       -74.9443693      0.24282205       -74.9443693      0.965822552      14.0509553       
1401.49          0.966481039      13.9040605       0.240333859      -75.0902143      0.240333859      -75.0902143      0.966481039      13.9040605       
1413.46          0.967123808      13.7591794       0.23787824       -75.2339257      0.23787824       -75.2339257      0.967123808      13.7591794       
1425.43          0.967751326      13.6162669       0.235454504      -75.3755486      0.235454504      -75.3755486      0.967751326      13.6162669       
1437.4           0.96836404       13.4752789       0.233061981      -75.5151267      0.233061981      -75.5151267      0.96836404       13.4752789       
1449.37          0.968962382      13.3361729       0.230700017      -75.6527022      0.230700017      -75.6527022      0.968962382      13.3361729       
1461.34          0.96954677       13.1989072       0.228367977      -75.7883162      0.228367977      -75.7883162      0.96954677       13.1989072       
1473.31          0.970117606      13.0634416       0.226065242      -75.9220086      0.226065242      -75.9220086      0.970117606      13.0634416       
1485.28          0.970675277      12.9297369       0.223791209      -76.053818       0.223791209      -76.053818       0.970675277      12.9297369       
1497.25          0.971220156      12.7977551       0.221545289      -76.183782       0.221545289      -76.183782       0.971220156      12.7977551       
1509.22          0.971752606      12.667459        0.219326912      -76.3119369      0.219326912      -76.3119369      0.971752606      12.667459        
1521.19          0.972272973      12.5388129       0.21713552       -76.4383182      0.21713552       -76.4383182      0.972272973      12.5388129       
