! Coilcraft 0402CS-10N Chip Inductor				
! 29 May 2002			
# MHZ S MA R 50
!Freq             MagS11           AngS11           MagS21           AngS21           MagS12           AngS12           MagS22           AngS22
1                0.000771333108   54.474609        0.999552003      -0.0359838749    0.999552003      -0.0359838749    0.000771333108   54.474609        
21.7             0.0137349967     81.4213296       0.9980436        -0.779702275     0.9980436        -0.779702275     0.0137349967     81.4213296       
42.4             0.0266883634     82.9323629       0.997068075      -1.52215299      0.997068075      -1.52215299      0.0266883634     82.9323629       
63.1             0.0396185534     83.2048772       0.996089524      -2.26346828      0.996089524      -2.26346828      0.0396185534     83.2048772       
83.8             0.0525213026     83.0717729       0.99503147       -3.00356751      0.99503147       -3.00356751      0.0525213026     83.0717729       
104.5            0.0653919779     82.7479155       0.993864473      -3.74231729      0.993864473      -3.74231729      0.0653919779     82.7479155       
125.2            0.0782257018     82.3170947       0.992574024      -4.47956169      0.992574024      -4.47956169      0.0782257018     82.3170947       
145.9            0.0910174778     81.8196813       0.991152169      -5.21513349      0.991152169      -5.21513349      0.0910174778     81.8196813       
166.6            0.103762268      81.2778796       0.989594402      -5.94885965      0.989594402      -5.94885965      0.103762268      81.2778796       
187.3            0.116455042      80.7050793       0.987898271      -6.68056441      0.987898271      -6.68056441      0.116455042      80.7050793       
208              0.129090815      80.1099252       0.986062656      -7.4100712       0.986062656      -7.4100712       0.129090815      80.1099252       
228.7            0.141664672      79.498303        0.984087372      -8.13720404      0.984087372      -8.13720404      0.141664672      79.498303        
249.4            0.15417179       78.8743956       0.981972922      -8.86178849      0.981972922      -8.86178849      0.15417179       78.8743956       
270.1            0.166607452      78.2412826       0.979720339      -9.58365242      0.979720339      -9.58365242      0.166607452      78.2412826       
290.8            0.178967066      77.6013002       0.97733108       -10.3026266      0.97733108       -10.3026266      0.178967066      77.6013002       
311.5            0.191246171      76.9562665       0.974806953      -11.0185454      0.974806953      -11.0185454      0.191246171      76.9562665       
332.2            0.203440451      76.3076284       0.972150056      -11.7312466      0.972150056      -11.7312466      0.203440451      76.3076284       
352.9            0.215545744      75.6565601       0.969362736      -12.4405728      0.969362736      -12.4405728      0.215545744      75.6565601       
373.6            0.227558049      75.0040303       0.966447554      -13.1463705      0.966447554      -13.1463705      0.227558049      75.0040303       
394.3            0.23947353       74.3508508       0.96340726       -13.8484915      0.96340726       -13.8484915      0.23947353       74.3508508       
415              0.251288525      73.6977106       0.960244761      -14.5467921      0.960244761      -14.5467921      0.251288525      73.6977106       
435.7            0.262999548      73.0452014       0.95696311       -15.2411342      0.95696311       -15.2411342      0.262999548      73.0452014       
456.4            0.274603295      72.3938364       0.953565477      -15.9313849      0.953565477      -15.9313849      0.274603295      72.3938364       
477.1            0.286096642      71.7440648       0.950055141      -16.6174166      0.950055141      -16.6174166      0.286096642      71.7440648       
497.8            0.297476655      71.0962826       0.946435471      -17.2991076      0.946435471      -17.2991076      0.297476655      71.0962826       
518.5            0.308740581      70.4508414       0.942709911      -17.9763417      0.942709911      -17.9763417      0.308740581      70.4508414       
539.2            0.319885856      69.8080548       0.938881969      -18.6490085      0.938881969      -18.6490085      0.319885856      69.8080548       
559.9            0.330910105      69.1682041       0.934955204      -19.3170032      0.934955204      -19.3170032      0.330910105      69.1682041       
580.6            0.341811133      68.5315423       0.930933213      -19.9802272      0.930933213      -19.9802272      0.341811133      68.5315423       
601.3            0.352586934      67.8982979       0.926819625      -20.6385872      0.926819625      -20.6385872      0.352586934      67.8982979       
622              0.363235682      67.2686775       0.922618084      -21.2919961      0.922618084      -21.2919961      0.363235682      67.2686775       
642.7            0.37375573       66.6428683       0.918332246      -21.9403724      0.918332246      -21.9403724      0.37375573       66.6428683       
663.4            0.384145608      66.0210402       0.913965765      -22.5836403      0.913965765      -22.5836403      0.384145608      66.0210402       
684.1            0.394404021      65.4033472       0.909522289      -23.2217297      0.909522289      -23.2217297      0.394404021      65.4033472       
704.8            0.404529841      64.7899289       0.905005449      -23.854576       0.905005449      -23.854576       0.404529841      64.7899289       
725.5            0.414522106      64.180912        0.900418852      -24.4821201      0.900418852      -24.4821201      0.414522106      64.180912        
746.2            0.424380014      63.5764108       0.895766075      -25.1043085      0.895766075      -25.1043085      0.424380014      63.5764108       
766.9            0.434102919      62.9765288       0.89105066       -25.7210928      0.89105066       -25.7210928      0.434102919      62.9765288       
787.6            0.443690328      62.3813589       0.886276106      -26.3324297      0.886276106      -26.3324297      0.443690328      62.3813589       
808.3            0.453141891      61.7909846       0.881445862      -26.9382813      0.881445862      -26.9382813      0.453141891      61.7909846       
829              0.4624574        61.2054802       0.876563329      -27.5386142      0.876563329      -27.5386142      0.4624574        61.2054802       
849.7            0.471636781      60.6249118       0.871631846      -28.1334002      0.871631846      -28.1334002      0.471636781      60.6249118       
870.4            0.48068009       60.0493376       0.866654695      -28.7226156      0.866654695      -28.7226156      0.48068009       60.0493376       
891.1            0.489587506      59.4788084       0.86163509       -29.3062409      0.86163509       -29.3062409      0.489587506      59.4788084       
911.8            0.498359326      58.913368        0.85657618       -29.8842615      0.85657618       -29.8842615      0.498359326      58.913368        
932.5            0.506995959      58.3530536       0.851481042      -30.4566667      0.851481042      -30.4566667      0.506995959      58.3530536       
953.2            0.515497922      57.7978966       0.846352678      -31.0234499      0.846352678      -31.0234499      0.515497922      57.7978966       
973.9            0.523865831      57.2479223       0.841194017      -31.5846083      0.841194017      -31.5846083      0.523865831      57.2479223       
994.6            0.532100398      56.7031507       0.83600791       -32.1401431      0.83600791       -32.1401431      0.532100398      56.7031507       
1015.3           0.540202424      56.1635965       0.830797131      -32.6900589      0.830797131      -32.6900589      0.540202424      56.1635965       
1036             0.548172794      55.6292696       0.825564372      -33.2343637      0.825564372      -33.2343637      0.548172794      55.6292696       
1056.7           0.556012473      55.1001755       0.820312245      -33.7730689      0.820312245      -33.7730689      0.556012473      55.1001755       
1077.4           0.563722497      54.5763153       0.815043283      -34.306189       0.815043283      -34.306189       0.563722497      54.5763153       
1098.1           0.571303973      54.0576859       0.809759936      -34.8337413      0.809759936      -34.8337413      0.571303973      54.0576859       
1118.8           0.578758069      53.5442807       0.804464572      -35.3557462      0.804464572      -35.3557462      0.578758069      53.5442807       
1139.5           0.586086012      53.0360893       0.799159478      -35.8722266      0.799159478      -35.8722266      0.586086012      53.0360893       
1160.2           0.593289083      52.5330979       0.793846861      -36.3832078      0.793846861      -36.3832078      0.593289083      52.5330979       
1180.9           0.600368611      52.0352897       0.788528846      -36.8887178      0.788528846      -36.8887178      0.600368611      52.0352897       
1201.6           0.607325971      51.542645        0.783207481      -37.3887866      0.783207481      -37.3887866      0.607325971      51.542645        
1222.3           0.614162578      51.0551412       0.77788473       -37.8834464      0.77788473       -37.8834464      0.614162578      51.0551412       
1243             0.620879882      50.5727531       0.772562485      -38.3727313      0.772562485      -38.3727313      0.620879882      50.5727531       
1263.7           0.627479366      50.0954532       0.767242556      -38.8566773      0.767242556      -38.8566773      0.627479366      50.0954532       
1284.4           0.633962542      49.6232117       0.76192668       -39.335322       0.76192668       -39.335322       0.633962542      49.6232117       
1305.1           0.640330948      49.1559967       0.756616519      -39.8087048      0.756616519      -39.8087048      0.640330948      49.1559967       
1325.8           0.64658614       48.6937746       0.751313663      -40.2768665      0.751313663      -40.2768665      0.64658614       48.6937746       
1346.5           0.652729697      48.2365096       0.746019629      -40.7398491      0.746019629      -40.7398491      0.652729697      48.2365096       
1367.2           0.65876321       47.7841646       0.740735865      -41.1976961      0.740735865      -41.1976961      0.65876321       47.7841646       
1387.9           0.664688284      47.3367009       0.735463751      -41.650452       0.735463751      -41.650452       0.664688284      47.3367009       
1408.6           0.670506533      46.8940783       0.7302046        -42.0981623      0.7302046        -42.0981623      0.670506533      46.8940783       
1429.3           0.676219578      46.4562554       0.724959659      -42.5408736      0.724959659      -42.5408736      0.676219578      46.4562554       
1450             0.681829045      46.0231898       0.719730115      -42.9786333      0.719730115      -42.9786333      0.681829045      46.0231898       
1470.7           0.687336561      45.5948377       0.71451709       -43.4114895      0.71451709       -43.4114895      0.687336561      45.5948377       
1491.4           0.692743756      45.1711547       0.709321647      -43.839491       0.709321647      -43.839491       0.692743756      45.1711547       
1512.1           0.698052254      44.7520955       0.704144795      -44.2626873      0.704144795      -44.2626873      0.698052254      44.7520955       
1532.8           0.703263679      44.3376137       0.698987481      -44.6811283      0.698987481      -44.6811283      0.703263679      44.3376137       
1553.5           0.708379648      43.9276627       0.693850603      -45.0948644      0.693850603      -45.0948644      0.708379648      43.9276627       
1574.2           0.713401771      43.522195        0.688735002      -45.5039463      0.688735002      -45.5039463      0.713401771      43.522195        
1594.9           0.718331648      43.1211628       0.683641472      -45.9084251      0.683641472      -45.9084251      0.718331648      43.1211628       
1615.6           0.723170871      42.7245177       0.678570755      -46.3083522      0.678570755      -46.3083522      0.723170871      42.7245177       
1636.3           0.727921019      42.332211        0.673523549      -46.703779       0.673523549      -46.703779       0.727921019      42.332211        
1657             0.73258366       41.9441937       0.668500502      -47.0947572      0.668500502      -47.0947572      0.73258366       41.9441937       
1677.7           0.737160347      41.5604166       0.663502222      -47.4813384      0.663502222      -47.4813384      0.737160347      41.5604166       
1698.4           0.741652619      41.1808303       0.658529273      -47.8635745      0.658529273      -47.8635745      0.741652619      41.1808303       
1719.1           0.746061999      40.8053854       0.653582178      -48.241517       0.653582178      -48.241517       0.746061999      40.8053854       
1739.8           0.750389995      40.4340321       0.648661422      -48.6152177      0.648661422      -48.6152177      0.750389995      40.4340321       
1760.5           0.754638096      40.066721        0.643767453      -48.984728       0.643767453      -48.984728       0.754638096      40.066721        
1781.2           0.758807775      39.7034024       0.63890068       -49.3500993      0.63890068       -49.3500993      0.758807775      39.7034024       
1801.9           0.762900485      39.3440269       0.634061481      -49.7113829      0.634061481      -49.7113829      0.762900485      39.3440269       
1822.6           0.766917663      38.988545        0.629250198      -50.0686295      0.629250198      -50.0686295      0.766917663      38.988545        
1843.3           0.770860722      38.6369076       0.624467144      -50.42189        0.624467144      -50.42189        0.770860722      38.6369076       
1864             0.774731061      38.2890655       0.619712601      -50.7712148      0.619712601      -50.7712148      0.774731061      38.2890655       
1884.7           0.778530054      37.94497         0.61498682       -51.1166539      0.61498682       -51.1166539      0.778530054      37.94497         
1905.4           0.782259057      37.6045724       0.610290026      -51.4582571      0.610290026      -51.4582571      0.782259057      37.6045724       
1926.1           0.785919407      37.2678244       0.605622418      -51.7960738      0.605622418      -51.7960738      0.785919407      37.2678244       
1946.8           0.789512416      36.9346779       0.600984169      -52.1301531      0.600984169      -52.1301531      0.789512416      36.9346779       
1967.5           0.79303938       36.6050854       0.596375428      -52.4605434      0.596375428      -52.4605434      0.79303938       36.6050854       
1988.2           0.796501571      36.2789994       0.591796322      -52.7872929      0.591796322      -52.7872929      0.796501571      36.2789994       
2008.9           0.79990024       35.9563729       0.587246954      -53.1104495      0.587246954      -53.1104495      0.79990024       35.9563729       
2029.6           0.803236619      35.6371594       0.582727409      -53.4300604      0.582727409      -53.4300604      0.803236619      35.6371594       
2050.3           0.806511916      35.3213126       0.57823775       -53.7461723      0.57823775       -53.7461723      0.806511916      35.3213126       
2071             0.80972732       35.0087867       0.573778023      -54.0588316      0.573778023      -54.0588316      0.80972732       35.0087867       
2091.7           0.812883999      34.6995364       0.569348255      -54.3680841      0.569348255      -54.3680841      0.812883999      34.6995364       
2112.4           0.8159831        34.3935167       0.564948456      -54.673975       0.564948456      -54.673975       0.8159831        34.3935167       
2133.1           0.819025748      34.0906832       0.560578621      -54.9765493      0.560578621      -54.9765493      0.819025748      34.0906832       
2153.8           0.822013048      33.7909918       0.55623873       -55.2758511      0.55623873       -55.2758511      0.822013048      33.7909918       
2174.5           0.824946087      33.4943991       0.551928748      -55.5719242      0.551928748      -55.5719242      0.824946087      33.4943991       
2195.2           0.827825927      33.200862        0.547648626      -55.8648117      0.547648626      -55.8648117      0.827825927      33.200862        
2215.9           0.830653613      32.9103378       0.543398303      -56.1545564      0.543398303      -56.1545564      0.830653613      32.9103378       
2236.6           0.83343017       32.6227847       0.539177705      -56.4412002      0.539177705      -56.4412002      0.83343017       32.6227847       
2257.3           0.836156601      32.3381608       0.534986749      -56.7247849      0.534986749      -56.7247849      0.836156601      32.3381608       
2278             0.838833893      32.0564253       0.530825337      -57.0053512      0.530825337      -57.0053512      0.838833893      32.0564253       
2298.7           0.841463011      31.7775374       0.526693367      -57.2829398      0.526693367      -57.2829398      0.841463011      31.7775374       
2319.4           0.844044902      31.5014572       0.522590721      -57.5575904      0.522590721      -57.5575904      0.844044902      31.5014572       
2340.1           0.846580493      31.228145        0.518517276      -57.8293424      0.518517276      -57.8293424      0.846580493      31.228145        
2360.8           0.849070694      30.9575619       0.514472901      -58.0982345      0.514472901      -58.0982345      0.849070694      30.9575619       
2381.5           0.851516396      30.6896694       0.510457454      -58.364305       0.510457454      -58.364305       0.851516396      30.6896694       
2402.2           0.853918473      30.4244292       0.50647079       -58.6275914      0.50647079       -58.6275914      0.853918473      30.4244292       
2422.9           0.856277779      30.1618041       0.502512754      -58.8881308      0.502512754      -58.8881308      0.856277779      30.1618041       
2443.6           0.858595153      29.9017569       0.498583185      -59.1459598      0.498583185      -59.1459598      0.858595153      29.9017569       
2464.3           0.860871416      29.6442512       0.494681917      -59.4011143      0.494681917      -59.4011143      0.860871416      29.6442512       
2485             0.86310737       29.389251        0.490808779      -59.6536297      0.490808779      -59.6536297      0.86310737       29.389251        
2505.7           0.865303805      29.1367207       0.486963594      -59.903541       0.486963594      -59.903541       0.865303805      29.1367207       
2526.4           0.86746149       28.8866255       0.483146181      -60.1508823      0.483146181      -60.1508823      0.86746149       28.8866255       
2547.1           0.86958118       28.6389308       0.479356353      -60.3956876      0.479356353      -60.3956876      0.86958118       28.6389308       
2567.8           0.871663616      28.3936027       0.475593921      -60.6379899      0.475593921      -60.6379899      0.871663616      28.3936027       
2588.5           0.873709519      28.1506077       0.471858692      -60.8778221      0.471858692      -60.8778221      0.873709519      28.1506077       
2609.2           0.8757196        27.9099127       0.468150469      -61.1152162      0.468150469      -61.1152162      0.8757196        27.9099127       
2629.9           0.877694552      27.6714852       0.464469053      -61.3502039      0.464469053      -61.3502039      0.877694552      27.6714852       
