! Coilcraft 0402CS-30N Chip Inductor				
! 22 July 2002			
# MHZ S MA R 50
!Freq             MagS11           AngS11           MagS21           AngS21           MagS12           AngS12           MagS22           AngS22
1                0.00220552633    58.5050088       0.99884955       -0.107875819     0.99884955       -0.107875819     0.00220552633    58.5050088       
14.21            0.0269620405     80.0304009       0.995686352      -1.52825689      0.995686352      -1.52825689      0.0269620405     80.0304009       
27.42            0.0516252732     81.0144923       0.993246706      -2.94276872      0.993246706      -2.94276872      0.0516252732     81.0144923       
40.63            0.0761522666     80.6995085       0.99054777       -4.35111547      0.99054777       -4.35111547      0.0761522666     80.6995085       
53.84            0.100508561      79.9563725       0.987443662      -5.75222924      0.987443662      -5.75222924      0.100508561      79.9563725       
67.05            0.124658553      79.0147067       0.983885475      -7.14487375      0.983885475      -7.14487375      0.124658553      79.0147067       
80.26            0.148566912      77.9654563       0.979856783      -8.52776905      0.979856783      -8.52776905      0.148566912      77.9654563       
93.47            0.172199424      76.8531979       0.975356456      -9.89964252      0.975356456      -9.89964252      0.172199424      76.8531979       
106.68           0.195523515      75.7029728       0.970392125      -11.2592563      0.970392125      -11.2592563      0.195523515      75.7029728       
119.89           0.218508628      74.5302749       0.964977085      -12.6054249      0.964977085      -12.6054249      0.218508628      74.5302749       
133.1            0.241126479      73.3454104       0.959128592      -13.9370266      0.959128592      -13.9370266      0.241126479      73.3454104       
146.31           0.263351244      72.1556294       0.952866774      -15.2530126      0.952866774      -15.2530126      0.263351244      72.1556294       
159.52           0.285159692      70.96626         0.946213879      -16.5524122      0.946213879      -16.5524122      0.285159692      70.96626         
172.73           0.306531248      69.7813537       0.939193696      -17.834338       0.939193696      -17.834338       0.306531248      69.7813537       
185.94           0.327448027      68.6040723       0.931831091      -19.0979873      0.931831091      -19.0979873      0.327448027      68.6040723       
199.15           0.34789482       67.4369326       0.924151622      -20.3426442      0.924151622      -20.3426442      0.34789482       67.4369326       
212.36           0.367859045      66.2819651       0.9161812        -21.567679       0.9161812        -21.567679       0.367859045      66.2819651       
225.57           0.387330675      65.1408224       0.907945809      -22.7725474      0.907945809      -22.7725474      0.387330675      65.1408224       
238.78           0.406302128      64.0148553       0.899471253      -23.9567888      0.899471253      -23.9567888      0.406302128      64.0148553       
251.99           0.424768154      62.9051675       0.890782945      -25.1200236      0.890782945      -25.1200236      0.424768154      62.9051675       
265.2            0.442725689      61.8126566       0.88190572       -26.2619499      0.88190572       -26.2619499      0.442725689      61.8126566       
278.41           0.460173712      60.7380457       0.872863686      -27.3823399      0.872863686      -27.3823399      0.460173712      60.7380457       
291.62           0.477113081      59.6819081       0.863680096      -28.4810362      0.863680096      -28.4810362      0.477113081      59.6819081       
304.83           0.493546376      58.6446872       0.854377244      -29.5579468      0.854377244      -29.5579468      0.493546376      58.6446872       
318.04           0.509477733      57.6267136       0.84497639       -30.6130412      0.84497639       -30.6130412      0.509477733      57.6267136       
331.25           0.524912681      56.6282184       0.835497698      -31.6463455      0.835497698      -31.6463455      0.524912681      56.6282184       
344.46           0.539857987      55.6493459       0.825960199      -32.657938       0.825960199      -32.657938       0.539857987      55.6493459       
357.67           0.554321497      54.6901638       0.816381769      -33.6479443      0.816381769      -33.6479443      0.554321497      54.6901638       
370.88           0.568311994      53.7506723       0.806779119      -34.616533       0.806779119      -34.616533       0.568311994      53.7506723       
384.09           0.581839059      52.8308126       0.797167802      -35.5639113      0.797167802      -35.5639113      0.581839059      52.8308126       
397.3            0.594912935      51.930474        0.787562224      -36.4903206      0.787562224      -36.4903206      0.594912935      51.930474        
410.51           0.607544416      51.0495005       0.777975675      -37.3960328      0.777975675      -37.3960328      0.607544416      51.0495005       
423.72           0.619744726      50.187697        0.768420355      -38.2813462      0.768420355      -38.2813462      0.619744726      50.187697        
436.93           0.631525424      49.3448342       0.758907418      -39.146582       0.758907418      -39.146582       0.631525424      49.3448342       
450.14           0.642898308      48.5206538       0.749447007      -39.9920811      0.749447007      -39.9920811      0.642898308      48.5206538       
463.35           0.653875332      47.7148728       0.740048307      -40.8182005      0.740048307      -40.8182005      0.653875332      47.7148728       
476.56           0.664468535      46.9271871       0.730719591      -41.6253111      0.730719591      -41.6253111      0.664468535      46.9271871       
489.77           0.674689969      46.1572756       0.721468267      -42.4137945      0.721468267      -42.4137945      0.674689969      46.1572756       
502.98           0.684551648      45.404803        0.712300935      -43.1840408      0.712300935      -43.1840408      0.684551648      45.404803        
516.19           0.69406549       44.6694227       0.70322343       -43.9364464      0.70322343       -43.9364464      0.69406549       44.6694227       
529.4            0.703243282      43.9507793       0.694240877      -44.671412       0.694240877      -44.671412       0.703243282      43.9507793       
542.61           0.712096635      43.2485113       0.685357739      -45.3893407      0.685357739      -45.3893407      0.712096635      43.2485113       
555.82           0.720636956      42.5622526       0.676577864      -46.0906366      0.676577864      -46.0906366      0.720636956      42.5622526       
569.03           0.728875422      41.8916344       0.667904533      -46.775703       0.667904533      -46.775703       0.728875422      41.8916344       
582.24           0.736822957      41.2362871       0.659340499      -47.4449418      0.659340499      -47.4449418      0.736822957      41.2362871       
595.45           0.744490217      40.5958414       0.650888036      -48.0987516      0.650888036      -48.0987516      0.744490217      40.5958414       
608.66           0.751887572      39.9699296       0.642548974      -48.7375273      0.642548974      -48.7375273      0.751887572      39.9699296       
621.87           0.759025103      39.3581866       0.634324741      -49.3616592      0.634324741      -49.3616592      0.759025103      39.3581866       
635.08           0.765912588      38.7602511       0.626216393      -49.9715317      0.626216393      -49.9715317      0.765912588      38.7602511       
648.29           0.7725595        38.1757658       0.618224653      -50.5675237      0.618224653      -50.5675237      0.7725595        38.1757658       
661.5            0.778975008      37.6043787       0.610349941      -51.1500071      0.610349941      -51.1500071      0.778975008      37.6043787       
674.71           0.785167971      37.0457435       0.602592401      -51.719347       0.602592401      -51.719347       0.785167971      37.0457435       
687.92           0.791146943      36.4995197       0.59495193       -52.275901       0.59495193       -52.275901       0.791146943      36.4995197       
701.13           0.796920175      35.9653733       0.587428204      -52.8200192      0.587428204      -52.8200192      0.796920175      35.9653733       
714.34           0.80249562       35.4429773       0.580020699      -53.3520436      0.580020699      -53.3520436      0.80249562       35.4429773       
727.55           0.807880936      34.9320115       0.572728714      -53.8723086      0.572728714      -53.8723086      0.807880936      34.9320115       
740.76           0.813083492      34.4321631       0.565551393      -54.3811401      0.565551393      -54.3811401      0.813083492      34.4321631       
753.97           0.818110377      33.9431264       0.558487738      -54.8788559      0.558487738      -54.8788559      0.818110377      33.9431264       
767.18           0.822968405      33.4646034       0.551536632      -55.3657656      0.551536632      -55.3657656      0.822968405      33.4646034       
780.39           0.827664122      32.9963034       0.544696848      -55.8421708      0.544696848      -55.8421708      0.827664122      32.9963034       
793.6            0.832203817      32.5379433       0.537967069      -56.3083646      0.537967069      -56.3083646      0.832203817      32.5379433       
806.81           0.836593524      32.0892474       0.531345896      -56.7646322      0.531345896      -56.7646322      0.836593524      32.0892474       
820.02           0.840839038      31.6499476       0.524831864      -57.2112506      0.524831864      -57.2112506      0.840839038      31.6499476       
833.23           0.844945917      31.2197832       0.518423449      -57.6484892      0.518423449      -57.6484892      0.844945917      31.2197832       
846.44           0.848919491      30.7985004       0.51211908       -58.0766093      0.51211908       -58.0766093      0.848919491      30.7985004       
859.65           0.852764873      30.3858532       0.505917145      -58.4958648      0.505917145      -58.4958648      0.852764873      30.3858532       
872.86           0.856486966      29.9816021       0.499816003      -58.9065018      0.499816003      -58.9065018      0.856486966      29.9816021       
886.07           0.86009047       29.5855151       0.493813988      -59.3087592      0.493813988      -59.3087592      0.86009047       29.5855151       
899.28           0.86357989       29.1973665       0.487909414      -59.7028688      0.487909414      -59.7028688      0.86357989       29.1973665       
912.49           0.866959544      28.8169378       0.482100587      -60.0890551      0.482100587      -60.0890551      0.866959544      28.8169378       
925.7            0.870233571      28.4440166       0.476385803      -60.4675361      0.476385803      -60.4675361      0.870233571      28.4440166       
938.91           0.873405936      28.0783971       0.470763357      -60.8385227      0.470763357      -60.8385227      0.873405936      28.0783971       
952.12           0.876480443      27.7198797       0.465231546      -61.2022197      0.465231546      -61.2022197      0.876480443      27.7198797       
965.33           0.879460733      27.3682709       0.459788672      -61.5588252      0.459788672      -61.5588252      0.879460733      27.3682709       
978.54           0.882350298      27.0233829       0.454433047      -61.9085314      0.454433047      -61.9085314      0.882350298      27.0233829       
991.75           0.885152485      26.6850339       0.449162993      -62.2515243      0.449162993      -62.2515243      0.885152485      26.6850339       
1004.96          0.8878705        26.3530475       0.443976846      -62.5879843      0.443976846      -62.5879843      0.8878705        26.3530475       
1018.17          0.890507419      26.0272529       0.438872961      -62.9180861      0.438872961      -62.9180861      0.890507419      26.0272529       
1031.38          0.893066187      25.7074844       0.433849708      -63.2419988      0.433849708      -63.2419988      0.893066187      25.7074844       
1044.59          0.89554963       25.3935815       0.42890548       -63.5598863      0.42890548       -63.5598863      0.89554963       25.3935815       
1057.8           0.897960456      25.0853885       0.424038689      -63.8719075      0.424038689      -63.8719075      0.897960456      25.0853885       
1071.01          0.900301263      24.7827548       0.419247771      -64.178216       0.419247771      -64.178216       0.900301263      24.7827548       
1084.22          0.90257454       24.4855342       0.414531185      -64.4789609      0.414531185      -64.4789609      0.90257454       24.4855342       
1097.43          0.904782677      24.1935852       0.409887414      -64.7742865      0.409887414      -64.7742865      0.904782677      24.1935852       
1110.64          0.906927965      23.9067704       0.405314968      -65.0643325      0.405314968      -65.0643325      0.906927965      23.9067704       
1123.85          0.909012601      23.6249569       0.400812381      -65.3492343      0.400812381      -65.3492343      0.909012601      23.6249569       
1137.06          0.911038695      23.3480157       0.396378214      -65.6291232      0.396378214      -65.6291232      0.911038695      23.3480157       
1150.27          0.91300827       23.075822        0.392011053      -65.9041263      0.392011053      -65.9041263      0.91300827       23.075822        
1163.48          0.914923268      22.8082545       0.387709513      -66.1743667      0.387709513      -66.1743667      0.914923268      22.8082545       
1176.69          0.916785555      22.5451958       0.383472235      -66.4399637      0.383472235      -66.4399637      0.916785555      22.5451958       
1189.9           0.91859692       22.2865322       0.379297885      -66.701033       0.379297885      -66.701033       0.91859692       22.2865322       
1203.11          0.920359082      22.0321531       0.375185159      -66.9576866      0.375185159      -66.9576866      0.920359082      22.0321531       
1216.32          0.922073693      21.7819518       0.371132778      -67.2100332      0.371132778      -67.2100332      0.922073693      21.7819518       
1229.53          0.923742337      21.5358242       0.367139489      -67.458178       0.367139489      -67.458178       0.923742337      21.5358242       
1242.74          0.925366538      21.2936698       0.363204066      -67.702223       0.363204066      -67.702223       0.925366538      21.2936698       
1255.95          0.926947761      21.0553911       0.35932531       -67.9422673      0.35932531       -67.9422673      0.926947761      21.0553911       
1269.16          0.928487413      20.8208932       0.355502048      -68.1784067      0.355502048      -68.1784067      0.928487413      20.8208932       
1282.37          0.929986846      20.5900843       0.35173313       -68.4107341      0.35173313       -68.4107341      0.929986846      20.5900843       
1295.58          0.931447361      20.3628753       0.348017434      -68.6393399      0.348017434      -68.6393399      0.931447361      20.3628753       
1308.79          0.932870208      20.1391798       0.344353863      -68.8643113      0.344353863      -68.8643113      0.932870208      20.1391798       
1322             0.93425659       19.9189138       0.340741343      -69.0857334      0.340741343      -69.0857334      0.93425659       19.9189138       
1335.21          0.935607665      19.7019958       0.337178825      -69.3036883      0.337178825      -69.3036883      0.935607665      19.7019958       
1348.42          0.936924546      19.4883468       0.333665282      -69.5182558      0.333665282      -69.5182558      0.936924546      19.4883468       
1361.63          0.938208305      19.2778901       0.330199714      -69.7295135      0.330199714      -69.7295135      0.938208305      19.2778901       
1374.84          0.939459973      19.0705512       0.32678114       -69.9375364      0.32678114       -69.9375364      0.939459973      19.0705512       
1388.05          0.940680544      18.8662576       0.323408605      -70.1423976      0.323408605      -70.1423976      0.940680544      18.8662576       
1401.26          0.941870973      18.6649391       0.320081172      -70.3441676      0.320081172      -70.3441676      0.941870973      18.6649391       
1414.47          0.943032181      18.4665275       0.31679793       -70.5429153      0.31679793       -70.5429153      0.943032181      18.4665275       
1427.68          0.944165057      18.2709565       0.313557985      -70.7387074      0.313557985      -70.7387074      0.944165057      18.2709565       
1440.89          0.945270455      18.0781617       0.310360467      -70.9316085      0.310360467      -70.9316085      0.945270455      18.0781617       
1454.1           0.946349199      17.8880804       0.307204524      -71.1216815      0.307204524      -71.1216815      0.946349199      17.8880804       
1467.31          0.947402083      17.7006519       0.304089325      -71.3089875      0.304089325      -71.3089875      0.947402083      17.7006519       
1480.52          0.948429873      17.515817        0.301014058      -71.4935856      0.301014058      -71.4935856      0.948429873      17.515817        
1493.73          0.949433308      17.3335184       0.297977929      -71.6755336      0.297977929      -71.6755336      0.949433308      17.3335184       
1506.94          0.950413098      17.1537001       0.294980165      -71.8548873      0.294980165      -71.8548873      0.950413098      17.1537001       
1520.15          0.951369932      16.9763078       0.292020008      -72.0317009      0.292020008      -72.0317009      0.951369932      16.9763078       
1533.36          0.952304472      16.8012888       0.289096719      -72.2060274      0.289096719      -72.2060274      0.952304472      16.8012888       
1546.57          0.953217358      16.6285917       0.286209578      -72.3779179      0.286209578      -72.3779179      0.953217358      16.6285917       
1559.78          0.954109206      16.4581664       0.283357878      -72.5474222      0.283357878      -72.5474222      0.954109206      16.4581664       
1572.99          0.954980614      16.2899645       0.280540932      -72.7145889      0.280540932      -72.7145889      0.954980614      16.2899645       
1586.2           0.955832156      16.1239387       0.277758067      -72.8794648      0.277758067      -72.8794648      0.955832156      16.1239387       
1599.41          0.956664389      15.9600428       0.275008626      -73.0420959      0.275008626      -73.0420959      0.956664389      15.9600428       
1612.62          0.957477849      15.7982322       0.272291967      -73.2025264      0.272291967      -73.2025264      0.957477849      15.7982322       
1625.83          0.958273054      15.6384633       0.269607464      -73.3607997      0.269607464      -73.3607997      0.958273054      15.6384633       
1639.04          0.959050507      15.4806936       0.266954505      -73.5169577      0.266954505      -73.5169577      0.959050507      15.4806936       
1652.25          0.959810692      15.3248818       0.264332491      -73.6710413      0.264332491      -73.6710413      0.959810692      15.3248818       
1665.46          0.960554076      15.1709877       0.261740837      -73.8230902      0.261740837      -73.8230902      0.960554076      15.1709877       
1678.67          0.961281113      15.0189722       0.259178974      -73.973143       0.259178974      -73.973143       0.961281113      15.0189722       
