! Coilcraft 0402CS-18N Chip Inductor				
! 22 July 2002			
# MHZ S MA R 50
!Freq             MagS11           AngS11           MagS21           AngS21           MagS12           AngS12           MagS22           AngS22
1                0.00134566382    57.0588054       0.999268896      -0.0647526392    0.999268896      -0.0647526392    0.00134566382    57.0588054       
19.2             0.02183535       81.2436733       0.996909565      -1.24042181      0.996909565      -1.24042181      0.02183535       81.2436733       
37.4             0.0422795258     82.2402178       0.995173546      -2.41260959      0.995173546      -2.41260959      0.0422795258     82.2402178       
55.6             0.0626455181     82.0487823       0.99327386       -3.58122024      0.99327386       -3.58122024      0.0626455181     82.0487823       
73.8             0.0829136001     81.4696614       0.991098888      -4.74566337      0.991098888      -4.74566337      0.0829136001     81.4696614       
92               0.10306319       80.7102496       0.988608922      -5.9052355       0.988608922      -5.9052355       0.10306319       80.7102496       
110.2            0.123073543      79.8518651       0.985787765      -7.05919521      0.985787765      -7.05919521      0.123073543      79.8518651       
128.4            0.142924197      78.93401         0.982630013      -8.2067927       0.982630013      -8.2067927       0.142924197      78.93401         
146.6            0.162595252      77.9786692       0.979136299      -9.34728539      0.979136299      -9.34728539      0.162595252      77.9786692       
164.8            0.182067568      76.9993114       0.975311105      -10.4799475      0.975311105      -10.4799475      0.182067568      76.9993114       
183              0.201322912      76.0048061       0.971161596      -11.6040769      0.971161596      -11.6040769      0.201322912      76.0048061       
201.2            0.220344068      75.001335        0.966696925      -12.7189995      0.966696925      -12.7189995      0.220344068      75.001335        
219.4            0.239114929      73.9934064       0.961927769      -13.8240735      0.961927769      -13.8240735      0.239114929      73.9934064       
237.6            0.257620558      72.9844319       0.956866006      -14.9186923      0.956866006      -14.9186923      0.257620558      72.9844319       
255.8            0.275847235      71.9770718       0.951524449      -16.0022861      0.951524449      -16.0022861      0.275847235      71.9770718       
274              0.293782495      70.9734513       0.945916647      -17.0743241      0.945916647      -17.0743241      0.293782495      70.9734513       
292.2            0.311415136      69.975301        0.940056706      -18.1343154      0.940056706      -18.1343154      0.311415136      69.975301        
310.4            0.328735228      68.984052        0.933959138      -19.1818095      0.933959138      -19.1818095      0.328735228      68.984052        
328.6            0.345734104      68.0009007       0.927638723      -20.2163972      0.927638723      -20.2163972      0.345734104      68.0009007       
346.8            0.362404337      67.0268559       0.92111039       -21.2377098      0.92111039       -21.2377098      0.362404337      67.0268559       
365              0.378739714      66.0627721       0.914389112      -22.2454191      0.914389112      -22.2454191      0.378739714      66.0627721       
383.2            0.394735199      65.1093752       0.907489803      -23.239237       0.907489803      -23.239237       0.394735199      65.1093752       
401.4            0.410386889      64.1672819       0.900427237      -24.218914       0.900427237      -24.218914       0.410386889      64.1672819       
419.6            0.425691959      63.2370141       0.893215969      -25.1842386      0.893215969      -25.1842386      0.425691959      63.2370141       
437.8            0.440648616      62.3190117       0.885870268      -26.1350359      0.885870268      -26.1350359      0.440648616      62.3190117       
456              0.455256033      61.4136416       0.878404058      -27.071166       0.878404058      -27.071166       0.455256033      61.4136416       
474.2            0.46951429       60.5212066       0.870830869      -27.9925227      0.870830869      -27.9925227      0.46951429       60.5212066       
492.4            0.483424315      59.6419515       0.863163795      -28.8990315      0.863163795      -28.8990315      0.483424315      59.6419515       
510.6            0.496987814      58.7760695       0.855415458      -29.7906484      0.855415458      -29.7906484      0.496987814      58.7760695       
528.8            0.510207212      57.9237074       0.847597983      -30.6673575      0.847597983      -30.6673575      0.510207212      57.9237074       
547              0.523085591      57.0849695       0.839722972      -31.5291697      0.839722972      -31.5291697      0.523085591      57.0849695       
565.2            0.53562662       56.2599224       0.831801494      -32.3761208      0.831801494      -32.3761208      0.53562662       56.2599224       
583.4            0.547834506      55.4485983       0.823844071      -33.2082694      0.823844071      -33.2082694      0.547834506      55.4485983       
601.6            0.559713927      54.6509983       0.815860676      -34.0256958      0.815860676      -34.0256958      0.559713927      54.6509983       
619.8            0.571269979      53.8670957       0.807860729      -34.8284992      0.807860729      -34.8284992      0.571269979      53.8670957       
638              0.582508123      53.0968384       0.799853105      -35.6167973      0.799853105      -35.6167973      0.582508123      53.0968384       
656.2            0.593434137      52.3401518       0.791846133      -36.3907234      0.791846133      -36.3907234      0.593434137      52.3401518       
674.4            0.604054062      51.5969409       0.783847613      -37.150426       0.783847613      -37.150426       0.604054062      51.5969409       
692.6            0.614374165      50.8670927       0.775864824      -37.8960663      0.775864824      -37.8960663      0.614374165      50.8670927       
710.8            0.624400894      50.1504782       0.767904539      -38.6278173      0.767904539      -38.6278173      0.624400894      50.1504782       
729              0.634140838      49.4469539       0.759973038      -39.3458624      0.759973038      -39.3458624      0.634140838      49.4469539       
747.2            0.643600696      48.7563642       0.752076131      -40.0503941      0.752076131      -40.0503941      0.643600696      48.7563642       
765.4            0.652787243      48.0785423       0.744219168      -40.7416124      0.744219168      -40.7416124      0.652787243      48.0785423       
783.6            0.6617073        47.4133119       0.736407066      -41.4197244      0.736407066      -41.4197244      0.6617073        47.4133119       
801.8            0.670367706      46.7604887       0.728644322      -42.0849426      0.728644322      -42.0849426      0.670367706      46.7604887       
820              0.678775297      46.1198816       0.720935036      -42.7374843      0.720935036      -42.7374843      0.678775297      46.1198816       
838.2            0.686936885      45.4912936       0.713282929      -43.3775702      0.713282929      -43.3775702      0.686936885      45.4912936       
856.4            0.694859234      44.874523        0.705691367      -44.0054243      0.705691367      -44.0054243      0.694859234      44.874523        
874.6            0.702549047      44.2693644       0.698163372      -44.6212725      0.698163372      -44.6212725      0.702549047      44.2693644       
892.8            0.710012951      43.6756094       0.690701652      -45.2253422      0.690701652      -45.2253422      0.710012951      43.6756094       
911              0.717257481      43.0930476       0.68330861       -45.8178615      0.68330861       -45.8178615      0.717257481      43.0930476       
929.2            0.724289075      42.5214672       0.675986369      -46.3990587      0.675986369      -46.3990587      0.724289075      42.5214672       
947.4            0.731114055      41.9606554       0.668736786      -46.9691617      0.668736786      -46.9691617      0.731114055      41.9606554       
965.6            0.737738627      41.4103995       0.661561473      -47.5283977      0.661561473      -47.5283977      0.737738627      41.4103995       
983.8            0.744168871      40.8704868       0.654461808      -48.0769924      0.654461808      -48.0769924      0.744168871      40.8704868       
1002             0.750410735      40.3407058       0.647438956      -48.61517        0.647438956      -48.61517        0.750410735      40.3407058       
1020.2           0.756470034      39.8208459       0.640493882      -49.1431525      0.640493882      -49.1431525      0.756470034      39.8208459       
1038.4           0.762352439      39.3106982       0.633627365      -49.6611598      0.633627365      -49.6611598      0.762352439      39.3106982       
1056.6           0.768063485      38.8100557       0.626840012      -50.169409       0.626840012      -50.169409       0.768063485      38.8100557       
1074.8           0.773608559      38.3187137       0.620132272      -50.6681146      0.620132272      -50.6681146      0.773608559      38.3187137       
1093             0.778992908      37.8364697       0.613504448      -51.1574879      0.613504448      -51.1574879      0.778992908      37.8364697       
1111.2           0.784221632      37.3631241       0.606956708      -51.637737       0.606956708      -51.637737       0.784221632      37.3631241       
1129.4           0.789299688      36.8984801       0.600489094      -52.1090667      0.600489094      -52.1090667      0.789299688      36.8984801       
1147.6           0.79423189       36.4423438       0.594101537      -52.5716783      0.594101537      -52.5716783      0.79423189       36.4423438       
1165.8           0.799022908      35.9945247       0.587793865      -53.0257694      0.587793865      -53.0257694      0.799022908      35.9945247       
1184             0.803677273      35.5548352       0.581565809      -53.4715341      0.581565809      -53.4715341      0.803677273      35.5548352       
1202.2           0.808199379      35.1230915       0.575417015      -53.9091628      0.575417015      -53.9091628      0.808199379      35.1230915       
1220.4           0.812593479      34.6991129       0.569347051      -54.3388418      0.569347051      -54.3388418      0.812593479      34.6991129       
1238.6           0.816863697      34.2827223       0.563355415      -54.760754       0.563355415      -54.760754       0.816863697      34.2827223       
1256.8           0.821014022      33.8737461       0.557441538      -55.1750782      0.557441538      -55.1750782      0.821014022      33.8737461       
1275             0.825048317      33.4720144       0.551604798      -55.5819894      0.551604798      -55.5819894      0.825048317      33.4720144       
1293.2           0.828970317      33.0773606       0.54584452       -55.9816588      0.54584452       -55.9816588      0.828970317      33.0773606       
1311.4           0.832783637      32.6896218       0.540159981      -56.3742537      0.540159981      -56.3742537      0.832783637      32.6896218       
1329.6           0.836491771      32.3086389       0.534550421      -56.7599378      0.534550421      -56.7599378      0.836491771      32.3086389       
1347.8           0.840098095      31.934256        0.529015042      -57.1388707      0.529015042      -57.1388707      0.840098095      31.934256        
1366             0.843605874      31.5663208       0.523553015      -57.5112085      0.523553015      -57.5112085      0.843605874      31.5663208       
1384.2           0.847018263      31.2046848       0.518163485      -57.8771036      0.518163485      -57.8771036      0.847018263      31.2046848       
1402.4           0.85033831       30.8492026       0.512845571      -58.2367045      0.512845571      -58.2367045      0.85033831       30.8492026       
1420.6           0.853568956      30.4997324       0.507598375      -58.5901565      0.507598375      -58.5901565      0.853568956      30.4997324       
1438.8           0.856713048      30.1561358       0.502420981      -58.937601       0.502420981      -58.937601       0.856713048      30.1561358       
1457             0.859773329      29.8182777       0.497312458      -59.279176       0.497312458      -59.279176       0.859773329      29.8182777       
1475.2           0.862752451      29.4860262       0.492271865      -59.6150162      0.492271865      -59.6150162      0.862752451      29.4860262       
1493.4           0.865652975      29.1592527       0.487298253      -59.9452527      0.487298253      -59.9452527      0.865652975      29.1592527       
1511.6           0.868477374      28.8378319       0.482390665      -60.2700136      0.482390665      -60.2700136      0.868477374      28.8378319       
1529.8           0.871228033      28.5216414       0.477548142      -60.5894235      0.477548142      -60.5894235      0.871228033      28.5216414       
1548             0.873907256      28.2105619       0.472769719      -60.9036039      0.472769719      -60.9036039      0.873907256      28.2105619       
1566.2           0.876517269      27.9044772       0.468054435      -61.2126732      0.468054435      -61.2126732      0.876517269      27.9044772       
1584.4           0.879060219      27.6032739       0.463401326      -61.5167468      0.463401326      -61.5167468      0.879060219      27.6032739       
1602.6           0.881538179      27.3068416       0.458809433      -61.8159372      0.458809433      -61.8159372      0.881538179      27.3068416       
1620.8           0.883953151      27.0150725       0.454277798      -62.1103538      0.454277798      -62.1103538      0.883953151      27.0150725       
1639             0.886307067      26.7278618       0.449805471      -62.4001033      0.449805471      -62.4001033      0.886307067      26.7278618       
1657.2           0.888601792      26.4451071       0.445391505      -62.6852896      0.445391505      -62.6852896      0.888601792      26.4451071       
1675.4           0.890839129      26.1667089       0.441034961      -62.9660139      0.441034961      -62.9660139      0.890839129      26.1667089       
1693.6           0.893020816      25.8925699       0.436734907      -63.2423749      0.436734907      -63.2423749      0.893020816      25.8925699       
1711.8           0.895148532      25.6225957       0.432490421      -63.5144684      0.432490421      -63.5144684      0.895148532      25.6225957       
1730             0.897223899      25.3566939       0.428300589      -63.7823881      0.428300589      -63.7823881      0.897223899      25.3566939       
1748.2           0.899248483      25.0947749       0.424164506      -64.0462251      0.424164506      -64.0462251      0.899248483      25.0947749       
1766.4           0.901223797      24.836751        0.420081278      -64.3060679      0.420081278      -64.3060679      0.901223797      24.836751        
1784.6           0.903151301      24.5825369       0.416050021      -64.5620031      0.416050021      -64.5620031      0.903151301      24.5825369       
1802.8           0.905032406      24.3320497       0.412069863      -64.8141147      0.412069863      -64.8141147      0.905032406      24.3320497       
1821             0.906868475      24.0852083       0.408139942      -65.0624846      0.408139942      -65.0624846      0.906868475      24.0852083       
1839.2           0.908660824      23.8419339       0.404259409      -65.3071928      0.404259409      -65.3071928      0.908660824      23.8419339       
1857.4           0.910410727      23.6021496       0.400427426      -65.548317       0.400427426      -65.548317       0.910410727      23.6021496       
1875.6           0.912119411      23.3657805       0.396643168      -65.7859327      0.396643168      -65.7859327      0.912119411      23.3657805       
1893.8           0.913788065      23.1327536       0.39290582       -66.0201139      0.39290582       -66.0201139      0.913788065      23.1327536       
1912             0.915417837      22.9029978       0.389214582      -66.2509323      0.389214582      -66.2509323      0.915417837      22.9029978       
1930.2           0.917009836      22.6764438       0.385568665      -66.478458       0.385568665      -66.478458       0.917009836      22.6764438       
1948.4           0.918565136      22.4530241       0.381967292      -66.7027589      0.381967292      -66.7027589      0.918565136      22.4530241       
1966.6           0.920084773      22.2326728       0.378409701      -66.9239017      0.378409701      -66.9239017      0.920084773      22.2326728       
1984.8           0.92156975       22.0153258       0.374895139      -67.1419509      0.374895139      -67.1419509      0.92156975       22.0153258       
2003             0.923021036      21.8009205       0.37142287       -67.3569697      0.37142287       -67.3569697      0.923021036      21.8009205       
2021.2           0.92443957       21.589396        0.367992165      -67.5690193      0.367992165      -67.5690193      0.92443957       21.589396        
2039.4           0.925826258      21.3806928       0.364602312      -67.7781596      0.364602312      -67.7781596      0.925826258      21.3806928       
2057.6           0.927181977      21.174753        0.36125261       -67.984449       0.36125261       -67.984449       0.927181977      21.174753        
2075.8           0.928507577      20.9715201       0.357942369      -68.1879442      0.357942369      -68.1879442      0.928507577      20.9715201       
2094             0.929803879      20.7709391       0.354670913      -68.3887006      0.354670913      -68.3887006      0.929803879      20.7709391       
2112.2           0.931071677      20.5729561       0.351437577      -68.5867722      0.351437577      -68.5867722      0.931071677      20.5729561       
2130.4           0.932311741      20.3775189       0.348241709      -68.7822115      0.348241709      -68.7822115      0.932311741      20.3775189       
2148.6           0.933524815      20.1845764       0.345082667      -68.9750698      0.345082667      -68.9750698      0.933524815      20.1845764       
2166.8           0.934711621      19.9940787       0.341959824      -69.1653971      0.341959824      -69.1653971      0.934711621      19.9940787       
2185             0.935872855      19.8059773       0.33887256       -69.353242       0.33887256       -69.353242       0.935872855      19.8059773       
2203.2           0.937009195      19.6202247       0.33582027       -69.5386521      0.33582027       -69.5386521      0.937009195      19.6202247       
2221.4           0.938121295      19.4367748       0.33280236       -69.7216736      0.33280236       -69.7216736      0.938121295      19.4367748       
2239.6           0.939209787      19.2555823       0.329818245      -69.9023516      0.329818245      -69.9023516      0.939209787      19.2555823       
2257.8           0.940275288      19.0766033       0.326867354      -70.0807302      0.326867354      -70.0807302      0.940275288      19.0766033       
2276             0.941318391      18.8997949       0.323949124      -70.2568522      0.323949124      -70.2568522      0.941318391      18.8997949       
2294.2           0.942339674      18.725115        0.321063003      -70.4307595      0.321063003      -70.4307595      0.942339674      18.725115        
2312.4           0.943339694      18.5525229       0.318208452      -70.6024929      0.318208452      -70.6024929      0.943339694      18.5525229       
