! Coilcraft 0402CS-1N0 Chip Inductor				
! 29 May 2002			
# MHZ S MA R 50
!Freq             MagS11           AngS11           MagS21           AngS21           MagS12           AngS12           MagS22           AngS22
1                7.67028317e-5    54.9935438       0.999956         -0.00359984165   0.999956         -0.00359984164   7.67028317e-5    54.9935435       
54.11            0.00340888698    85.4303609       0.999734186      -0.194746118     0.999734186      -0.194746118     0.00340888698    85.4303609       
107.22           0.00674416672    86.5377419       0.999615381      -0.385858332     0.999615381      -0.385858332     0.00674416672    86.5377419       
160.33           0.0100792019     86.9190186       0.999508944      -0.576954058     0.999508944      -0.576954058     0.0100792019     86.9190186       
213.44           0.0134140373     87.0678176       0.99940361       -0.76804254      0.99940361       -0.76804254      0.0134140373     87.0678176       
266.55           0.0167487415     87.1079958       0.999294978      -0.95913099      0.999294978      -0.95913099      0.0167487415     87.1079958       
319.66           0.0200833795     87.0872087       0.99918078       -1.15022571      0.99918078       -1.15022571      0.0200833795     87.0872087       
372.77           0.0234180117     87.0281981       0.999059665      -1.34133251      0.999059665      -1.34133251      0.0234180117     87.0281981       
425.88           0.0267526947     86.9433644       0.998930746      -1.53245687      0.998930746      -1.53245687      0.0267526947     86.9433644       
478.99           0.0300874818     86.8401172       0.998793406      -1.72360407      0.998793406      -1.72360407      0.0300874818     86.8401172       
532.1            0.0334224245     86.7231906       0.99864719       -1.91477921      0.99864719       -1.91477921      0.0334224245     86.7231906       
585.21           0.0367575723     86.5957685       0.998491754      -2.10598732      0.998491754      -2.10598732      0.0367575723     86.5957685       
638.32           0.0400929733     86.4600807       0.998326825      -2.29723331      0.998326825      -2.29723331      0.0400929733     86.4600807       
691.43           0.0434286742     86.3177411       0.998152184      -2.48852203      0.998152184      -2.48852203      0.0434286742     86.3177411       
744.54           0.0467647211     86.1699498       0.997967651      -2.67985827      0.997967651      -2.67985827      0.0467647211     86.1699498       
797.65           0.050101159      86.0176199       0.997773073      -2.87124678      0.997773073      -2.87124678      0.050101159      86.0176199       
850.76           0.053438032      85.86146         0.99756832       -3.06269227      0.99756832       -3.06269227      0.053438032      85.86146         
903.87           0.0567753839     85.7020288       0.997353278      -3.25419942      0.997353278      -3.25419942      0.0567753839     85.7020288       
956.98           0.0601132575     85.5397738       0.997127848      -3.44577285      0.997127848      -3.44577285      0.0601132575     85.5397738       
1010.09          0.0634516952     85.3750576       0.996891938      -3.6374172       0.996891938      -3.6374172       0.0634516952     85.3750576       
1063.2           0.066790739      85.2081775       0.996645469      -3.82913706      0.996645469      -3.82913706      0.066790739      85.2081775       
1116.31          0.0701304301     85.0393797       0.996388366      -4.020937        0.996388366      -4.020937        0.0701304301     85.0393797       
1169.42          0.0734708096     84.86887         0.99612056       -4.21282158      0.99612056       -4.21282158      0.0734708096     84.86887         
1222.53          0.0768119178     84.6968216       0.995841986      -4.40479535      0.995841986      -4.40479535      0.0768119178     84.6968216       
1275.64          0.0801537948     84.5233815       0.995552584      -4.59686281      0.995552584      -4.59686281      0.0801537948     84.5233815       
1328.75          0.0834964801     84.3486749       0.995252297      -4.78902849      0.995252297      -4.78902849      0.0834964801     84.3486749       
1381.86          0.0868400129     84.1728097       0.994941068      -4.98129687      0.994941068      -4.98129687      0.0868400129     84.1728097       
1434.97          0.0901844319     83.9958786       0.994618846      -5.17367244      0.994618846      -5.17367244      0.0901844319     83.9958786       
1488.08          0.0935297754     83.8179624       0.994285577      -5.36615967      0.994285577      -5.36615967      0.0935297754     83.8179624       
1541.19          0.0968760812     83.6391311       0.993941213      -5.55876302      0.993941213      -5.55876302      0.0968760812     83.6391311       
1594.3           0.100223387      83.459446        0.993585703      -5.75148693      0.993585703      -5.75148693      0.100223387      83.459446        
1647.41          0.10357173       83.2789611       0.993219         -5.94433583      0.993219         -5.94433583      0.10357173       83.2789611       
1700.52          0.106921146      83.0977235       0.992841055      -6.13731416      0.992841055      -6.13731416      0.106921146      83.0977235       
1753.63          0.110271671      82.915775        0.99245182       -6.33042633      0.99245182       -6.33042633      0.110271671      82.915775        
1806.74          0.113623343      82.7331526       0.99205125       -6.52367674      0.99205125       -6.52367674      0.113623343      82.7331526       
1859.85          0.116976195      82.549889        0.991639296      -6.71706978      0.991639296      -6.71706978      0.116976195      82.549889        
1912.96          0.120330262      82.3660132       0.991215912      -6.91060984      0.991215912      -6.91060984      0.120330262      82.3660132       
1966.07          0.12368558       82.181551        0.990781051      -7.10430128      0.990781051      -7.10430128      0.12368558       82.181551        
2019.18          0.127042181      81.9965254       0.990334665      -7.29814849      0.990334665      -7.29814849      0.127042181      81.9965254       
2072.29          0.1304001        81.810957        0.989876708      -7.49215579      0.989876708      -7.49215579      0.1304001        81.810957        
2125.4           0.13375937       81.624864        0.989407131      -7.68632755      0.989407131      -7.68632755      0.13375937       81.624864        
2178.51          0.137120022      81.4382627       0.988925888      -7.8806681       0.988925888      -7.8806681       0.137120022      81.4382627       
2231.62          0.14048209       81.2511676       0.988432928      -8.07518175      0.988432928      -8.07518175      0.14048209       81.2511676       
2284.73          0.143845603      81.0635917       0.987928205      -8.26987282      0.987928205      -8.26987282      0.143845603      81.0635917       
2337.84          0.147210595      80.8755465       0.987411668      -8.46474561      0.987411668      -8.46474561      0.147210595      80.8755465       
2390.95          0.150577094      80.6870424       0.986883267      -8.65980442      0.986883267      -8.65980442      0.150577094      80.6870424       
2444.06          0.153945131      80.4980885       0.986342954      -8.85505352      0.986342954      -8.85505352      0.153945131      80.4980885       
2497.17          0.157314735      80.3086929       0.985790675      -9.05049719      0.985790675      -9.05049719      0.157314735      80.3086929       
2550.28          0.160685934      80.1188628       0.985226381      -9.24613969      0.985226381      -9.24613969      0.160685934      80.1188628       
2603.39          0.164058759      79.9286045       0.984650019      -9.44198526      0.984650019      -9.44198526      0.164058759      79.9286045       
2656.5           0.167433234      79.7379236       0.984061537      -9.63803814      0.984061537      -9.63803814      0.167433234      79.7379236       
2709.61          0.170809389      79.546825        0.983460881      -9.83430257      0.983460881      -9.83430257      0.170809389      79.546825        
2762.72          0.174187249      79.3553129       0.982847997      -10.0307827      0.982847997      -10.0307827      0.174187249      79.3553129       
2815.83          0.17756684       79.1633909       0.98222283       -10.2274829      0.98222283       -10.2274829      0.17756684       79.1633909       
2868.94          0.180948188      78.9710622       0.981585325      -10.4244072      0.981585325      -10.4244072      0.180948188      78.9710622       
2922.05          0.184331316      78.7783295       0.980935427      -10.6215598      0.980935427      -10.6215598      0.184331316      78.7783295       
2975.16          0.187716249      78.5851948       0.980273077      -10.8189448      0.980273077      -10.8189448      0.187716249      78.5851948       
3028.27          0.191103009      78.3916599       0.979598219      -11.0165666      0.979598219      -11.0165666      0.191103009      78.3916599       
3081.38          0.19449162       78.1977263       0.978910795      -11.2144291      0.978910795      -11.2144291      0.19449162       78.1977263       
3134.49          0.197882103      78.0033951       0.978210744      -11.4125365      0.978210744      -11.4125365      0.197882103      78.0033951       
3187.6           0.20127448       77.8086668       0.977498008      -11.6108929      0.977498008      -11.6108929      0.20127448       77.8086668       
3240.71          0.20466877       77.613542        0.976772526      -11.8095024      0.976772526      -11.8095024      0.20466877       77.613542        
3293.82          0.208064993      77.4180208       0.976034237      -12.0083692      0.976034237      -12.0083692      0.208064993      77.4180208       
3346.93          0.211463168      77.2221031       0.975283078      -12.2074971      0.975283078      -12.2074971      0.211463168      77.2221031       
3400.04          0.214863314      77.0257887       0.974518987      -12.4068904      0.974518987      -12.4068904      0.214863314      77.0257887       
3453.15          0.218265446      76.8290768       0.973741901      -12.6065531      0.973741901      -12.6065531      0.218265446      76.8290768       
3506.26          0.221669583      76.6319669       0.972951754      -12.806489       0.972951754      -12.806489       0.221669583      76.6319669       
3559.37          0.225075739      76.4344579       0.972148481      -13.0067024      0.972148481      -13.0067024      0.225075739      76.4344579       
3612.48          0.22848393       76.2365487       0.971332018      -13.2071971      0.971332018      -13.2071971      0.22848393       76.2365487       
3665.59          0.23189417       76.0382382       0.970502296      -13.4079771      0.970502296      -13.4079771      0.23189417       76.0382382       
3718.7           0.23530647       75.8395248       0.969659249      -13.6090464      0.969659249      -13.6090464      0.23530647       75.8395248       
3771.81          0.238720845      75.640407        0.968802808      -13.8104089      0.968802808      -13.8104089      0.238720845      75.640407        
3824.92          0.242137305      75.4408831       0.967932905      -14.0120685      0.967932905      -14.0120685      0.242137305      75.4408831       
3878.03          0.245555861      75.2409514       0.96704947       -14.2140291      0.96704947       -14.2140291      0.245555861      75.2409514       
3931.14          0.248976521      75.0406099       0.966152431      -14.4162946      0.966152431      -14.4162946      0.248976521      75.0406099       
3984.25          0.252399296      74.8398566       0.965241719      -14.6188688      0.965241719      -14.6188688      0.252399296      74.8398566       
4037.36          0.255824192      74.6386894       0.964317261      -14.8217556      0.964317261      -14.8217556      0.255824192      74.6386894       
4090.47          0.259251216      74.437106        0.963378983      -15.0249587      0.963378983      -15.0249587      0.259251216      74.437106        
4143.58          0.262680374      74.2351043       0.962426813      -15.2284821      0.962426813      -15.2284821      0.262680374      74.2351043       
4196.69          0.26611167       74.0326818       0.961460677      -15.4323293      0.961460677      -15.4323293      0.26611167       74.0326818       
4249.8           0.269545108      73.8298362       0.960480499      -15.6365043      0.960480499      -15.6365043      0.269545108      73.8298362       
4302.91          0.27298069       73.6265649       0.959486204      -15.8410106      0.959486204      -15.8410106      0.27298069       73.6265649       
4356.02          0.276418419      73.4228654       0.958477715      -16.045852       0.958477715      -16.045852       0.276418419      73.4228654       
4409.13          0.279858294      73.218735        0.957454955      -16.2510322      0.957454955      -16.2510322      0.279858294      73.218735        
4462.24          0.283300314      73.0141711       0.956417847      -16.4565548      0.956417847      -16.4565548      0.283300314      73.0141711       
4515.35          0.286744479      72.8091711       0.955366311      -16.6624235      0.955366311      -16.6624235      0.286744479      72.8091711       
4568.46          0.290190785      72.6037321       0.954300268      -16.8686417      0.954300268      -16.8686417      0.290190785      72.6037321       
4621.57          0.293639228      72.3978514       0.95321964       -17.0752132      0.95321964       -17.0752132      0.293639228      72.3978514       
4674.68          0.297089803      72.1915261       0.952124344      -17.2821413      0.952124344      -17.2821413      0.297089803      72.1915261       
4727.79          0.300542504      71.9847534       0.9510143        -17.4894298      0.9510143        -17.4894298      0.300542504      71.9847534       
4780.9           0.303997322      71.7775304       0.949889426      -17.6970819      0.949889426      -17.6970819      0.303997322      71.7775304       
4834.01          0.307454249      71.5698542       0.948749639      -17.9051012      0.948749639      -17.9051012      0.307454249      71.5698542       
4887.12          0.310913275      71.3617219       0.947594856      -18.1134911      0.947594856      -18.1134911      0.310913275      71.3617219       
4940.23          0.314374389      71.1531304       0.946424993      -18.322255       0.946424993      -18.322255       0.314374389      71.1531304       
4993.34          0.317837578      70.9440769       0.945239967      -18.5313962      0.945239967      -18.5313962      0.317837578      70.9440769       
5046.45          0.321302828      70.7345583       0.944039691      -18.7409181      0.944039691      -18.7409181      0.321302828      70.7345583       
5099.56          0.324770124      70.5245717       0.94282408       -18.9508239      0.94282408       -18.9508239      0.324770124      70.5245717       
5152.67          0.328239449      70.314114        0.941593048      -19.1611169      0.941593048      -19.1611169      0.328239449      70.314114        
5205.78          0.331710785      70.1031822       0.940346508      -19.3718003      0.940346508      -19.3718003      0.331710785      70.1031822       
5258.89          0.335184114      69.8917733       0.939084374      -19.5828774      0.939084374      -19.5828774      0.335184114      69.8917733       
5312             0.338659414      69.6798843       0.937806556      -19.7943511      0.937806556      -19.7943511      0.338659414      69.6798843       
5365.11          0.342136664      69.4675121       0.936512968      -20.0062248      0.936512968      -20.0062248      0.342136664      69.4675121       
5418.22          0.34561584       69.2546537       0.935203519      -20.2185013      0.935203519      -20.2185013      0.34561584       69.2546537       
5471.33          0.349096916      69.0413061       0.933878121      -20.4311838      0.933878121      -20.4311838      0.349096916      69.0413061       
5524.44          0.352579867      68.8274663       0.932536684      -20.6442752      0.932536684      -20.6442752      0.352579867      68.8274663       
5577.55          0.356064665      68.6131312       0.931179117      -20.8577785      0.931179117      -20.8577785      0.356064665      68.6131312       
5630.66          0.359551279      68.3982979       0.92980533       -21.0716966      0.92980533       -21.0716966      0.359551279      68.3982979       
5683.77          0.363039681      68.1829633       0.928415232      -21.2860323      0.928415232      -21.2860323      0.363039681      68.1829633       
5736.88          0.366529836      67.9671244       0.927008731      -21.5007885      0.927008731      -21.5007885      0.366529836      67.9671244       
5789.99          0.37002171       67.7507784       0.925585735      -21.7159679      0.925585735      -21.7159679      0.37002171       67.7507784       
5843.1           0.373515269      67.5339222       0.924146153      -21.9315732      0.924146153      -21.9315732      0.373515269      67.5339222       
5896.21          0.377010475      67.3165529       0.92268989       -22.1476072      0.92268989       -22.1476072      0.377010475      67.3165529       
5949.32          0.380507288      67.0986675       0.921216855      -22.3640724      0.921216855      -22.3640724      0.380507288      67.0986675       
6002.43          0.38400567       66.8802632       0.919726955      -22.5809714      0.919726955      -22.5809714      0.38400567       66.8802632       
6055.54          0.387505576      66.6613371       0.918220095      -22.7983068      0.918220095      -22.7983068      0.387505576      66.6613371       
6108.65          0.391006965      66.4418863       0.916696181      -23.016081       0.916696181      -23.016081       0.391006965      66.4418863       
6161.76          0.394509789      66.221908        0.915155121      -23.2342965      0.915155121      -23.2342965      0.394509789      66.221908        
6214.87          0.398014002      66.0013993       0.913596819      -23.4529555      0.913596819      -23.4529555      0.398014002      66.0013993       
6267.98          0.401519555      65.7803576       0.912021182      -23.6720605      0.912021182      -23.6720605      0.401519555      65.7803576       
6321.09          0.405026397      65.5587799       0.910428113      -23.8916136      0.910428113      -23.8916136      0.405026397      65.5587799       
6374.2           0.408534476      65.3366637       0.90881752       -24.1116171      0.90881752       -24.1116171      0.408534476      65.3366637       
6427.31          0.412043737      65.1140062       0.907189306      -24.3320732      0.907189306      -24.3320732      0.412043737      65.1140062       
6480.42          0.415554125      64.8908048       0.905543378      -24.5529838      0.905543378      -24.5529838      0.415554125      64.8908048       
6533.53          0.41906558       64.6670568       0.903879639      -24.774351       0.903879639      -24.774351       0.41906558       64.6670568       
6586.64          0.422578045      64.4427596       0.902197995      -24.9961767      0.902197995      -24.9961767      0.422578045      64.4427596       
6639.75          0.426091456      64.2179107       0.900498351      -25.2184629      0.900498351      -25.2184629      0.426091456      64.2179107       
6692.86          0.429605751      63.9925076       0.898780611      -25.4412114      0.898780611      -25.4412114      0.429605751      63.9925076       
6745.97          0.433120863      63.7665477       0.897044681      -25.6644238      0.897044681      -25.6644238      0.433120863      63.7665477       
