! Coilcraft 0402CS-3N3 Chip Inductor				
! 29 May 2002			
# MHZ S MA R 50
!Freq             MagS11           AngS11           MagS21           AngS21           MagS12           AngS12           MagS22           AngS22
1                0.000256462725   53.9239765       0.999849001      -0.0118782063    0.999849001      -0.0118782063    0.000256462725   53.9239765       
37.91            0.00789227069    83.9189989       0.999194757      -0.450016359     0.999194757      -0.450016359     0.00789227069    83.9189989       
74.82            0.0155327719     85.1420896       0.998804526      -0.887862237     0.998804526      -0.887862237     0.0155327719     85.1420896       
111.73           0.0231687034     85.4403329       0.998425307      -1.32547285      0.998425307      -1.32547285      0.0231687034     85.4403329       
148.64           0.0307993555     85.4407653       0.998024116      -1.76284986      0.998024116      -1.76284986      0.0307993555     85.4407653       
185.55           0.0384240017     85.301835        0.997588114      -2.19998134      0.997588114      -2.19998134      0.0384240017     85.301835        
222.46           0.0460418585     85.0847066       0.997110754      -2.63684934      0.997110754      -2.63684934      0.0460418585     85.0847066       
259.37           0.0536521027     84.8186354       0.996588204      -3.07343259      0.996588204      -3.07343259      0.0536521027     84.8186354       
296.28           0.0612538851     84.519606        0.996018031      -3.50970785      0.996018031      -3.50970785      0.0612538851     84.519606        
333.19           0.0688463397     84.1971906       0.995398608      -3.94565056      0.995398608      -3.94565056      0.0688463397     84.1971906       
370.1            0.0764285903     83.8575206       0.994728817      -4.38123532      0.994728817      -4.38123532      0.0764285903     83.8575206       
407.01           0.0839997543     83.5047327       0.994007878      -4.81643609      0.994007878      -4.81643609      0.0839997543     83.5047327       
443.92           0.0915589466     83.1417349       0.993235249      -5.25122645      0.993235249      -5.25122645      0.0915589466     83.1417349       
480.83           0.0991052814     82.7706419       0.992410564      -5.6855797       0.992410564      -5.6855797       0.0991052814     82.7706419       
517.74           0.106637874      82.3930355       0.991533589      -6.11946897      0.991533589      -6.11946897      0.106637874      82.3930355       
554.65           0.114155845      82.010127        0.990604196      -6.5528673       0.990604196      -6.5528673       0.114155845      82.010127        
591.56           0.121658315      81.6228642       0.989622339      -6.9857477       0.989622339      -6.9857477       0.121658315      81.6228642       
628.47           0.129144415      81.2320015       0.988588042      -7.4180832       0.988588042      -7.4180832       0.129144415      81.2320015       
665.38           0.136613279      80.8381494       0.987501389      -7.84984689      0.987501389      -7.84984689      0.136613279      80.8381494       
702.29           0.144064051      80.4418093       0.986362513      -8.28101198      0.986362513      -8.28101198      0.144064051      80.4418093       
739.2            0.151495881      80.0433976       0.985171588      -8.7115518       0.985171588      -8.7115518       0.151495881      80.0433976       
776.11           0.15890793       79.643265        0.983928831      -9.14143985      0.983928831      -9.14143985      0.15890793       79.643265        
813.02           0.166299366      79.2417094       0.98263449       -9.5706498       0.98263449       -9.5706498       0.166299366      79.2417094       
849.93           0.173669369      78.8389867       0.981288844      -9.99915555      0.981288844      -9.99915555      0.173669369      78.8389867       
886.84           0.18101713       78.4353185       0.979892202      -10.4269312      0.979892202      -10.4269312      0.18101713       78.4353185       
923.75           0.18834185       78.0308983       0.978444897      -10.8539512      0.978444897      -10.8539512      0.18834185       78.0308983       
960.66           0.195642742      77.6258966       0.976947287      -11.28019        0.976947287      -11.28019        0.195642742      77.6258966       
997.57           0.202919033      77.2204643       0.975399752      -11.7056227      0.975399752      -11.7056227      0.202919033      77.2204643       
1034.48          0.21016996       76.8147364       0.973802692      -12.1302244      0.973802692      -12.1302244      0.21016996       76.8147364       
1071.39          0.217394775      76.4088336       0.972156526      -12.5539707      0.972156526      -12.5539707      0.217394775      76.4088336       
1108.3           0.224592742      76.0028655       0.970461691      -12.9768373      0.970461691      -12.9768373      0.224592742      76.0028655       
1145.21          0.231763139      75.596931        0.968718642      -13.3988005      0.968718642      -13.3988005      0.231763139      75.596931        
1182.12          0.238905259      75.1911207       0.966927848      -13.8198367      0.966927848      -13.8198367      0.238905259      75.1911207       
1219.03          0.246018408      74.7855174       0.965089795      -14.2399228      0.965089795      -14.2399228      0.246018408      74.7855174       
1255.94          0.253101908      74.3801976       0.963204981      -14.659036       0.963204981      -14.659036       0.253101908      74.3801976       
1292.85          0.260155096      73.9752315       0.96127392       -15.0771539      0.96127392       -15.0771539      0.260155096      73.9752315       
1329.76          0.267177321      73.5706847       0.959297136      -15.4942544      0.959297136      -15.4942544      0.267177321      73.5706847       
1366.67          0.274167952      73.1666179       0.957275165      -15.9103159      0.957275165      -15.9103159      0.274167952      73.1666179       
1403.58          0.281126371      72.7630878       0.955208555      -16.3253172      0.955208555      -16.3253172      0.281126371      72.7630878       
1440.49          0.288051975      72.3601475       0.953097864      -16.7392374      0.953097864      -16.7392374      0.288051975      72.3601475       
1477.4           0.294944178      71.9578467       0.950943659      -17.152056       0.950943659      -17.152056       0.294944178      71.9578467       
1514.31          0.301802409      71.5562324       0.948746518      -17.5637529      0.948746518      -17.5637529      0.301802409      71.5562324       
1551.22          0.308626116      71.1553486       0.946507026      -17.9743085      0.946507026      -17.9743085      0.308626116      71.1553486       
1588.13          0.315414759      70.755237        0.944225776      -18.3837037      0.944225776      -18.3837037      0.315414759      70.755237        
1625.04          0.322167817      70.355937        0.941903368      -18.7919196      0.941903368      -18.7919196      0.322167817      70.355937        
1661.95          0.328884784      69.9574859       0.939540411      -19.1989378      0.939540411      -19.1989378      0.328884784      69.9574859       
1698.86          0.335565173      69.5599191       0.937137516      -19.6047404      0.937137516      -19.6047404      0.335565173      69.5599191       
1735.77          0.34220851       69.1632704       0.934695305      -20.0093098      0.934695305      -20.0093098      0.34220851       69.1632704       
1772.68          0.348814338      68.7675715       0.9322144        -20.4126291      0.9322144        -20.4126291      0.348814338      68.7675715       
1809.59          0.355382219      68.3728531       0.929695432      -20.8146815      0.929695432      -20.8146815      0.355382219      68.3728531       
1846.5           0.36191173       67.9791441       0.927139034      -21.2154508      0.927139034      -21.2154508      0.36191173       67.9791441       
1883.41          0.368402462      67.5864722       0.924545843      -21.6149212      0.924545843      -21.6149212      0.368402462      67.5864722       
1920.32          0.374854026      67.1948637       0.921916498      -22.0130775      0.921916498      -22.0130775      0.374854026      67.1948637       
1957.23          0.381266048      66.8043437       0.919251644      -22.4099046      0.919251644      -22.4099046      0.381266048      66.8043437       
1994.14          0.387638169      66.4149365       0.916551926      -22.8053882      0.916551926      -22.8053882      0.387638169      66.4149365       
2031.05          0.393970047      66.0266648       0.91381799       -23.1995142      0.91381799       -23.1995142      0.393970047      66.0266648       
2067.96          0.400261357      65.6395506       0.911050486      -23.592269       0.911050486      -23.592269       0.400261357      65.6395506       
2104.87          0.406511788      65.2536148       0.908250064      -23.9836394      0.908250064      -23.9836394      0.406511788      65.2536148       
2141.78          0.412721046      64.8688775       0.905417375      -24.3736127      0.905417375      -24.3736127      0.412721046      64.8688775       
2178.69          0.418888852      64.4853577       0.902553068      -24.7621766      0.902553068      -24.7621766      0.418888852      64.4853577       
2215.6           0.425014944      64.1030737       0.899657796      -25.1493192      0.899657796      -25.1493192      0.425014944      64.1030737       
2252.51          0.431099073      63.722043        0.896732207      -25.5350291      0.896732207      -25.5350291      0.431099073      63.722043        
2289.42          0.437141007      63.3422821       0.893776951      -25.9192953      0.893776951      -25.9192953      0.437141007      63.3422821       
2326.33          0.443140529      62.9638068       0.890792677      -26.302107       0.890792677      -26.302107       0.443140529      62.9638068       
2363.24          0.449097436      62.5866324       0.887780032      -26.6834542      0.887780032      -26.6834542      0.449097436      62.5866324       
2400.15          0.455011539      62.2107733       0.884739659      -27.0633271      0.884739659      -27.0633271      0.455011539      62.2107733       
2437.06          0.460882665      61.8362431       0.881672201      -27.4417163      0.881672201      -27.4417163      0.460882665      61.8362431       
2473.97          0.466710655      61.4630548       0.878578299      -27.8186128      0.878578299      -27.8186128      0.466710655      61.4630548       
2510.88          0.472495363      61.091221        0.87545859       -28.1940081      0.87545859       -28.1940081      0.472495363      61.091221        
2547.79          0.478236659      60.7207534       0.872313707      -28.567894       0.872313707      -28.567894       0.478236659      60.7207534       
2584.7           0.483934423      60.3516632       0.869144282      -28.9402628      0.869144282      -28.9402628      0.483934423      60.3516632       
2621.61          0.489588551      59.9839609       0.865950943      -29.311107       0.865950943      -29.311107       0.489588551      59.9839609       
2658.52          0.495198952      59.6176566       0.862734311      -29.6804196      0.862734311      -29.6804196      0.495198952      59.6176566       
2695.43          0.500765548      59.2527597       0.859495007      -30.0481942      0.859495007      -30.0481942      0.500765548      59.2527597       
2732.34          0.506288272      58.8892792       0.856233646      -30.4144243      0.856233646      -30.4144243      0.506288272      58.8892792       
2769.25          0.511767072      58.5272233       0.852950837      -30.7791041      0.852950837      -30.7791041      0.511767072      58.5272233       
2806.16          0.517201905      58.1666001       0.849647186      -31.1422281      0.849647186      -31.1422281      0.517201905      58.1666001       
2843.07          0.522592743      57.8074169       0.846323295      -31.5037911      0.846323295      -31.5037911      0.522592743      57.8074169       
2879.98          0.527939568      57.4496806       0.842979757      -31.8637884      0.842979757      -31.8637884      0.527939568      57.4496806       
2916.89          0.533242373      57.0933975       0.839617163      -32.2222154      0.839617163      -32.2222154      0.533242373      57.0933975       
2953.8           0.538501164      56.7385738       0.836236099      -32.5790681      0.836236099      -32.5790681      0.538501164      56.7385738       
2990.71          0.543715956      56.3852149       0.832837141      -32.9343426      0.832837141      -32.9343426      0.543715956      56.3852149       
3027.62          0.548886775      56.0333258       0.829420864      -33.2880355      0.829420864      -33.2880355      0.548886775      56.0333258       
3064.53          0.554013658      55.6829113       0.825987834      -33.6401437      0.825987834      -33.6401437      0.554013658      55.6829113       
3101.44          0.559096653      55.3339755       0.822538612      -33.9906643      0.822538612      -33.9906643      0.559096653      55.3339755       
3138.35          0.564135815      54.9865224       0.819073752      -34.3395947      0.819073752      -34.3395947      0.564135815      54.9865224       
3175.26          0.569131212      54.6405554       0.815593803      -34.6869329      0.815593803      -34.6869329      0.569131212      54.6405554       
3212.17          0.574082918      54.2960775       0.812099306      -35.0326769      0.812099306      -35.0326769      0.574082918      54.2960775       
3249.08          0.578991018      53.9530915       0.808590797      -35.376825       0.808590797      -35.376825       0.578991018      53.9530915       
3285.99          0.583855606      53.6115997       0.805068803      -35.719376       0.805068803      -35.719376       0.583855606      53.6115997       
3322.9           0.588676784      53.271604        0.801533846      -36.0603287      0.801533846      -36.0603287      0.588676784      53.271604        
3359.81          0.593454663      52.9331062       0.797986442      -36.3996824      0.797986442      -36.3996824      0.593454663      52.9331062       
3396.72          0.598189359      52.5961074       0.794427097      -36.7374366      0.794427097      -36.7374366      0.598189359      52.5961074       
3433.63          0.602881001      52.2606088       0.790856313      -37.0735909      0.790856313      -37.0735909      0.602881001      52.2606088       
3470.54          0.607529721      51.926611        0.787274584      -37.4081454      0.787274584      -37.4081454      0.607529721      51.926611        
3507.45          0.61213566       51.5941143       0.783682396      -37.7411004      0.783682396      -37.7411004      0.61213566       51.5941143       
3544.36          0.616698966      51.2631188       0.780080229      -38.0724562      0.780080229      -38.0724562      0.616698966      51.2631188       
3581.27          0.621219795      50.9336243       0.776468555      -38.4022137      0.776468555      -38.4022137      0.621219795      50.9336243       
3618.18          0.625698307      50.6056303       0.77284784       -38.7303737      0.77284784       -38.7303737      0.625698307      50.6056303       
3655.09          0.63013467       50.2791359       0.769218542      -39.0569374      0.769218542      -39.0569374      0.63013467       50.2791359       
3692             0.634529059      49.9541402       0.765581111      -39.3819062      0.765581111      -39.3819062      0.634529059      49.9541402       
3728.91          0.638881652      49.6306419       0.761935991      -39.7052817      0.761935991      -39.7052817      0.638881652      49.6306419       
3765.82          0.643192635      49.3086393       0.758283618      -40.0270656      0.758283618      -40.0270656      0.643192635      49.3086393       
3802.73          0.647462198      48.9881306       0.754624422      -40.34726        0.754624422      -40.34726        0.647462198      48.9881306       
3839.64          0.651690538      48.669114        0.750958825      -40.665867       0.750958825      -40.665867       0.651690538      48.669114        
3876.55          0.655877856      48.351587        0.74728724       -40.9828889      0.74728724       -40.9828889      0.655877856      48.351587        
3913.46          0.660024356      48.0355472       0.743610076      -41.2983284      0.743610076      -41.2983284      0.660024356      48.0355472       
3950.37          0.664130249      47.7209919       0.739927732      -41.6121882      0.739927732      -41.6121882      0.664130249      47.7209919       
3987.28          0.66819575       47.4079182       0.736240602      -41.924471       0.736240602      -41.924471       0.66819575       47.4079182       
4024.19          0.672221076      47.096323        0.732549071      -42.23518        0.732549071      -42.23518        0.672221076      47.096323        
4061.1           0.676206452      46.7862029       0.728853519      -42.5443184      0.728853519      -42.5443184      0.676206452      46.7862029       
4098.01          0.680152102      46.4775545       0.725154316      -42.8518895      0.725154316      -42.8518895      0.680152102      46.4775545       
4134.92          0.684058257      46.1703742       0.721451828      -43.1578967      0.721451828      -43.1578967      0.684058257      46.1703742       
4171.83          0.687925149      45.864658        0.717746412      -43.4623438      0.717746412      -43.4623438      0.687925149      45.864658        
4208.74          0.691753016      45.560402        0.714038418      -43.7652345      0.714038418      -43.7652345      0.691753016      45.560402        
4245.65          0.695542096      45.257602        0.710328192      -44.0665727      0.710328192      -44.0665727      0.695542096      45.257602        
4282.56          0.699292633      44.9562536       0.706616068      -44.3663624      0.706616068      -44.3663624      0.699292633      44.9562536       
4319.47          0.70300487       44.6563523       0.702902378      -44.6646077      0.702902378      -44.6646077      0.70300487       44.6563523       
4356.38          0.706679054      44.3578936       0.699187445      -44.9613129      0.699187445      -44.9613129      0.706679054      44.3578936       
4393.29          0.710315437      44.0608726       0.695471586      -45.2564823      0.695471586      -45.2564823      0.710315437      44.0608726       
4430.2           0.713914269      43.7652844       0.691755109      -45.5501205      0.691755109      -45.5501205      0.713914269      43.7652844       
4467.11          0.717475804      43.471124        0.68803832       -45.8422319      0.68803832       -45.8422319      0.717475804      43.471124        
4504.02          0.721000299      43.1783862       0.684321515      -46.1328211      0.684321515      -46.1328211      0.721000299      43.1783862       
4540.93          0.72448801       42.8870657       0.680604985      -46.4218931      0.680604985      -46.4218931      0.72448801       42.8870657       
4577.84          0.727939197      42.5971571       0.676889013      -46.7094524      0.676889013      -46.7094524      0.727939197      42.5971571       
4614.75          0.731354119      42.308655        0.673173877      -46.9955042      0.673173877      -46.9955042      0.731354119      42.308655        
4651.66          0.73473304       42.0215536       0.66945985       -47.2800532      0.66945985       -47.2800532      0.73473304       42.0215536       
4688.57          0.738076221      41.7358474       0.665747196      -47.5631046      0.665747196      -47.5631046      0.738076221      41.7358474       
