! Coilcraft 0402CS-13N Chip Inductor				
! 22 July 2002			
# MHZ S MA R 50
!Freq             MagS11           AngS11           MagS21           AngS21           MagS12           AngS12           MagS22           AngS22
1                0.000972095941   57.0740342       0.999471946      -0.046775293     0.999471946      -0.046775293     0.000972095941   57.0740342       
18.95            0.0155740515     81.7645663       0.997888203      -0.885029714     0.997888203      -0.885029714     0.0155740515     81.7645663       
36.9             0.0301700097     83.0636965       0.996806509      -1.7217191       0.996806509      -1.7217191       0.0301700097     83.0636965       
54.85            0.0447354191     83.1870832       0.995684452      -2.55693129      0.995684452      -2.55693129      0.0447354191     83.1870832       
72.8             0.0592633763     82.9265376       0.994442831      -3.39050721      0.994442831      -3.39050721      0.0592633763     82.9265376       
90.75            0.0737467543     82.4860601       0.993051479      -4.22222687      0.993051479      -4.22222687      0.0737467543     82.4860601       
108.7            0.0881782179     81.9451564       0.991495926      -5.05184508      0.991495926      -5.05184508      0.0881782179     81.9451564       
126.65           0.102550355      81.3421433       0.989768663      -5.87910498      0.989768663      -5.87910498      0.102550355      81.3421433       
144.6            0.116855769      80.6981211       0.987865897      -6.70374466      0.987865897      -6.70374466      0.116855769      80.6981211       
162.55           0.131087144      80.0258421       0.985786087      -7.52550105      0.985786087      -7.52550105      0.131087144      80.0258421       
180.5            0.145237287      79.3335668       0.983529188      -8.34411244      0.983529188      -8.34411244      0.145237287      79.3335668       
198.45           0.159299172      78.6269444       0.981096225      -9.15932022      0.981096225      -9.15932022      0.159299172      78.6269444       
216.4            0.173265964      77.9100114       0.978489027      -9.97087028      0.978489027      -9.97087028      0.173265964      77.9100114       
234.35           0.187131047      77.1857588       0.975710056      -10.778514       0.975710056      -10.778514       0.187131047      77.1857588       
252.3            0.200888039      76.4564723       0.97276229       -11.5820092      0.97276229       -11.5820092      0.200888039      76.4564723       
270.25           0.214530816      75.7239444       0.969649129      -12.3811208      0.969649129      -12.3811208      0.214530816      75.7239444       
288.2            0.228053522      74.9896137       0.966374336      -13.1756213      0.966374336      -13.1756213      0.228053522      74.9896137       
306.15           0.241450583      74.2546567       0.962941976      -13.9652915      0.962941976      -13.9652915      0.241450583      74.2546567       
324.1            0.254716716      73.5200524       0.959356374      -14.7499207      0.959356374      -14.7499207      0.254716716      73.5200524       
342.05           0.267846937      72.7866271       0.955622077      -15.5293073      0.955622077      -15.5293073      0.267846937      72.7866271       
360              0.280836568      72.0550869       0.951743822      -16.3032588      0.951743822      -16.3032588      0.280836568      72.0550869       
377.95           0.29368124       71.3260417       0.947726501      -17.0715923      0.947726501      -17.0715923      0.29368124       71.3260417       
395.9            0.306376896      70.6000229       0.943575138      -17.8341345      0.943575138      -17.8341345      0.306376896      70.6000229       
413.85           0.318919792      69.8774968       0.939294862      -18.5907217      0.939294862      -18.5907217      0.318919792      69.8774968       
431.8            0.331306496      69.1588753       0.934890885      -19.3412003      0.934890885      -19.3412003      0.331306496      69.1588753       
449.75           0.343533886      68.4445237       0.93036848       -20.0854265      0.93036848       -20.0854265      0.343533886      68.4445237       
467.7            0.355599147      67.7347673       0.925732959      -20.8232661      0.925732959      -20.8232661      0.355599147      67.7347673       
485.65           0.36749977       67.0298964       0.920989657      -21.5545952      0.920989657      -21.5545952      0.36749977       67.0298964       
503.6            0.379233539      66.3301707       0.916143914      -22.2792993      0.916143914      -22.2792993      0.379233539      66.3301707       
521.55           0.390798533      65.6358222       0.911201057      -22.9972736      0.911201057      -22.9972736      0.390798533      65.6358222       
539.5            0.402193112      64.9470588       0.906166388      -23.7084228      0.906166388      -23.7084228      0.402193112      64.9470588       
557.45           0.413415914      64.2640658       0.901045164      -24.4126611      0.901045164      -24.4126611      0.413415914      64.2640658       
575.4            0.424465843      63.5870086       0.895842594      -25.1099116      0.895842594      -25.1099116      0.424465843      63.5870086       
593.35           0.43534206       62.916034        0.890563819      -25.8001065      0.890563819      -25.8001065      0.43534206       62.916034        
611.3            0.446043978      62.251272        0.885213901      -26.4831865      0.885213901      -26.4831865      0.446043978      62.251272        
629.25           0.456571243      61.5928368       0.879797822      -27.1591012      0.879797822      -27.1591012      0.456571243      61.5928368       
647.2            0.466923733      60.9408284       0.874320466      -27.8278078      0.874320466      -27.8278078      0.466923733      60.9408284       
665.15           0.47710154       60.2953331       0.868786614      -28.4892719      0.868786614      -28.4892719      0.47710154       60.2953331       
683.1            0.487104964      59.6564248       0.86320094       -29.1434666      0.86320094       -29.1434666      0.487104964      59.6564248       
701.05           0.496934499      59.0241658       0.857568003      -29.7903722      0.857568003      -29.7903722      0.496934499      59.0241658       
719              0.506590823      58.3986075       0.851892239      -30.4299763      0.851892239      -30.4299763      0.506590823      58.3986075       
736.95           0.516074789      57.7797913       0.846177962      -31.0622731      0.846177962      -31.0622731      0.516074789      57.7797913       
754.9            0.525387411      57.1677489       0.840429357      -31.6872634      0.840429357      -31.6872634      0.525387411      57.1677489       
772.85           0.534529854      56.5625033       0.834650478      -32.304954       0.834650478      -32.304954       0.534529854      56.5625033       
790.8            0.543503427      55.9640692       0.828845246      -32.9153577      0.828845246      -32.9153577      0.543503427      55.9640692       
808.75           0.552309566      55.3724535       0.823017446      -33.5184927      0.823017446      -33.5184927      0.552309566      55.3724535       
826.7            0.560949832      54.7876561       0.817170729      -34.1143825      0.817170729      -34.1143825      0.560949832      54.7876561       
844.65           0.569425893      54.20967         0.811308607      -34.7030556      0.811308607      -34.7030556      0.569425893      54.20967         
862.6            0.577739521      53.6384818       0.805434459      -35.2845452      0.805434459      -35.2845452      0.577739521      53.6384818       
880.55           0.585892579      53.0740726       0.799551525      -35.8588888      0.799551525      -35.8588888      0.585892579      53.0740726       
898.5            0.593887016      52.5164179       0.793662913      -36.426128       0.793662913      -36.426128       0.593887016      52.5164179       
916.45           0.601724852      51.9654881       0.787771596      -36.9863082      0.787771596      -36.9863082      0.601724852      51.9654881       
934.4            0.609408178      51.421249        0.781880414      -37.5394785      0.781880414      -37.5394785      0.609408178      51.421249        
952.35           0.61693914       50.883662        0.77599208       -38.0856912      0.77599208       -38.0856912      0.61693914       50.883662        
970.3            0.62431994       50.3526847       0.770109175      -38.6250017      0.770109175      -38.6250017      0.62431994       50.3526847       
988.25           0.631552822      49.828271        0.764234158      -39.1574681      0.764234158      -39.1574681      0.631552822      49.828271        
1006.2           0.638640068      49.3103712       0.758369365      -39.6831513      0.758369365      -39.6831513      0.638640068      49.3103712       
1024.15          0.645583993      48.7989327       0.752517011      -40.2021143      0.752517011      -40.2021143      0.645583993      48.7989327       
1042.1           0.652386937      48.2939001       0.746679193      -40.7144226      0.746679193      -40.7144226      0.652386937      48.2939001       
1060.05          0.659051261      47.7952154       0.740857897      -41.2201433      0.740857897      -41.2201433      0.659051261      47.7952154       
1078             0.66557934       47.3028183       0.735054997      -41.7193454      0.735054997      -41.7193454      0.66557934       47.3028183       
1095.95          0.671973561      46.8166463       0.729272258      -42.2120995      0.729272258      -42.2120995      0.671973561      46.8166463       
1113.9           0.678236314      46.3366353       0.723511344      -42.6984776      0.723511344      -42.6984776      0.678236314      46.3366353       
1131.85          0.684369993      45.8627192       0.717773817      -43.1785527      0.717773817      -43.1785527      0.684369993      45.8627192       
1149.8           0.690376987      45.3948306       0.712061141      -43.6523991      0.712061141      -43.6523991      0.690376987      45.3948306       
1167.75          0.696259681      44.9329008       0.706374687      -44.1200919      0.706374687      -44.1200919      0.696259681      44.9329008       
1185.7           0.70202045       44.47686         0.700715736      -44.5817069      0.700715736      -44.5817069      0.70202045       44.47686         
1203.65          0.707661655      44.0266374       0.69508548       -45.0373208      0.69508548       -45.0373208      0.707661655      44.0266374       
1221.6           0.713185642      43.5821613       0.68948503       -45.4870104      0.68948503       -45.4870104      0.713185642      43.5821613       
1239.55          0.71859474       43.1433593       0.683915415      -45.9308532      0.683915415      -45.9308532      0.71859474       43.1433593       
1257.5           0.723891257      42.7101588       0.678377587      -46.3689268      0.678377587      -46.3689268      0.723891257      42.7101588       
1275.45          0.729077478      42.2824864       0.672872426      -46.8013089      0.672872426      -46.8013089      0.729077478      42.2824864       
1293.4           0.734155664      41.8602685       0.667400737      -47.2280774      0.667400737      -47.2280774      0.734155664      41.8602685       
1311.35          0.73912805       41.4434314       0.661963263      -47.6493102      0.661963263      -47.6493102      0.73912805       41.4434314       
1329.3           0.743996842      41.0319012       0.656560677      -48.0650849      0.656560677      -48.0650849      0.743996842      41.0319012       
1347.25          0.74876422       40.6256041       0.651193596      -48.475479       0.651193596      -48.475479       0.74876422       40.6256041       
1365.2           0.753432329      40.2244663       0.645862572      -48.8805697      0.645862572      -48.8805697      0.753432329      40.2244663       
1383.15          0.758003288      39.8284141       0.640568107      -49.2804339      0.640568107      -49.2804339      0.758003288      39.8284141       
1401.1           0.762479179      39.4373742       0.635310646      -49.675148       0.635310646      -49.675148       0.762479179      39.4373742       
1419.05          0.766862054      39.0512736       0.630090584      -50.064788       0.630090584      -50.064788       0.766862054      39.0512736       
1437             0.77115393       38.6700394       0.624908269      -50.4494295      0.624908269      -50.4494295      0.77115393       38.6700394       
1454.95          0.775356791      38.2935995       0.619764003      -50.8291472      0.619764003      -50.8291472      0.775356791      38.2935995       
1472.9           0.779472586      37.9218819       0.614658044      -51.2040156      0.614658044      -51.2040156      0.779472586      37.9218819       
1490.85          0.783503227      37.5548156       0.609590609      -51.5741081      0.609590609      -51.5741081      0.783503227      37.5548156       
1508.8           0.787450594      37.1923297       0.604561877      -51.9394977      0.604561877      -51.9394977      0.787450594      37.1923297       
1526.75          0.79131653       36.8343541       0.599571991      -52.3002566      0.599571991      -52.3002566      0.79131653       36.8343541       
1544.7           0.795102844      36.4808195       0.594621058      -52.6564562      0.594621058      -52.6564562      0.795102844      36.4808195       
1562.65          0.798811307      36.131657        0.589709153      -53.0081672      0.589709153      -53.0081672      0.798811307      36.131657        
1580.6           0.802443657      35.7867987       0.584836319      -53.3554594      0.584836319      -53.3554594      0.802443657      35.7867987       
1598.55          0.806001597      35.4461772       0.580002572      -53.6984018      0.580002572      -53.6984018      0.806001597      35.4461772       
1616.5           0.809486794      35.1097259       0.575207899      -54.0370626      0.575207899      -54.0370626      0.809486794      35.1097259       
1634.45          0.812900879      34.777379        0.570452263      -54.371509       0.570452263      -54.371509       0.812900879      34.777379        
1652.4           0.816245453      34.4490717       0.565735601      -54.7018074      0.565735601      -54.7018074      0.816245453      34.4490717       
1670.35          0.819522077      34.1247398       0.56105783       -55.0280233      0.56105783       -55.0280233      0.819522077      34.1247398       
1688.3           0.822732283      33.8043198       0.556418842      -55.3502213      0.556418842      -55.3502213      0.822732283      33.8043198       
1706.25          0.825877567      33.4877494       0.551818514      -55.668465       0.551818514      -55.668465       0.825877567      33.4877494       
1724.2           0.828959393      33.1749668       0.547256702      -55.9828173      0.547256702      -55.9828173      0.828959393      33.1749668       
1742.15          0.831979192      32.8659113       0.542733243      -56.29334        0.542733243      -56.29334        0.831979192      32.8659113       
1760.1           0.834938363      32.5605229       0.538247962      -56.600094       0.538247962      -56.600094       0.834938363      32.5605229       
1778.05          0.837838273      32.2587426       0.533800666      -56.9031392      0.533800666      -56.9031392      0.837838273      32.2587426       
1796             0.840680259      31.9605122       0.52939115       -57.2025347      0.52939115       -57.2025347      0.840680259      31.9605122       
1813.95          0.843465626      31.6657743       0.525019195      -57.4983387      0.525019195      -57.4983387      0.843465626      31.6657743       
1831.9           0.84619565       31.3744725       0.520684571      -57.7906083      0.520684571      -57.7906083      0.84619565       31.3744725       
1849.85          0.848871576      31.0865511       0.516387037      -58.0793999      0.516387037      -58.0793999      0.848871576      31.0865511       
1867.8           0.851494622      30.8019555       0.512126341      -58.3647687      0.512126341      -58.3647687      0.851494622      30.8019555       
1885.75          0.854065975      30.5206318       0.507902222      -58.6467692      0.507902222      -58.6467692      0.854065975      30.5206318       
1903.7           0.856586796      30.242527        0.503714413      -58.925455       0.503714413      -58.925455       0.856586796      30.242527        
1921.65          0.859058218      29.9675889       0.499562635      -59.2008787      0.499562635      -59.2008787      0.859058218      29.9675889       
1939.6           0.861481347      29.6957661       0.495446607      -59.473092       0.495446607      -59.473092       0.861481347      29.6957661       
1957.55          0.863857263      29.4270083       0.491366037      -59.7421458      0.491366037      -59.7421458      0.863857263      29.4270083       
1975.5           0.866187019      29.1612659       0.48732063       -60.00809        0.48732063       -60.00809        0.866187019      29.1612659       
1993.45          0.868471643      28.8984899       0.483310086      -60.2709738      0.483310086      -60.2709738      0.868471643      28.8984899       
2011.4           0.870712141      28.6386325       0.479334098      -60.5308454      0.479334098      -60.5308454      0.870712141      28.6386325       
2029.35          0.872909491      28.3816464       0.475392358      -60.7877521      0.475392358      -60.7877521      0.872909491      28.3816464       
2047.3           0.87506465       28.1274853       0.471484554      -61.0417405      0.471484554      -61.0417405      0.87506465       28.1274853       
2065.25          0.87717855       27.8761037       0.467610368      -61.2928564      0.467610368      -61.2928564      0.87717855       27.8761037       
2083.2           0.879252103      27.6274566       0.463769483      -61.5411445      0.463769483      -61.5411445      0.879252103      27.6274566       
2101.15          0.881286196      27.3815002       0.459961578      -61.7866491      0.459961578      -61.7866491      0.881286196      27.3815002       
2119.1           0.883281696      27.1381912       0.45618633       -62.0294132      0.45618633       -62.0294132      0.883281696      27.1381912       
2137.05          0.885239449      26.897487        0.452443415      -62.2694795      0.452443415      -62.2694795      0.885239449      26.897487        
2155             0.887160281      26.659346        0.448732509      -62.5068896      0.448732509      -62.5068896      0.887160281      26.659346        
2172.95          0.889044995      26.4237272       0.445053285      -62.7416845      0.445053285      -62.7416845      0.889044995      26.4237272       
2190.9           0.890894379      26.1905901       0.441405418      -62.9739042      0.441405418      -62.9739042      0.890894379      26.1905901       
2208.85          0.892709197      25.9598954       0.43778858       -63.2035883      0.43778858       -63.2035883      0.892709197      25.9598954       
2226.8           0.894490198      25.731604        0.434202446      -63.4307755      0.434202446      -63.4307755      0.894490198      25.731604        
2244.75          0.896238112      25.5056778       0.430646689      -63.6555036      0.430646689      -63.6555036      0.896238112      25.5056778       
2262.7           0.89795365       25.2820794       0.427120983      -63.8778099      0.427120983      -63.8778099      0.89795365       25.2820794       
2280.65          0.899637507      25.0607719       0.423625005      -64.097731       0.423625005      -64.097731       0.899637507      25.0607719       
