! Coilcraft 0402CS-16N Chip Inductor				
! 22 July 2002			
# MHZ S MA R 50
!Freq             MagS11           AngS11           MagS21           AngS21           MagS12           AngS12           MagS22           AngS22
1                0.00119636318    57.057063        0.999349918      -0.0575625662    0.999349918      -0.0575625662    0.00119636318    57.057063        
19.2             0.0194123466     81.4878621       0.997311411      -1.10302716      0.997311411      -1.10302716      0.0194123466     81.4878621       
37.4             0.0376026789     82.5906997       0.995849254      -2.14589208      0.995849254      -2.14589208      0.0376026789     82.5906997       
55.6             0.0557373789     82.515149        0.994276371      -3.18617468      0.994276371      -3.18617468      0.0557373789     82.515149        
73.8             0.0738029612     82.0550412       0.992494096      -4.22350559      0.992494096      -4.22350559      0.0738029612     82.0550412       
92               0.09178535       81.4154511       0.990466148      -5.25742364      0.990466148      -5.25742364      0.09178535       81.4154511       
110.2            0.109670229      80.6765427       0.988176445      -6.28743311      0.988176445      -6.28743311      0.109670229      80.6765427       
128.4            0.127443331      79.8771079       0.985618033      -7.31302589      0.985618033      -7.31302589      0.127443331      79.8771079       
146.6            0.145090625      79.0386283       0.982788966      -8.33369286      0.982788966      -8.33369286      0.145090625      79.0386283       
164.8            0.162598447      78.1741826       0.979690433      -9.34893064      0.979690433      -9.34893064      0.162598447      78.1741826       
183              0.179953598      77.2923205       0.976325769      -10.3582462      0.976325769      -10.3582462      0.179953598      77.2923205       
201.2            0.197143418      76.3989526       0.972699893      -11.3611604      0.972699893      -11.3611604      0.197143418      76.3989526       
219.4            0.214155848      75.4983537       0.968818935      -12.3572104      0.968818935      -12.3572104      0.214155848      75.4983537       
237.6            0.230979478      74.593733        0.964689991      -13.3459515      0.964689991      -13.3459515      0.230979478      74.593733        
255.8            0.247603588      73.687575        0.960320935      -14.3269595      0.960320935      -14.3269595      0.247603588      73.687575        
274              0.264018171      72.7818537       0.955720277      -15.2998311      0.955720277      -15.2998311      0.264018171      72.7818537       
292.2            0.280213965      71.8781713       0.950897041      -16.2641856      0.950897041      -16.2641856      0.280213965      71.8781713       
310.4            0.296182457      70.9778512       0.945860664      -17.2196652      0.945860664      -17.2196652      0.296182457      70.9778512       
328.6            0.3119159        70.0820027       0.940620911      -18.1659359      0.940620911      -18.1659359      0.3119159        70.0820027       
346.8            0.327407308      69.191566        0.935187795      -19.1026878      0.935187795      -19.1026878      0.327407308      69.191566        
365              0.342650458      68.3073453       0.929571502      -20.029635       0.929571502      -20.029635       0.342650458      68.3073453       
383.2            0.357639879      67.4300331       0.923782332      -20.946516       0.923782332      -20.946516       0.357639879      67.4300331       
401.4            0.372370836      66.560228        0.917830638      -21.8530934      0.917830638      -21.8530934      0.372370836      66.560228        
419.6            0.386839319      65.6984494       0.911726773      -22.7491535      0.911726773      -22.7491535      0.386839319      65.6984494       
437.8            0.401042016      64.8451481       0.905481038      -23.6345062      0.905481038      -23.6345062      0.401042016      64.8451481       
456              0.414976294      64.0007147       0.899103643      -24.5089843      0.899103643      -24.5089843      0.414976294      64.0007147       
474.2            0.428640167      63.1654872       0.892604665      -25.3724431      0.892604665      -25.3724431      0.428640167      63.1654872       
492.4            0.442032273      62.3397564       0.885994011      -26.2247595      0.885994011      -26.2247595      0.442032273      62.3397564       
510.6            0.45515184       61.5237709       0.879281388      -27.0658316      0.879281388      -27.0658316      0.45515184       61.5237709       
528.8            0.467998654      60.7177413       0.872476276      -27.8955774      0.872476276      -27.8955774      0.467998654      60.7177413       
547              0.480573028      59.9218434       0.865587903      -28.7139346      0.865587903      -28.7139346      0.480573028      59.9218434       
565.2            0.492875767      59.1362217       0.858625224      -29.5208592      0.858625224      -29.5208592      0.492875767      59.1362217       
583.4            0.504908138      58.360992        0.851596907      -30.3163249      0.851596907      -30.3163249      0.504908138      58.360992        
601.6            0.51667183       57.5962437       0.844511314      -31.1003219      0.844511314      -31.1003219      0.51667183       57.5962437       
619.8            0.528168927      56.8420422       0.837376497      -31.8728564      0.837376497      -31.8728564      0.528168927      56.8420422       
638              0.539401873      56.0984308       0.830200183      -32.6339493      0.830200183      -32.6339493      0.539401873      56.0984308       
656.2            0.550373438      55.3654327       0.822989772      -33.3836352      0.822989772      -33.3836352      0.550373438      55.3654327       
674.4            0.561086691      54.6430524       0.815752333      -34.1219619      0.815752333      -34.1219619      0.561086691      54.6430524       
692.6            0.571544966      53.9312778       0.808494601      -34.8489892      0.808494601      -34.8489892      0.571544966      53.9312778       
710.8            0.581751838      53.2300809       0.801222982      -35.564788       0.801222982      -35.564788       0.581751838      53.2300809       
729              0.591711089      52.53942         0.793943549      -36.2694394      0.793943549      -36.2694394      0.591711089      52.53942         
747.2            0.601426689      51.8592401       0.78666205       -36.9630341      0.78666205       -36.9630341      0.601426689      51.8592401       
765.4            0.610902765      51.1894749       0.779383912      -37.6456714      0.779383912      -37.6456714      0.610902765      51.1894749       
783.6            0.620143581      50.5300474       0.772114249      -38.3174583      0.772114249      -38.3174583      0.620143581      50.5300474       
801.8            0.629153516      49.880871        0.764857865      -38.9785091      0.764857865      -38.9785091      0.629153516      49.880871        
820              0.637937042      49.2418506       0.757619264      -39.6289444      0.757619264      -39.6289444      0.637937042      49.2418506       
838.2            0.646498705      48.6128834       0.750402662      -40.2688904      0.750402662      -40.2688904      0.646498705      48.6128834       
856.4            0.654843108      47.9938597       0.743211991      -40.8984785      0.743211991      -40.8984785      0.654843108      47.9938597       
874.6            0.662974894      47.3846639       0.736050912      -41.5178443      0.736050912      -41.5178443      0.662974894      47.3846639       
892.8            0.670898733      46.7851749       0.728922822      -42.1271276      0.728922822      -42.1271276      0.670898733      46.7851749       
911              0.678619303      46.195267        0.721830869      -42.7264712      0.721830869      -42.7264712      0.678619303      46.195267        
929.2            0.686141282      45.6148106       0.714777959      -43.3160208      0.714777959      -43.3160208      0.686141282      45.6148106       
947.4            0.693469336      45.0436725       0.707766765      -43.8959245      0.707766765      -43.8959245      0.693469336      45.0436725       
965.6            0.700608106      44.4817168       0.700799742      -44.4663321      0.700799742      -44.4663321      0.700608106      44.4817168       
983.8            0.707562202      43.9288049       0.693879133      -45.0273949      0.693879133      -45.0273949      0.707562202      43.9288049       
1002             0.714336192      43.3847967       0.687006981      -45.5792655      0.687006981      -45.5792655      0.714336192      43.3847967       
1020.2           0.720934593      42.8495501       0.680185142      -46.1220968      0.680185142      -46.1220968      0.720934593      42.8495501       
1038.4           0.727361872      42.3229223       0.673415289      -46.6560425      0.673415289      -46.6560425      0.727361872      42.3229223       
1056.6           0.73362243       41.8047696       0.666698925      -47.1812561      0.666698925      -47.1812561      0.73362243       41.8047696       
1074.8           0.739720604      41.2949478       0.660037393      -47.697891       0.660037393      -47.697891       0.739720604      41.2949478       
1093             0.74566066       40.7933127       0.653431884      -48.2061001      0.653431884      -48.2061001      0.74566066       40.7933127       
1111.2           0.751446791      40.2997201       0.646883446      -48.7060357      0.646883446      -48.7060357      0.751446791      40.2997201       
1129.4           0.757083111      39.8140264       0.640392993      -49.1978491      0.640392993      -49.1978491      0.757083111      39.8140264       
1147.6           0.762573655      39.3360884       0.633961311      -49.6816907      0.633961311      -49.6816907      0.762573655      39.3360884       
1165.8           0.767922375      38.8657639       0.62758907       -50.1577094      0.62758907       -50.1577094      0.767922375      38.8657639       
1184             0.773133141      38.4029116       0.621276826      -50.6260529      0.621276826      -50.6260529      0.773133141      38.4029116       
1202.2           0.778209735      37.9473915       0.615025034      -51.0868672      0.615025034      -51.0868672      0.778209735      37.9473915       
1220.4           0.783155857      37.4990648       0.608834052      -51.5402967      0.608834052      -51.5402967      0.783155857      37.4990648       
1238.6           0.787975118      37.0577942       0.602704146      -51.986484       0.602704146      -51.986484       0.787975118      37.0577942       
1256.8           0.792671042      36.623444        0.596635498      -52.4255698      0.596635498      -52.4255698      0.792671042      36.623444        
1275             0.797247069      36.19588         0.590628215      -52.8576931      0.590628215      -52.8576931      0.797247069      36.19588         
1293.2           0.80170655       35.77497         0.584682328      -53.2829904      0.584682328      -53.2829904      0.80170655       35.77497         
1311.4           0.806052752      35.3605836       0.578797803      -53.7015965      0.578797803      -53.7015965      0.806052752      35.3605836       
1329.6           0.810288856      34.952592        0.572974542      -54.113644       0.572974542      -54.113644       0.810288856      34.952592        
1347.8           0.814417959      34.5508688       0.567212393      -54.5192631      0.567212393      -54.5192631      0.814417959      34.5508688       
1366             0.818443076      34.1552892       0.561511147      -54.918582       0.561511147      -54.918582       0.818443076      34.1552892       
1384.2           0.822367137      33.7657307       0.555870549      -55.3117267      0.555870549      -55.3117267      0.822367137      33.7657307       
1402.4           0.826192995      33.3820728       0.5502903        -55.6988208      0.5502903        -55.6988208      0.826192995      33.3820728       
1420.6           0.82992342       33.0041971       0.544770058      -56.0799856      0.544770058      -56.0799856      0.82992342       33.0041971       
1438.8           0.833561107      32.6319872       0.539309447      -56.4553402      0.539309447      -56.4553402      0.833561107      32.6319872       
1457             0.837108672      32.2653289       0.533908053      -56.8250016      0.533908053      -56.8250016      0.837108672      32.2653289       
1475.2           0.840568657      31.9041102       0.528565434      -57.1890842      0.528565434      -57.1890842      0.840568657      31.9041102       
1493.4           0.843943531      31.5482212       0.52328112       -57.5477003      0.52328112       -57.5477003      0.843943531      31.5482212       
1511.6           0.847235691      31.197554        0.518054614      -57.9009599      0.518054614      -57.9009599      0.847235691      31.197554        
1529.8           0.850447464      30.8520028       0.5128854        -58.2489709      0.5128854        -58.2489709      0.850447464      30.8520028       
1548             0.853581108      30.5114641       0.507772937      -58.5918387      0.507772937      -58.5918387      0.853581108      30.5114641       
1566.2           0.856638814      30.1758364       0.502716671      -58.9296667      0.502716671      -58.9296667      0.856638814      30.1758364       
1584.4           0.859622709      29.8450202       0.497716028      -59.262556       0.497716028      -59.262556       0.859622709      29.8450202       
1602.6           0.862534857      29.5189181       0.492770423      -59.5906057      0.492770423      -59.5906057      0.862534857      29.5189181       
1620.8           0.865377257      29.1974348       0.487879257      -59.9139127      0.487879257      -59.9139127      0.865377257      29.1974348       
1639             0.868151853      28.8804767       0.483041921      -60.2325716      0.483041921      -60.2325716      0.868151853      28.8804767       
1657.2           0.870860526      28.5679527       0.478257799      -60.5466753      0.478257799      -60.5466753      0.870860526      28.5679527       
1675.4           0.873505102      28.2597732       0.473526265      -60.8563143      0.473526265      -60.8563143      0.873505102      28.2597732       
1693.6           0.876087353      27.9558506       0.468846689      -61.1615772      0.468846689      -61.1615772      0.876087353      27.9558506       
1711.8           0.878608995      27.6560995       0.464218434      -61.4625508      0.464218434      -61.4625508      0.878608995      27.6560995       
1730             0.881071693      27.3604359       0.459640861      -61.7593198      0.459640861      -61.7593198      0.881071693      27.3604359       
1748.2           0.883477063      27.0687781       0.455113328      -62.0519669      0.455113328      -62.0519669      0.883477063      27.0687781       
1766.4           0.885826669      26.7810458       0.450635192      -62.3405731      0.450635192      -62.3405731      0.885826669      26.7810458       
1784.6           0.88812203       26.4971607       0.446205807      -62.6252174      0.446205807      -62.6252174      0.88812203       26.4971607       
1802.8           0.890364617      26.2170461       0.441824531      -62.9059772      0.441824531      -62.9059772      0.890364617      26.2170461       
1821             0.892555858      25.9406272       0.43749072       -63.182928       0.43749072       -63.182928       0.892555858      25.9406272       
1839.2           0.894697136      25.6678307       0.433203731      -63.4561434      0.433203731      -63.4561434      0.894697136      25.6678307       
1857.4           0.896789792      25.3985849       0.428962926      -63.7256957      0.428962926      -63.7256957      0.896789792      25.3985849       
1875.6           0.898835128      25.1328199       0.424767668      -63.9916551      0.424767668      -63.9916551      0.898835128      25.1328199       
1893.8           0.900834405      24.8704672       0.420617324      -64.2540905      0.420617324      -64.2540905      0.900834405      24.8704672       
1912             0.902788846      24.6114599       0.416511264      -64.5130691      0.416511264      -64.5130691      0.902788846      24.6114599       
1930.2           0.904699638      24.3557326       0.412448864      -64.7686563      0.412448864      -64.7686563      0.904699638      24.3557326       
1948.4           0.90656793       24.1032214       0.408429503      -65.0209164      0.408429503      -65.0209164      0.90656793       24.1032214       
1966.6           0.908394838      23.8538637       0.404452566      -65.2699118      0.404452566      -65.2699118      0.908394838      23.8538637       
1984.8           0.910181444      23.6075986       0.400517443      -65.5157038      0.400517443      -65.5157038      0.910181444      23.6075986       
2003             0.911928798      23.3643662       0.39662353       -65.7583519      0.39662353       -65.7583519      0.911928798      23.3643662       
2021.2           0.913637916      23.1241084       0.392770228      -65.9979144      0.392770228      -65.9979144      0.913637916      23.1241084       
2039.4           0.915309787      22.8867679       0.388956947      -66.2344483      0.388956947      -66.2344483      0.915309787      22.8867679       
2057.6           0.916945368      22.6522891       0.3851831        -66.4680091      0.3851831        -66.4680091      0.916945368      22.6522891       
2075.8           0.918545587      22.4206175       0.381448109      -66.6986511      0.381448109      -66.6986511      0.918545587      22.4206175       
2094             0.920111347      22.1916998       0.3777514        -66.9264272      0.3777514        -66.9264272      0.920111347      22.1916998       
2112.2           0.921643522      21.965484        0.37409241       -67.1513893      0.37409241       -67.1513893      0.921643522      21.965484        
2130.4           0.923142961      21.7419191       0.370470578      -67.3735877      0.370470578      -67.3735877      0.923142961      21.7419191       
2148.6           0.924610487      21.5209554       0.366885355      -67.5930719      0.366885355      -67.5930719      0.924610487      21.5209554       
2166.8           0.9260469        21.3025442       0.363336196      -67.8098899      0.363336196      -67.8098899      0.9260469        21.3025442       
2185             0.927452975      21.0866381       0.359822564      -68.0240889      0.359822564      -68.0240889      0.927452975      21.0866381       
2203.2           0.928829465      20.8731906       0.35634393       -68.2357146      0.35634393       -68.2357146      0.928829465      20.8731906       
2221.4           0.930177101      20.6621561       0.35289977       -68.4448119      0.35289977       -68.4448119      0.930177101      20.6621561       
2239.6           0.931496593      20.4534903       0.349489571      -68.6514246      0.349489571      -68.6514246      0.931496593      20.4534903       
2257.8           0.932788629      20.2471498       0.346112824      -68.8555953      0.346112824      -68.8555953      0.932788629      20.2471498       
2276             0.934053879      20.043092        0.34276903       -69.0573658      0.34276903       -69.0573658      0.934053879      20.043092        
2294.2           0.935292992      19.8412754       0.339457695      -69.2567768      0.339457695      -69.2567768      0.935292992      19.8412754       
2312.4           0.9365066        19.6416595       0.336178333      -69.4538679      0.336178333      -69.4538679      0.9365066        19.6416595       
