! Coilcraft 0402CS-8N7 Chip Inductor				
! 22 July 2002			
# MHZ S MA R 50
!Freq             MagS11           AngS11           MagS21           AngS21           MagS12           AngS12           MagS22           AngS22
1                0.000701412126   51.1373559       0.999560044      -0.0313062223    0.999560044      -0.0313062223    0.000701412126   51.1373559       
25.69            0.014158618      80.9846796       0.99787935       -0.802936491     0.99787935       -0.802936491     0.014158618      80.9846796       
50.38            0.027595961      82.5838822       0.996813756      -1.57311509      0.996813756      -1.57311509      0.027595961      82.5838822       
75.07            0.0410065908     82.8810343       0.995749794      -2.34199549      0.995749794      -2.34199549      0.0410065908     82.8810343       
99.76            0.054385909      82.7520476       0.994602831      -3.10948421      0.994602831      -3.10948421      0.054385909      82.7520476       
124.45           0.0677287204     82.4226998       0.993340457      -3.87542741      0.993340457      -3.87542741      0.0677287204     82.4226998       
149.14           0.08102952       81.9810449       0.99194679       -4.6396457       0.99194679       -4.6396457       0.08102952       81.9810449       
173.83           0.0942826625     81.4695235       0.990413194      -5.40194708      0.990413194      -5.40194708      0.0942826625     81.4695235       
198.52           0.107482459      80.9114905       0.988734854      -6.16213323      0.988734854      -6.16213323      0.107482459      80.9114905       
223.21           0.12062324       80.3210386       0.986909224      -6.92000305      0.986909224      -6.92000305      0.12062324       80.3210386       
247.9            0.133699393      79.7072738       0.984935243      -7.67535494      0.984935243      -7.67535494      0.133699393      79.7072738       
272.59           0.146705401      79.0764017       0.982812885      -8.42798839      0.982812885      -8.42798839      0.146705401      79.0764017       
297.28           0.159635862      78.432837        0.980542894      -9.17770508      0.980542894      -9.17770508      0.159635862      78.432837        
321.97           0.172485508      77.7798337       0.978126601      -9.9243098       0.978126601      -9.9243098       0.172485508      77.7798337       
346.66           0.185249226      77.1198634       0.975565816      -10.6676112      0.975565816      -10.6676112      0.185249226      77.1198634       
371.35           0.197922069      76.4548523       0.972862733      -11.4074222      0.972862733      -11.4074222      0.197922069      76.4548523       
396.04           0.210499269      75.7863349       0.970019873      -12.1435609      0.970019873      -12.1435609      0.210499269      75.7863349       
420.73           0.222976245      75.115558        0.967040031      -12.8758504      0.967040031      -12.8758504      0.222976245      75.115558        
445.42           0.235348614      74.4435515       0.963926241      -13.6041197      0.963926241      -13.6041197      0.235348614      74.4435515       
470.11           0.247612198      73.771179        0.960681737      -14.3282036      0.960681737      -14.3282036      0.247612198      73.771179        
494.8            0.259763028      73.0991742       0.95730993       -15.0479432      0.95730993       -15.0479432      0.259763028      73.0991742       
519.49           0.27179735       72.4281671       0.953814382      -15.7631861      0.953814382      -15.7631861      0.27179735       72.4281671       
544.18           0.283711628      71.7587044       0.950198785      -16.4737863      0.950198785      -16.4737863      0.283711628      71.7587044       
568.87           0.295502545      71.0912644       0.946466938      -17.1796048      0.946466938      -17.1796048      0.295502545      71.0912644       
593.56           0.307167009      70.4262684       0.942622733      -17.8805092      0.942622733      -17.8805092      0.307167009      70.4262684       
618.25           0.318702147      69.76409         0.938670137      -18.5763742      0.938670137      -18.5763742      0.318702147      69.76409         
642.94           0.330105312      69.1050617       0.934613176      -19.2670814      0.934613176      -19.2670814      0.330105312      69.1050617       
667.63           0.341374074      68.4494815       0.930455921      -19.9525194      0.930455921      -19.9525194      0.341374074      68.4494815       
692.32           0.352506223      67.7976163       0.926202474      -20.6325839      0.926202474      -20.6325839      0.352506223      67.7976163       
717.01           0.363499765      67.1497066       0.921856958      -21.3071774      0.921856958      -21.3071774      0.363499765      67.1497066       
741.7            0.374352919      66.5059689       0.917423502      -21.9762094      0.917423502      -21.9762094      0.374352919      66.5059689       
766.39           0.385064113      65.8665985       0.912906231      -22.6395963      0.912906231      -22.6395963      0.385064113      65.8665985       
791.08           0.395631979      65.2317715       0.908309256      -23.2972614      0.908309256      -23.2972614      0.395631979      65.2317715       
815.77           0.406055346      64.601647        0.903636666      -23.9491344      0.903636666      -23.9491344      0.406055346      64.601647        
840.46           0.41633324       63.9763679       0.898892516      -24.5951517      0.898892516      -24.5951517      0.41633324       63.9763679       
865.15           0.426464873      63.3560628       0.894080822      -25.2352563      0.894080822      -25.2352563      0.426464873      63.3560628       
889.84           0.436449639      62.7408469       0.889205551      -25.8693972      0.889205551      -25.8693972      0.436449639      62.7408469       
914.53           0.446287108      62.1308234       0.884270615      -26.4975297      0.884270615      -26.4975297      0.446287108      62.1308234       
939.22           0.455977018      61.5260837       0.879279865      -27.1196152      0.879279865      -27.1196152      0.455977018      61.5260837       
963.91           0.46551927       60.9267087       0.874237085      -27.7356208      0.874237085      -27.7356208      0.46551927       60.9267087       
988.6            0.474913917      60.3327695       0.869145987      -28.3455191      0.869145987      -28.3455191      0.474913917      60.3327695       
1013.29          0.484161164      59.7443279       0.864010206      -28.9492884      0.864010206      -28.9492884      0.484161164      59.7443279       
1037.98          0.493261353      59.161437        0.858833297      -29.5469122      0.858833297      -29.5469122      0.493261353      59.161437        
1062.67          0.502214963      58.584142        0.85361873       -30.138379       0.85361873       -30.138379       0.502214963      58.584142        
1087.36          0.511022595      58.0124802       0.848369887      -30.7236821      0.848369887      -30.7236821      0.511022595      58.0124802       
1112.05          0.519684973      57.4464821       0.843090062      -31.3028199      0.843090062      -31.3028199      0.519684973      57.4464821       
1136.74          0.528202933      56.8861712       0.837782457      -31.8757947      0.837782457      -31.8757947      0.528202933      56.8861712       
1161.43          0.536577413      56.3315649       0.832450177      -32.4426136      0.832450177      -32.4426136      0.536577413      56.3315649       
1186.12          0.544809453      55.7826747       0.827096236      -33.0032876      0.827096236      -33.0032876      0.544809453      55.7826747       
1210.81          0.552900184      55.2395066       0.82172355       -33.5578314      0.82172355       -33.5578314      0.552900184      55.2395066       
1235.5           0.56085082       54.7020613       0.816334939      -34.1062637      0.816334939      -34.1062637      0.56085082       54.7020613       
1260.19          0.568662655      54.1703347       0.810933125      -34.6486066      0.810933125      -34.6486066      0.568662655      54.1703347       
1284.88          0.576337058      53.6443181       0.805520734      -35.1848855      0.805520734      -35.1848855      0.576337058      53.6443181       
1309.57          0.58387546       53.1239986       0.800100296      -35.7151289      0.800100296      -35.7151289      0.58387546       53.1239986       
1334.26          0.591279357      52.6093593       0.794674244      -36.2393684      0.794674244      -36.2393684      0.591279357      52.6093593       
1358.95          0.598550297      52.1003795       0.789244916      -36.7576382      0.789244916      -36.7576382      0.598550297      52.1003795       
1383.64          0.60568988       51.5970351       0.783814555      -37.2699752      0.783814555      -37.2699752      0.60568988       51.5970351       
1408.33          0.612699749      51.0992988       0.778385313      -37.7764186      0.778385313      -37.7764186      0.612699749      51.0992988       
1433.02          0.619581587      50.6071401       0.772959248      -38.2770101      0.772959248      -38.2770101      0.619581587      50.6071401       
1457.71          0.626337112      50.120526        0.76753833       -38.7717934      0.76753833       -38.7717934      0.626337112      50.120526        
1482.4           0.632968074      49.6394207       0.762124437      -39.2608139      0.762124437      -39.2608139      0.632968074      49.6394207       
1507.09          0.639476246      49.163786        0.756719364      -39.7441193      0.756719364      -39.7441193      0.639476246      49.163786        
1531.78          0.645863425      48.6935816       0.751324819      -40.2217584      0.751324819      -40.2217584      0.645863425      48.6935816       
1556.47          0.652131427      48.2287651       0.745942427      -40.6937819      0.745942427      -40.6937819      0.652131427      48.2287651       
1581.16          0.65828208       47.7692924       0.740573731      -41.1602419      0.740573731      -41.1602419      0.65828208       47.7692924       
1605.85          0.664317225      47.3151176       0.735220198      -41.6211914      0.735220198      -41.6211914      0.664317225      47.3151176       
1630.54          0.670238711      46.8661931       0.729883216      -42.0766849      0.729883216      -42.0766849      0.670238711      46.8661931       
1655.23          0.67604839       46.4224701       0.724564098      -42.5267778      0.724564098      -42.5267778      0.67604839       46.4224701       
1679.92          0.681748119      45.9838985       0.719264087      -42.9715263      0.719264087      -42.9715263      0.681748119      45.9838985       
1704.61          0.687339751      45.5504271       0.713984353      -43.4109875      0.713984353      -43.4109875      0.687339751      45.5504271       
1729.3           0.692825139      45.1220036       0.708725999      -43.8452191      0.708725999      -43.8452191      0.692825139      45.1220036       
1753.99          0.698206129      44.6985748       0.703490063      -44.2742797      0.703490063      -44.2742797      0.698206129      44.6985748       
1778.68          0.703484559      44.2800869       0.698277519      -44.6982279      0.698277519      -44.6982279      0.703484559      44.2800869       
1803.37          0.708662259      43.8664853       0.693089279      -45.1171231      0.693089279      -45.1171231      0.708662259      43.8664853       
1828.06          0.713741047      43.4577147       0.687926197      -45.531025       0.687926197      -45.531025       0.713741047      43.4577147       
1852.75          0.718722728      43.0537195       0.682789069      -45.9399935      0.682789069      -45.9399935      0.718722728      43.0537195       
1877.44          0.723609092      42.6544437       0.677678636      -46.3440886      0.677678636      -46.3440886      0.723609092      42.6544437       
1902.13          0.728401914      42.2598308       0.672595588      -46.7433704      0.672595588      -46.7433704      0.728401914      42.2598308       
1926.82          0.733102951      41.8698241       0.667540563      -47.1378994      0.667540563      -47.1378994      0.733102951      41.8698241       
1951.51          0.737713942      41.484367        0.66251415       -47.5277356      0.66251415       -47.5277356      0.737713942      41.484367        
1976.2           0.742236608      41.1034025       0.657516892      -47.9129392      0.657516892      -47.9129392      0.742236608      41.1034025       
2000.89          0.746672646      40.7268737       0.652549287      -48.2935704      0.652549287      -48.2935704      0.746672646      40.7268737       
2025.58          0.751023737      40.3547235       0.647611791      -48.6696889      0.647611791      -48.6696889      0.751023737      40.3547235       
2050.27          0.755291535      39.9868953       0.642704818      -49.0413544      0.642704818      -49.0413544      0.755291535      39.9868953       
2074.96          0.759477675      39.6233322       0.637828743      -49.4086264      0.637828743      -49.4086264      0.759477675      39.6233322       
2099.65          0.763583768      39.2639777       0.632983904      -49.7715638      0.632983904      -49.7715638      0.763583768      39.2639777       
2124.34          0.767611401      38.9087755       0.628170603      -50.1302254      0.628170603      -50.1302254      0.767611401      38.9087755       
2149.03          0.771562136      38.5576695       0.623389109      -50.4846697      0.623389109      -50.4846697      0.771562136      38.5576695       
2173.72          0.775437514      38.2106038       0.618639657      -50.8349545      0.618639657      -50.8349545      0.775437514      38.2106038       
2198.41          0.779239048      37.8675232       0.613922452      -51.1811373      0.613922452      -51.1811373      0.779239048      37.8675232       
2223.1           0.782968227      37.5283724       0.609237669      -51.5232753      0.609237669      -51.5232753      0.782968227      37.5283724       
2247.79          0.786626517      37.1930968       0.604585456      -51.861425       0.604585456      -51.861425       0.786626517      37.1930968       
2272.48          0.790215356      36.8616421       0.599965933      -52.1956424      0.599965933      -52.1956424      0.790215356      36.8616421       
2297.17          0.79373616       36.5339545       0.595379196      -52.5259831      0.595379196      -52.5259831      0.79373616       36.5339545       
2321.86          0.797190316      36.2099806       0.590825318      -52.8525021      0.590825318      -52.8525021      0.797190316      36.2099806       
2346.55          0.800579189      35.8896675       0.586304346      -53.1752536      0.586304346      -53.1752536      0.800579189      35.8896675       
2371.24          0.803904118      35.5729629       0.58181631       -53.4942916      0.58181631       -53.4942916      0.803904118      35.5729629       
2395.93          0.807166417      35.259815        0.577361215      -53.8096693      0.577361215      -53.8096693      0.807166417      35.259815        
2420.62          0.810367374      34.9501724       0.572939051      -54.1214392      0.572939051      -54.1214392      0.810367374      34.9501724       
2445.31          0.813508254      34.6439844       0.568549787      -54.4296533      0.568549787      -54.4296533      0.813508254      34.6439844       
2470             0.816590298      34.3412008       0.564193376      -54.734363       0.564193376      -54.734363       0.816590298      34.3412008       
2494.69          0.819614719      34.041772        0.559869755      -55.0356191      0.559869755      -55.0356191      0.819614719      34.041772        
2519.38          0.82258271       33.7456489       0.555578847      -55.3334715      0.555578847      -55.3334715      0.82258271       33.7456489       
2544.07          0.825495438      33.4527832       0.551320557      -55.6279697      0.551320557      -55.6279697      0.825495438      33.4527832       
2568.76          0.828354047      33.163127        0.547094782      -55.9191626      0.547094782      -55.9191626      0.828354047      33.163127        
2593.45          0.831159658      32.8766329       0.5429014        -56.2070981      0.5429014        -56.2070981      0.831159658      32.8766329       
2618.14          0.833913368      32.5932545       0.538740284      -56.4918238      0.538740284      -56.4918238      0.833913368      32.5932545       
2642.83          0.836616253      32.3129457       0.53461129       -56.7733864      0.53461129       -56.7733864      0.836616253      32.3129457       
2667.52          0.839269364      32.035661        0.530514268      -57.0518321      0.530514268      -57.0518321      0.839269364      32.035661        
2692.21          0.841873732      31.7613557       0.526449057      -57.3272064      0.526449057      -57.3272064      0.841873732      31.7613557       
2716.9           0.844430365      31.4899856       0.522415485      -57.599554       0.522415485      -57.599554       0.844430365      31.4899856       
2741.59          0.846940252      31.2215072       0.518413375      -57.8689192      0.518413375      -57.8689192      0.846940252      31.2215072       
2766.28          0.849404359      30.9558774       0.51444254       -58.1353453      0.51444254       -58.1353453      0.849404359      30.9558774       
2790.97          0.85182363       30.6930539       0.510502786      -58.3988754      0.510502786      -58.3988754      0.85182363       30.6930539       
2815.66          0.854198991      30.432995        0.506593914      -58.6595515      0.506593914      -58.6595515      0.854198991      30.432995        
2840.35          0.856531347      30.1756597       0.502715718      -58.9174152      0.502715718      -58.9174152      0.856531347      30.1756597       
2865.04          0.858821584      29.9210073       0.498867984      -59.1725074      0.498867984      -59.1725074      0.858821584      29.9210073       
2889.73          0.861070568      29.6689979       0.495050498      -59.4248683      0.495050498      -59.4248683      0.861070568      29.6689979       
2914.42          0.863279146      29.4195923       0.491263036      -59.6745376      0.491263036      -59.6745376      0.863279146      29.4195923       
2939.11          0.865448148      29.1727517       0.487505372      -59.9215543      0.487505372      -59.9215543      0.865448148      29.1727517       
2963.8           0.867578383      28.928438        0.483777278      -60.1659567      0.483777278      -60.1659567      0.867578383      28.928438        
2988.49          0.869670645      28.6866137       0.480078518      -60.4077827      0.480078518      -60.4077827      0.869670645      28.6866137       
3013.18          0.871725707      28.4472418       0.476408858      -60.6470692      0.476408858      -60.6470692      0.871725707      28.4472418       
3037.87          0.87374433       28.2102859       0.472768057      -60.883853       0.472768057      -60.883853       0.87374433       28.2102859       
3062.56          0.875727253      27.9757101       0.469155874      -61.1181698      0.469155874      -61.1181698      0.875727253      27.9757101       
3087.25          0.877675202      27.7434793       0.465572064      -61.350055       0.465572064      -61.350055       0.877675202      27.7434793       
3111.94          0.879588885      27.5135587       0.462016381      -61.5795435      0.462016381      -61.5795435      0.879588885      27.5135587       
3136.63          0.881468996      27.2859142       0.458488578      -61.8066693      0.458488578      -61.8066693      0.881468996      27.2859142       
