! Coilcraft 0402CS-2N4 Chip Inductor				
! 22 July 2002			
# MHZ S MA R 50
!Freq             MagS11           AngS11           MagS21           AngS21           MagS12           AngS12           MagS22           AngS22
1                0.000218376961   43.6550171       0.999842014      -0.00863863504   0.999842014      -0.00863863504   0.000218376961   43.6550171       
45.64            0.00693394964    82.1988243       0.999082433      -0.393973789     0.999082433      -0.393973789     0.00693394964    82.1988243       
90.28            0.0136529445     83.9906121       0.998662962      -0.779022963     0.998662962      -0.779022963     0.0136529445     83.9906121       
134.92           0.0203681475     84.57227         0.998279325      -1.16385889      0.998279325      -1.16385889      0.0203681475     84.57227         
179.56           0.0270791643     84.7632899       0.997892888      -1.54849693      0.997892888      -1.54849693      0.0270791643     84.7632899       
224.2            0.0337856227     84.771215        0.997488599      -1.93293843      0.997488599      -1.93293843      0.0337856227     84.771215        
268.84           0.0404870997     84.6762494       0.997058749      -2.31717848      0.997058749      -2.31717848      0.0404870997     84.6762494       
313.48           0.0471831328     84.5167763       0.996598789      -2.70120874      0.996598789      -2.70120874      0.0471831328     84.5167763       
358.12           0.0538732322     84.3137713       0.996105789      -3.08501876      0.996105789      -3.08501876      0.0538732322     84.3137713       
402.76           0.0605568889     84.079793        0.99557775       -3.46859668      0.99557775       -3.46859668      0.0605568889     84.079793        
447.4            0.0672335804     83.8228814       0.995013254      -3.85192966      0.995013254      -3.85192966      0.0672335804     83.8228814       
492.04           0.0739027752     83.5484558       0.994411263      -4.23500416      0.994411263      -4.23500416      0.0739027752     83.5484558       
536.68           0.080563935      83.260321        0.99377101       -4.61780612      0.99377101       -4.61780612      0.080563935      83.260321        
581.32           0.0872165174     82.9612388       0.993091919      -5.0003211       0.993091919      -5.0003211       0.0872165174     82.9612388       
625.96           0.0938599772     82.6532701       0.992373558      -5.38253436      0.992373558      -5.38253436      0.0938599772     82.6532701       
670.6            0.100493768      82.3379892       0.991615606      -5.76443094      0.991615606      -5.76443094      0.100493768      82.3379892       
715.24           0.107117343      82.0166233       0.99081783       -6.14599574      0.99081783       -6.14599574      0.107117343      82.0166233       
759.88           0.113730155      81.6901457       0.989980066      -6.52721351      0.989980066      -6.52721351      0.113730155      81.6901457       
804.52           0.12033166       81.3593404       0.989102209      -6.90806895      0.989102209      -6.90806895      0.12033166       81.3593404       
849.16           0.126921315      81.0248477       0.988184202      -7.28854669      0.988184202      -7.28854669      0.126921315      81.0248477       
893.8            0.133498578      80.6871967       0.987226029      -7.66863136      0.987226029      -7.66863136      0.133498578      80.6871967       
938.44           0.140062913      80.3468298       0.986227708      -8.04830757      0.986227708      -8.04830757      0.140062913      80.3468298       
983.08           0.146613785      80.0041204       0.985189289      -8.42755995      0.985189289      -8.42755995      0.146613785      80.0041204       
1027.72          0.153150663      79.6593866       0.98411085       -8.80637317      0.98411085       -8.80637317      0.153150663      79.6593866       
1072.36          0.159673021      79.3129019       0.982992491      -9.18473193      0.982992491      -9.18473193      0.159673021      79.3129019       
1117             0.166180336      78.9649028       0.981834334      -9.56262102      0.981834334      -9.56262102      0.166180336      78.9649028       
1161.64          0.172672093      78.6155959       0.980636522      -9.94002527      0.980636522      -9.94002527      0.172672093      78.6155959       
1206.28          0.179147778      78.2651622       0.979399216      -10.3169296      0.979399216      -10.3169296      0.179147778      78.2651622       
1250.92          0.185606884      77.9137619       0.97812259       -10.6933191      0.97812259       -10.6933191      0.185606884      77.9137619       
1295.56          0.192048911      77.5615372       0.976806839      -11.0691788      0.976806839      -11.0691788      0.192048911      77.5615372       
1340.2           0.198473362      77.2086152       0.975452166      -11.4444939      0.975452166      -11.4444939      0.198473362      77.2086152       
1384.84          0.204879749      76.85511         0.974058793      -11.8192499      0.974058793      -11.8192499      0.204879749      76.85511         
1429.48          0.211267588      76.5011247       0.972626948      -12.1934321      0.972626948      -12.1934321      0.211267588      76.5011247       
1474.12          0.217636401      76.1467524       0.971156877      -12.5670262      0.971156877      -12.5670262      0.217636401      76.1467524       
1518.76          0.223985719      75.7920783       0.969648832      -12.940018       0.969648832      -12.940018       0.223985719      75.7920783       
1563.4           0.230315078      75.43718         0.968103078      -13.3123932      0.968103078      -13.3123932      0.230315078      75.43718         
1608.04          0.236624021      75.0821286       0.966519888      -13.6841379      0.966519888      -13.6841379      0.236624021      75.0821286       
1652.68          0.242912099      74.7269899       0.964899545      -14.0552382      0.964899545      -14.0552382      0.242912099      74.7269899       
1697.32          0.249178869      74.3718244       0.963242341      -14.4256806      0.963242341      -14.4256806      0.249178869      74.3718244       
1741.96          0.255423895      74.0166882       0.961548577      -14.7954515      0.961548577      -14.7954515      0.255423895      74.0166882       
1786.6           0.261646751      73.6616335       0.959818559      -15.1645375      0.959818559      -15.1645375      0.261646751      73.6616335       
1831.24          0.267847016      73.3067091       0.958052604      -15.5329254      0.958052604      -15.5329254      0.267847016      73.3067091       
1875.88          0.274024278      72.9519603       0.956251033      -15.9006023      0.956251033      -15.9006023      0.274024278      72.9519603       
1920.52          0.280178132      72.5974298       0.954414175      -16.2675553      0.954414175      -16.2675553      0.280178132      72.5974298       
1965.16          0.286308181      72.2431575       0.952542367      -16.6337718      0.952542367      -16.6337718      0.286308181      72.2431575       
2009.8           0.292414036      71.8891811       0.95063595       -16.9992392      0.95063595       -16.9992392      0.292414036      71.8891811       
2054.44          0.298495317      71.5355362       0.94869527       -17.3639454      0.94869527       -17.3639454      0.298495317      71.5355362       
2099.08          0.304551651      71.1822562       0.946720682      -17.727878       0.946720682      -17.727878       0.304551651      71.1822562       
2143.72          0.310582674      70.8293729       0.944712543      -18.0910254      0.944712543      -18.0910254      0.310582674      70.8293729       
2188.36          0.316588028      70.4769164       0.942671216      -18.4533756      0.942671216      -18.4533756      0.316588028      70.4769164       
2233             0.322567367      70.1249153       0.940597068      -18.8149172      0.940597068      -18.8149172      0.322567367      70.1249153       
2277.64          0.328520351      69.7733968       0.938490472      -19.1756389      0.938490472      -19.1756389      0.328520351      69.7733968       
2322.28          0.334446648      69.4223868       0.936351803      -19.5355294      0.936351803      -19.5355294      0.334446648      69.4223868       
2366.92          0.340345935      69.0719098       0.934181442      -19.8945779      0.934181442      -19.8945779      0.340345935      69.0719098       
2411.56          0.346217898      68.7219896       0.931979771      -20.2527736      0.931979771      -20.2527736      0.346217898      68.7219896       
2456.2           0.352062232      68.3726485       0.929747178      -20.6101059      0.929747178      -20.6101059      0.352062232      68.3726485       
2500.84          0.357878637      68.0239081       0.927484053      -20.9665644      0.927484053      -20.9665644      0.357878637      68.0239081       
2545.48          0.363666826      67.675789        0.925190788      -21.3221391      0.925190788      -21.3221391      0.363666826      67.675789        
2590.12          0.369426518      67.328311        0.922867779      -21.6768199      0.922867779      -21.6768199      0.369426518      67.328311        
2634.76          0.37515744       66.9814929       0.920515425      -22.0305971      0.920515425      -22.0305971      0.37515744       66.9814929       
2679.4           0.380859329      66.6353529       0.918134125      -22.3834612      0.918134125      -22.3834612      0.380859329      66.6353529       
2724.04          0.386531929      66.2899084       0.915724282      -22.7354028      0.915724282      -22.7354028      0.386531929      66.2899084       
2768.68          0.392174994      65.9451761       0.913286299      -23.0864128      0.913286299      -23.0864128      0.392174994      65.9451761       
2813.32          0.397788285      65.6011721       0.910820584      -23.4364823      0.910820584      -23.4364823      0.397788285      65.6011721       
2857.96          0.403371573      65.2579118       0.908327542      -23.7856024      0.908327542      -23.7856024      0.403371573      65.2579118       
2902.6           0.408924635      64.9154101       0.905807583      -24.1337647      0.905807583      -24.1337647      0.408924635      64.9154101       
2947.24          0.414447257      64.5736813       0.903261115      -24.4809609      0.903261115      -24.4809609      0.414447257      64.5736813       
2991.88          0.419939236      64.2327391       0.90068855       -24.8271828      0.90068855       -24.8271828      0.419939236      64.2327391       
3036.52          0.425400373      63.8925966       0.898090297      -25.1724226      0.898090297      -25.1724226      0.425400373      63.8925966       
3081.16          0.43083048       63.5532667       0.89546677       -25.5166724      0.89546677       -25.5166724      0.43083048       63.5532667       
3125.8           0.436229376      63.2147615       0.892818379      -25.8599247      0.892818379      -25.8599247      0.436229376      63.2147615       
3170.44          0.441596889      62.8770928       0.890145537      -26.2021723      0.890145537      -26.2021723      0.441596889      62.8770928       
3215.08          0.446932854      62.5402718       0.887448655      -26.5434081      0.887448655      -26.5434081      0.446932854      62.5402718       
3259.72          0.452237114      62.2043096       0.884728146      -26.883625       0.884728146      -26.883625       0.452237114      62.2043096       
3304.36          0.457509521      61.8692166       0.881984421      -27.2228164      0.881984421      -27.2228164      0.457509521      61.8692166       
3349             0.462749932      61.5350028       0.87921789       -27.5609757      0.87921789       -27.5609757      0.462749932      61.5350028       
3393.64          0.467958216      61.201678        0.876428965      -27.8980967      0.876428965      -27.8980967      0.467958216      61.201678        
3438.28          0.473134245      60.8692513       0.873618055      -28.2341731      0.873618055      -28.2341731      0.473134245      60.8692513       
3482.92          0.478277902      60.5377319       0.870785569      -28.569199       0.870785569      -28.569199       0.478277902      60.5377319       
3527.56          0.483389076      60.2071282       0.867931914      -28.9031686      0.867931914      -28.9031686      0.483389076      60.2071282       
3572.2           0.488467663      59.8774486       0.865057497      -29.2360764      0.865057497      -29.2360764      0.488467663      59.8774486       
3616.84          0.493513567      59.5487008       0.862162723      -29.567917       0.862162723      -29.567917       0.493513567      59.5487008       
3661.48          0.4985267        59.2208926       0.859247996      -29.8986851      0.859247996      -29.8986851      0.4985267        59.2208926       
3706.12          0.50350698       58.8940312       0.856313717      -30.2283758      0.856313717      -30.2283758      0.50350698       58.8940312       
3750.76          0.508454332      58.5681236       0.853360288      -30.5569842      0.853360288      -30.5569842      0.508454332      58.5681236       
3795.4           0.513368687      58.2431764       0.850388106      -30.8845057      0.850388106      -30.8845057      0.513368687      58.2431764       
3840.04          0.518249985      57.919196        0.847397569      -31.2109358      0.847397569      -31.2109358      0.518249985      57.919196        
3884.68          0.523098172      57.5961886       0.844389071      -31.5362701      0.844389071      -31.5362701      0.523098172      57.5961886       
3929.32          0.527913199      57.2741598       0.841363005      -31.8605046      0.841363005      -31.8605046      0.527913199      57.2741598       
3973.96          0.532695025      56.9531154       0.838319762      -32.1836352      0.838319762      -32.1836352      0.532695025      56.9531154       
4018.6           0.537443616      56.6330605       0.835259728      -32.5056583      0.835259728      -32.5056583      0.537443616      56.6330605       
4063.24          0.542158943      56.3140002       0.832183291      -32.8265701      0.832183291      -32.8265701      0.542158943      56.3140002       
4107.88          0.546840983      55.9959393       0.829090832      -33.1463672      0.829090832      -33.1463672      0.546840983      55.9959393       
4152.52          0.551489721      55.6788823       0.825982733      -33.4650463      0.825982733      -33.4650463      0.551489721      55.6788823       
4197.16          0.556105145      55.3628335       0.822859371      -33.7826043      0.822859371      -33.7826043      0.556105145      55.3628335       
4241.8           0.560687252      55.047797        0.819721121      -34.0990381      0.819721121      -34.0990381      0.560687252      55.047797        
4286.44          0.565236043      54.7337766       0.816568356      -34.4143451      0.816568356      -34.4143451      0.565236043      54.7337766       
4331.08          0.569751525      54.4207759       0.813401446      -34.7285224      0.813401446      -34.7285224      0.569751525      54.4207759       
4375.72          0.574233709      54.1087984       0.810220756      -35.0415677      0.810220756      -35.0415677      0.574233709      54.1087984       
4420.36          0.578682615      53.7978472       0.807026649      -35.3534784      0.807026649      -35.3534784      0.578682615      53.7978472       
4465             0.583098265      53.4879252       0.803819487      -35.6642524      0.803819487      -35.6642524      0.583098265      53.4879252       
4509.64          0.587480688      53.1790353       0.800599627      -35.9738876      0.800599627      -35.9738876      0.587480688      53.1790353       
4554.28          0.591829917      52.87118         0.797367422      -36.2823821      0.797367422      -36.2823821      0.591829917      52.87118         
4598.92          0.59614599       52.5643618       0.794123222      -36.589734       0.794123222      -36.589734       0.59614599       52.5643618       
4643.56          0.600428952      52.2585827       0.790867377      -36.8959417      0.790867377      -36.8959417      0.600428952      52.2585827       
4688.2           0.60467885       51.9538448       0.787600228      -37.2010037      0.787600228      -37.2010037      0.60467885       51.9538448       
4732.84          0.608895738      51.65015         0.784322118      -37.5049185      0.784322118      -37.5049185      0.608895738      51.65015         
4777.48          0.613079671      51.3474998       0.781033384      -37.8076848      0.781033384      -37.8076848      0.613079671      51.3474998       
4822.12          0.617230713      51.0458958       0.777734358      -38.1093015      0.777734358      -38.1093015      0.617230713      51.0458958       
4866.76          0.621348929      50.7453393       0.774425372      -38.4097677      0.774425372      -38.4097677      0.621348929      50.7453393       
4911.4           0.625434389      50.4458313       0.771106752      -38.7090823      0.771106752      -38.7090823      0.625434389      50.4458313       
4956.04          0.629487168      50.147373        0.767778821      -39.0072445      0.767778821      -39.0072445      0.629487168      50.147373        
5000.68          0.633507344      49.849965        0.764441899      -39.3042538      0.764441899      -39.3042538      0.633507344      49.849965        
5045.32          0.637495         49.5536081       0.761096302      -39.6001095      0.761096302      -39.6001095      0.637495         49.5536081       
5089.96          0.641450222      49.2583028       0.757742341      -39.8948111      0.757742341      -39.8948111      0.641450222      49.2583028       
5134.6           0.645373098      48.9640494       0.754380327      -40.1883584      0.754380327      -40.1883584      0.645373098      48.9640494       
5179.24          0.649263724      48.6708482       0.751010563      -40.480751       0.751010563      -40.480751       0.649263724      48.6708482       
5223.88          0.653122195      48.3786994       0.747633351      -40.7719888      0.747633351      -40.7719888      0.653122195      48.3786994       
5268.52          0.656948611      48.0876027       0.744248988      -41.0620719      0.744248988      -41.0620719      0.656948611      48.0876027       
5313.16          0.660743077      47.797558        0.740857768      -41.3510001      0.740857768      -41.3510001      0.660743077      47.797558        
5357.8           0.664505698      47.5085652       0.737459982      -41.6387737      0.737459982      -41.6387737      0.664505698      47.5085652       
5402.44          0.668236585      47.2206235       0.734055916      -41.9253929      0.734055916      -41.9253929      0.668236585      47.2206235       
5447.08          0.67193585       46.9337327       0.730645853      -42.210858       0.730645853      -42.210858       0.67193585       46.9337327       
5491.72          0.675603609      46.6478919       0.72723007       -42.4951695      0.72723007       -42.4951695      0.675603609      46.6478919       
5536.36          0.67923998       46.3631003       0.723808845      -42.7783277      0.723808845      -42.7783277      0.67923998       46.3631003       
5581             0.682845084      46.0793571       0.720382447      -43.0603334      0.720382447      -43.0603334      0.682845084      46.0793571       
5625.64          0.686419045      45.7966612       0.716951146      -43.3411871      0.716951146      -43.3411871      0.686419045      45.7966612       
5670.28          0.689961988      45.5150114       0.713515204      -43.6208895      0.713515204      -43.6208895      0.689961988      45.5150114       
