! Coilcraft 0402CS-56N Chip Inductor				
! 22 July 2002			
# MHZ S MA R 50
!Freq             MagS11           AngS11           MagS21           AngS21           MagS12           AngS12           MagS22           AngS22
1                0.00421574924    56.1733619       0.997659316      -0.201128541     0.997659316      -0.201128541     0.00421574924    56.1733619       
11.97            0.0424454016     77.3076674       0.991539093      -2.39345629      0.991539093      -2.39345629      0.0424454016     77.3076674       
22.94            0.080299279      78.003193        0.986441286      -4.5670163       0.986441286      -4.5670163       0.080299279      78.003193        
33.91            0.117679981      77.1763803       0.980617317      -6.71973521      0.980617317      -6.71973521      0.117679981      77.1763803       
44.88            0.154465859      75.8512687       0.973829804      -8.84750638      0.973829804      -8.84750638      0.154465859      75.8512687       
55.85            0.19053731       74.3048338       0.966031291      -10.9459639      0.966031291      -10.9459639      0.19053731       74.3048338       
66.82            0.225783497      72.6492352       0.957241646      -13.010882       0.957241646      -13.010882       0.225783497      72.6492352       
77.79            0.26010572       70.9407803       0.947513806      -15.0383485      0.947513806      -15.0383485      0.26010572       70.9407803       
88.76            0.293419244      69.2118783       0.936919504      -17.0248572      0.936919504      -17.0248572      0.293419244      69.2118783       
99.73            0.32565419       67.4829977       0.925541558      -18.9673581      0.925541558      -18.9673581      0.32565419       67.4829977       
110.7            0.356755719      65.7679122       0.913468904      -20.8632816      0.913468904      -20.8632816      0.356755719      65.7679122       
121.67           0.38668368       64.0762837       0.900793032      -22.710542       0.900793032      -22.710542       0.38668368       64.0762837       
132.64           0.415411848      62.4150559       0.8876053        -24.5075273      0.8876053        -24.5075273      0.415411848      62.4150559       
143.61           0.442926858      60.7892639       0.873994863      -26.2530768      0.873994863      -26.2530768      0.442926858      60.7892639       
154.58           0.46922694       59.2025399       0.860047116      -27.9464514      0.860047116      -27.9464514      0.46922694       59.2025399       
165.55           0.494320529      57.6574464       0.845842546      -29.5872973      0.845842546      -29.5872973      0.494320529      57.6574464       
176.52           0.518224841      56.1557104       0.83145594       -31.1756078      0.83145594       -31.1756078      0.518224841      56.1557104       
187.49           0.540964458      54.6983948       0.816955894      -32.7116817      0.816955894      -32.7116817      0.540964458      54.6983948       
198.46           0.562569976      53.2860289       0.802404571      -34.1960839      0.802404571      -34.1960839      0.562569976      53.2860289       
209.43           0.583076744      51.9187124       0.787857665      -35.629605       0.787857665      -35.629605       0.583076744      51.9187124       
220.4            0.602523719      50.5961988       0.773364518      -37.0132248      0.773364518      -37.0132248      0.602523719      50.5961988       
231.37           0.620952448      49.3179636       0.758968362      -38.3480774      0.758968362      -38.3480774      0.620952448      49.3179636       
242.34           0.638406174      48.0832618       0.74470665       -39.6354196      0.74470665       -39.6354196      0.638406174      48.0832618       
253.31           0.654929079      46.8911754       0.730611441      -40.8766027      0.730611441      -40.8766027      0.654929079      46.8911754       
264.28           0.670565634      45.7406533       0.71670982       -42.0730471      0.71670982       -42.0730471      0.670565634      45.7406533       
275.25           0.685360076      44.6305451       0.703024338      -43.2262207      0.703024338      -43.2262207      0.685360076      44.6305451       
286.22           0.699355973      43.5596287       0.689573448      -44.3376197      0.689573448      -44.3376197      0.699355973      43.5596287       
297.19           0.71259589       42.526634        0.676371936      -45.4087524      0.676371936      -45.4087524      0.71259589       42.526634        
308.16           0.725121127      41.5302621       0.663431324      -46.4411262      0.663431324      -46.4411262      0.725121127      41.5302621       
319.13           0.736971521      40.5692014       0.650760261      -47.4362355      0.650760261      -47.4362355      0.736971521      40.5692014       
330.1            0.748185319      39.6421404       0.638364877      -48.3955533      0.638364877      -48.3955533      0.748185319      39.6421404       
341.07           0.758799078      38.7477784       0.626249117      -49.3205232      0.626249117      -49.3205232      0.758799078      38.7477784       
352.04           0.768847623      37.8848337       0.614415032      -50.2125541      0.614415032      -50.2125541      0.768847623      37.8848337       
363.01           0.778364027      37.0520506       0.602863057      -51.0730154      0.602863057      -51.0730154      0.778364027      37.0520506       
373.98           0.787379617      36.2482041       0.591592248      -51.9032339      0.591592248      -51.9032339      0.787379617      36.2482041       
384.95           0.795924         35.4721039       0.580600501      -52.7044913      0.580600501      -52.7044913      0.795924         35.4721039       
395.92           0.804025108      34.7225973       0.56988474       -53.4780229      0.56988474       -53.4780229      0.804025108      34.7225973       
406.89           0.811709252      33.9985706       0.559441085      -54.2250169      0.559441085      -54.2250169      0.811709252      33.9985706       
417.86           0.819001177      33.2989511       0.549265         -54.9466137      0.549265         -54.9466137      0.819001177      33.2989511       
428.83           0.82592414       32.6227069       0.539351421      -55.6439067      0.539351421      -55.6439067      0.82592414       32.6227069       
439.8            0.832499968      31.9688475       0.529694868      -56.3179426      0.529694868      -56.3179426      0.832499968      31.9688475       
450.77           0.83874914       31.3364232       0.520289538      -56.9697221      0.520289538      -56.9697221      0.83874914       31.3364232       
461.74           0.844690855      30.7245248       0.511129394      -57.6002014      0.511129394      -57.6002014      0.844690855      30.7245248       
472.71           0.850343105      30.1322826       0.502208226      -58.2102931      0.502208226      -58.2102931      0.850343105      30.1322826       
483.68           0.855722744      29.5588654       0.493519721      -58.800868       0.493519721      -58.800868       0.855722744      29.5588654       
494.65           0.860845557      29.0034794       0.485057509      -59.3727561      0.485057509      -59.3727561      0.860845557      29.0034794       
505.62           0.865726325      28.4653672       0.476815206      -59.9267486      0.476815206      -59.9267486      0.865726325      28.4653672       
516.59           0.87037889       27.9438059       0.468786452      -60.4635991      0.468786452      -60.4635991      0.87037889       27.9438059       
527.56           0.874816213      27.4381065       0.46096494       -60.9840256      0.46096494       -60.9840256      0.874816213      27.4381065       
538.53           0.879050431      26.9476118       0.45334444       -61.4887116      0.45334444       -61.4887116      0.879050431      26.9476118       
549.5            0.883092911      26.4716959       0.445918821      -61.978308       0.445918821      -61.978308       0.883092911      26.4716959       
560.47           0.886954301      26.0097618       0.438682065      -62.4534344      0.438682065      -62.4534344      0.886954301      26.0097618       
571.44           0.890644577      25.561241        0.43162828       -62.9146808      0.43162828       -62.9146808      0.890644577      25.561241        
582.41           0.894173089      25.1255917       0.424751712      -63.3626088      0.424751712      -63.3626088      0.894173089      25.1255917       
593.38           0.897548603      24.7022977       0.418046752      -63.7977532      0.418046752      -63.7977532      0.897548603      24.7022977       
604.35           0.900779336      24.2908671       0.411507938      -64.2206232      0.411507938      -64.2206232      0.900779336      24.2908671       
615.32           0.903872998      23.8908311       0.405129964      -64.6317038      0.405129964      -64.6317038      0.903872998      23.8908311       
626.29           0.906836826      23.501743        0.398907679      -65.0314568      0.398907679      -65.0314568      0.906836826      23.501743        
637.26           0.90967761       23.1231769       0.392836086      -65.4203223      0.392836086      -65.4203223      0.90967761       23.1231769       
648.23           0.91240173       22.7547269       0.386910346      -65.7987195      0.386910346      -65.7987195      0.91240173       22.7547269       
659.2            0.915015177      22.3960057       0.381125776      -66.1670481      0.381125776      -66.1670481      0.915015177      22.3960057       
670.17           0.917523586      22.0466443       0.375477844      -66.5256889      0.375477844      -66.5256889      0.917523586      22.0466443       
681.14           0.919932252      21.7062904       0.36996217       -66.8750053      0.36996217       -66.8750053      0.919932252      21.7062904       
692.11           0.922246159      21.3746079       0.364574523      -67.2153435      0.364574523      -67.2153435      0.922246159      21.3746079       
703.08           0.924469996      21.051276        0.359310817      -67.5470341      0.359310817      -67.5470341      0.924469996      21.051276        
714.05           0.92660818       20.7359886       0.354167106      -67.8703924      0.354167106      -67.8703924      0.92660818       20.7359886       
725.02           0.92866487       20.4284533       0.349139584      -68.1857196      0.349139584      -68.1857196      0.92866487       20.4284533       
735.99           0.930643988      20.1283906       0.344224578      -68.4933031      0.344224578      -68.4933031      0.930643988      20.1283906       
746.96           0.932549231      19.8355338       0.339418544      -68.7934175      0.339418544      -68.7934175      0.932549231      19.8355338       
757.93           0.934384086      19.5496276       0.334718068      -69.086325       0.334718068      -69.086325       0.934384086      19.5496276       
768.9            0.936151845      19.2704283       0.330119855      -69.3722765      0.330119855      -69.3722765      0.936151845      19.2704283       
779.87           0.937855616      18.9977026       0.325620729      -69.6515115      0.325620729      -69.6515115      0.937855616      18.9977026       
790.84           0.939498336      18.7312273       0.321217627      -69.9242594      0.321217627      -69.9242594      0.939498336      18.7312273       
801.81           0.941082781      18.4707889       0.316907599      -70.1907393      0.316907599      -70.1907393      0.941082781      18.4707889       
812.78           0.942611574      18.216183        0.312687799      -70.4511613      0.312687799      -70.4511613      0.942611574      18.216183        
823.75           0.944087198      17.9672139       0.308555485      -70.705726       0.308555485      -70.705726       0.944087198      17.9672139       
834.72           0.945512004      17.723694        0.304508011      -70.9546259      0.304508011      -70.9546259      0.945512004      17.723694        
845.69           0.946888215      17.4854438       0.300542829      -71.1980452      0.300542829      -71.1980452      0.946888215      17.4854438       
856.66           0.94821794       17.252291        0.296657481      -71.4361605      0.296657481      -71.4361605      0.94821794       17.252291        
867.63           0.949503178      17.0240706       0.292849599      -71.6691408      0.292849599      -71.6691408      0.949503178      17.0240706       
878.6            0.950745821      16.8006241       0.289116896      -71.8971484      0.289116896      -71.8971484      0.950745821      16.8006241       
889.57           0.951947667      16.5817997       0.285457169      -72.120339       0.285457169      -72.120339       0.951947667      16.5817997       
900.54           0.953110422      16.3674516       0.281868294      -72.3388616      0.281868294      -72.3388616      0.953110422      16.3674516       
911.51           0.954235704      16.1574397       0.278348221      -72.5528596      0.278348221      -72.5528596      0.954235704      16.1574397       
922.48           0.955325051      15.9516298       0.274894971      -72.7624705      0.274894971      -72.7624705      0.955325051      15.9516298       
933.45           0.956379926      15.7498927       0.271506638      -72.9678261      0.271506638      -72.9678261      0.956379926      15.7498927       
944.42           0.957401717      15.5521042       0.26818138       -73.1690534      0.26818138       -73.1690534      0.957401717      15.5521042       
955.39           0.958391746      15.3581452       0.264917421      -73.3662742      0.264917421      -73.3662742      0.958391746      15.3581452       
966.36           0.95935127       15.167901        0.261713045      -73.5596055      0.261713045      -73.5596055      0.95935127       15.167901        
977.33           0.960281487      14.9812612       0.258566596      -73.7491599      0.258566596      -73.7491599      0.960281487      14.9812612       
988.3            0.961183535      14.7981198       0.255476477      -73.9350456      0.255476477      -73.9350456      0.961183535      14.7981198       
999.27           0.962058501      14.6183747       0.252441142      -74.1173668      0.252441142      -74.1173668      0.962058501      14.6183747       
1010.24          0.962907419      14.4419276       0.249459101      -74.2962236      0.249459101      -74.2962236      0.962907419      14.4419276       
1021.21          0.963731276      14.2686838       0.246528912      -74.4717124      0.246528912      -74.4717124      0.963731276      14.2686838       
1032.18          0.964531013      14.0985521       0.243649185      -74.643926       0.243649185      -74.643926       0.964531013      14.0985521       
1043.15          0.965307528      13.9314447       0.240818572      -74.8129538      0.240818572      -74.8129538      0.965307528      13.9314447       
1054.12          0.966061676      13.767277        0.238035775      -74.9788818      0.238035775      -74.9788818      0.966061676      13.767277        
1065.09          0.966794277      13.6059672       0.235299535      -75.141793       0.235299535      -75.141793       0.966794277      13.6059672       
1076.06          0.967506113      13.4474367       0.232608637      -75.3017672      0.232608637      -75.3017672      0.967506113      13.4474367       
1087.03          0.968197929      13.2916097       0.229961905      -75.4588815      0.229961905      -75.4588815      0.968197929      13.2916097       
1098             0.96887044       13.1384127       0.227358202      -75.6132102      0.227358202      -75.6132102      0.96887044       13.1384127       
1108.97          0.969524329      12.9877752       0.224796428      -75.7648248      0.224796428      -75.7648248      0.969524329      12.9877752       
1119.94          0.970160248      12.8396289       0.222275517      -75.9137944      0.222275517      -75.9137944      0.970160248      12.8396289       
1130.91          0.970778823      12.6939078       0.219794439      -76.0601856      0.219794439      -76.0601856      0.970778823      12.6939078       
1141.88          0.971380652      12.5505484       0.217352197      -76.2040628      0.217352197      -76.2040628      0.971380652      12.5505484       
1152.85          0.971966306      12.4094892       0.214947824      -76.3454879      0.214947824      -76.3454879      0.971966306      12.4094892       
1163.82          0.972536336      12.2706707       0.212580384      -76.484521       0.212580384      -76.484521       0.972536336      12.2706707       
1174.79          0.973091267      12.1340355       0.210248973      -76.6212199      0.210248973      -76.6212199      0.973091267      12.1340355       
1185.76          0.973631603      11.999528        0.207952712      -76.7556404      0.207952712      -76.7556404      0.973631603      11.999528        
1196.73          0.974157827      11.8670946       0.20569075       -76.8878365      0.20569075       -76.8878365      0.974157827      11.8670946       
1207.7           0.974670402      11.7366833       0.203462262      -77.0178604      0.203462262      -77.0178604      0.974670402      11.7366833       
1218.67          0.975169773      11.6082438       0.201266451      -77.1457624      0.201266451      -77.1457624      0.975169773      11.6082438       
1229.64          0.975656367      11.4817275       0.199102541      -77.2715913      0.199102541      -77.2715913      0.975656367      11.4817275       
1240.61          0.976130594      11.3570873       0.196969781      -77.3953941      0.196969781      -77.3953941      0.976130594      11.3570873       
1251.58          0.976592847      11.2342776       0.194867441      -77.5172163      0.194867441      -77.5172163      0.976592847      11.2342776       
1262.55          0.977043503      11.1132542       0.192794817      -77.637102       0.192794817      -77.637102       0.977043503      11.1132542       
1273.52          0.977482927      10.9939744       0.190751221      -77.7550937      0.190751221      -77.7550937      0.977482927      10.9939744       
1284.49          0.977911467      10.8763967       0.188735988      -77.8712325      0.188735988      -77.8712325      0.977911467      10.8763967       
1295.46          0.978329458      10.7604809       0.186748472      -77.9855583      0.186748472      -77.9855583      0.978329458      10.7604809       
1306.43          0.978737224      10.6461882       0.184788047      -78.0981097      0.184788047      -78.0981097      0.978737224      10.6461882       
1317.4           0.979135075      10.5334808       0.182854104      -78.2089238      0.182854104      -78.2089238      0.979135075      10.5334808       
1328.37          0.97952331       10.422322        0.18094605       -78.3180369      0.18094605       -78.3180369      0.97952331       10.422322        
1339.34          0.979902215      10.3126764       0.179063313      -78.4254837      0.179063313      -78.4254837      0.979902215      10.3126764       
1350.31          0.980272069      10.2045095       0.177205335      -78.5312981      0.177205335      -78.5312981      0.980272069      10.2045095       
1361.28          0.980633138      10.0977879       0.175371572      -78.6355128      0.175371572      -78.6355128      0.980633138      10.0977879       
1372.25          0.980985678      9.99247918       0.173561499      -78.7381594      0.173561499      -78.7381594      0.980985678      9.99247918       
1383.22          0.981329938      9.88855181       0.171774605      -78.8392688      0.171774605      -78.8392688      0.981329938      9.88855181       
1394.19          0.981666154      9.78597524       0.17001039       -78.9388704      0.17001039       -78.9388704      0.981666154      9.78597524       
