! Coilcraft 0402CS-24N Chip Inductor				
! 22 July 2002			
# MHZ S MA R 50
!Freq             MagS11           AngS11           MagS21           AngS21           MagS12           AngS12           MagS22           AngS22
1                0.00179180158    57.1356154       0.999028808      -0.0863161242    0.999028808      -0.0863161242    0.00179180158    57.1356154       
16.46            0.0249802615     80.3925751       0.996135421      -1.41680844      0.996135421      -1.41680844      0.0249802615     80.3925751       
31.92            0.0480954829     81.4118215       0.993956161      -2.74238465      0.993956161      -2.74238465      0.0480954829     81.4118215       
47.38            0.0710985642     81.1541342       0.991558559      -4.06286578      0.991558559      -4.06286578      0.0710985642     81.1541342       
62.84            0.0939613465     80.4777096       0.988807585      -5.37739853      0.988807585      -5.37739853      0.0939613465     80.4777096       
78.3             0.116654582      79.6069269       0.985656768      -6.68497944      0.985656768      -6.68497944      0.116654582      79.6069269       
93.76            0.139149051      78.6302296       0.982088967      -7.98456063      0.982088967      -7.98456063      0.139149051      78.6302296       
109.22           0.161416231      77.5907894       0.9781007        -9.27509231      0.9781007        -9.27509231      0.161416231      77.5907894       
124.68           0.183428726      76.5127576       0.973696234      -10.5555455      0.973696234      -10.5555455      0.183428726      76.5127576       
140.14           0.205160567      75.4110133       0.968884823      -11.824926       0.968884823      -11.824926       0.205160567      75.4110133       
155.6            0.226587424      74.2954124       0.963679207      -13.0822845      0.963679207      -13.0822845      0.226587424      74.2954124       
171.06           0.24768677       73.1728622       0.958094688      -14.3267236      0.958094688      -14.3267236      0.24768677       73.1728622       
186.52           0.268437994      72.0484244       0.952148493      -15.5574027      0.952148493      -15.5574027      0.268437994      72.0484244       
201.98           0.288822479      70.9259421       0.945859302      -16.7735421      0.945859302      -16.7735421      0.288822479      70.9259421       
217.44           0.308823646      69.8084156       0.939246873      -17.9744256      0.939246873      -17.9744256      0.308823646      69.8084156       
232.9            0.328426969      68.6982385       0.932331732      -19.159402       0.932331732      -19.159402       0.328426969      68.6982385       
248.36           0.347619966      67.5973517       0.925134903      -20.3278858      0.925134903      -20.3278858      0.347619966      67.5973517       
263.82           0.366392161      66.5073471       0.91767768       -21.4793572      0.91767768       -21.4793572      0.366392161      66.5073471       
279.28           0.384735035      65.4295401       0.909981422      -22.6133618      0.909981422      -22.6133618      0.384735035      65.4295401       
294.74           0.402641952      64.3650216       0.902067377      -23.7295086      0.902067377      -23.7295086      0.402641952      64.3650216       
310.2            0.420108077      63.3146963       0.893956521      -24.827469       0.893956521      -24.827469       0.420108077      63.3146963       
325.66           0.437130281      62.2793117       0.885669432      -25.9069744      0.885669432      -25.9069744      0.437130281      62.2793117       
341.12           0.453707034      61.2594809       0.877226166      -26.9678134      0.877226166      -26.9678134      0.453707034      61.2594809       
356.58           0.469838297      60.2557003       0.868646165      -28.0098295      0.868646165      -28.0098295      0.469838297      60.2557003       
372.04           0.485525407      59.2683645       0.859948174      -29.0329178      0.859948174      -29.0329178      0.485525407      59.2683645       
387.5            0.500770963      58.2977786       0.851150181      -30.0370221      0.851150181      -30.0370221      0.500770963      58.2977786       
402.96           0.515578704      57.3441684       0.842269361      -31.0221314      0.842269361      -31.0221314      0.515578704      57.3441684       
418.42           0.5299534        56.4076894       0.833322042      -31.9882769      0.833322042      -31.9882769      0.5299534        56.4076894       
433.88           0.543900739      55.4884349       0.82432368       -32.9355285      0.82432368       -32.9355285      0.543900739      55.4884349       
449.34           0.557427215      54.5864425       0.815288848      -33.8639917      0.815288848      -33.8639917      0.557427215      54.5864425       
464.8            0.570540028      53.7017007       0.806231226      -34.7738045      0.806231226      -34.7738045      0.570540028      53.7017007       
480.26           0.583246983      52.8341544       0.797163609      -35.665134       0.797163609      -35.665134       0.583246983      52.8341544       
495.72           0.595556399      51.9837095       0.788097915      -36.5381735      0.788097915      -36.5381735      0.595556399      51.9837095       
511.18           0.607477022      51.1502383       0.779045205      -37.3931399      0.779045205      -37.3931399      0.607477022      51.1502383       
526.64           0.619017943      50.3335828       0.770015703      -38.2302707      0.770015703      -38.2302707      0.619017943      50.3335828       
542.1            0.630188527      49.533559        0.761018824      -39.0498213      0.761018824      -39.0498213      0.630188527      49.533559        
557.56           0.640998344      48.7499602       0.7520632        -39.852063       0.7520632        -39.852063       0.640998344      48.7499602       
573.02           0.651457107      47.9825602       0.743156716      -40.6372805      0.743156716      -40.6372805      0.651457107      47.9825602       
588.48           0.661574615      47.2311158       0.734306543      -41.4057696      0.734306543      -41.4057696      0.661574615      47.2311158       
603.94           0.671360707      46.4953701       0.725519171      -42.1578354      0.725519171      -42.1578354      0.671360707      46.4953701       
619.4            0.680825216      45.775054        0.716800448      -42.8937908      0.716800448      -42.8937908      0.680825216      45.775054        
634.86           0.689977928      45.0698891       0.708155611      -43.6139542      0.708155611      -43.6139542      0.689977928      45.0698891       
650.32           0.698828551      44.3795889       0.699589328      -44.3186486      0.699589328      -44.3186486      0.698828551      44.3795889       
665.78           0.707386681      43.7038614       0.691105732      -45.0081997      0.691105732      -45.0081997      0.707386681      43.7038614       
681.24           0.715661781      43.0424096       0.68270845       -45.6829352      0.68270845       -45.6829352      0.715661781      43.0424096       
696.7            0.723663153      42.394934        0.674400646      -46.3431832      0.674400646      -46.3431832      0.723663153      42.394934        
712.16           0.731399927      41.7611328       0.666185047      -46.9892715      0.666185047      -46.9892715      0.731399927      41.7611328       
727.62           0.738881039      41.140704        0.658063977      -47.6215265      0.658063977      -47.6215265      0.738881039      41.140704        
743.08           0.746115223      40.5333454       0.650039386      -48.2402725      0.650039386      -48.2402725      0.746115223      40.5333454       
758.54           0.753110996      39.9387564       0.642112883      -48.8458311      0.642112883      -48.8458311      0.753110996      39.9387564       
774              0.759876656      39.3566382       0.634285755      -49.4385203      0.634285755      -49.4385203      0.759876656      39.3566382       
789.46           0.766420274      38.7866943       0.626559003      -50.0186543      0.626559003      -50.0186543      0.766420274      38.7866943       
804.92           0.772749689      38.2286319       0.618933359      -50.5865427      0.618933359      -50.5865427      0.772749689      38.2286319       
820.38           0.778872506      37.6821615       0.61140931       -51.1424906      0.61140931       -51.1424906      0.778872506      37.6821615       
835.84           0.784796097      37.1469978       0.603987125      -51.6867975      0.603987125      -51.6867975      0.784796097      37.1469978       
851.3            0.7905276        36.6228601       0.596666868      -52.2197578      0.596666868      -52.2197578      0.7905276        36.6228601       
866.76           0.79607392       36.1094722       0.589448421      -52.7416602      0.589448421      -52.7416602      0.79607392       36.1094722       
882.22           0.801441733      35.6065632       0.582331501      -53.2527874      0.582331501      -53.2527874      0.801441733      35.6065632       
897.68           0.806637487      35.1138674       0.575315677      -53.7534162      0.575315677      -53.7534162      0.806637487      35.1138674       
913.14           0.811667406      34.6311243       0.568400383      -54.2438174      0.568400383      -54.2438174      0.811667406      34.6311243       
928.6            0.816537496      34.1580792       0.561584933      -54.7242555      0.561584933      -54.7242555      0.816537496      34.1580792       
944.06           0.821253549      33.6944829       0.554868536      -55.1949889      0.554868536      -55.1949889      0.821253549      33.6944829       
959.52           0.825821145      33.2400917       0.548250306      -55.6562695      0.548250306      -55.6562695      0.825821145      33.2400917       
974.98           0.830245663      32.7946679       0.541729271      -56.1083434      0.541729271      -56.1083434      0.830245663      32.7946679       
990.44           0.83453228       32.3579794       0.535304389      -56.5514502      0.535304389      -56.5514502      0.83453228       32.3579794       
1005.9           0.838685983      31.9297999       0.528974553      -56.9858233      0.528974553      -56.9858233      0.838685983      31.9297999       
1021.36          0.842711569      31.5099085       0.522738598      -57.4116902      0.522738598      -57.4116902      0.842711569      31.5099085       
1036.82          0.846613656      31.0980904       0.516595315      -57.8292723      0.516595315      -57.8292723      0.846613656      31.0980904       
1052.28          0.850396685      30.694136        0.510543452      -58.2387849      0.510543452      -58.2387849      0.850396685      30.694136        
1067.74          0.854064927      30.2978414       0.504581724      -58.6404376      0.504581724      -58.6404376      0.854064927      30.2978414       
1083.2           0.85762249       29.9090082       0.498708819      -59.0344341      0.498708819      -59.0344341      0.85762249       29.9090082       
1098.66          0.861073323      29.5274432       0.492923402      -59.4209726      0.492923402      -59.4209726      0.861073323      29.5274432       
1114.12          0.864421223      29.1529587       0.487224118      -59.8002456      0.487224118      -59.8002456      0.864421223      29.1529587       
1129.58          0.867669839      28.785372        0.481609602      -60.1724402      0.481609602      -60.1724402      0.867669839      28.785372        
1145.04          0.87082268       28.4245055       0.47607848       -60.5377382      0.47607848       -60.5377382      0.87082268       28.4245055       
1160.5           0.873883116      28.0701865       0.47062937       -60.8963163      0.47062937       -60.8963163      0.873883116      28.0701865       
1175.96          0.876854388      27.7222474       0.46526089       -61.2483459      0.46526089       -61.2483459      0.876854388      27.7222474       
1191.42          0.879739612      27.380525        0.459971659      -61.5939936      0.459971659      -61.5939936      0.879739612      27.380525        
1206.88          0.882541779      27.044861        0.454760297      -61.9334212      0.454760297      -61.9334212      0.882541779      27.044861        
1222.34          0.885263766      26.7151015       0.449625433      -62.2667856      0.449625433      -62.2667856      0.885263766      26.7151015       
1237.8           0.887908339      26.3910971       0.444565703      -62.5942394      0.444565703      -62.5942394      0.887908339      26.3910971       
1253.26          0.890478155      26.0727024       0.439579751      -62.9159305      0.439579751      -62.9159305      0.890478155      26.0727024       
1268.72          0.892975767      25.7597766       0.434666235      -63.2320026      0.434666235      -63.2320026      0.892975767      25.7597766       
1284.18          0.895403632      25.4521826       0.429823825      -63.5425953      0.429823825      -63.5425953      0.895403632      25.4521826       
1299.64          0.89776411       25.1497875       0.425051206      -63.8478437      0.425051206      -63.8478437      0.89776411       25.1497875       
1315.1           0.90005947       24.852462        0.420347076      -64.1478795      0.420347076      -64.1478795      0.90005947       24.852462        
1330.56          0.902291893      24.5600807       0.415710152      -64.4428299      0.415710152      -64.4428299      0.902291893      24.5600807       
1346.02          0.904463478      24.2725218       0.411139167      -64.732819       0.411139167      -64.732819       0.904463478      24.2725218       
1361.48          0.906576242      23.989667        0.406632873      -65.0179667      0.406632873      -65.0179667      0.906576242      23.989667        
1376.94          0.908632125      23.7114014       0.40219004       -65.2983897      0.40219004       -65.2983897      0.908632125      23.7114014       
1392.4           0.910632995      23.4376133       0.397809455      -65.5742012      0.397809455      -65.5742012      0.910632995      23.4376133       
1407.86          0.912580645      23.1681946       0.393489927      -65.8455112      0.393489927      -65.8455112      0.912580645      23.1681946       
1423.32          0.914476804      22.9030397       0.389230284      -66.1124261      0.389230284      -66.1124261      0.914476804      22.9030397       
1438.78          0.916323134      22.6420467       0.385029373      -66.3750497      0.385029373      -66.3750497      0.916323134      22.6420467       
1454.24          0.918121234      22.385116        0.380886063      -66.6334823      0.380886063      -66.6334823      0.918121234      22.385116        
1469.7           0.919872645      22.1321514       0.376799242      -66.8878216      0.376799242      -66.8878216      0.919872645      22.1321514       
1485.16          0.921578848      21.883059        0.372767818      -67.1381624      0.372767818      -67.1381624      0.921578848      21.883059        
1500.62          0.92324127       21.6377479       0.36879072       -67.3845965      0.36879072       -67.3845965      0.92324127       21.6377479       
1516.08          0.924861285      21.3961296       0.364866897      -67.6272134      0.364866897      -67.6272134      0.924861285      21.3961296       
1531.54          0.926440217      21.1581182       0.360995318      -67.8660997      0.360995318      -67.8660997      0.926440217      21.1581182       
1547             0.92797934       20.9236301       0.357174973      -68.1013397      0.357174973      -68.1013397      0.92797934       20.9236301       
1562.46          0.929479883      20.6925842       0.353404871      -68.3330151      0.353404871      -68.3330151      0.929479883      20.6925842       
1577.92          0.930943028      20.4649016       0.34968404       -68.5612055      0.34968404       -68.5612055      0.930943028      20.4649016       
1593.38          0.932369916      20.2405056       0.346011531      -68.785988       0.346011531      -68.785988       0.932369916      20.2405056       
1608.84          0.933761645      20.0193218       0.34238641       -69.0074375      0.34238641       -69.0074375      0.933761645      20.0193218       
1624.3           0.935119276      19.8012777       0.338807764      -69.2256269      0.338807764      -69.2256269      0.935119276      19.8012777       
1639.76          0.936443829      19.5863028       0.335274701      -69.4406269      0.335274701      -69.4406269      0.936443829      19.5863028       
1655.22          0.937736289      19.3743286       0.331786344      -69.6525063      0.331786344      -69.6525063      0.937736289      19.3743286       
1670.68          0.938997607      19.1652885       0.328341836      -69.8613317      0.328341836      -69.8613317      0.938997607      19.1652885       
1686.14          0.940228699      18.9591178       0.32494034       -70.0671682      0.32494034       -70.0671682      0.940228699      18.9591178       
1701.6           0.94143045       18.7557534       0.321581032      -70.2700788      0.321581032      -70.2700788      0.94143045       18.7557534       
1717.06          0.942603711      18.5551341       0.31826311       -70.4701247      0.31826311       -70.4701247      0.942603711      18.5551341       
1732.52          0.943749307      18.3572002       0.314985787      -70.6673656      0.314985787      -70.6673656      0.943749307      18.3572002       
1747.98          0.944868033      18.1618937       0.311748293      -70.8618594      0.311748293      -70.8618594      0.944868033      18.1618937       
1763.44          0.945960656      17.9691581       0.308549876      -71.0536623      0.308549876      -71.0536623      0.945960656      17.9691581       
1778.9           0.947027918      17.7789385       0.305389798      -71.242829       0.305389798      -71.242829       0.947027918      17.7789385       
1794.36          0.948070533      17.5911814       0.302267338      -71.4294128      0.302267338      -71.4294128      0.948070533      17.5911814       
1809.82          0.949089193      17.4058347       0.299181791      -71.6134653      0.299181791      -71.6134653      0.949089193      17.4058347       
1825.28          0.950084566      17.2228479       0.296132467      -71.795037       0.296132467      -71.795037       0.950084566      17.2228479       
1840.74          0.951057298      17.0421714       0.293118691      -71.9741765      0.293118691      -71.9741765      0.951057298      17.0421714       
1856.2           0.952008012      16.8637574       0.290139801      -72.1509316      0.290139801      -72.1509316      0.952008012      16.8637574       
1871.66          0.952937311      16.6875589       0.287195153      -72.3253485      0.287195153      -72.3253485      0.952937311      16.6875589       
1887.12          0.953845779      16.5135305       0.284284114      -72.497472       0.284284114      -72.497472       0.953845779      16.5135305       
1902.58          0.954733978      16.3416277       0.281406065      -72.6673461      0.281406065      -72.6673461      0.954733978      16.3416277       
1918.04          0.955602454      16.1718072       0.278560403      -72.8350132      0.278560403      -72.8350132      0.955602454      16.1718072       
1933.5           0.956451734      16.004027        0.275746534      -73.0005146      0.275746534      -73.0005146      0.956451734      16.004027        
1948.96          0.957282329      15.838246        0.272963881      -73.1638907      0.272963881      -73.1638907      0.957282329      15.838246        
1964.42          0.958094731      15.6744241       0.270211877      -73.3251807      0.270211877      -73.3251807      0.958094731      15.6744241       
