! Coilcraft 0402CS-20N Chip Inductor				
! 22 July 2002			
# MHZ S MA R 50
!Freq             MagS11           AngS11           MagS21           AngS21           MagS12           AngS12           MagS22           AngS22
1                0.00148902015    57.4139868       0.999198853      -0.071942338     0.999198853      -0.071942338     0.00148902015    57.4139868       
17.71            0.0223894944     80.9251488       0.99671387       -1.27104734      0.99671387       -1.27104734      0.0223894944     80.9251488       
34.42            0.043237438      81.9705959       0.994882181      -2.46641676      0.994882181      -2.46641676      0.043237438      81.9705959       
51.13            0.0640020591     81.7921955       0.992885651      -3.65797648      0.992885651      -3.65797648      0.0640020591     81.7921955       
67.84            0.0846628824     81.2127983       0.990606248      -4.84512154      0.990606248      -4.84512154      0.0846628824     81.2127983       
84.55            0.105198448      80.4466146       0.988001961      -6.02712491      0.988001961      -6.02712491      0.105198448      80.4466146       
101.26           0.125587111      79.5778125       0.985055685      -7.20321844      0.985055685      -7.20321844      0.125587111      79.5778125       
117.97           0.145807527      78.6473306       0.981761754      -8.3726249       0.981761754      -8.3726249       0.145807527      78.6473306       
134.68           0.165838961      77.6779721       0.978120903      -9.53457471      0.978120903      -9.53457471      0.165838961      77.6779721       
151.39           0.185661497      76.683715        0.974137941      -10.6883163      0.974137941      -10.6883163      0.185661497      76.683715        
168.1            0.205256193      75.6737669       0.969820514      -11.8331232      0.969820514      -11.8331232      0.205256193      75.6737669       
184.81           0.224605205      74.6545456       0.965178364      -12.9682994      0.965178364      -12.9682994      0.224605205      74.6545456       
201.52           0.243691875      73.630731        0.960222832      -14.0931831      0.960222832      -14.0931831      0.243691875      73.630731        
218.23           0.262500802      72.6058632       0.954966514      -15.2071498      0.954966514      -15.2071498      0.262500802      72.6058632       
234.94           0.281017887      71.5827005       0.949422977      -16.3096148      0.949422977      -16.3096148      0.281017887      71.5827005       
251.65           0.299230367      70.5634445       0.943606545      -17.4000345      0.943606545      -17.4000345      0.299230367      70.5634445       
268.36           0.317126829      69.549886        0.937532109      -18.4779078      0.937532109      -18.4779078      0.317126829      69.549886        
285.07           0.334697211      68.5435031       0.931214961      -19.5427765      0.931214961      -19.5427765      0.334697211      68.5435031       
301.78           0.351932788      67.5455294       0.924670655      -20.5942258      0.924670655      -20.5942258      0.351932788      67.5455294       
318.49           0.368826149      66.5570028       0.917914876      -21.6318842      0.917914876      -21.6318842      0.368826149      66.5570028       
335.2            0.385371165      65.5788002       0.910963324      -22.6554225      0.910963324      -22.6554225      0.385371165      65.5788002       
351.91           0.401562945      64.6116642       0.903831616      -23.6645537      0.903831616      -23.6645537      0.401562945      64.6116642       
368.62           0.417397784      63.6562232       0.896535192      -24.6590315      0.896535192      -24.6590315      0.417397784      63.6562232       
385.33           0.432873111      62.7130071       0.889089236      -25.6386493      0.889089236      -25.6386493      0.432873111      62.7130071       
402.04           0.447987426      61.7824601       0.881508607      -26.6032385      0.881508607      -26.6032385      0.447987426      61.7824601       
418.75           0.462740237      60.8649505       0.873807778      -27.5526672      0.873807778      -27.5526672      0.462740237      60.8649505       
435.46           0.477131993      59.96078         0.866000785      -28.4868385      0.866000785      -28.4868385      0.477131993      59.96078         
452.17           0.491164012      59.0701899       0.858101185      -29.4056884      0.858101185      -29.4056884      0.491164012      59.0701899       
468.88           0.50483842       58.1933684       0.850122021      -30.3091841      0.850122021      -30.3091841      0.50483842       58.1933684       
485.59           0.518158075      57.330455        0.842075793      -31.197322       0.842075793      -31.197322       0.518158075      57.330455        
502.3            0.531126502      56.4815461       0.833974444      -32.0701262      0.833974444      -32.0701262      0.531126502      56.4815461       
519.01           0.543747829      55.646699        0.825829337      -32.9276458      0.825829337      -32.9276458      0.543747829      55.646699        
535.72           0.556026719      54.8259354       0.817651254      -33.7699536      0.817651254      -33.7699536      0.556026719      54.8259354       
552.43           0.567968311      54.0192457       0.809450391      -34.5971439      0.809450391      -34.5971439      0.567968311      54.0192457       
569.14           0.579578159      53.2265913       0.801236356      -35.4093309      0.801236356      -35.4093309      0.579578159      53.2265913       
585.85           0.590862178      52.4479083       0.793018179      -36.2066468      0.793018179      -36.2066468      0.590862178      52.4479083       
602.56           0.601826591      51.6831096       0.784804315      -36.9892397      0.784804315      -36.9892397      0.601826591      51.6831096       
619.27           0.612477878      50.9320879       0.776602664      -37.7572728      0.776602664      -37.7572728      0.612477878      50.9320879       
635.98           0.622822731      50.1947173       0.768420574      -38.510922       0.768420574      -38.510922       0.622822731      50.1947173       
652.69           0.63286801       49.4708563       0.760264869      -39.2503747      0.760264869      -39.2503747      0.63286801       49.4708563       
669.4            0.642620708      48.7603488       0.752141856      -39.9758286      0.752141856      -39.9758286      0.642620708      48.7603488       
686.11           0.652087908      48.0630265       0.744057352      -40.68749        0.744057352      -40.68749        0.652087908      48.0630265       
702.82           0.661276756      47.3787105       0.736016701      -41.3855729      0.736016701      -41.3855729      0.661276756      47.3787105       
719.53           0.670194428      46.7072124       0.728024791      -42.0702974      0.728024791      -42.0702974      0.670194428      46.7072124       
736.24           0.678848104      46.0483361       0.720086085      -42.7418891      0.720086085      -42.7418891      0.678848104      46.0483361       
752.95           0.687244944      45.4018788       0.71220463       -43.4005777      0.71220463       -43.4005777      0.687244944      45.4018788       
769.66           0.695392067      44.7676325       0.704384088      -44.0465964      0.704384088      -44.0465964      0.695392067      44.7676325       
786.37           0.703296528      44.1453845       0.696627754      -44.6801806      0.696627754      -44.6801806      0.703296528      44.1453845       
803.08           0.710965309      43.534919        0.688938575      -45.3015678      0.688938575      -45.3015678      0.710965309      43.534919        
819.79           0.718405297      42.9360174       0.681319173      -45.9109961      0.681319173      -45.9109961      0.718405297      42.9360174       
836.5            0.725623274      42.3484596       0.673771864      -46.508704       0.673771864      -46.508704       0.725623274      42.3484596       
853.21           0.732625908      41.7720242       0.666298677      -47.09493        0.666298677      -47.09493        0.732625908      41.7720242       
869.92           0.73941974       41.2064897       0.658901373      -47.6699114      0.658901373      -47.6699114      0.73941974       41.2064897       
886.63           0.74601118       40.6516346       0.651581465      -48.2338846      0.651581465      -48.2338846      0.74601118       40.6516346       
903.34           0.752406499      40.1072382       0.64434023       -48.7870841      0.64434023       -48.7870841      0.752406499      40.1072382       
920.05           0.758611825      39.5730808       0.637178733      -49.3297423      0.637178733      -49.3297423      0.758611825      39.5730808       
936.76           0.764633138      39.0489445       0.630097835      -49.8620892      0.630097835      -49.8620892      0.764633138      39.0489445       
953.47           0.770476266      38.5346133       0.623098213      -50.3843523      0.623098213      -50.3843523      0.770476266      38.5346133       
970.18           0.776146888      38.0298733       0.616180374      -50.8967557      0.616180374      -50.8967557      0.776146888      38.0298733       
986.89           0.781650527      37.5345133       0.609344666      -51.3995207      0.609344666      -51.3995207      0.781650527      37.5345133       
1003.6           0.786992553      37.0483249       0.60259129       -51.8928651      0.60259129       -51.8928651      0.786992553      37.0483249       
1020.31          0.792178183      36.5711025       0.595920318      -52.377003       0.595920318      -52.377003       0.792178183      36.5711025       
1037.02          0.797212481      36.1026438       0.589331697      -52.852145       0.589331697      -52.852145       0.797212481      36.1026438       
1053.73          0.802100359      35.6427498       0.582825263      -53.3184977      0.582825263      -53.3184977      0.802100359      35.6427498       
1070.44          0.806846579      35.1912251       0.576400752      -53.7762641      0.576400752      -53.7762641      0.806846579      35.1912251       
1087.15          0.811455758      34.7478774       0.570057804      -54.2256429      0.570057804      -54.2256429      0.811455758      34.7478774       
1103.86          0.815932364      34.3125185       0.56379598       -54.6668291      0.56379598       -54.6668291      0.815932364      34.3125185       
1120.57          0.820280725      33.8849635       0.557614763      -55.1000135      0.557614763      -55.1000135      0.820280725      33.8849635       
1137.28          0.824505027      33.4650316       0.551513566      -55.5253827      0.551513566      -55.5253827      0.824505027      33.4650316       
1153.99          0.828609321      33.0525454       0.545491745      -55.9431194      0.545491745      -55.9431194      0.828609321      33.0525454       
1170.7           0.832597523      32.6473315       0.539548598      -56.3534022      0.539548598      -56.3534022      0.832597523      32.6473315       
1187.41          0.836473419      32.2492202       0.533683376      -56.7564057      0.533683376      -56.7564057      0.836473419      32.2492202       
1204.12          0.840240669      31.8580455       0.527895285      -57.1523002      0.527895285      -57.1523002      0.840240669      31.8580455       
1220.83          0.843902807      31.4736454       0.522183496      -57.5412524      0.522183496      -57.5412524      0.843902807      31.4736454       
1237.54          0.847463248      31.0958614       0.516547144      -57.9234246      0.516547144      -57.9234246      0.847463248      31.0958614       
1254.25          0.850925291      30.7245386       0.510985337      -58.2989756      0.510985337      -58.2989756      0.850925291      30.7245386       
1270.96          0.85429212       30.3595262       0.505497158      -58.6680599      0.505497158      -58.6680599      0.85429212       30.3595262       
1287.67          0.857566809      30.0006765       0.500081667      -59.0308285      0.500081667      -59.0308285      0.857566809      30.0006765       
1304.38          0.860752328      29.6478458       0.49473791       -59.3874286      0.49473791       -59.3874286      0.860752328      29.6478458       
1321.09          0.863851541      29.3008937       0.489464916      -59.7380036      0.489464916      -59.7380036      0.863851541      29.3008937       
1337.8           0.866867213      28.9596832       0.484261702      -60.0826933      0.484261702      -60.0826933      0.866867213      28.9596832       
1354.51          0.869802013      28.6240809       0.479127278      -60.421634       0.479127278      -60.421634       0.869802013      28.6240809       
1371.22          0.872658516      28.2939566       0.474060647      -60.7549585      0.474060647      -60.7549585      0.872658516      28.2939566       
1387.93          0.875439207      27.9691834       0.469060807      -61.082796       0.469060807      -61.082796       0.875439207      27.9691834       
1404.64          0.878146485      27.6496376       0.464126754      -61.4052726      0.464126754      -61.4052726      0.878146485      27.6496376       
1421.35          0.880782662      27.3351988       0.459257484      -61.722511       0.459257484      -61.722511       0.880782662      27.3351988       
1438.06          0.883349973      27.0257495       0.454451994      -62.0346308      0.454451994      -62.0346308      0.883349973      27.0257495       
1454.77          0.88585057       26.7211753       0.449709283      -62.3417482      0.449709283      -62.3417482      0.88585057       26.7211753       
1471.48          0.888286533      26.4213646       0.445028356      -62.6439768      0.445028356      -62.6439768      0.888286533      26.4213646       
1488.19          0.890659868      26.1262089       0.440408221      -62.9414266      0.440408221      -62.9414266      0.890659868      26.1262089       
1504.9           0.89297251       25.8356025       0.435847893      -63.2342053      0.435847893      -63.2342053      0.89297251       25.8356025       
1521.61          0.895226328      25.5494421       0.431346396      -63.5224174      0.431346396      -63.5224174      0.895226328      25.5494421       
1538.32          0.897423123      25.2676276       0.426902761      -63.8061648      0.426902761      -63.8061648      0.897423123      25.2676276       
1555.03          0.899564636      24.990061        0.422516028      -64.0855465      0.422516028      -64.0855465      0.899564636      24.990061        
1571.74          0.901652546      24.7166472       0.418185247      -64.360659       0.418185247      -64.360659       0.901652546      24.7166472       
1588.45          0.903688473      24.4472934       0.413909477      -64.6315963      0.413909477      -64.6315963      0.903688473      24.4472934       
1605.16          0.905673982      24.1819093       0.409687791      -64.8984499      0.409687791      -64.8984499      0.905673982      24.1819093       
1621.87          0.907610584      23.9204069       0.40551927       -65.1613086      0.40551927       -65.1613086      0.907610584      23.9204069       
1638.58          0.909499737      23.6627006       0.40140301       -65.4202593      0.40140301       -65.4202593      0.909499737      23.6627006       
1655.29          0.911342849      23.4087067       0.397338116      -65.6753862      0.397338116      -65.6753862      0.911342849      23.4087067       
1672             0.913141278      23.1583442       0.393323707      -65.9267714      0.393323707      -65.9267714      0.913141278      23.1583442       
1688.71          0.914896339      22.9115337       0.389358914      -66.1744949      0.389358914      -66.1744949      0.914896339      22.9115337       
1705.42          0.9166093        22.6681981       0.385442883      -66.4186344      0.385442883      -66.4186344      0.9166093        22.6681981       
1722.13          0.918281385      22.4282623       0.381574769      -66.6592658      0.381574769      -66.6592658      0.918281385      22.4282623       
1738.84          0.919913778      22.1916532       0.377753744      -66.8964628      0.377753744      -66.8964628      0.919913778      22.1916532       
1755.55          0.921507623      21.9582993       0.37397899       -67.1302971      0.37397899       -67.1302971      0.921507623      21.9582993       
1772.26          0.923064023      21.7281313       0.370249705      -67.3608387      0.370249705      -67.3608387      0.923064023      21.7281313       
1788.97          0.924584046      21.5010815       0.366565099      -67.5881557      0.366565099      -67.5881557      0.924584046      21.5010815       
1805.68          0.926068725      21.2770839       0.362924395      -67.8123142      0.362924395      -67.8123142      0.926068725      21.2770839       
1822.39          0.927519056      21.0560743       0.359326829      -68.033379       0.359326829      -68.033379       0.927519056      21.0560743       
1839.1           0.928936004      20.83799         0.355771651      -68.2514126      0.355771651      -68.2514126      0.928936004      20.83799         
1855.81          0.930320501      20.62277         0.352258124      -68.4664765      0.352258124      -68.4664765      0.930320501      20.62277         
1872.52          0.931673448      20.410355        0.348785524      -68.67863        0.348785524      -68.67863        0.931673448      20.410355        
1889.23          0.932995716      20.2006869       0.345353139      -68.8879314      0.345353139      -68.8879314      0.932995716      20.2006869       
1905.94          0.93428815       19.9937091       0.341960272      -69.094437       0.341960272      -69.094437       0.93428815       19.9937091       
1922.65          0.935551565      19.7893668       0.338606236      -69.298202       0.338606236      -69.298202       0.935551565      19.7893668       
1939.36          0.936786749      19.5876061       0.33529036       -69.4992799      0.33529036       -69.4992799      0.936786749      19.5876061       
1956.07          0.937994467      19.3883747       0.332011981      -69.697723       0.332011981      -69.697723       0.937994467      19.3883747       
1972.78          0.939175457      19.1916217       0.328770452      -69.8935821      0.328770452      -69.8935821      0.939175457      19.1916217       
1989.49          0.940330433      18.9972971       0.325565137      -70.0869069      0.325565137      -70.0869069      0.940330433      18.9972971       
2006.2           0.94146009       18.8053526       0.322395411      -70.2777455      0.322395411      -70.2777455      0.94146009       18.8053526       
2022.91          0.942565096      18.6157407       0.319260663      -70.466145       0.319260663      -70.466145       0.942565096      18.6157407       
2039.62          0.9436461        18.4284154       0.316160292      -70.6521512      0.316160292      -70.6521512      0.9436461        18.4284154       
2056.33          0.944703732      18.2433315       0.313093708      -70.8358088      0.313093708      -70.8358088      0.944703732      18.2433315       
2073.04          0.945738599      18.0604452       0.310060334      -71.0171612      0.310060334      -71.0171612      0.945738599      18.0604452       
2089.75          0.946751291      17.8797136       0.307059604      -71.1962509      0.307059604      -71.1962509      0.946751291      17.8797136       
2106.46          0.947742379      17.7010948       0.30409096       -71.3731192      0.30409096       -71.3731192      0.947742379      17.7010948       
2123.17          0.948712417      17.5245482       0.301153859      -71.5478062      0.301153859      -71.5478062      0.948712417      17.5245482       
