! Coilcraft 0402CS-3N9 Chip Inductor				
! 29 May 2002			
# MHZ S MA R 50
!Freq             MagS11           AngS11           MagS21           AngS21           MagS12           AngS12           MagS22           AngS22
1                0.000328573242   48.1982871       0.999781018      -0.0140369257    0.999781018      -0.0140369257    0.000328573242   48.1982871       
37.66            0.00928743277    82.4388973       0.99882036       -0.528134355     0.99882036       -0.528134355     0.00928743277    82.4388973       
74.32            0.0182490299     83.9898967       0.998254246      -1.04172112      0.998254246      -1.04172112      0.0182490299     83.9898967       
110.98           0.0272025861     84.3944097       0.99771022       -1.55489076      0.99771022       -1.55489076      0.0272025861     84.3944097       
147.64           0.0361468863     84.4284339       0.997139743      -2.06764116      0.997139743      -2.06764116      0.0361468863     84.4284339       
184.3            0.0450806533     84.2888613       0.996523972      -2.57994682      0.996523972      -2.57994682      0.0450806533     84.2888613       
220.96           0.0540025082     84.0518523       0.995853345      -3.09177189      0.995853345      -3.09177189      0.0540025082     84.0518523       
257.62           0.0629110055     83.7538861       0.995122318      -3.60307495      0.995122318      -3.60307495      0.0629110055     83.7538861       
294.28           0.0718046581     83.4149186       0.994327415      -4.11381127      0.994327415      -4.11381127      0.0718046581     83.4149186       
330.94           0.0806819547     83.0469142       0.993466362      -4.62393401      0.993466362      -4.62393401      0.0806819547     83.0469142       
367.6            0.0895413711     82.6575465       0.992537641      -5.133395        0.992537641      -5.133395        0.0895413711     82.6575465       
404.26           0.0983813781     82.2519998       0.991540246      -5.64214523      0.991540246      -5.64214523      0.0983813781     82.2519998       
440.92           0.107200448      81.8339248       0.990473533      -6.15013513      0.990473533      -6.15013513      0.107200448      81.8339248       
477.58           0.115997058      81.4059815       0.989337124      -6.65731493      0.989337124      -6.65731493      0.115997058      81.4059815       
514.24           0.124769697      80.9701636       0.988130849      -7.16363473      0.988130849      -7.16363473      0.124769697      80.9701636       
550.9            0.133516865      80.5280023       0.9868547        -7.66904474      0.9868547        -7.66904474      0.133516865      80.5280023       
587.56           0.142237078      80.0806986       0.985508802      -8.17349536      0.985508802      -8.17349536      0.142237078      80.0806986       
624.22           0.150928869      79.629212        0.984093391      -8.67693726      0.984093391      -8.67693726      0.150928869      79.629212        
660.88           0.159590792      79.1743215       0.982608796      -9.17932152      0.982608796      -9.17932152      0.159590792      79.1743215       
697.54           0.168221422      78.7166691       0.981055429      -9.68059967      0.981055429      -9.68059967      0.168221422      78.7166691       
734.2            0.176819358      78.2567907       0.979433772      -10.1807238      0.979433772      -10.1807238      0.176819358      78.2567907       
770.86           0.185383223      77.7951393       0.977744369      -10.6796464      0.977744369      -10.6796464      0.185383223      77.7951393       
807.52           0.193911665      77.3321014       0.975987824      -11.1773208      0.975987824      -11.1773208      0.193911665      77.3321014       
844.18           0.202403362      76.8680106       0.974164787      -11.673701       0.974164787      -11.673701       0.202403362      76.8680106       
880.84           0.210857018      76.4031573       0.972275959      -12.1687415      0.972275959      -12.1687415      0.210857018      76.4031573       
917.5            0.219271368      75.9377963       0.97032208       -12.6623978      0.97032208       -12.6623978      0.219271368      75.9377963       
954.16           0.227645177      75.4721527       0.968303932      -13.1546261      0.968303932      -13.1546261      0.227645177      75.4721527       
990.82           0.235977241      75.0064272       0.966222329      -13.6453832      0.966222329      -13.6453832      0.235977241      75.0064272       
1027.48          0.244266388      74.5407997       0.96407812       -14.1346271      0.96407812       -14.1346271      0.244266388      74.5407997       
1064.14          0.252511478      74.075432        0.961872185      -14.6223165      0.961872185      -14.6223165      0.252511478      74.075432        
1100.8           0.260711406      73.6104711       0.959605429      -15.108411       0.959605429      -15.108411       0.260711406      73.6104711       
1137.46          0.268865101      73.1460507       0.957278785      -15.5928711      0.957278785      -15.5928711      0.268865101      73.1460507       
1174.12          0.276971523      72.6822931       0.954893209      -16.0756582      0.954893209      -16.0756582      0.276971523      72.6822931       
1210.78          0.285029671      72.2193106       0.952449679      -16.5567349      0.952449679      -16.5567349      0.285029671      72.2193106       
1247.44          0.293038576      71.7572067       0.949949191      -17.0360644      0.949949191      -17.0360644      0.293038576      71.7572067       
1284.1           0.300997306      71.2960772       0.947392762      -17.5136111      0.947392762      -17.5136111      0.300997306      71.2960772       
1320.76          0.308904964      70.8360108       0.944781423      -17.9893403      0.944781423      -17.9893403      0.308904964      70.8360108       
1357.42          0.316760689      70.3770901       0.94211622       -18.4632185      0.94211622       -18.4632185      0.316760689      70.3770901       
1394.08          0.324563656      69.9193919       0.939398214      -18.935213       0.939398214      -18.935213       0.324563656      69.9193919       
1430.74          0.332313075      69.4629883       0.936628475      -19.4052921      0.936628475      -19.4052921      0.332313075      69.4629883       
1467.4           0.340008193      69.0079463       0.933808087      -19.8734253      0.933808087      -19.8734253      0.340008193      69.0079463       
1504.06          0.347648292      68.554329        0.930938139      -20.339583       0.930938139      -20.339583       0.347648292      68.554329        
1540.72          0.355232689      68.1021955       0.928019729      -20.8037367      0.928019729      -20.8037367      0.355232689      68.1021955       
1577.38          0.362760739      67.6516012       0.925053962      -21.2658587      0.925053962      -21.2658587      0.362760739      67.6516012       
1614.04          0.37023183       67.2025984       0.922041949      -21.7259227      0.922041949      -21.7259227      0.37023183       67.2025984       
1650.7           0.377645386      66.7552361       0.918984801      -22.1839032      0.918984801      -22.1839032      0.377645386      66.7552361       
1687.36          0.385000867      66.3095604       0.915883636      -22.6397756      0.915883636      -22.6397756      0.385000867      66.3095604       
1724.02          0.392297764      65.865615        0.91273957       -23.0935167      0.91273957       -23.0935167      0.392297764      65.865615        
1760.68          0.399535607      65.4234407       0.909553722      -23.545104       0.909553722      -23.545104       0.399535607      65.4234407       
1797.34          0.406713955      64.983076        0.906327208      -23.994516       0.906327208      -23.994516       0.406713955      64.983076        
1834             0.413832403      64.5445574       0.903061146      -24.4417325      0.903061146      -24.4417325      0.413832403      64.5445574       
1870.66          0.420890579      64.1079188       0.899756647      -24.8867339      0.899756647      -24.8867339      0.420890579      64.1079188       
1907.32          0.427888141      63.6731925       0.896414822      -25.3295018      0.896414822      -25.3295018      0.427888141      63.6731925       
1943.98          0.434824782      63.2404085       0.893036775      -25.7700189      0.893036775      -25.7700189      0.434824782      63.2404085       
1980.64          0.441700224      62.8095953       0.889623607      -26.2082685      0.889623607      -26.2082685      0.441700224      62.8095953       
2017.3           0.448514221      62.3807794       0.886176412      -26.6442351      0.886176412      -26.6442351      0.448514221      62.3807794       
2053.96          0.455266555      61.9539856       0.882696276      -27.0779042      0.882696276      -27.0779042      0.455266555      61.9539856       
2090.62          0.46195704       61.5292374       0.879184279      -27.509262       0.879184279      -27.509262       0.46195704       61.5292374       
2127.28          0.468585517      61.1065563       0.875641492      -27.9382958      0.875641492      -27.9382958      0.468585517      61.1065563       
2163.94          0.475151857      60.6859626       0.872068978      -28.3649937      0.872068978      -28.3649937      0.475151857      60.6859626       
2200.6           0.481655957      60.2674752       0.868467788      -28.7893446      0.868467788      -28.7893446      0.481655957      60.2674752       
2237.26          0.488097742      59.8511115       0.864838965      -29.2113386      0.864838965      -29.2113386      0.488097742      59.8511115       
2273.92          0.494477162      59.4368876       0.861183542      -29.6309662      0.861183542      -29.6309662      0.494477162      59.4368876       
2310.58          0.500794194      59.0248184       0.857502537      -30.0482191      0.857502537      -30.0482191      0.500794194      59.0248184       
2347.24          0.507048838      58.6149176       0.853796961      -30.4630897      0.853796961      -30.4630897      0.507048838      58.6149176       
2383.9           0.513241121      58.2071976       0.850067808      -30.875571       0.850067808      -30.875571       0.513241121      58.2071976       
2420.56          0.51937109       57.8016697       0.846316064      -31.2856572      0.846316064      -31.2856572      0.51937109       57.8016697       
2457.22          0.525438817      57.3983442       0.842542698      -31.6933428      0.842542698      -31.6933428      0.525438817      57.3983442       
2493.88          0.531444395      56.9972301       0.838748667      -32.0986234      0.838748667      -32.0986234      0.531444395      56.9972301       
2530.54          0.53738794       56.5983358       0.834934916      -32.5014953      0.834934916      -32.5014953      0.53738794       56.5983358       
2567.2           0.543269586      56.2016683       0.831102374      -32.9019553      0.831102374      -32.9019553      0.543269586      56.2016683       
2603.86          0.549089488      55.8072338       0.827251955      -33.300001       0.827251955      -33.300001       0.549089488      55.8072338       
2640.52          0.554847822      55.4150377       0.82338456       -33.6956309      0.82338456       -33.6956309      0.554847822      55.4150377       
2677.18          0.560544779      55.0250844       0.819501075      -34.0888437      0.819501075      -34.0888437      0.560544779      55.0250844       
2713.84          0.56618057       54.6373774       0.815602371      -34.4796393      0.815602371      -34.4796393      0.56618057       54.6373774       
2750.5           0.571755423      54.2519194       0.811689302      -34.8680176      0.811689302      -34.8680176      0.571755423      54.2519194       
2787.16          0.577269583      53.8687124       0.80776271       -35.2539798      0.80776271       -35.2539798      0.577269583      53.8687124       
2823.82          0.582723308      53.4877575       0.803823418      -35.637527       0.803823418      -35.637527       0.582723308      53.4877575       
2860.48          0.588116875      53.1090553       0.799872236      -36.0186614      0.799872236      -36.0186614      0.588116875      53.1090553       
2897.14          0.593450572      52.7326054       0.795909957      -36.3973855      0.795909957      -36.3973855      0.593450572      52.7326054       
2933.8           0.598724702      52.3584068       0.79193736       -36.7737023      0.79193736       -36.7737023      0.598724702      52.3584068       
2970.46          0.603939582      51.986458        0.787955205      -37.1476155      0.787955205      -37.1476155      0.603939582      51.986458        
3007.12          0.60909554       51.6167566       0.78396424       -37.5191292      0.78396424       -37.5191292      0.60909554       51.6167566       
3043.78          0.614192917      51.2492998       0.779965195      -37.8882479      0.779965195      -37.8882479      0.614192917      51.2492998       
3080.44          0.619232065      50.8840842       0.775958785      -38.2549767      0.775958785      -38.2549767      0.619232065      50.8840842       
3117.1           0.624213347      50.5211057       0.771945709      -38.619321       0.771945709      -38.619321       0.624213347      50.5211057       
3153.76          0.629137136      50.1603597       0.76792665       -38.9812869      0.76792665       -38.9812869      0.629137136      50.1603597       
3190.42          0.634003813      49.8018412       0.763902276      -39.3408806      0.763902276      -39.3408806      0.634003813      49.8018412       
3227.08          0.63881377       49.4455446       0.75987324       -39.6981088      0.75987324       -39.6981088      0.63881377       49.4455446       
3263.74          0.643567407      49.0914637       0.755840178      -40.0529787      0.755840178      -40.0529787      0.643567407      49.0914637       
3300.4           0.648265132      48.7395921       0.751803712      -40.4054977      0.751803712      -40.4054977      0.648265132      48.7395921       
3337.06          0.652907359      48.3899229       0.747764447      -40.7556736      0.747764447      -40.7556736      0.652907359      48.3899229       
3373.72          0.657494511      48.0424485       0.743722977      -41.1035147      0.743722977      -41.1035147      0.657494511      48.0424485       
3410.38          0.662027016      47.6971612       0.739679875      -41.4490294      0.739679875      -41.4490294      0.662027016      47.6971612       
3447.04          0.666505309      47.3540529       0.735635705      -41.7922265      0.735635705      -41.7922265      0.666505309      47.3540529       
3483.7           0.67092983       47.0131149       0.731591012      -42.133115       0.731591012      -42.133115       0.67092983       47.0131149       
3520.36          0.675301023      46.6743385       0.727546328      -42.4717043      0.727546328      -42.4717043      0.675301023      46.6743385       
3557.02          0.679619339      46.3377142       0.723502173      -42.8080041      0.723502173      -42.8080041      0.679619339      46.3377142       
3593.68          0.683885231      46.0032327       0.719459049      -43.1420241      0.719459049      -43.1420241      0.683885231      46.0032327       
3630.34          0.688099157      45.670884        0.715417446      -43.4737744      0.715417446      -43.4737744      0.688099157      45.670884        
3667             0.692261577      45.340658        0.711377839      -43.8032654      0.711377839      -43.8032654      0.692261577      45.340658        
3703.66          0.696372957      45.0125444       0.707340693      -44.1305076      0.707340693      -44.1305076      0.696372957      45.0125444       
3740.32          0.700433763      44.6865323       0.703306454      -44.4555116      0.703306454      -44.4555116      0.700433763      44.6865323       
3776.98          0.704444463      44.3626109       0.699275559      -44.7782885      0.699275559      -44.7782885      0.704444463      44.3626109       
3813.64          0.708405529      44.0407691       0.69524843       -45.0988492      0.69524843       -45.0988492      0.708405529      44.0407691       
3850.3           0.712317434      43.7209955       0.691225478      -45.417205       0.691225478      -45.417205       0.712317434      43.7209955       
3886.96          0.716180652      43.4032785       0.6872071        -45.7333672      0.6872071        -45.7333672      0.716180652      43.4032785       
3923.62          0.719995657      43.0876063       0.68319368       -46.0473474      0.68319368       -46.0473474      0.719995657      43.0876063       
3960.28          0.723762926      42.7739671       0.679185592      -46.3591573      0.679185592      -46.3591573      0.723762926      42.7739671       
3996.94          0.727482935      42.4623486       0.675183196      -46.6688084      0.675183196      -46.6688084      0.727482935      42.4623486       
4033.6           0.73115616       42.1527387       0.671186841      -46.9763129      0.671186841      -46.9763129      0.73115616       42.1527387       
4070.26          0.734783078      41.845125        0.667196865      -47.2816825      0.667196865      -47.2816825      0.734783078      41.845125        
4106.92          0.738364165      41.5394947       0.663213594      -47.5849293      0.663213594      -47.5849293      0.738364165      41.5394947       
4143.58          0.741899896      41.2358354       0.659237344      -47.8860655      0.659237344      -47.8860655      0.741899896      41.2358354       
4180.24          0.745390746      40.9341341       0.655268419      -48.1851032      0.655268419      -48.1851032      0.745390746      40.9341341       
4216.9           0.748837189      40.6343781       0.651307113      -48.4820548      0.651307113      -48.4820548      0.748837189      40.6343781       
4253.56          0.752239697      40.3365542       0.64735371       -48.7769323      0.64735371       -48.7769323      0.752239697      40.3365542       
4290.22          0.755598742      40.0406493       0.643408482      -49.0697484      0.643408482      -49.0697484      0.755598742      40.0406493       
4326.88          0.758914793      39.7466504       0.639471693      -49.3605152      0.639471693      -49.3605152      0.758914793      39.7466504       
4363.54          0.762188318      39.4545442       0.635543596      -49.6492452      0.635543596      -49.6492452      0.762188318      39.4545442       
4400.2           0.765419783      39.1643174       0.631624436      -49.9359508      0.631624436      -49.9359508      0.765419783      39.1643174       
4436.86          0.768609653      38.8759565       0.627714447      -50.2206444      0.627714447      -50.2206444      0.768609653      38.8759565       
4473.52          0.771758387      38.5894482       0.623813856      -50.5033385      0.623813856      -50.5033385      0.771758387      38.5894482       
4510.18          0.774866447      38.3047791       0.619922877      -50.7840455      0.619922877      -50.7840455      0.774866447      38.3047791       
4546.84          0.777934289      38.0219355       0.616041721      -51.0627779      0.616041721      -51.0627779      0.777934289      38.0219355       
4583.5           0.780962366      37.7409041       0.612170586      -51.3395479      0.612170586      -51.3395479      0.780962366      37.7409041       
4620.16          0.78395113       37.4616713       0.608309664      -51.6143681      0.608309664      -51.6143681      0.78395113       37.4616713       
4656.82          0.78690103       37.1842235       0.604459138      -51.8872507      0.604459138      -51.8872507      0.78690103       37.1842235       
