! Coilcraft 0402CS-4N7 Chip Inductor				
! 22 July 2002			
# MHZ S MA R 50
!Freq             MagS11           AngS11           MagS21           AngS21           MagS12           AngS12           MagS22           AngS22
1                0.000410288735   46.0008871       0.999715038      -0.0169151787    0.999715038      -0.0169151787    0.000410288735   46.0008871       
36.91            0.0109891664     81.3939992       0.998414718      -0.623544422     0.998414718      -0.623544422     0.0109891664     81.3939992       
72.82            0.0215595185     83.1119863       0.997644016      -1.22934422      0.997644016      -1.22934422      0.0215595185     83.1119863       
108.73           0.0321160992     83.545244        0.996900472      -1.83445068      0.996900472      -1.83445068      0.0321160992     83.545244        
144.64           0.0426569804     83.5610628       0.996118541      -2.43884746      0.996118541      -2.43884746      0.0426569804     83.5610628       
180.55           0.0531799421     83.38087         0.995272892      -3.04248106      0.995272892      -3.04248106      0.0531799421     83.38087         
216.46           0.0636825699     83.0906016       0.994350785      -3.64528175      0.994350785      -3.64528175      0.0636825699     83.0906016       
252.37           0.0741623399     82.7315193       0.993344941      -4.24717122      0.993344941      -4.24717122      0.0741623399     82.7315193       
288.28           0.0846166681     82.3262427       0.99225091       -4.84806622      0.99225091       -4.84806622      0.0846166681     82.3262427       
324.19           0.0950429421     81.8883617       0.991065891      -5.44788059      0.991065891      -5.44788059      0.0950429421     81.8883617       
360.1            0.105438542      81.4266119       0.989788137      -6.04652645      0.989788137      -6.04652645      0.105438542      81.4266119       
396.01           0.115800854      80.9469103       0.988416616      -6.64391504      0.988416616      -6.64391504      0.115800854      80.9469103       
431.92           0.126127284      80.4534355       0.986950807      -7.23995733      0.986950807      -7.23995733      0.126127284      80.4534355       
467.83           0.136415264      79.9492421       0.985390578      -7.83456439      0.985390578      -7.83456439      0.136415264      79.9492421       
503.74           0.146662259      79.4366281       0.983736095      -8.4276478       0.983736095      -8.4276478       0.146662259      79.4366281       
539.65           0.156865775      78.917366        0.981987765      -9.01911984      0.981987765      -9.01911984      0.156865775      78.917366        
575.56           0.167023366      78.3928523       0.980146194      -9.6088938       0.980146194      -9.6088938       0.167023366      78.3928523       
611.47           0.17713263       77.8642085       0.978212156      -10.1968841      0.978212156      -10.1968841      0.17713263       77.8642085       
647.38           0.187191224      77.33235         0.976186569      -10.7830064      0.976186569      -10.7830064      0.187191224      77.33235         
683.29           0.197196859      76.7980355       0.974070473      -11.367178       0.974070473      -11.367178       0.197196859      76.7980355       
719.2            0.207147309      76.2619022       0.971865021      -11.9493176      0.971865021      -11.9493176      0.207147309      76.2619022       
755.11           0.217040408      75.7244915       0.969571461      -12.5293455      0.969571461      -12.5293455      0.217040408      75.7244915       
791.02           0.226874057      75.1862688       0.967191127      -13.1071842      0.967191127      -13.1071842      0.226874057      75.1862688       
826.93           0.236646226      74.6476378       0.964725431      -13.6827575      0.964725431      -13.6827575      0.236646226      74.6476378       
862.84           0.246354952      74.1089517       0.962175856      -14.2559916      0.962175856      -14.2559916      0.246354952      74.1089517       
898.75           0.255998346      73.5705223       0.959543946      -14.8268144      0.959543946      -14.8268144      0.255998346      73.5705223       
934.66           0.265574589      73.0326266       0.956831301      -15.3951561      0.956831301      -15.3951561      0.265574589      73.0326266       
970.57           0.275081938      72.4955121       0.954039573      -15.9609488      0.954039573      -15.9609488      0.275081938      72.4955121       
1006.48          0.284518722      71.9594018       0.951170456      -16.5241269      0.951170456      -16.5241269      0.284518722      71.9594018       
1042.39          0.293883349      71.4244969       0.948225688      -17.0846268      0.948225688      -17.0846268      0.293883349      71.4244969       
1078.3           0.3031743        70.8909803       0.945207038      -17.6423875      0.945207038      -17.6423875      0.3031743        70.8909803       
1114.21          0.312390135      70.3590187       0.94211631       -18.19735        0.94211631       -18.19735        0.312390135      70.3590187       
1150.12          0.321529488      69.8287644       0.938955331      -18.7494575      0.938955331      -18.7494575      0.321529488      69.8287644       
1186.03          0.330591071      69.3003574       0.935725954      -19.2986556      0.935725954      -19.2986556      0.330591071      69.3003574       
1221.94          0.339573672      68.7739264       0.932430048      -19.8448922      0.932430048      -19.8448922      0.339573672      68.7739264       
1257.85          0.348476156      68.2495898       0.929069499      -20.3881176      0.929069499      -20.3881176      0.348476156      68.2495898       
1293.76          0.357297462      67.7274573       0.925646206      -20.9282842      0.925646206      -20.9282842      0.357297462      67.7274573       
1329.67          0.366036604      67.2076299       0.922162073      -21.4653468      0.922162073      -21.4653468      0.366036604      67.2076299       
1365.58          0.374692672      66.6902014       0.918619014      -21.9992626      0.918619014      -21.9992626      0.374692672      66.6902014       
1401.49          0.383264828      66.1752585       0.915018943      -22.5299908      0.915018943      -22.5299908      0.383264828      66.1752585       
1437.4           0.391752306      65.6628816       0.911363772      -23.0574932      0.911363772      -23.0574932      0.391752306      65.6628816       
1473.31          0.400154412      65.1531452       0.907655414      -23.5817337      0.907655414      -23.5817337      0.400154412      65.1531452       
1509.22          0.408470521      64.6461183       0.903895774      -24.1026782      0.903895774      -24.1026782      0.408470521      64.6461183       
1545.13          0.416700078      64.1418646       0.900086748      -24.6202952      0.900086748      -24.6202952      0.416700078      64.1418646       
1581.04          0.424842593      63.6404433       0.896230225      -25.1345552      0.896230225      -25.1345552      0.424842593      63.6404433       
1616.95          0.432897645      63.141909        0.892328077      -25.6454307      0.892328077      -25.6454307      0.432897645      63.141909        
1652.86          0.440864873      62.6463119       0.888382166      -26.1528965      0.888382166      -26.1528965      0.440864873      62.6463119       
1688.77          0.448743984      62.1536983       0.884394334      -26.6569293      0.884394334      -26.6569293      0.448743984      62.1536983       
1724.68          0.45653474       61.6641109       0.880366405      -27.1575081      0.880366405      -27.1575081      0.45653474       61.6641109       
1760.59          0.464236968      61.1775887       0.876300185      -27.6546137      0.876300185      -27.6546137      0.464236968      61.1775887       
1796.5           0.471850548      60.6941671       0.872197457      -28.1482288      0.872197457      -28.1482288      0.471850548      60.6941671       
1832.41          0.479375417      60.2138786       0.868059981      -28.6383381      0.868059981      -28.6383381      0.479375417      60.2138786       
1868.32          0.486811569      59.7367524       0.863889492      -29.1249283      0.863889492      -29.1249283      0.486811569      59.7367524       
1904.23          0.494159045      59.2628149       0.859687699      -29.6079876      0.859687699      -29.6079876      0.494159045      59.2628149       
1940.14          0.501417939      58.7920898       0.855456287      -30.0875063      0.855456287      -30.0875063      0.501417939      58.7920898       
1976.05          0.508588394      58.3245979       0.851196909      -30.5634763      0.851196909      -30.5634763      0.508588394      58.3245979       
2011.96          0.515670599      57.8603577       0.846911192      -31.035891       0.846911192      -31.035891       0.515670599      57.8603577       
2047.87          0.522664786      57.3993851       0.842600732      -31.5047458      0.842600732      -31.5047458      0.522664786      57.3993851       
2083.78          0.529571231      56.9416939       0.838267096      -31.9700374      0.838267096      -31.9700374      0.529571231      56.9416939       
2119.69          0.536390252      56.4872955       0.833911818      -32.4317641      0.833911818      -32.4317641      0.536390252      56.4872955       
2155.6           0.543122205      56.0361993       0.829536402      -32.8899257      0.829536402      -32.8899257      0.543122205      56.0361993       
2191.51          0.549767483      55.5884127       0.825142319      -33.3445236      0.825142319      -33.3445236      0.549767483      55.5884127       
2227.42          0.556326515      55.1439411       0.820731007      -33.7955602      0.820731007      -33.7955602      0.556326515      55.1439411       
2263.33          0.562799764      54.7027882       0.816303871      -34.2430397      0.816303871      -34.2430397      0.562799764      54.7027882       
2299.24          0.569187725      54.2649558       0.811862286      -34.6869672      0.811862286      -34.6869672      0.569187725      54.2649558       
2335.15          0.575490922      53.8304442       0.807407589      -35.1273492      0.807407589      -35.1273492      0.575490922      53.8304442       
2371.06          0.581709908      53.3992519       0.802941086      -35.5641934      0.802941086      -35.5641934      0.581709908      53.3992519       
2406.97          0.587845265      52.9713761       0.79846405       -35.9975087      0.79846405       -35.9975087      0.587845265      52.9713761       
2442.88          0.593897598      52.5468124       0.793977719      -36.427305       0.793977719      -36.427305       0.593897598      52.5468124       
2478.79          0.599867536      52.1255551       0.789483299      -36.8535933      0.789483299      -36.8535933      0.599867536      52.1255551       
2514.7           0.605755732      51.7075971       0.78498196       -37.2763855      0.78498196       -37.2763855      0.605755732      51.7075971       
2550.61          0.611562857      51.2929303       0.780474842      -37.6956945      0.780474842      -37.6956945      0.611562857      51.2929303       
2586.52          0.617289603      50.881545        0.775963051      -38.1115343      0.775963051      -38.1115343      0.617289603      50.881545        
2622.43          0.62293668       50.4734309       0.771447658      -38.5239195      0.771447658      -38.5239195      0.62293668       50.4734309       
2658.34          0.628504814      50.0685761       0.766929704      -38.9328657      0.766929704      -38.9328657      0.628504814      50.0685761       
2694.25          0.633994745      49.6669681       0.762410196      -39.3383892      0.762410196      -39.3383892      0.633994745      49.6669681       
2730.16          0.639407229      49.2685932       0.757890112      -39.740507       0.757890112      -39.740507       0.639407229      49.2685932       
2766.07          0.644743033      48.873437        0.753370396      -40.1392371      0.753370396      -40.1392371      0.644743033      48.873437        
2801.98          0.650002936      48.481484        0.74885196       -40.5345977      0.74885196       -40.5345977      0.650002936      48.481484        
2837.89          0.655187728      48.092718        0.744335689      -40.926608       0.744335689      -40.926608       0.655187728      48.092718        
2873.8           0.660298205      47.7071223       0.739822435      -41.3152875      0.739822435      -41.3152875      0.660298205      47.7071223       
2909.71          0.665335176      47.324679        0.73531302       -41.7006566      0.73531302       -41.7006566      0.665335176      47.324679        
2945.62          0.670299452      46.94537         0.730808238      -42.0827359      0.730808238      -42.0827359      0.670299452      46.94537         
2981.53          0.675191855      46.5691761       0.726308856      -42.4615467      0.726308856      -42.4615467      0.675191855      46.5691761       
3017.44          0.680013207      46.1960781       0.721815609      -42.8371105      0.721815609      -42.8371105      0.680013207      46.1960781       
3053.35          0.684764339      45.8260556       0.717329206      -43.2094494      0.717329206      -43.2094494      0.684764339      45.8260556       
3089.26          0.689446082      45.4590883       0.712850331      -43.5785859      0.712850331      -43.5785859      0.689446082      45.4590883       
3125.17          0.694059271      45.0951549       0.708379638      -43.9445428      0.708379638      -43.9445428      0.694059271      45.0951549       
3161.08          0.698604743      44.734234        0.703917758      -44.3073432      0.703917758      -44.3073432      0.698604743      44.734234        
3196.99          0.703083334      44.3763037       0.699465294      -44.6670106      0.699465294      -44.6670106      0.703083334      44.3763037       
3232.9           0.707495884      44.0213418       0.695022826      -45.0235686      0.695022826      -45.0235686      0.707495884      44.0213418       
3268.81          0.711843228      43.6693255       0.690590909      -45.3770412      0.690590909      -45.3770412      0.711843228      43.6693255       
3304.72          0.716126204      43.3202319       0.686170074      -45.7274525      0.686170074      -45.7274525      0.716126204      43.3202319       
3340.63          0.720345647      42.9740378       0.681760831      -46.074827       0.681760831      -46.074827       0.720345647      42.9740378       
3376.54          0.724502388      42.6307198       0.677363665      -46.419189       0.677363665      -46.419189       0.724502388      42.6307198       
3412.45          0.728597259      42.2902541       0.672979039      -46.7605634      0.672979039      -46.7605634      0.728597259      42.2902541       
3448.36          0.732631085      41.9526168       0.668607398      -47.0989748      0.668607398      -47.0989748      0.732631085      41.9526168       
3484.27          0.73660469       41.6177837       0.664249161      -47.4344482      0.664249161      -47.4344482      0.73660469       41.6177837       
3520.18          0.740518893      41.2857306       0.659904732      -47.7670086      0.659904732      -47.7670086      0.740518893      41.2857306       
3556.09          0.744374508      40.9564331       0.655574491      -48.096681       0.655574491      -48.096681       0.744374508      40.9564331       
3592             0.748172344      40.6298666       0.651258802      -48.4234906      0.651258802      -48.4234906      0.748172344      40.6298666       
3627.91          0.751913205      40.3060065       0.646958009      -48.7474624      0.646958009      -48.7474624      0.751913205      40.3060065       
3663.82          0.755597891      39.9848282       0.642672439      -49.0686216      0.642672439      -49.0686216      0.755597891      39.9848282       
3699.73          0.759227192      39.6663068       0.638402399      -49.3869933      0.638402399      -49.3869933      0.759227192      39.6663068       
3735.64          0.762801896      39.3504175       0.634148182      -49.7026028      0.634148182      -49.7026028      0.762801896      39.3504175       
3771.55          0.766322782      39.0371354       0.629910064      -50.015475       0.629910064      -50.015475       0.766322782      39.0371354       
3807.46          0.769790623      38.7264358       0.625688304      -50.325635       0.625688304      -50.325635       0.769790623      38.7264358       
3843.37          0.773206185      38.4182937       0.621483145      -50.6331077      0.621483145      -50.6331077      0.773206185      38.4182937       
3879.28          0.776570225      38.1126844       0.617294818      -50.9379182      0.617294818      -50.9379182      0.776570225      38.1126844       
3915.19          0.779883497      37.8095829       0.613123536      -51.2400912      0.613123536      -51.2400912      0.779883496      37.8095829       
3951.1           0.783146742      37.5089646       0.608969501      -51.5396515      0.608969501      -51.5396515      0.783146742      37.5089646       
3987.01          0.786360696      37.2108047       0.6048329        -51.8366236      0.6048329        -51.8366236      0.786360696      37.2108047       
4022.92          0.789526089      36.9150786       0.600713907      -52.1310321      0.600713907      -52.1310321      0.789526089      36.9150786       
4058.83          0.792643639      36.6217616       0.596612683      -52.4229014      0.596612683      -52.4229014      0.792643639      36.6217616       
4094.74          0.795714058      36.3308294       0.592529379      -52.7122557      0.592529379      -52.7122557      0.795714058      36.3308294       
4130.65          0.798738051      36.0422575       0.588464132      -52.9991191      0.588464132      -52.9991191      0.798738051      36.0422575       
4166.56          0.801716311      35.7560217       0.584417068      -53.2835156      0.584417068      -53.2835156      0.801716311      35.7560217       
4202.47          0.804649526      35.4720977       0.580388302      -53.5654689      0.580388302      -53.5654689      0.804649526      35.4720977       
4238.38          0.807538374      35.1904615       0.57637794       -53.8450026      0.57637794       -53.8450026      0.807538374      35.1904615       
4274.29          0.810383525      34.9110892       0.572386077      -54.1221403      0.572386077      -54.1221403      0.810383525      34.9110892       
4310.2           0.813185641      34.633957        0.568412798      -54.3969051      0.568412798      -54.3969051      0.813185641      34.633957        
4346.11          0.815945374      34.3590413       0.564458178      -54.6693201      0.564458178      -54.6693201      0.815945374      34.3590413       
4382.02          0.818663369      34.0863185       0.560522283      -54.9394083      0.560522283      -54.9394083      0.818663369      34.0863185       
4417.93          0.82134026       33.8157654       0.556605173      -55.2071923      0.556605173      -55.2071923      0.82134026       33.8157654       
4453.84          0.823976676      33.5473587       0.552706896      -55.4726946      0.552706896      -55.4726946      0.823976676      33.5473587       
4489.75          0.826573234      33.2810754       0.548827494      -55.7359374      0.548827494      -55.7359374      0.826573234      33.2810754       
4525.66          0.829130545      33.0168927       0.544967         -55.9969428      0.544967         -55.9969428      0.829130545      33.0168927       
4561.57          0.831649209      32.7547879       0.541125442      -56.2557328      0.541125442      -56.2557328      0.831649209      32.7547879       
