! Coilcraft 0402CS-5N6 Chip Inductor				
! 29 May 2002			
# MHZ S MA R 50
!Freq             MagS11           AngS11           MagS21           AngS21           MagS12           AngS12           MagS22           AngS22
1                0.000417553389   57.3824818       0.999774989      -0.0201554643    0.999774989      -0.0201554643    0.000417553389   57.3824818       
30.67            0.0108318025     83.7485473       0.998878538      -0.617630717     0.998878538      -0.617630717     0.0108318025     83.7485473       
60.34            0.0212469541     84.8056876       0.998300707      -1.21451619      0.998300707      -1.21451619      0.0212469541     84.8056876       
90.01            0.0316511542     84.9447431       0.997709287      -1.81087242      0.997709287      -1.81087242      0.0316511542     84.9447431       
119.68           0.0420421804     84.7871308       0.997059654      -2.40665854      0.997059654      -2.40665854      0.0420421804     84.7871308       
149.35           0.0524176733     84.4906669       0.996334578      -3.0018088       0.996334578      -3.0018088       0.0524176733     84.4906669       
179.02           0.0627751561     84.1164385       0.995525447      -3.59624665      0.995525447      -3.59624665      0.0627751561     84.1164385       
208.69           0.0731120867     83.6937329       0.994627403      -4.1898899       0.994627403      -4.1898899       0.0731120867     83.6937329       
238.36           0.0834258898     83.2385947       0.993637546      -4.78265322      0.993637546      -4.78265322      0.0834258898     83.2385947       
268.03           0.0937139789     82.7606628       0.992554128      -5.37444951      0.992554128      -5.37444951      0.0937139789     82.7606628       
297.7            0.103973771      82.266137        0.991376144      -5.96519076      0.991376144      -5.96519076      0.103973771      82.266137        
327.37           0.114202697      81.7592214       0.9901031        -6.55478862      0.9901031        -6.55478862      0.114202697      81.7592214       
357.04           0.124398211      81.2428905       0.988734873      -7.14315483      0.988734873      -7.14315483      0.124398211      81.2428905       
386.71           0.134557796      80.719324        0.987271627      -7.73020157      0.987271627      -7.73020157      0.134557796      80.719324        
416.38           0.14467897       80.190167        0.985713752      -8.31584165      0.985713752      -8.31584165      0.14467897       80.190167        
446.05           0.154759292      79.6566929       0.98406182       -8.89998874      0.98406182       -8.89998874      0.154759292      79.6566929       
475.72           0.164796366      79.1199097       0.982316561      -9.48255759      0.982316561      -9.48255759      0.164796366      79.1199097       
505.39           0.174787842      78.580631        0.980478837      -10.0634641      0.980478837      -10.0634641      0.174787842      78.580631        
535.06           0.184731423      78.0395247       0.978549626      -10.6426255      0.978549626      -10.6426255      0.184731423      78.0395247       
564.73           0.194624866      77.4971477       0.976530009      -11.2199605      0.976530009      -11.2199605      0.194624866      77.4971477       
594.4            0.204465988      76.953971        0.974421157      -11.7953893      0.974421157      -11.7953893      0.204465988      76.953971        
624.07           0.214252661      76.4103975       0.972224325      -12.3688338      0.972224325      -12.3688338      0.214252661      76.4103975       
653.74           0.223982824      75.8667763       0.969940841      -12.9402174      0.969940841      -12.9402174      0.223982824      75.8667763       
683.41           0.233654478      75.3234123       0.967572099      -13.5094657      0.967572099      -13.5094657      0.233654478      75.3234123       
713.08           0.243265689      74.7805747       0.965119557      -14.0765057      0.965119557      -14.0765057      0.243265689      74.7805747       
742.75           0.252814593      74.238503        0.962584727      -14.6412665      0.962584727      -14.6412665      0.252814593      74.238503        
772.42           0.262299392      73.6974113       0.95996917       -15.2036794      0.95996917       -15.2036794      0.262299392      73.6974113       
802.09           0.271718359      73.1574931       0.957274495      -15.7636773      0.957274495      -15.7636773      0.271718359      73.1574931       
831.76           0.281069839      72.6189234       0.954502349      -16.3211954      0.954502349      -16.3211954      0.281069839      72.6189234       
861.43           0.290352247      72.0818619       0.951654419      -16.876171       0.951654419      -16.876171       0.290352247      72.0818619       
891.1            0.299564071      71.5464546       0.948732422      -17.4285435      0.948732422      -17.4285435      0.299564071      71.5464546       
920.77           0.308703871      71.0128356       0.945738105      -17.9782542      0.945738105      -17.9782542      0.308703871      71.0128356       
950.44           0.31777028       70.4811283       0.942673242      -18.5252469      0.942673242      -18.5252469      0.31777028       70.4811283       
980.11           0.326762004      69.951447        0.939539626      -19.0694675      0.939539626      -19.0694675      0.326762004      69.951447        
1009.78          0.335677822      69.4238972       0.936339069      -19.610864       0.936339069      -19.610864       0.335677822      69.4238972       
1039.45          0.344516585      68.8985769       0.9330734        -20.1493865      0.9330734        -20.1493865      0.344516585      68.8985769       
1069.12          0.353277217      68.3755773       0.929744457      -20.6849876      0.929744457      -20.6849876      0.353277217      68.3755773       
1098.79          0.361958712      67.8549828       0.926354091      -21.2176219      0.926354091      -21.2176219      0.361958712      67.8549828       
1128.46          0.370560137      67.3368723       0.922904156      -21.7472461      0.922904156      -21.7472461      0.370560137      67.3368723       
1158.13          0.379080628      66.8213191       0.919396509      -22.2738193      0.919396509      -22.2738193      0.379080628      66.8213191       
1187.8           0.387519391      66.3083915       0.915833012      -22.7973027      0.915833012      -22.7973027      0.387519391      66.3083915       
1217.47          0.395875701      65.798153        0.91221552       -23.3176595      0.91221552       -23.3176595      0.395875701      65.798153        
1247.14          0.404148898      65.2906627       0.908545887      -23.8348552      0.908545887      -23.8348552      0.404148898      65.2906627       
1276.81          0.412338391      64.7859756       0.904825959      -24.3488574      0.904825959      -24.3488574      0.412338391      64.7859756       
1306.48          0.420443652      64.2841427       0.901057576      -24.8596357      0.901057576      -24.8596357      0.420443652      64.2841427       
1336.15          0.428464217      63.7852112       0.897242564      -25.3671619      0.897242564      -25.3671619      0.428464217      63.7852112       
1365.82          0.436399686      63.289225        0.893382739      -25.8714096      0.893382739      -25.8714096      0.436399686      63.289225        
1395.49          0.444249718      62.7962246       0.889479899      -26.3723547      0.889479899      -26.3723547      0.444249718      62.7962246       
1425.16          0.45201403       62.306247        0.885535828      -26.8699749      0.885535828      -26.8699749      0.45201403       62.306247        
1454.83          0.459692401      61.8193265       0.881552293      -27.3642497      0.881552293      -27.3642497      0.459692401      61.8193265       
1484.5           0.467284661      61.3354945       0.87753104       -27.8551607      0.87753104       -27.8551607      0.467284661      61.3354945       
1514.17          0.474790699      60.8547794       0.873473793      -28.3426914      0.873473793      -28.3426914      0.474790699      60.8547794       
1543.84          0.482210453      60.377207        0.869382256      -28.8268268      0.869382256      -28.8268268      0.482210453      60.377207        
1573.51          0.489543915      59.9028008       0.865258108      -29.3075541      0.865258108      -29.3075541      0.489543915      59.9028008       
1603.18          0.496791125      59.4315816       0.861103003      -29.7848618      0.861103003      -29.7848618      0.496791125      59.4315816       
1632.85          0.50395217       58.9635678       0.85691857       -30.2587404      0.85691857       -30.2587404      0.50395217       58.9635678       
1662.52          0.511027185      58.4987759       0.852706412      -30.729182       0.852706412      -30.729182       0.511027185      58.4987759       
1692.19          0.518016347      58.03722         0.848468102      -31.1961801      0.848468102      -31.1961801      0.518016347      58.03722         
1721.86          0.524919877      57.5789121       0.844205188      -31.65973        0.844205188      -31.65973        0.524919877      57.5789121       
1751.53          0.531738036      57.1238624       0.839919185      -32.1198283      0.839919185      -32.1198283      0.531738036      57.1238624       
1781.2           0.538471124      56.6720791       0.835611582      -32.5764733      0.835611582      -32.5764733      0.538471124      56.6720791       
1810.87          0.545119478      56.2235686       0.831283836      -33.0296645      0.831283836      -33.0296645      0.545119478      56.2235686       
1840.54          0.551683471      55.7783356       0.826937374      -33.4794028      0.826937374      -33.4794028      0.551683471      55.7783356       
1870.21          0.55816351       55.336383        0.822573591      -33.9256906      0.822573591      -33.9256906      0.55816351       55.336383        
1899.88          0.564560034      54.8977122       0.818193851      -34.3685313      0.818193851      -34.3685313      0.564560034      54.8977122       
1929.55          0.570873512      54.4623232       0.813799487      -34.8079298      0.813799487      -34.8079298      0.570873512      54.4623232       
1959.22          0.577104443      54.0302142       0.8093918        -35.243892       0.8093918        -35.243892       0.577104443      54.0302142       
1988.89          0.583253353      53.6013823       0.804972059      -35.676425       0.804972059      -35.676425       0.583253353      53.6013823       
2018.56          0.589320793      53.1758231       0.800541501      -36.105537       0.800541501      -36.105537       0.589320793      53.1758231       
2048.23          0.59530734       52.753531        0.796101331      -36.5312374      0.796101331      -36.5312374      0.59530734       52.753531        
2077.9           0.601213591      52.3344991       0.791652722      -36.9535363      0.791652722      -36.9535363      0.601213591      52.3344991       
2107.57          0.607040168      51.9187194       0.787196816      -37.3724449      0.787196816      -37.3724449      0.607040168      51.9187194       
2137.24          0.612787711      51.5061828       0.782734723      -37.7879755      0.782734723      -37.7879755      0.612787711      51.5061828       
2166.91          0.618456879      51.096879        0.778267519      -38.200141       0.778267519      -38.200141       0.618456879      51.096879        
2196.58          0.624048346      50.6907969       0.773796253      -38.6089553      0.773796253      -38.6089553      0.624048346      50.6907969       
2226.25          0.629562807      50.2879243       0.769321939      -39.0144331      0.769321939      -39.0144331      0.629562807      50.2879243       
2255.92          0.635000967      49.8882481       0.764845563      -39.4165898      0.764845563      -39.4165898      0.635000967      49.8882481       
2285.59          0.640363546      49.4917544       0.76036808       -39.8154416      0.76036808       -39.8154416      0.640363546      49.4917544       
2315.26          0.645651279      49.0984285       0.755890413      -40.2110052      0.755890413      -40.2110052      0.645651279      49.0984285       
2344.93          0.650864907      48.7082548       0.751413457      -40.6032982      0.751413457      -40.6032982      0.650864907      48.7082548       
2374.6           0.656005185      48.3212171       0.746938077      -40.9923385      0.746938077      -40.9923385      0.656005185      48.3212171       
2404.27          0.661072877      47.9372985       0.742465111      -41.378145       0.742465111      -41.378145       0.661072877      47.9372985       
2433.94          0.666068753      47.5564813       0.737995366      -41.7607367      0.737995366      -41.7607367      0.666068753      47.5564813       
2463.61          0.670993591      47.1787475       0.733529621      -42.1401334      0.733529621      -42.1401334      0.670993591      47.1787475       
2493.28          0.675848175      46.8040781       0.72906863       -42.5163553      0.72906863       -42.5163553      0.675848175      46.8040781       
2522.95          0.680633296      46.432454        0.724613117      -42.8894229      0.724613117      -42.8894229      0.680633296      46.432454        
2552.62          0.685349747      46.0638554       0.720163782      -43.2593572      0.720163782      -43.2593572      0.685349747      46.0638554       
2582.29          0.689998325      45.6982619       0.715721296      -43.6261798      0.715721296      -43.6261798      0.689998325      45.6982619       
2611.96          0.69457983       45.3356529       0.711286307      -43.9899123      0.711286307      -43.9899123      0.69457983       45.3356529       
2641.63          0.699095065      44.9760072       0.706859438      -44.3505769      0.706859438      -44.3505769      0.699095065      44.9760072       
2671.3           0.703544834      44.6193034       0.702441286      -44.7081959      0.702441286      -44.7081959      0.703544834      44.6193034       
2700.97          0.70792994       44.2655198       0.698032425      -45.062792       0.698032425      -45.062792       0.70792994       44.2655198       
2730.64          0.712251187      43.914634        0.693633406      -45.4143881      0.693633406      -45.4143881      0.712251187      43.914634        
2760.31          0.716509379      43.5666238       0.689244755      -45.7630073      0.689244755      -45.7630073      0.716509379      43.5666238       
2789.98          0.720705319      43.2214664       0.684866978      -46.108673       0.684866978      -46.108673       0.720705319      43.2214664       
2819.65          0.724839807      42.8791389       0.680500559      -46.4514086      0.680500559      -46.4514086      0.724839807      42.8791389       
2849.32          0.728913641      42.5396182       0.67614596       -46.7912379      0.67614596       -46.7912379      0.728913641      42.5396182       
2878.99          0.732927617      42.2028809       0.671803623      -47.1281846      0.671803623      -47.1281846      0.732927617      42.2028809       
2908.66          0.736882527      41.8689035       0.667473968      -47.4622726      0.667473968      -47.4622726      0.736882527      41.8689035       
2938.33          0.74077916       41.5376625       0.663157399      -47.793526       0.663157399      -47.793526       0.74077916       41.5376625       
2968             0.7446183        41.2091339       0.658854297      -48.1219689      0.658854297      -48.1219689      0.7446183        41.2091339       
2997.67          0.748400728      40.883294        0.654565028      -48.4476253      0.654565028      -48.4476253      0.748400728      40.883294        
3027.34          0.752127219      40.5601186       0.650289937      -48.7705195      0.650289937      -48.7705195      0.752127219      40.5601186       
3057.01          0.755798542      40.2395839       0.646029352      -49.0906758      0.646029352      -49.0906758      0.755798542      40.2395839       
3086.68          0.759415463      39.9216657       0.641783587      -49.4081183      0.641783587      -49.4081183      0.759415463      39.9216657       
3116.35          0.762978741      39.6063397       0.637552935      -49.7228712      0.637552935      -49.7228712      0.762978741      39.6063397       
3146.02          0.766489129      39.293582        0.633337677      -50.0349588      0.633337677      -50.0349588      0.766489129      39.293582        
3175.69          0.769947373      38.9833682       0.629138075      -50.3444053      0.629138075      -50.3444053      0.769947373      38.9833682       
3205.36          0.773354214      38.6756741       0.624954379      -50.6512348      0.624954379      -50.6512348      0.773354214      38.6756741       
3235.03          0.776710385      38.3704757       0.620786822      -50.9554713      0.620786822      -50.9554713      0.776710385      38.3704757       
3264.7           0.780016613      38.0677488       0.616635625      -51.257139       0.616635625      -51.257139       0.780016613      38.0677488       
3294.37          0.783273618      37.7674692       0.612500994      -51.5562616      0.612500994      -51.5562616      0.783273618      37.7674692       
3324.04          0.786482111      37.469613        0.608383121      -51.8528632      0.608383121      -51.8528632      0.786482111      37.469613        
3353.71          0.789642798      37.1741561       0.604282187      -52.1469673      0.604282187      -52.1469673      0.789642798      37.1741561       
3383.38          0.792756377      36.8810747       0.60019836       -52.4385977      0.60019836       -52.4385977      0.792756377      36.8810747       
3413.05          0.795823536      36.5903448       0.596131796      -52.7277778      0.596131796      -52.7277778      0.795823536      36.5903448       
3442.72          0.798844959      36.3019428       0.592082638      -53.0145311      0.592082638      -53.0145311      0.798844959      36.3019428       
3472.39          0.80182132       36.0158451       0.588051022      -53.2988808      0.588051022      -53.2988808      0.80182132       36.0158451       
3502.06          0.804753284      35.732028        0.584037068      -53.5808501      0.584037068      -53.5808501      0.804753284      35.732028        
3531.73          0.807641512      35.4504682       0.580040889      -53.8604619      0.580040889      -53.8604619      0.807641512      35.4504682       
3561.4           0.810486652      35.1711424       0.576062588      -54.137739       0.576062588      -54.137739       0.810486652      35.1711424       
3591.07          0.813289348      34.8940274       0.572102256      -54.412704       0.572102256      -54.412704       0.813289348      34.8940274       
3620.74          0.816050234      34.6191002       0.568159977      -54.6853796      0.568159977      -54.6853796      0.816050234      34.6191002       
3650.41          0.818769936      34.3463379       0.564235825      -54.9557879      0.564235825      -54.9557879      0.818769936      34.3463379       
3680.08          0.821449073      34.0757178       0.560329866      -55.223951       0.560329866      -55.223951       0.821449073      34.0757178       
3709.75          0.824088254      33.8072172       0.556442157      -55.4898911      0.556442157      -55.4898911      0.824088254      33.8072172       
3739.42          0.826688081      33.5408138       0.552572747      -55.7536297      0.552572747      -55.7536297      0.826688081      33.5408138       
3769.09          0.829249148      33.2764852       0.548721678      -56.0151885      0.548721678      -56.0151885      0.829249148      33.2764852       
