! Coilcraft 0402CS-27N Chip Inductor				
! 29 May 2002			
# MHZ S MA R 50
!Freq             MagS11           AngS11           MagS21           AngS21           MagS12           AngS12           MagS22           AngS22
1                0.00196476589    59.5106146       0.999004554      -0.0971032919    0.999004554      -0.0971032919    0.00196476589    59.5106146       
16.46            0.0280503201     80.9189125       0.995958         -1.59366694      0.995958         -1.59366694      0.0280503201     80.9189125       
31.92            0.0540369403     81.5735865       0.99352048       -3.08412915      0.99352048       -3.08412915      0.0540369403     81.5735865       
47.38            0.0798728045     81.0614062       0.990736624      -4.56790334      0.990736624      -4.56790334      0.0798728045     81.0614062       
62.84            0.105516339      80.168893        0.987472043      -6.04363783      0.987472043      -6.04363783      0.105516339      80.168893        
78.3             0.130925094      79.1018964       0.983684509      -7.50982661      0.983684509      -7.50982661      0.130925094      79.1018964       
93.76            0.156057346      77.9418639       0.979362989      -8.9649357       0.979362989      -8.9649357       0.156057346      77.9418639       
109.22           0.180873016      76.7288112       0.974511418      -10.407456       0.974511418      -10.407456       0.180873016      76.7288112       
124.68           0.205334275      75.4853276       0.969142487      -11.8359328      0.969142487      -11.8359328      0.205334275      75.4853276       
140.14           0.229405957      74.2254851       0.963274651      -13.2489841      0.963274651      -13.2489841      0.229405957      74.2254851       
155.6            0.253055852      72.9587189       0.956930429      -14.6453142      0.956930429      -14.6453142      0.253055852      72.9587189       
171.06           0.276254908      71.6917214       0.950135289      -16.0237228      0.950135289      -16.0237228      0.276254908      71.6917214       
186.52           0.298977363      70.4294486       0.942916839      -17.3831111      0.942916839      -17.3831111      0.298977363      70.4294486       
201.98           0.321200797      69.1756929       0.935304188      -18.722486       0.935304188      -18.722486       0.321200797      69.1756929       
217.44           0.342906139      67.9334266       0.927327426      -20.0409622      0.927327426      -20.0409622      0.342906139      67.9334266       
232.9            0.364077616      66.7050188       0.919017173      -21.3377628      0.919017173      -21.3377628      0.364077616      66.7050188       
248.36           0.384702667      65.4923776       0.910404201      -22.6122182      0.910404201      -22.6122182      0.384702667      65.4923776       
263.82           0.404771809      64.2970475       0.901519098      -23.8637634      0.901519098      -23.8637634      0.404771809      64.2970475       
279.28           0.424278485      63.1202779       0.892391985      -25.0919357      0.892391985      -25.0919357      0.424278485      63.1202779       
294.74           0.443218883      61.963074        0.883052275      -26.2963696      0.883052275      -26.2963696      0.443218883      61.963074        
310.2            0.461591739      60.8262344       0.873528472      -27.4767927      0.873528472      -27.4767927      0.461591739      60.8262344       
325.66           0.479398132      59.7103819       0.863848005      -28.6330199      0.863848005      -28.6330199      0.479398132      59.7103819       
341.12           0.496641267      58.6159867       0.854037095      -29.764948       0.854037095      -29.764948       0.496641267      58.6159867       
356.58           0.513326264      57.5433869       0.844120658      -30.8725495      0.844120658      -30.8725495      0.513326264      57.5433869       
372.04           0.529459942      56.4928048       0.834122232      -31.9558668      0.834122232      -31.9558668      0.529459942      56.4928048       
387.5            0.545050613      55.4643619       0.824063931      -33.0150058      0.824063931      -33.0150058      0.545050613      55.4643619       
402.96           0.560107881      54.458091        0.813966423      -34.0501301      0.813966423      -34.0501301      0.560107881      54.458091        
418.42           0.574642454      53.4739474       0.80384892       -35.0614551      0.80384892       -35.0614551      0.574642454      53.4739474       
433.88           0.588665965      52.5118188       0.793729196      -36.0492419      0.793729196      -36.0492419      0.588665965      52.5118188       
449.34           0.602190804      51.5715344       0.783623611      -37.0137925      0.783623611      -37.0137925      0.602190804      51.5715344       
464.8            0.615229972      50.6528723       0.773547148      -37.9554441      0.773547148      -37.9554441      0.615229972      50.6528723       
480.26           0.62779693       49.7555672       0.763513459      -38.8745644      0.763513459      -38.8745644      0.62779693       49.7555672       
495.72           0.639905485      48.8793163       0.753534923      -39.7715471      0.753534923      -39.7715471      0.639905485      48.8793163       
511.18           0.651569666      48.0237854       0.743622698      -40.6468077      0.743622698      -40.6468077      0.651569666      48.0237854       
526.64           0.662803631      47.188614        0.733786794      -41.5007794      0.733786794      -41.5007794      0.662803631      47.188614        
542.1            0.673621572      46.37342         0.724036128      -42.3339098      0.724036128      -42.3339098      0.673621572      46.37342         
557.56           0.68403764       45.5778037       0.714378598      -43.1466576      0.714378598      -43.1466576      0.68403764       45.5778037       
573.02           0.694065878      44.8013518       0.704821147      -43.9394893      0.704821147      -43.9394893      0.694065878      44.8013518       
588.48           0.70372016       44.0436406       0.695369828      -44.7128771      0.695369828      -44.7128771      0.70372016       44.0436406       
603.94           0.713014145      43.3042386       0.68602987       -45.4672963      0.68602987       -45.4672963      0.713014145      43.3042386       
619.4            0.721961234      42.5827099       0.676805742      -46.2032231      0.676805742      -46.2032231      0.721961234      42.5827099       
634.86           0.730574538      41.8786155       0.667701209      -46.9211328      0.667701209      -46.9211328      0.730574538      41.8786155       
650.32           0.738866849      41.1915162       0.658719394      -47.6214984      0.658719394      -47.6214984      0.738866849      41.1915162       
665.78           0.746850618      40.5209736       0.64986283       -48.3047887      0.64986283       -48.3047887      0.746850618      40.5209736       
681.24           0.754537942      39.8665524       0.641133516      -48.9714676      0.641133516      -48.9714676      0.754537942      39.8665524       
696.7            0.761940549      39.2278208       0.632532961      -49.6219926      0.632532961      -49.6219926      0.761940549      39.2278208       
712.16           0.769069789      38.6043524       0.624062233      -50.2568142      0.624062233      -50.2568142      0.769069789      38.6043524       
727.62           0.775936633      37.9957268       0.615722001      -50.8763751      0.615722001      -50.8763751      0.775936633      37.9957268       
743.08           0.782551671      37.4015303       0.607512576      -51.4811093      0.607512576      -51.4811093      0.782551671      37.4015303       
758.54           0.788925108      36.8213567       0.599433945      -52.0714421      0.599433945      -52.0714421      0.788925108      36.8213567       
774              0.795066773      36.254808        0.591485808      -52.6477892      0.591485808      -52.6477892      0.795066773      36.254808        
789.46           0.800986122      35.7014944       0.583667611      -53.2105566      0.583667611      -53.2105566      0.800986122      35.7014944       
804.92           0.806692241      35.1610352       0.57597857       -53.7601406      0.57597857       -53.7601406      0.806692241      35.1610352       
820.38           0.812193858      34.6330584       0.568417702      -54.2969271      0.568417702      -54.2969271      0.812193858      34.6330584       
835.84           0.817499349      34.1172016       0.560983847      -54.821292       0.560983847      -54.821292       0.817499349      34.1172016       
851.3            0.822616749      33.6131114       0.553675692      -55.333601       0.553675692      -55.333601       0.822616749      33.6131114       
866.76           0.827553759      33.1204441       0.546491791      -55.8342094      0.546491791      -55.8342094      0.827553759      33.1204441       
882.22           0.832317758      32.6388652       0.539430582      -56.3234627      0.539430582      -56.3234627      0.832317758      32.6388652       
897.68           0.836915815      32.1680497       0.532490406      -56.8016958      0.532490406      -56.8016958      0.836915815      32.1680497       
913.14           0.841354696      31.7076819       0.525669519      -57.2692341      0.525669519      -57.2692341      0.841354696      31.7076819       
928.6            0.845640879      31.2574554       0.518966111      -57.7263929      0.518966111      -57.7263929      0.845640879      31.2574554       
944.06           0.84978056       30.8170729       0.512378313      -58.1734781      0.512378313      -58.1734781      0.84978056       30.8170729       
959.52           0.853779668      30.3862459       0.505904209      -58.6107857      0.505904209      -58.6107857      0.853779668      30.3862459       
974.98           0.857643876      29.964695        0.499541852      -59.038603       0.499541852      -59.038603       0.857643876      29.964695        
990.44           0.861378605      29.5521492       0.493289264      -59.4572076      0.493289264      -59.4572076      0.861378605      29.5521492       
1005.9           0.864989042      29.1483462       0.48714445       -59.8668688      0.48714445       -59.8668688      0.864989042      29.1483462       
1021.36          0.868480145      28.7530316       0.481105405      -60.2678469      0.481105405      -60.2678469      0.868480145      28.7530316       
1036.82          0.871856656      28.3659595       0.475170116      -60.6603938      0.475170116      -60.6603938      0.871856656      28.3659595       
1052.28          0.875123106      27.9868915       0.469336573      -61.0447534      0.469336573      -61.0447534      0.875123106      27.9868915       
1067.74          0.878283829      27.6155969       0.463602772      -61.4211616      0.463602772      -61.4211616      0.878283829      27.6155969       
1083.2           0.881342968      27.2518527       0.457966717      -61.7898465      0.457966717      -61.7898465      0.881342968      27.2518527       
1098.66          0.884304484      26.8954428       0.452426427      -62.1510287      0.452426427      -62.1510287      0.884304484      26.8954428       
1114.12          0.887172163      26.5461582       0.446979939      -62.5049216      0.446979939      -62.5049216      0.887172163      26.5461582       
1129.58          0.889949628      26.2037967       0.441625308      -62.8517317      0.441625308      -62.8517317      0.889949628      26.2037967       
1145.04          0.892640341      25.8681628       0.436360616      -63.1916584      0.436360616      -63.1916584      0.892640341      25.8681628       
1160.5           0.895247614      25.5390672       0.431183965      -63.5248947      0.431183965      -63.5248947      0.895247614      25.5390672       
1175.96          0.897774615      25.2163269       0.426093488      -63.8516272      0.426093488      -63.8516272      0.897774615      25.2163269       
1191.42          0.900224373      24.8997647       0.421087343      -64.1720364      0.421087343      -64.1720364      0.900224373      24.8997647       
1206.88          0.902599789      24.5892094       0.416163721      -64.4862967      0.416163721      -64.4862967      0.902599789      24.5892094       
1222.34          0.904903635      24.2844952       0.41132084       -64.7945768      0.41132084       -64.7945768      0.904903635      24.2844952       
1237.8           0.907138566      23.9854619       0.406556954      -65.0970399      0.406556954      -65.0970399      0.907138566      23.9854619       
1253.26          0.909307124      23.6919542       0.401870345      -65.3938439      0.401870345      -65.3938439      0.909307124      23.6919542       
1268.72          0.911411739      23.4038221       0.39725933       -65.6851412      0.39725933       -65.6851412      0.911411739      23.4038221       
1284.18          0.913454742      23.1209205       0.39272226       -65.9710797      0.39272226       -65.9710797      0.913454742      23.1209205       
1299.64          0.915438361      22.8431087       0.388257518      -66.2518019      0.388257518      -66.2518019      0.915438361      22.8431087       
1315.1           0.917364733      22.5702508       0.38386352       -66.5274462      0.38386352       -66.5274462      0.917364733      22.5702508       
1330.56          0.919235904      22.3022153       0.379538716      -66.798146       0.379538716      -66.798146       0.919235904      22.3022153       
1346.02          0.921053835      22.0388746       0.375281591      -67.0640308      0.375281591      -67.0640308      0.921053835      22.0388746       
1361.48          0.922820404      21.7801056       0.371090662      -67.3252256      0.371090662      -67.3252256      0.922820404      21.7801056       
1376.94          0.924537413      21.5257888       0.366964477      -67.5818515      0.366964477      -67.5818515      0.924537413      21.5257888       
1392.4           0.926206587      21.2758087       0.362901619      -67.8340258      0.362901619      -67.8340258      0.926206587      21.2758087       
1407.86          0.927829584      21.0300534       0.358900704      -68.0818618      0.358900704      -68.0818618      0.927829584      21.0300534       
1423.32          0.92940799       20.7884144       0.354960378      -68.3254694      0.354960378      -68.3254694      0.92940799       20.7884144       
1438.78          0.93094333       20.5507869       0.351079318      -68.5649549      0.351079318      -68.5649549      0.93094333       20.5507869       
1454.24          0.932437065      20.317069        0.347256235      -68.8004212      0.347256235      -68.8004212      0.932437065      20.317069        
1469.7           0.933890598      20.0871624       0.343489867      -69.0319681      0.343489867      -69.0319681      0.933890598      20.0871624       
1485.16          0.935305277      19.8609715       0.339778985      -69.2596921      0.339778985      -69.2596921      0.935305277      19.8609715       
1500.62          0.936682393      19.6384039       0.336122387      -69.4836867      0.336122387      -69.4836867      0.936682393      19.6384039       
1516.08          0.93802319       19.4193699       0.332518902      -69.7040426      0.332518902      -69.7040426      0.93802319       19.4193699       
1531.54          0.939328861      19.2037826       0.328967385      -69.9208476      0.328967385      -69.9208476      0.939328861      19.2037826       
1547             0.94060055       18.9915577       0.325466721      -70.1341867      0.325466721      -70.1341867      0.94060055       18.9915577       
1562.46          0.94183936       18.7826137       0.322015821      -70.3441424      0.322015821      -70.3441424      0.94183936       18.7826137       
1577.92          0.94304635       18.5768712       0.318613622      -70.5507946      0.318613622      -70.5507946      0.94304635       18.5768712       
1593.38          0.944222537      18.3742535       0.315259088      -70.7542207      0.315259088      -70.7542207      0.944222537      18.3742535       
1608.84          0.9453689        18.1746861       0.311951209      -70.954496       0.311951209      -70.954496       0.9453689        18.1746861       
1624.3           0.946486382      17.9780965       0.308688998      -71.1516932      0.308688998      -71.1516932      0.946486382      17.9780965       
1639.76          0.947575886      17.7844148       0.305471493      -71.345883       0.305471493      -71.345883       0.947575886      17.7844148       
1655.22          0.948638285      17.5935727       0.302297755      -71.5371339      0.302297755      -71.5371339      0.948638285      17.5935727       
1670.68          0.949674419      17.4055043       0.299166871      -71.7255123      0.299166871      -71.7255123      0.949674419      17.4055043       
1686.14          0.950685094      17.2201454       0.296077947      -71.9110826      0.296077947      -71.9110826      0.950685094      17.2201454       
1701.6           0.951671087      17.0374337       0.293030112      -72.0939076      0.293030112      -72.0939076      0.951671087      17.0374337       
1717.06          0.952633149      16.8573087       0.290022518      -72.2740478      0.290022518      -72.2740478      0.952633149      16.8573087       
1732.52          0.953572         16.6797118       0.287054336      -72.4515622      0.287054336      -72.4515622      0.953572         16.6797118       
1747.98          0.954488335      16.5045858       0.284124757      -72.6265079      0.284124757      -72.6265079      0.954488335      16.5045858       
1763.44          0.955382824      16.3318754       0.281232994      -72.7989406      0.281232994      -72.7989406      0.955382824      16.3318754       
1778.9           0.956256114      16.1615267       0.278378278      -72.968914       0.278378278      -72.968914       0.956256114      16.1615267       
1794.36          0.957108825      15.9934873       0.275559859      -73.1364804      0.275559859      -73.1364804      0.957108825      15.9934873       
1809.82          0.957941559      15.8277065       0.272777004      -73.3016909      0.272777004      -73.3016909      0.957941559      15.8277065       
1825.28          0.958754895      15.6641348       0.270029001      -73.4645945      0.270029001      -73.4645945      0.958754895      15.6641348       
1840.74          0.959549392      15.5027241       0.267315152      -73.6252394      0.267315152      -73.6252394      0.959549392      15.5027241       
1856.2           0.960325587      15.3434278       0.264634779      -73.7836721      0.264634779      -73.7836721      0.960325587      15.3434278       
1871.66          0.961084002      15.1862003       0.261987217      -73.9399378      0.261987217      -73.9399378      0.961084002      15.1862003       
1887.12          0.961825138      15.0309975       0.259371821      -74.0940806      0.259371821      -74.0940806      0.961825138      15.0309975       
1902.58          0.962549481      14.8777763       0.256787958      -74.246143       0.256787958      -74.246143       0.962549481      14.8777763       
1918.04          0.963257498      14.726495        0.254235012      -74.3961666      0.254235012      -74.3961666      0.963257498      14.726495        
1933.5           0.963949642      14.5771129       0.251712382      -74.5441918      0.251712382      -74.5441918      0.963949642      14.5771129       
1948.96          0.96462635       14.4295902       0.24921948       -74.6902578      0.24921948       -74.6902578      0.96462635       14.4295902       
1964.42          0.965288043      14.2838886       0.246755735      -74.8344027      0.246755735      -74.8344027      0.965288043      14.2838886       
