! Coilcraft 0402CS-51N Chip Inductor				
! 22 July 2002			
# MHZ S MA R 50
!Freq             MagS11           AngS11           MagS21           AngS21           MagS12           AngS12           MagS22           AngS22
1                0.00374895263    58.3645381       0.99803873       -0.183240232     0.99803873       -0.183240232     0.00374895263    58.3645381       
12.47            0.0401906235     78.4997592       0.992768609      -2.27355598      0.992768609      -2.27355598      0.0401906235     78.4997592       
23.94            0.0763308878     79.013065        0.98829719       -4.34828671      0.98829719       -4.34828671      0.0763308878     79.013065        
35.41            0.11206874       78.1462709       0.983116702      -6.40539107      0.983116702      -6.40539107      0.11206874       78.1462709       
46.88            0.14729516       76.8296032       0.977023082      -8.44116139      0.977023082      -8.44116139      0.14729516       76.8296032       
58.35            0.181902828      75.3130741       0.969974414      -10.4516714      0.969974414      -10.4516714      0.181902828      75.3130741       
69.82            0.21579143       73.6976466       0.961986479      -12.4331026      0.961986479      -12.4331026      0.21579143       73.6976466       
81.29            0.24887046       72.0339608       0.953103727      -14.3818875      0.953103727      -14.3818875      0.24887046       72.0339608       
92.76            0.281060836      70.3511896       0.943387269      -16.2947885      0.943387269      -16.2947885      0.281060836      70.3511896       
104.23           0.31229577       68.6678113       0.932908416      -18.1689432      0.932908416      -18.1689432      0.31229577       68.6678113       
115.7            0.342521086      66.9963265       0.921744522      -20.0018884      0.921744522      -20.0018884      0.342521086      66.9963265       
127.17           0.371695093      65.3455748       0.909975974      -21.7915684      0.909975974      -21.7915684      0.371695093      65.3455748       
138.64           0.399788118      63.7219799       0.897683883      -23.5363312      0.897683883      -23.5363312      0.399788118      63.7219799       
150.11           0.426781771      62.1302706       0.884948273      -25.2349143      0.884948273      -25.2349143      0.426781771      62.1302706       
161.58           0.452668012      60.5739271       0.871846661      -26.8864248      0.871846661      -26.8864248      0.452668012      60.5739271       
173.05           0.477448099      59.0554746       0.858452973      -28.4903125      0.858452973      -28.4903125      0.477448099      59.0554746       
184.52           0.501131463      57.5766873       0.844836751      -30.0463409      0.844836751      -30.0463409      0.501131463      57.5766873       
195.99           0.52373457       56.1387371       0.8310626        -31.5545551      0.8310626        -31.5545551      0.52373457       56.1387371       
207.46           0.545279802      54.7423074       0.817189859      -33.0152494      0.817189859      -33.0152494      0.545279802      54.7423074       
218.93           0.565794386      53.3876824       0.803272448      -34.4289351      0.803272448      -34.4289351      0.565794386      53.3876824       
230.4            0.585309408      52.0748198       0.789358858      -35.7963093      0.789358858      -35.7963093      0.585309408      52.0748198       
241.87           0.603858904      50.803411        0.775492264      -37.1182253      0.775492264      -37.1182253      0.603858904      50.803411        
253.34           0.621479055      49.572931        0.761710721      -38.3956651      0.761710721      -38.3956651      0.621479055      49.572931        
264.81           0.638207475      48.3826812       0.748047431      -39.6297142      0.748047431      -39.6297142      0.638207475      48.3826812       
276.28           0.654082603      47.2318251       0.734531048      -40.8215389      0.734531048      -40.8215389      0.654082603      47.2318251       
287.75           0.669143179      46.1194192       0.721186016      -41.972366       0.721186016      -41.972366       0.669143179      46.1194192       
299.22           0.683427809      45.0444389       0.708032921      -43.0834649      0.708032921      -43.0834649      0.683427809      45.0444389       
310.69           0.696974616      44.0058006       0.695088836      -44.156132       0.695088836      -44.156132       0.696974616      44.0058006       
322.16           0.709820949      43.0023798       0.682367671      -45.1916776      0.682367671      -45.1916776      0.709820949      43.0023798       
333.63           0.72200316       42.0330273       0.669880501      -46.1914144      0.669880501      -46.1914144      0.72200316       42.0330273       
345.1            0.733556437      41.0965817       0.657635883      -47.1566477      0.657635883      -47.1566477      0.733556437      41.0965817       
356.57           0.744514677      40.1918803       0.645640151      -48.0886678      0.645640151      -48.0886678      0.744514677      40.1918803       
368.04           0.754910402      39.3177678       0.633897685      -48.9887437      0.633897685      -48.9887437      0.754910402      39.3177678       
379.51           0.764774706      38.4731036       0.622411166      -49.8581172      0.622411166      -49.8581172      0.764774706      38.4731036       
390.98           0.774137228      37.6567672       0.611181798      -50.6979998      0.611181798      -50.6979998      0.774137228      37.6567672       
402.45           0.783026148      36.867663        0.600209518      -51.5095686      0.600209518      -51.5095686      0.783026148      36.867663        
413.92           0.791468201      36.1047237       0.58949318       -52.2939648      0.58949318       -52.2939648      0.791468201      36.1047237       
425.39           0.799488702      35.3669123       0.579030718      -53.0522916      0.579030718      -53.0522916      0.799488702      35.3669123       
436.86           0.807111581      34.6532251       0.568819293      -53.7856135      0.568819293      -53.7856135      0.807111581      34.6532251       
448.33           0.814359431      33.9626916       0.558855426      -54.4949557      0.558855426      -54.4949557      0.814359431      33.9626916       
459.8            0.821253556      33.2943763       0.549135105      -55.1813036      0.549135105      -55.1813036      0.821253556      33.2943763       
471.27           0.827814028      32.6473784       0.539653893      -55.8456039      0.539653893      -55.8456039      0.827814028      32.6473784       
482.74           0.834059737      32.0208321       0.53040701       -56.4887643      0.53040701       -56.4887643      0.834059737      32.0208321       
494.21           0.840008456      31.413906        0.521389409      -57.1116543      0.521389409      -57.1116543      0.840008456      31.413906        
505.68           0.845676894      30.8258029       0.512595845      -57.7151067      0.512595845      -57.7151067      0.845676894      30.8258029       
517.15           0.851080752      30.2557587       0.504020929      -58.2999178      0.504020929      -58.2999178      0.851080752      30.2557587       
528.62           0.856234786      29.7030419       0.495659176      -58.8668491      0.495659176      -58.8668491      0.856234786      29.7030419       
540.09           0.861152851      29.1669528       0.48750505       -59.4166282      0.48750505       -59.4166282      0.861152851      29.1669528       
551.56           0.865847963      28.6468219       0.479552994      -59.94995        0.479552994      -59.94995        0.865847963      28.6468219       
563.03           0.870332343      28.1420094       0.471797466      -60.4674781      0.471797466      -60.4674781      0.870332343      28.1420094       
574.5            0.87461747       27.6519039       0.464232958      -60.9698459      0.464232958      -60.9698459      0.87461747       27.6519039       
585.97           0.878714123      27.1759214       0.456854021      -61.4576581      0.456854021      -61.4576581      0.878714123      27.1759214       
597.44           0.882632426      26.713504        0.449655282      -61.9314914      0.449655282      -61.9314914      0.882632426      26.713504        
608.91           0.886381889      26.264119        0.442631456      -62.3918964      0.442631456      -62.3918964      0.886381889      26.264119        
620.38           0.889971449      25.8272578       0.435777358      -62.8393983      0.435777358      -62.8393983      0.889971449      25.8272578       
631.85           0.893409501      25.4024345       0.429087914      -63.2744983      0.429087914      -63.2744983      0.893409501      25.4024345       
643.32           0.89670394       24.9891856       0.422558164      -63.6976746      0.422558164      -63.6976746      0.89670394       24.9891856       
654.79           0.899862186      24.5870682       0.416183271      -64.1093836      0.416183271      -64.1093836      0.899862186      24.5870682       
666.26           0.902891221      24.1956594       0.409958525      -64.5100608      0.409958525      -64.5100608      0.902891221      24.1956594       
677.73           0.90579761       23.8145555       0.403879342      -64.9001218      0.403879342      -64.9001218      0.90579761       23.8145555       
689.2            0.908587534      23.4433709       0.397941268      -65.2799634      0.397941268      -65.2799634      0.908587534      23.4433709       
700.67           0.911266813      23.0817372       0.392139977      -65.6499646      0.392139977      -65.6499646      0.911266813      23.0817372       
712.14           0.913840926      22.7293023       0.386471276      -66.0104872      0.386471276      -66.0104872      0.913840926      22.7293023       
723.61           0.916315037      22.3857301       0.380931099      -66.3618767      0.380931099      -66.3618767      0.916315037      22.3857301       
735.08           0.918694013      22.0506991       0.375515506      -66.7044632      0.375515506      -66.7044632      0.918694013      22.0506991       
746.55           0.920982443      21.7239019       0.370220683      -67.0385624      0.370220683      -67.0385624      0.920982443      21.7239019       
758.02           0.923184655      21.405045        0.365042942      -67.3644756      0.365042942      -67.3644756      0.923184655      21.405045        
769.49           0.925304735      21.0938472       0.359978712      -67.6824913      0.359978712      -67.6824913      0.925304735      21.0938472       
780.96           0.92734654       20.7900397       0.355024542      -67.992885       0.355024542      -67.992885       0.92734654       20.7900397       
792.43           0.929313712      20.4933655       0.350177095      -68.2959205      0.350177095      -68.2959205      0.929313712      20.4933655       
803.9            0.931209694      20.2035783       0.345433148      -68.5918501      0.345433148      -68.5918501      0.931209694      20.2035783       
815.37           0.933037739      19.9204425       0.340789584      -68.8809152      0.340789584      -68.8809152      0.933037739      19.9204425       
826.84           0.934800924      19.6437323       0.336243395      -69.163347       0.336243395      -69.163347       0.934800924      19.6437323       
838.31           0.93650216       19.3732317       0.331791674      -69.439367       0.331791674      -69.439367       0.93650216       19.3732317       
849.78           0.938144203      19.1087334       0.327431613      -69.7091871      0.327431613      -69.7091871      0.938144203      19.1087334       
861.25           0.939729663      18.850039        0.323160502      -69.9730104      0.323160502      -69.9730104      0.939729663      18.850039        
872.72           0.94126101       18.5969581       0.318975722      -70.2310318      0.318975722      -70.2310318      0.94126101       18.5969581       
884.19           0.942740589      18.3493083       0.314874747      -70.4834378      0.314874747      -70.4834378      0.942740589      18.3493083       
895.66           0.944170619      18.1069143       0.310855134      -70.7304075      0.310855134      -70.7304075      0.944170619      18.1069143       
907.13           0.945553208      17.8696083       0.306914528      -70.9721127      0.306914528      -70.9721127      0.945553208      17.8696083       
918.6            0.946890355      17.637229        0.303050651      -71.208718       0.303050651      -71.208718       0.946890355      17.637229        
930.07           0.948183958      17.4096215       0.299261307      -71.4403816      0.299261307      -71.4403816      0.948183958      17.4096215       
941.54           0.94943582       17.1866371       0.295544373      -71.6672553      0.295544373      -71.6672553      0.94943582       17.1866371       
953.01           0.950647653      16.9681331       0.291897798      -71.8894851      0.291897798      -71.8894851      0.950647653      16.9681331       
964.48           0.951821085      16.7539722       0.288319603      -72.1072108      0.288319603      -72.1072108      0.951821085      16.7539722       
975.95           0.952957664      16.5440223       0.284807875      -72.3205672      0.284807875      -72.3205672      0.952957664      16.5440223       
987.42           0.954058864      16.3381567       0.281360767      -72.5296836      0.281360767      -72.5296836      0.954058864      16.3381567       
998.89           0.955126084      16.1362534       0.277976492      -72.7346844      0.277976492      -72.7346844      0.955126084      16.1362534       
1010.36          0.95616066       15.9381949       0.274653327      -72.9356892      0.274653327      -72.9356892      0.95616066       15.9381949       
1021.83          0.957163863      15.7438683       0.271389605      -73.1328131      0.271389605      -73.1328131      0.957163863      15.7438683       
1033.3           0.958136902      15.5531649       0.268183713      -73.3261667      0.268183713      -73.3261667      0.958136902      15.5531649       
1044.77          0.959080932      15.3659799       0.265034095      -73.5158568      0.265034095      -73.5158568      0.959080932      15.3659799       
1056.24          0.959997054      15.1822125       0.261939244      -73.7019858      0.261939244      -73.7019858      0.959997054      15.1822125       
1067.71          0.960886316      15.0017655       0.258897706      -73.8846525      0.258897706      -73.8846525      0.960886316      15.0017655       
1079.18          0.961749722      14.8245454       0.255908071      -74.0639522      0.255908071      -74.0639522      0.961749722      14.8245454       
1090.65          0.962588226      14.6504618       0.252968978      -74.2399765      0.252968978      -74.2399765      0.962588226      14.6504618       
1102.12          0.963402741      14.4794277       0.25007911       -74.4128138      0.25007911       -74.4128138      0.963402741      14.4794277       
1113.59          0.964194141      14.3113593       0.247237191      -74.5825492      0.247237191      -74.5825492      0.964194141      14.3113593       
1125.06          0.964963258      14.1461755       0.244441989      -74.749265       0.244441989      -74.749265       0.964963258      14.1461755       
1136.53          0.965710889      13.9837983       0.241692309      -74.9130403      0.241692309      -74.9130403      0.965710889      13.9837983       
1148             0.966437796      13.8241521       0.238986996      -75.0739516      0.238986996      -75.0739516      0.966437796      13.8241521       
1159.47          0.967144709      13.6671641       0.236324931      -75.2320725      0.236324931      -75.2320725      0.967144709      13.6671641       
1170.94          0.967832324      13.5127642       0.23370503       -75.3874743      0.23370503       -75.3874743      0.967832324      13.5127642       
1182.41          0.968501309      13.3608843       0.231126245      -75.5402256      0.231126245      -75.5402256      0.968501309      13.3608843       
1193.88          0.969152304      13.2114587       0.228587558      -75.6903927      0.228587558      -75.6903927      0.969152304      13.2114587       
1205.35          0.969785921      13.0644242       0.226087986      -75.8380398      0.226087986      -75.8380398      0.969785921      13.0644242       
1216.82          0.970402746      12.9197193       0.223626574      -75.9832286      0.223626574      -75.9832286      0.970402746      12.9197193       
1228.29          0.971003344      12.7772847       0.221202397      -76.1260189      0.221202397      -76.1260189      0.971003344      12.7772847       
1239.76          0.971588252      12.6370632       0.218814558      -76.2664686      0.218814558      -76.2664686      0.971588252      12.6370632       
1251.23          0.972157988      12.4989992       0.21646219       -76.4046334      0.21646219       -76.4046334      0.972157988      12.4989992       
1262.7           0.972713049      12.3630391       0.214144448      -76.5405673      0.214144448      -76.5405673      0.972713049      12.3630391       
1274.17          0.973253911      12.229131        0.211860517      -76.6743225      0.211860517      -76.6743225      0.973253911      12.229131        
1285.64          0.973781031      12.0972244       0.209609602      -76.8059495      0.209609602      -76.8059495      0.973781031      12.0972244       
1297.11          0.974294848      11.9672708       0.207390935      -76.9354971      0.207390935      -76.9354971      0.974294848      11.9672708       
1308.58          0.974795785      11.839223        0.20520377       -77.0630125      0.20520377       -77.0630125      0.974795785      11.839223        
1320.05          0.975284245      11.7130352       0.203047383      -77.1885414      0.203047383      -77.1885414      0.975284245      11.7130352       
1331.52          0.97576062       11.5886633       0.20092107       -77.312128       0.20092107       -77.312128       0.97576062       11.5886633       
1342.99          0.976225283      11.4660643       0.198824149      -77.4338152      0.198824149      -77.4338152      0.976225283      11.4660643       
1354.46          0.976678595      11.3451966       0.196755957      -77.5536443      0.196755957      -77.5536443      0.976678595      11.3451966       
1365.93          0.977120901      11.2260199       0.19471585       -77.6716555      0.19471585       -77.6716555      0.977120901      11.2260199       
1377.4           0.977552536      11.1084951       0.192703204      -77.7878877      0.192703204      -77.7878877      0.977552536      11.1084951       
1388.87          0.97797382       10.9925842       0.190717411      -77.9023783      0.190717411      -77.9023783      0.97797382       10.9925842       
1400.34          0.978385063      10.8782505       0.188757882      -78.015164       0.188757882      -78.015164       0.978385063      10.8782505       
1411.81          0.97878656       10.7654583       0.186824041      -78.12628        0.186824041      -78.12628        0.97878656       10.7654583       
1423.28          0.9791786        10.6541729       0.184915333      -78.2357604      0.184915333      -78.2357604      0.9791786        10.6541729       
1434.75          0.979561458      10.5443606       0.183031216      -78.3436385      0.183031216      -78.3436385      0.979561458      10.5443606       
1446.22          0.9799354        10.4359889       0.181171162      -78.4499462      0.181171162      -78.4499462      0.9799354        10.4359889       
1457.69          0.980300683      10.3290259       0.179334659      -78.5547149      0.179334659      -78.5547149      0.980300683      10.3290259       
