! Coilcraft 0402CS-33N Chip Inductor				
! 22 July 2002			
# MHZ S MA R 50
!Freq             MagS11           AngS11           MagS21           AngS21           MagS12           AngS12           MagS22           AngS22
1                0.00243883564    57.9934958       0.998709521      -0.118646781     0.998709521      -0.118646781     0.00243883564    57.9934958       
13.47            0.0281378114     79.4795308       0.99524698       -1.59285176      0.99524698       -1.59285176      0.0281378114     79.4795308       
25.94            0.0537237141     80.5340705       0.992580131      -3.06038062      0.992580131      -3.06038062      0.0537237141     80.5340705       
38.41            0.0791554797     80.2277811       0.989643979      -4.52092954      0.989643979      -4.52092954      0.0791554797     80.2277811       
50.88            0.104395153      79.471225        0.986278986      -5.97332073      0.986278986      -5.97332073      0.104395153      79.471225        
63.35            0.129403394      78.5057658       0.982432179      -7.4161872       0.982432179      -7.4161872       0.129403394      78.5057658       
75.82            0.154141246      77.4272717       0.978086393      -8.84811541      0.978086393      -8.84811541      0.154141246      77.4272717       
88.29            0.17857112       76.2828292       0.973241366      -10.2677038      0.973241366      -10.2677038      0.17857112       76.2828292       
100.76           0.202657419      75.0989348       0.96790651       -11.6735942      0.96790651       -11.6735942      0.202657419      75.0989348       
113.23           0.226366946      73.8920054       0.962097479      -13.0644919      0.962097479      -13.0644919      0.226366946      73.8920054       
125.7            0.249669211      72.6729718       0.955834261      -14.4391789      0.955834261      -14.4391789      0.249669211      72.6729718       
138.17           0.272536623      71.4495265       0.949139948      -15.7965236      0.949139948      -15.7965236      0.272536623      71.4495265       
150.64           0.294944625      70.2273208       0.942039887      -17.135487       0.942039887      -17.135487       0.294944625      70.2273208       
163.11           0.316871757      69.0106462       0.934561013      -18.4551272      0.934561013      -18.4551272      0.316871757      69.0106462       
175.58           0.338299666      67.8028443       0.92673132       -19.7546016      0.92673132       -19.7546016      0.338299666      67.8028443       
188.05           0.359213072      66.6065649       0.91857942       -21.0331677      0.91857942       -21.0331677      0.359213072      66.6065649       
200.52           0.379599688      65.4239353       0.910134167      -22.2901826      0.910134167      -22.2901826      0.379599688      65.4239353       
212.99           0.399450111      64.2566756       0.901424328      -23.5251007      0.901424328      -23.5251007      0.399450111      64.2566756       
225.46           0.418757686      63.1061798       0.892478311      -24.7374717      0.892478311      -24.7374717      0.418757686      63.1061798       
237.93           0.437518343      61.9735745       0.88332393       -25.9269363      0.88332393       -25.9269363      0.437518343      61.9735745       
250.4            0.45573042       60.8597637       0.873988208      -27.0932223      0.873988208      -27.0932223      0.45573042       60.8597637       
262.87           0.473394479      59.7654625       0.864497213      -28.2361399      0.864497213      -28.2361399      0.473394479      59.7654625       
275.34           0.490513107      58.6912243       0.854875931      -29.3555763      0.854875931      -29.3555763      0.490513107      58.6912243       
287.81           0.507090724      57.6374633       0.845148166      -30.4514906      0.845148166      -30.4514906      0.507090724      57.6374633       
300.28           0.523133387      56.604472        0.835336465      -31.523908       0.835336465      -31.523908       0.523133387      56.604472        
312.75           0.538648594      55.5924377       0.825462068      -32.5729146      0.825462068      -32.5729146      0.538648594      55.5924377       
325.22           0.553645105      54.6014551       0.815544881      -33.5986516      0.815544881      -33.5986516      0.553645105      54.6014551       
337.69           0.568132762      53.6315384       0.805603464      -34.6013096      0.805603464      -34.6013096      0.568132762      53.6315384       
350.16           0.582122323      52.6826315       0.795655037      -35.5811242      0.795655037      -35.5811242      0.582122323      52.6826315       
362.63           0.595625308      51.7546171       0.785715501      -36.53837        0.785715501      -36.53837        0.595625308      51.7546171       
375.1            0.608653852      50.8473247       0.775799467      -37.4733563      0.775799467      -37.4733563      0.608653852      50.8473247       
387.57           0.621220574      49.960538        0.765920293      -38.3864223      0.765920293      -38.3864223      0.621220574      49.960538        
400.04           0.633338456      49.0940014       0.756090137      -39.2779331      0.756090137      -39.2779331      0.633338456      49.0940014       
412.51           0.645020734      48.2474257       0.746320001      -40.1482754      0.746320001      -40.1482754      0.645020734      48.2474257       
424.98           0.656280804      47.4204936       0.736619794      -40.9978542      0.736619794      -40.9978542      0.656280804      47.4204936       
437.45           0.667132129      46.6128643       0.726998388      -41.827089       0.726998388      -41.827089       0.667132129      46.6128643       
449.92           0.677588169      45.8241775       0.717463676      -42.6364109      0.717463676      -42.6364109      0.677588169      45.8241775       
462.39           0.687662312      45.0540574       0.708022638      -43.4262598      0.708022638      -43.4262598      0.687662312      45.0540574       
474.86           0.697367815      44.3021162       0.698681395      -44.1970819      0.698681395      -44.1970819      0.697367815      44.3021162       
487.33           0.70671776       43.5679565       0.689445275      -44.9493271      0.689445275      -44.9493271      0.70671776       43.5679565       
499.8            0.715725006      42.8511747       0.680318867      -45.6834476      0.680318867      -45.6834476      0.715725006      42.8511747       
512.27           0.724402161      42.1513626       0.671306079      -46.3998953      0.671306079      -46.3998953      0.724402161      42.1513626       
524.74           0.732761547      41.4681102       0.662410191      -47.0991207      0.662410191      -47.0991207      0.732761547      41.4681102       
537.21           0.740815184      40.8010067       0.653633906      -47.7815714      0.653633906      -47.7815714      0.740815184      40.8010067       
549.68           0.748574767      40.1496426       0.644979404      -48.4476908      0.644979404      -48.4476908      0.748574767      40.1496426       
562.15           0.756051654      39.5136112       0.63644838       -49.0979171      0.63644838       -49.0979171      0.756051654      39.5136112       
574.62           0.763256859      38.8925092       0.628042096      -49.7326824      0.628042096      -49.7326824      0.763256859      38.8925092       
587.09           0.770201041      38.285938        0.619761416      -50.3524118      0.619761416      -50.3524118      0.770201041      38.285938        
599.56           0.776894505      37.6935048       0.611606847      -50.9575228      0.611606847      -50.9575228      0.776894505      37.6935048       
612.03           0.7833472        37.1148229       0.603578573      -51.5484252      0.603578573      -51.5484252      0.7833472        37.1148229       
624.5            0.78956872       36.5495125       0.59567649       -52.1255197      0.59567649       -52.1255197      0.78956872       36.5495125       
636.97           0.795568305      35.9972012       0.587900235      -52.6891987      0.587900235      -52.6891987      0.795568305      35.9972012       
649.44           0.801354851      35.4575242       0.580249214      -53.239845       0.580249214      -53.239845       0.801354851      35.4575242       
661.91           0.806936911      34.9301251       0.57272263       -53.7778324      0.57272263       -53.7778324      0.806936911      34.9301251       
674.38           0.812322706      34.4146555       0.565319505      -54.3035253      0.565319505      -54.3035253      0.812322706      34.4146555       
686.85           0.81752013       33.9107755       0.5580387        -54.8172782      0.5580387        -54.8172782      0.81752013       33.9107755       
699.32           0.822536757      33.4181539       0.55087894       -55.3194364      0.55087894       -55.3194364      0.822536757      33.4181539       
711.79           0.827379858      32.9364681       0.543838829      -55.8103357      0.543838829      -55.8103357      0.827379858      32.9364681       
724.26           0.832056401      32.465404        0.536916866      -56.2903021      0.536916866      -56.2903021      0.832056401      32.465404        
736.73           0.836573065      32.0046563       0.530111462      -56.7596526      0.530111462      -56.7596526      0.836573065      32.0046563       
749.2            0.84093625       31.5539282       0.523420951      -57.2186945      0.523420951      -57.2186945      0.84093625       31.5539282       
761.67           0.845152088      31.1129314       0.516843608      -57.6677264      0.516843608      -57.6677264      0.845152088      31.1129314       
774.14           0.849226448      30.6813862       0.510377652      -58.1070375      0.510377652      -58.1070375      0.849226448      30.6813862       
786.61           0.853164953      30.2590207       0.504021265      -58.5369085      0.504021265      -58.5369085      0.853164953      30.2590207       
799.08           0.856972981      29.8455716       0.497772594      -58.9576112      0.497772594      -58.9576112      0.856972981      29.8455716       
811.55           0.860655684      29.4407833       0.491629761      -59.369409       0.491629761      -59.369409       0.860655684      29.4407833       
824.02           0.864217988      29.0444082       0.485590873      -59.7725571      0.485590873      -59.7725571      0.864217988      29.0444082       
836.49           0.867664612      28.6562061       0.479654027      -60.1673027      0.479654027      -60.1673027      0.867664612      28.6562061       
848.96           0.871000066      28.2759444       0.473817313      -60.5538849      0.473817313      -60.5538849      0.871000066      28.2759444       
861.43           0.87422867       27.9033978       0.468078825      -60.9325354      0.468078825      -60.9325354      0.87422867       27.9033978       
873.9            0.877354554      27.538348        0.462436659      -61.3034783      0.462436659      -61.3034783      0.877354554      27.538348        
886.37           0.880381673      27.1805837       0.456888922      -61.6669306      0.456888922      -61.6669306      0.880381673      27.1805837       
898.84           0.883313808      26.8299001       0.451433734      -62.0231024      0.451433734      -62.0231024      0.883313808      26.8299001       
911.31           0.88615458       26.4860991       0.446069231      -62.3721966      0.446069231      -62.3721966      0.88615458       26.4860991       
923.78           0.888907453      26.1489888       0.440793566      -62.71441        0.440793566      -62.71441        0.888907453      26.1489888       
936.25           0.891575741      25.8183836       0.435604915      -63.0499326      0.435604915      -63.0499326      0.891575741      25.8183836       
948.72           0.894162618      25.4941035       0.430501477      -63.3789486      0.430501477      -63.3789486      0.894162618      25.4941035       
961.19           0.896671122      25.1759746       0.425481475      -63.7016359      0.425481475      -63.7016359      0.896671122      25.1759746       
973.66           0.899104159      24.8638283       0.420543158      -64.0181669      0.420543158      -64.0181669      0.899104159      24.8638283       
986.13           0.901464513      24.5575017       0.415684804      -64.3287081      0.415684804      -64.3287081      0.901464513      24.5575017       
998.6            0.903754852      24.2568368       0.410904717      -64.6334207      0.410904717      -64.6334207      0.903754852      24.2568368       
1011.07          0.905977728      23.9616808       0.406201234      -64.9324609      0.406201234      -64.9324609      0.905977728      23.9616808       
1023.54          0.908135585      23.6718858       0.401572718      -65.2259796      0.401572718      -65.2259796      0.908135585      23.6718858       
1036.01          0.910230769      23.3873085       0.397017566      -65.5141227      0.397017566      -65.5141227      0.910230769      23.3873085       
1048.48          0.912265522      23.1078104       0.392534204      -65.7970318      0.392534204      -65.7970318      0.912265522      23.1078104       
1060.95          0.914241996      22.8332571       0.388121089      -66.0748436      0.388121089      -66.0748436      0.914241996      22.8332571       
1073.42          0.916162254      22.5635186       0.38377671       -66.3476905      0.38377671       -66.3476905      0.916162254      22.5635186       
1085.89          0.918028272      22.2984691       0.379499586      -66.6157006      0.379499586      -66.6157006      0.918028272      22.2984691       
1098.36          0.919841945      22.0379867       0.375288268      -66.8789981      0.375288268      -66.8789981      0.919841945      22.0379867       
1110.83          0.921605091      21.7819531       0.37114134       -67.137703       0.37114134       -67.137703       0.921605091      21.7819531       
1123.3           0.923319453      21.5302542       0.367057413      -67.3919316      0.367057413      -67.3919316      0.923319453      21.5302542       
1135.77          0.924986705      21.2827791       0.36303513       -67.6417964      0.36303513       -67.6417964      0.924986705      21.2827791       
1148.24          0.926608451      21.0394203       0.359073166      -67.8874066      0.359073166      -67.8874066      0.926608451      21.0394203       
1160.71          0.928186232      20.800074        0.355170225      -68.1288677      0.355170225      -68.1288677      0.928186232      20.800074        
1173.18          0.929721527      20.5646393       0.351325039      -68.366282       0.351325039      -68.366282       0.929721527      20.5646393       
1185.65          0.931215755      20.3330186       0.347536371      -68.5997486      0.347536371      -68.5997486      0.931215755      20.3330186       
1198.12          0.93267028       20.105117        0.343803011      -68.8293633      0.343803011      -68.8293633      0.93267028       20.105117        
1210.59          0.934086412      19.8808429       0.34012378       -69.0552193      0.34012378       -69.0552193      0.934086412      19.8808429       
1223.06          0.93546541       19.6601072       0.336497523      -69.2774067      0.336497523      -69.2774067      0.93546541       19.6601072       
1235.53          0.936808483      19.4428236       0.332923114      -69.4960126      0.332923114      -69.4960126      0.936808483      19.4428236       
1248             0.938116792      19.2289085       0.329399455      -69.711122       0.329399455      -69.711122       0.938116792      19.2289085       
1260.47          0.939391456      19.0182806       0.325925472      -69.9228166      0.325925472      -69.9228166      0.939391456      19.0182806       
1272.94          0.940633549      18.8108613       0.322500119      -70.1311762      0.322500119      -70.1311762      0.940633549      18.8108613       
1285.41          0.941844104      18.6065741       0.319122371      -70.3362777      0.319122371      -70.3362777      0.941844104      18.6065741       
1297.88          0.943024116      18.4053448       0.315791232      -70.5381961      0.315791232      -70.5381961      0.943024116      18.4053448       
1310.35          0.944174541      18.2071016       0.312505728      -70.7370039      0.312505728      -70.7370039      0.944174541      18.2071016       
1322.82          0.945296299      18.0117747       0.309264908      -70.9327713      0.309264908      -70.9327713      0.945296299      18.0117747       
1335.29          0.946390276      17.8192962       0.306067845      -71.1255666      0.306067845      -71.1255666      0.946390276      17.8192962       
1347.76          0.947457326      17.6296003       0.302913634      -71.315456       0.302913634      -71.315456       0.947457326      17.6296003       
1360.23          0.94849827       17.4426231       0.299801392      -71.5025038      0.299801392      -71.5025038      0.94849827       17.4426231       
1372.7           0.949513899      17.2583027       0.296730257      -71.6867723      0.296730257      -71.6867723      0.949513899      17.2583027       
1385.17          0.950504976      17.0765786       0.293699388      -71.8683219      0.293699388      -71.8683219      0.950504976      17.0765786       
1397.64          0.951472235      16.8973924       0.290707965      -72.0472114      0.290707965      -72.0472114      0.951472235      16.8973924       
1410.11          0.952416385      16.7206871       0.287755187      -72.2234978      0.287755187      -72.2234978      0.952416385      16.7206871       
1422.58          0.953338106      16.5464076       0.284840272      -72.3972364      0.284840272      -72.3972364      0.953338106      16.5464076       
1435.05          0.954238059      16.3745          0.281962459      -72.5684808      0.281962459      -72.5684808      0.954238059      16.3745          
1447.52          0.955116876      16.2049122       0.279121003      -72.7372834      0.279121003      -72.7372834      0.955116876      16.2049122       
1459.99          0.955975171      16.0375933       0.276315177      -72.9036946      0.276315177      -72.9036946      0.955975171      16.0375933       
1472.46          0.956813534      15.8724941       0.273544275      -73.0677637      0.273544275      -73.0677637      0.956813534      15.8724941       
1484.93          0.957632534      15.7095666       0.270807602      -73.2295385      0.270807602      -73.2295385      0.957632534      15.7095666       
1497.4           0.958432723      15.548764        0.268104485      -73.3890653      0.268104485      -73.3890653      0.958432723      15.548764        
1509.87          0.95921463       15.3900409       0.265434265      -73.5463893      0.265434265      -73.5463893      0.95921463       15.3900409       
1522.34          0.959978768      15.2333533       0.262796299      -73.7015543      0.262796299      -73.7015543      0.959978768      15.2333533       
1534.81          0.960725633      15.078658        0.260189958      -73.8546028      0.260189958      -73.8546028      0.960725633      15.078658        
1547.28          0.961455702      14.9259134       0.25761463       -74.0055761      0.25761463       -74.0055761      0.961455702      14.9259134       
1559.75          0.962169439      14.7750787       0.255069717      -74.1545145      0.255069717      -74.1545145      0.962169439      14.7750787       
1572.22          0.962867289      14.6261143       0.252554634      -74.301457       0.252554634      -74.301457       0.962867289      14.6261143       
1584.69          0.963549683      14.4789816       0.250068811      -74.4464416      0.250068811      -74.4464416      0.963549683      14.4789816       
