! Coilcraft 0402CS-9N5 Chip Inductor				
! 22 July 2002			
# MHZ S MA R 50
!Freq             MagS11           AngS11           MagS21           AngS21           MagS12           AngS12           MagS22           AngS22
1                0.000769358855   50.8132254       0.999514058      -0.0341833831    0.999514058      -0.0341833831    0.000769358855   50.8132254       
22.44            0.0135255201     80.4156412       0.997837138      -0.765817136     0.997837138      -0.765817136     0.0135255201     80.4156412       
43.88            0.0262663097     82.2247355       0.996786283      -1.49609017      0.996786283      -1.49609017      0.0262663097     82.2247355       
65.32            0.0389833803     82.640603        0.995757361      -2.22518091      0.995757361      -2.22518091      0.0389833803     82.640603        
86.76            0.05167296       82.5989537       0.994664629      -2.95303262      0.994664629      -2.95303262      0.05167296       82.5989537       
108.2            0.0643308256     82.34178         0.993474987      -3.67953021      0.993474987      -3.67953021      0.0643308256     82.34178         
129.64           0.07695247       81.9635516       0.992172014      -4.40453346      0.992172014      -4.40453346      0.07695247       81.9635516       
151.08           0.0895332407     81.509804        0.990746584      -5.12788938      0.990746584      -5.12788938      0.0895332407     81.509804        
172.52           0.102068425      81.0055814       0.989193391      -5.84943815      0.989193391      -5.84943815      0.102068425      81.0055814       
193.96           0.114553303      80.4659789       0.98750939       -6.56901644      0.98750939       -6.56901644      0.114553303      80.4659789       
215.4            0.126983185      79.9007337       0.985692995      -7.28645952      0.985692995      -7.28645952      0.126983185      79.9007337       
236.84           0.139353437      79.316467        0.98374363       -8.00160268      0.98374363       -8.00160268      0.139353437      79.316467        
258.28           0.151659505      78.7178761       0.981661458      -8.71428227      0.981661458      -8.71428227      0.151659505      78.7178761       
279.72           0.16389693       78.108412        0.979447206      -9.42433647      0.979447206      -9.42433647      0.16389693       78.108412        
301.16           0.176061359      77.4906862       0.977102049      -10.1316059      0.977102049      -10.1316059      0.176061359      77.4906862       
322.6            0.188148564      76.866725        0.974627524      -10.8359343      0.974627524      -10.8359343      0.188148564      76.866725        
344.04           0.200154444      76.238136        0.97202547       -11.5371686      0.97202547       -11.5371686      0.200154444      76.238136        
365.48           0.212075041      75.6062191       0.969297983      -12.2351596      0.969297983      -12.2351596      0.212075041      75.6062191       
386.92           0.223906541      74.9720428       0.966447379      -12.9297621      0.966447379      -12.9297621      0.223906541      74.9720428       
408.36           0.235645285      74.3364992       0.963476161      -13.6208354      0.963476161      -13.6208354      0.235645285      74.3364992       
429.8            0.247287773      73.7003425       0.960387         -14.3082431      0.960387         -14.3082431      0.247287773      73.7003425       
451.24           0.258830665      73.0642179       0.957182706      -14.9918538      0.957182706      -14.9918538      0.258830665      73.0642179       
472.68           0.270270791      72.428683        0.953866216      -15.6715407      0.953866216      -15.6715407      0.270270791      72.428683        
494.12           0.281605148      71.794224        0.950440572      -16.3471823      0.950440572      -16.3471823      0.281605148      71.794224        
515.56           0.292830906      71.1612681       0.946908912      -17.0186621      0.946908912      -17.0186621      0.292830906      71.1612681       
537              0.303945407      70.5301934       0.943274448      -17.6858689      0.943274448      -17.6858689      0.303945407      70.5301934       
558.44           0.314946165      69.9013363       0.93954046       -18.3486968      0.93954046       -18.3486968      0.314946165      69.9013363       
579.88           0.325830871      69.2749975       0.935710284      -19.0070451      0.935710284      -19.0070451      0.325830871      69.2749975       
601.32           0.336597384      68.6514474       0.931787293      -19.6608188      0.931787293      -19.6608188      0.336597384      68.6514474       
622.76           0.347243739      68.0309293       0.927774899      -20.309928       0.927774899      -20.309928       0.347243739      68.0309293       
644.2            0.357768138      67.4136632       0.923676531      -20.9542883      0.923676531      -20.9542883      0.357768138      67.4136632       
665.64           0.368168954      66.7998481       0.919495635      -21.5938206      0.919495635      -21.5938206      0.368168954      66.7998481       
687.08           0.378444723      66.1896647       0.915235662      -22.2284511      0.915235662      -22.2284511      0.378444723      66.1896647       
708.52           0.388594145      65.5832766       0.910900057      -22.8581114      0.910900057      -22.8581114      0.388594145      65.5832766       
729.96           0.398616077      64.9808324       0.906492257      -23.4827384      0.906492257      -23.4827384      0.398616077      64.9808324       
751.4            0.408509534      64.3824672       0.902015682      -24.1022738      0.902015682      -24.1022738      0.408509534      64.3824672       
772.84           0.418273683      63.7883029       0.897473725      -24.7166647      0.897473725      -24.7166647      0.418273683      63.7883029       
794.28           0.427907835      63.1984504       0.892869751      -25.3258629      0.892869751      -25.3258629      0.427907835      63.1984504       
815.72           0.437411448      62.6130096       0.888207087      -25.9298255      0.888207087      -25.9298255      0.437411448      62.6130096       
837.16           0.446784115      62.0320703       0.883489022      -26.5285138      0.883489022      -26.5285138      0.446784115      62.0320703       
858.6            0.456025565      61.4557134       0.878718796      -27.1218942      0.878718796      -27.1218942      0.456025565      61.4557134       
880.04           0.465135654      60.884011        0.8738996        -27.7099375      0.8738996        -27.7099375      0.465135654      60.884011        
901.48           0.474114361      60.3170272       0.86903457       -28.2926188      0.86903457       -28.2926188      0.474114361      60.3170272       
922.92           0.482961786      59.7548186       0.864126786      -28.8699176      0.864126786      -28.8699176      0.482961786      59.7548186       
944.36           0.491678138      59.1974348       0.859179266      -29.4418176      0.859179266      -29.4418176      0.491678138      59.1974348       
965.8            0.500263739      58.6449187       0.854194963      -30.0083062      0.854194963      -30.0083062      0.500263739      58.6449187       
987.24           0.50871901       58.0973068       0.849176764      -30.5693751      0.849176764      -30.5693751      0.50871901       58.0973068       
1008.68          0.517044469      57.5546299       0.844127489      -31.1250195      0.844127489      -31.1250195      0.517044469      57.5546299       
1030.12          0.52524073       57.0169135       0.839049886      -31.6752381      0.839049886      -31.6752381      0.52524073       57.0169135       
1051.56          0.533308491      56.4841774       0.833946631      -32.2200332      0.833946631      -32.2200332      0.533308491      56.4841774       
1073             0.541248533      55.9564369       0.828820329      -32.7594103      0.828820329      -32.7594103      0.541248533      55.9564369       
1094.44          0.549061714      55.4337026       0.823673509      -33.2933781      0.823673509      -33.2933781      0.549061714      55.4337026       
1115.88          0.556748963      54.9159805       0.818508625      -33.8219484      0.818508625      -33.8219484      0.556748963      54.9159805       
1137.32          0.564311279      54.4032729       0.813328056      -34.3451357      0.813328056      -34.3451357      0.564311279      54.4032729       
1158.76          0.571749721      53.895578        0.808134105      -34.8629573      0.808134105      -34.8629573      0.571749721      53.895578        
1180.2           0.579065408      53.3928905       0.802929001      -35.3754333      0.802929001      -35.3754333      0.579065408      53.3928905       
1201.64          0.586259511      52.8952014       0.797714896      -35.8825859      0.797714896      -35.8825859      0.586259511      52.8952014       
1223.08          0.593333251      52.402499        0.792493866      -36.3844399      0.792493866      -36.3844399      0.593333251      52.402499        
1244.52          0.600287894      51.9147682       0.787267913      -36.8810221      0.787267913      -36.8810221      0.600287894      51.9147682       
1265.96          0.607124748      51.4319912       0.782038967      -37.3723617      0.782038967      -37.3723617      0.607124748      51.4319912       
1287.4           0.613845157      50.9541476       0.776808881      -37.8584895      0.776808881      -37.8584895      0.613845157      50.9541476       
1308.84          0.620450498      50.4812146       0.771579438      -38.3394382      0.771579438      -38.3394382      0.620450498      50.4812146       
1330.28          0.626942181      50.0131669       0.76635235       -38.8152423      0.76635235       -38.8152423      0.626942181      50.0131669       
1351.72          0.633321639      49.5499773       0.761129256      -39.2859379      0.761129256      -39.2859379      0.633321639      49.5499773       
1373.16          0.63959033       49.0916165       0.755911728      -39.7515626      0.755911728      -39.7515626      0.63959033       49.0916165       
1394.6           0.645749731      48.6380532       0.750701269      -40.2121552      0.750701269      -40.2121552      0.645749731      48.6380532       
1416.04          0.651801339      48.1892547       0.745499319      -40.6677558      0.745499319      -40.6677558      0.651801339      48.1892547       
1437.48          0.657746662      47.7451864       0.740307248      -41.118406       0.740307248      -41.118406       0.657746662      47.7451864       
1458.92          0.663587221      47.3058126       0.735126365      -41.564148       0.735126365      -41.564148       0.663587221      47.3058126       
1480.36          0.669324546      46.8710959       0.729957917      -42.0050254      0.729957917      -42.0050254      0.669324546      46.8710959       
1501.8           0.674960175      46.4409978       0.724803091      -42.4410823      0.724803091      -42.4410823      0.674960175      46.4409978       
1523.24          0.680495649      46.0154788       0.719663013      -42.872364       0.719663013      -42.872364       0.680495649      46.0154788       
1544.68          0.685932512      45.5944982       0.714538754      -43.2989161      0.714538754      -43.2989161      0.685932512      45.5944982       
1566.12          0.691272308      45.1780146       0.709431329      -43.7207853      0.709431329      -43.7207853      0.691272308      45.1780146       
1587.56          0.696516581      44.7659855       0.704341696      -44.1380184      0.704341696      -44.1380184      0.696516581      44.7659855       
1609             0.701666868      44.3583677       0.699270766      -44.5506632      0.699270766      -44.5506632      0.701666868      44.3583677       
1630.44          0.706724706      43.9551176       0.694219393      -44.9587674      0.694219393      -44.9587674      0.706724706      43.9551176       
1651.88          0.711691623      43.5561908       0.689188387      -45.3623795      0.689188387      -45.3623795      0.711691623      43.5561908       
1673.32          0.71656914       43.1615424       0.684178507      -45.7615481      0.684178507      -45.7615481      0.71656914       43.1615424       
1694.76          0.721358767      42.771127        0.679190468      -46.1563221      0.679190468      -46.1563221      0.721358767      42.771127        
1716.2           0.726062007      42.384899        0.67422494       -46.5467504      0.67422494       -46.5467504      0.726062007      42.384899        
1737.64          0.730680349      42.0028124       0.66928255       -46.9328824      0.66928255       -46.9328824      0.730680349      42.0028124       
1759.08          0.735215272      41.624821        0.664363883      -47.3147672      0.664363883      -47.3147672      0.735215272      41.624821        
1780.52          0.739668238      41.2508782       0.659469485      -47.6924542      0.659469485      -47.6924542      0.739668238      41.2508782       
1801.96          0.744040699      40.8809376       0.654599865      -48.0659928      0.654599865      -48.0659928      0.744040699      40.8809376       
1823.4           0.748334088      40.5149525       0.649755493      -48.435432       0.649755493      -48.435432       0.748334088      40.5149525       
1844.84          0.752549827      40.152876        0.644936805      -48.8008212      0.644936805      -48.8008212      0.752549827      40.152876        
1866.28          0.756689317      39.7946615       0.640144201      -49.1622094      0.640144201      -49.1622094      0.756689317      39.7946615       
1887.72          0.760753945      39.4402624       0.635378051      -49.5196454      0.635378051      -49.5196454      0.760753945      39.4402624       
1909.16          0.76474508       39.0896319       0.630638691      -49.873178       0.630638691      -49.873178       0.76474508       39.0896319       
1930.6           0.768664073      38.7427236       0.625926431      -50.2228555      0.625926431      -50.2228555      0.768664073      38.7427236       
1952.04          0.772512258      38.3994911       0.621241548      -50.5687262      0.621241548      -50.5687262      0.772512258      38.3994911       
1973.48          0.776290948      38.0598883       0.616584293      -50.910838       0.616584293      -50.910838       0.776290948      38.0598883       
1994.92          0.780001439      37.7238692       0.611954891      -51.2492387      0.611954891      -51.2492387      0.780001439      37.7238692       
2016.36          0.783645008      37.391388        0.607353543      -51.5839753      0.607353543      -51.5839753      0.783645008      37.391388        
2037.8           0.787222913      37.0623992       0.602780423      -51.915095       0.602780423      -51.915095       0.787222913      37.0623992       
2059.24          0.79073639       36.7368577       0.598235684      -52.2426443      0.598235684      -52.2426443      0.79073639       36.7368577       
2080.68          0.79418666       36.4147186       0.593719458      -52.5666693      0.593719458      -52.5666693      0.79418666       36.4147186       
2102.12          0.797574921      36.0959372       0.589231854      -52.887216       0.589231854      -52.887216       0.797574921      36.0959372       
2123.56          0.800902353      35.7804694       0.584772963      -53.2043296      0.584772963      -53.2043296      0.800902353      35.7804694       
2145             0.804170114      35.4682712       0.580342855      -53.5180552      0.580342855      -53.5180552      0.804170114      35.4682712       
2166.44          0.807379347      35.1592992       0.575941585      -53.8284373      0.575941585      -53.8284373      0.807379347      35.1592992       
2187.88          0.81053117       34.8535102       0.571569187      -54.1355198      0.571569187      -54.1355198      0.81053117       34.8535102       
2209.32          0.813626685      34.5508615       0.567225682      -54.4393464      0.567225682      -54.4393464      0.813626685      34.5508615       
2230.76          0.816666974      34.2513107       0.562911074      -54.7399602      0.562911074      -54.7399602      0.816666974      34.2513107       
2252.2           0.8196531        33.9548161       0.558625354      -55.0374039      0.558625354      -55.0374039      0.8196531        33.9548161       
2273.64          0.822586105      33.661336        0.554368496      -55.3317196      0.554368496      -55.3317196      0.822586105      33.661336        
2295.08          0.825467013      33.3708295       0.550140465      -55.622949       0.550140465      -55.622949       0.825467013      33.3708295       
2316.52          0.82829683       33.083256        0.54594121       -55.9111331      0.54594121       -55.9111331      0.82829683       33.083256        
2337.96          0.831076541      32.7985753       0.541770669      -56.1963127      0.541770669      -56.1963127      0.831076542      32.7985753       
2359.4           0.833807116      32.5167478       0.537628772      -56.478528       0.537628772      -56.478528       0.833807116      32.5167478       
2380.84          0.836489504      32.2377343       0.533515434      -56.7578184      0.533515434      -56.7578184      0.836489504      32.2377343       
2402.28          0.839124635      31.9614959       0.529430563      -57.0342232      0.529430563      -57.0342232      0.839124635      31.9614959       
2423.72          0.841713424      31.6879944       0.525374058      -57.307781       0.525374058      -57.307781       0.841713424      31.6879944       
2445.16          0.844256765      31.417192        0.521345806      -57.5785298      0.521345806      -57.5785298      0.844256765      31.417192        
2466.6           0.846755538      31.1490513       0.517345691      -57.8465072      0.517345691      -57.8465072      0.846755538      31.1490513       
2488.04          0.849210604      30.8835354       0.513373584      -58.1117503      0.513373584      -58.1117503      0.849210604      30.8835354       
2509.48          0.851622806      30.6206079       0.509429352      -58.3742956      0.509429352      -58.3742956      0.851622806      30.6206079       
2530.92          0.853992972      30.3602329       0.505512855      -58.634179       0.505512855      -58.634179       0.853992972      30.3602329       
2552.36          0.856321912      30.1023749       0.501623946      -58.8914362      0.501623946      -58.8914362      0.856321912      30.1023749       
2573.8           0.858610421      29.846999        0.497762472      -59.1461021      0.497762472      -59.1461021      0.858610421      29.846999        
2595.24          0.860859278      29.5940706       0.493928275      -59.3982111      0.493928275      -59.3982111      0.860859278      29.5940706       
2616.68          0.863069245      29.3435557       0.490121193      -59.6477972      0.490121193      -59.6477972      0.863069245      29.3435557       
2638.12          0.865241069      29.0954206       0.486341056      -59.8948939      0.486341056      -59.8948939      0.865241069      29.0954206       
2659.56          0.867375483      28.8496323       0.482587693      -60.1395342      0.482587693      -60.1395342      0.867375483      28.8496323       
2681             0.869473204      28.6061581       0.478860927      -60.3817504      0.478860927      -60.3817504      0.869473204      28.6061581       
2702.44          0.871534934      28.3649658       0.475160579      -60.6215745      0.475160579      -60.6215745      0.871534934      28.3649658       
2723.88          0.873561361      28.1260238       0.471486466      -60.8590381      0.471486466      -60.8590381      0.873561361      28.1260238       
