! Coilcraft 0402CS-23N Chip Inductor				
! 29 May 2002			
# MHZ S MA R 50
!Freq             MagS11           AngS11           MagS21           AngS21           MagS12           AngS12           MagS22           AngS22
1                0.00168379727    58.9558342       0.999132709      -0.0827282191    0.999132709      -0.0827282191    0.00168379727    58.9558342       
17.71            0.0257085144     81.271564        0.996422763      -1.46131556      0.996422763      -1.46131556      0.0257085144     81.271564        
34.42            0.0496620146     81.9925622       0.994298906      -2.83499357      0.994298906      -2.83499357      0.0496620146     81.9925622       
51.13            0.0734967502     81.5690426       0.991892106      -4.20336515      0.991892106      -4.20336515      0.0734967502     81.5690426       
67.84            0.0971801338     80.7731564       0.98908015       -5.5653937       0.98908015       -5.5653937       0.0971801338     80.7731564       
84.55            0.120678771      79.8057332       0.985822701      -6.91990711      0.985822701      -6.91990711      0.120678771      79.8057332       
101.26           0.143959572      78.7458672       0.982106792      -8.26570003      0.982106792      -8.26570003      0.143959572      78.7458672       
117.97           0.166990445      77.6322285       0.977932413      -9.60157583      0.977932413      -9.60157583      0.166990445      77.6322285       
134.68           0.189740748      76.4865279       0.97330704       -10.9263696      0.97330704       -10.9263696      0.189740748      76.4865279       
151.39           0.212181605      75.3222107       0.968243061      -12.2389626      0.968243061      -12.2389626      0.212181605      75.3222107       
168.1            0.234286143      74.1482405       0.962756339      -13.538293       0.962756339      -13.538293       0.234286143      74.1482405       
184.81           0.256029659      72.970944        0.956865309      -14.8233627      0.956865309      -14.8233627      0.256029659      72.970944        
201.52           0.277389743      71.7949906       0.950590336      -16.0932435      0.950590336      -16.0932435      0.277389743      71.7949906       
218.23           0.298346353      70.6239494       0.943953226      -17.3470803      0.943953226      -17.3470803      0.298346353      70.6239494       
234.94           0.31888185       69.4606224       0.936976827      -18.584094       0.936976827      -18.584094       0.31888185       69.4606224       
251.65           0.338981001      68.3072541       0.929684689      -19.8035828      0.929684689      -19.8035828      0.338981001      68.3072541       
268.36           0.358630949      67.1656684       0.922100776      -21.0049226      0.922100776      -21.0049226      0.358630949      67.1656684       
285.07           0.377821162      66.0373611       0.914249205      -22.1875664      0.914249205      -22.1875664      0.377821162      66.0373611       
301.78           0.39654335       64.9235651       0.906154028      -23.3510432      0.906154028      -23.3510432      0.39654335       64.9235651       
318.49           0.414791371      63.8252969       0.897839029      -24.4949557      0.897839029      -24.4949557      0.414791371      63.8252969       
335.2            0.432561118      62.7433916       0.889327561      -25.6189783      0.889327561      -25.6189783      0.432561118      62.7433916       
351.91           0.449850394      61.67853         0.880642396      -26.7228539      0.880642396      -26.7228539      0.449850394      61.67853         
368.62           0.46665878       60.6312594       0.871805605      -27.8063904      0.871805605      -27.8063904      0.46665878       60.6312594       
385.33           0.482987497      59.6020106       0.862838454      -28.8694575      0.862838454      -28.8694575      0.482987497      59.6020106       
402.04           0.498839263      58.5911125       0.853761327      -29.9119826      0.853761327      -29.9119826      0.498839263      58.5911125       
418.75           0.514218152      57.5988038       0.84459366       -30.9339469      0.84459366       -30.9339469      0.514218152      57.5988038       
435.46           0.529129453      56.6252433       0.835353897      -31.9353814      0.835353897      -31.9353814      0.529129453      56.6252433       
452.17           0.543579535      55.6705192       0.82605946       -32.9163632      0.82605946       -32.9163632      0.543579535      55.6705192       
468.88           0.557575713      54.7346571       0.81672673       -33.8770109      0.81672673       -33.8770109      0.557575713      54.7346571       
485.59           0.571126122      53.8176267       0.807371043      -34.8174813      0.807371043      -34.8174813      0.571126122      53.8176267       
502.3            0.584239598      52.9193489       0.798006697      -35.7379651      0.798006697      -35.7379651      0.584239598      52.9193489       
519.01           0.596925563      52.0397013       0.788646964      -36.6386838      0.788646964      -36.6386838      0.596925563      52.0397013       
535.72           0.609193926      51.1785236       0.779304114      -37.5198857      0.779304114      -37.5198857      0.609193926      51.1785236       
552.43           0.621054982      50.3356221       0.769989442      -38.3818428      0.769989442      -38.3818428      0.621054982      50.3356221       
569.14           0.632519323      49.5107746       0.7607133        -39.2248478      0.7607133        -39.2248478      0.632519323      49.5107746       
585.85           0.643597763      48.7037341       0.751485138      -40.0492111      0.751485138      -40.0492111      0.643597763      48.7037341       
602.56           0.654301258      47.9142323       0.742313537      -40.8552578      0.742313537      -40.8552578      0.654301258      47.9142323       
619.27           0.664640849      47.141983        0.73320626       -41.6433258      0.73320626       -41.6433258      0.664640849      47.141983        
635.98           0.674627595      46.3866853       0.724170288      -42.4137627      0.724170288      -42.4137627      0.674627595      46.3866853       
652.69           0.68427253       45.6480258       0.715211866      -43.1669244      0.715211866      -43.1669244      0.68427253       45.6480258       
669.4            0.693586613      44.9256815       0.706336548      -43.9031725      0.706336548      -43.9031725      0.693586613      44.9256815       
686.11           0.702580689      44.2193217       0.69754924       -44.6228732      0.69754924       -44.6228732      0.702580689      44.2193217       
702.82           0.711265458      43.5286102       0.688854245      -45.326395       0.688854245      -45.326395       0.711265458      43.5286102       
719.53           0.719651446      42.8532068       0.680255301      -46.014108       0.680255301      -46.014108       0.719651446      42.8532068       
736.24           0.727748978      42.1927688       0.671755622      -46.6863819      0.671755622      -46.6863819      0.727748978      42.1927688       
752.95           0.735568162      41.5469528       0.663357942      -47.3435854      0.663357942      -47.3435854      0.735568162      41.5469528       
769.66           0.743118869      40.9154156       0.655064546      -47.9860848      0.655064546      -47.9860848      0.743118869      40.9154156       
786.37           0.750410724      40.2978151       0.646877308      -48.6142437      0.646877308      -48.6142437      0.750410724      40.2978151       
803.08           0.757453092      39.6938119       0.638797728      -49.2284213      0.638797728      -49.2284213      0.757453092      39.6938119       
819.79           0.764255075      39.1030692       0.630826958      -49.8289726      0.630826958      -49.8289726      0.764255075      39.1030692       
836.5            0.770825504      38.5252545       0.622965836      -50.4162474      0.622965836      -50.4162474      0.770825504      38.5252545       
853.21           0.777172936      37.9600394       0.615214913      -50.9905898      0.615214913      -50.9905898      0.777172936      37.9600394       
869.92           0.783305655      37.4071005       0.60757448       -51.5523381      0.60757448       -51.5523381      0.783305655      37.4071005       
886.63           0.789231672      36.8661198       0.600044593      -52.1018238      0.600044593      -52.1018238      0.789231672      36.8661198       
903.34           0.794958725      36.3367849       0.592625092      -52.6393723      0.592625092      -52.6393723      0.794958725      36.3367849       
920.05           0.800494284      35.8187897       0.585315631      -53.1653017      0.585315631      -53.1653017      0.800494284      35.8187897       
936.76           0.805845553      35.3118341       0.578115688      -53.6799232      0.578115688      -53.6799232      0.805845553      35.3118341       
953.47           0.811019475      34.8156245       0.571024588      -54.1835409      0.571024588      -54.1835409      0.811019475      34.8156245       
970.18           0.81602274       34.3298739       0.564041522      -54.6764515      0.564041522      -54.6764515      0.81602274       34.3298739       
986.89           0.820861785      33.8543021       0.557165558      -55.1589447      0.557165558      -55.1589447      0.820861785      33.8543021       
1003.6           0.825542806      33.3886355       0.550395658      -55.6313026      0.550395658      -55.6313026      0.825542806      33.3886355       
1020.31          0.830071763      32.9326073       0.543730691      -56.0938001      0.543730691      -56.0938001      0.830071763      32.9326073       
1037.02          0.834454384      32.4859575       0.537169444      -56.5467049      0.537169444      -56.5467049      0.834454384      32.4859575       
1053.73          0.838696175      32.0484328       0.530710634      -56.9902774      0.530710634      -56.9902774      0.838696175      32.0484328       
1070.44          0.842802426      31.6197867       0.524352917      -57.4247709      0.524352917      -57.4247709      0.842802426      31.6197867       
1087.15          0.846778218      31.1997793       0.518094898      -57.8504317      0.518094898      -57.8504317      0.846778218      31.1997793       
1103.86          0.850628431      30.7881771       0.511935139      -58.2674992      0.511935139      -58.2674992      0.850628431      30.7881771       
1120.57          0.85435775       30.3847534       0.505872168      -58.6762059      0.505872168      -58.6762059      0.85435775       30.3847534       
1137.28          0.857970672      29.9892876       0.499904483      -59.0767777      0.499904483      -59.0767777      0.857970672      29.9892876       
1153.99          0.861471514      29.6015654       0.49403056       -59.4694339      0.49403056       -59.4694339      0.861471514      29.6015654       
1170.7           0.864864418      29.2213788       0.48824886       -59.8543874      0.48824886       -59.8543874      0.864864418      29.2213788       
1187.41          0.86815336       28.8485256       0.482557829      -60.2318447      0.482557829      -60.2318447      0.86815336       28.8485256       
1204.12          0.871342154      28.4828096       0.476955911      -60.6020064      0.476955911      -60.6020064      0.871342154      28.4828096       
1220.83          0.874434462      28.1240403       0.471441541      -60.965067       0.471441541      -60.965067       0.874434462      28.1240403       
1237.54          0.877433795      27.7720329       0.466013161      -61.3212151      0.466013161      -61.3212151      0.877433795      27.7720329       
1254.25          0.880343523      27.4266079       0.460669213      -61.6706339      0.460669213      -61.6706339      0.880343523      27.4266079       
1270.96          0.88316688       27.0875912       0.455408146      -62.0135007      0.455408146      -62.0135007      0.88316688       27.0875912       
1287.67          0.885906969      26.7548141       0.450228421      -62.3499877      0.450228421      -62.3499877      0.885906969      26.7548141       
1304.38          0.888566766      26.4281125       0.445128509      -62.6802618      0.445128509      -62.6802618      0.888566766      26.4281125       
1321.09          0.89114913       26.1073276       0.440106895      -63.0044848      0.440106895      -63.0044848      0.89114913       26.1073276       
1337.8           0.8936568        25.7923052       0.435162079      -63.3228138      0.435162079      -63.3228138      0.8936568        25.7923052       
1354.51          0.896092411      25.4828957       0.43029258       -63.6354007      0.43029258       -63.6354007      0.896092411      25.4828957       
1371.22          0.898458486      25.1789541       0.425496934      -63.9423931      0.425496934      -63.9423931      0.898458486      25.1789541       
1387.93          0.900757451      24.8803397       0.420773695      -64.2439341      0.420773695      -64.2439341      0.900757451      24.8803397       
1404.64          0.902991633      24.586916        0.416121442      -64.5401623      0.416121442      -64.5401623      0.902991633      24.586916        
1421.35          0.905163268      24.2985506       0.411538771      -64.8312121      0.411538771      -64.8312121      0.905163268      24.2985506       
1438.06          0.907274501      24.0151152       0.407024302      -65.117214       0.407024302      -65.117214       0.907274501      24.0151152       
1454.77          0.909327394      23.7364851       0.402576677      -65.3982942      0.402576677      -65.3982942      0.909327394      23.7364851       
1471.48          0.911323926      23.4625397       0.398194561      -65.6745754      0.398194561      -65.6745754      0.911323926      23.4625397       
1488.19          0.913266         23.1931617       0.393876644      -65.9461764      0.393876644      -65.9461764      0.913266         23.1931617       
1504.9           0.915155442      22.9282374       0.389621637      -66.2132124      0.389621637      -66.2132124      0.915155442      22.9282374       
1521.61          0.916994008      22.6676564       0.385428276      -66.4757953      0.385428276      -66.4757953      0.916994008      22.6676564       
1538.32          0.918783386      22.4113119       0.381295321      -66.7340335      0.381295321      -66.7340335      0.918783386      22.4113119       
1555.03          0.920525198      22.1590999       0.377221556      -66.988032       0.377221556      -66.988032       0.920525198      22.1590999       
1571.74          0.922221002      21.9109196       0.373205789      -67.237893       0.373205789      -67.237893       0.922221002      21.9109196       
1588.45          0.923872299      21.6666733       0.36924685       -67.4837152      0.36924685       -67.4837152      0.923872299      21.6666733       
1605.16          0.92548053       21.426266        0.365343595      -67.7255948      0.365343595      -67.7255948      0.92548053       21.426266        
1621.87          0.927047082      21.1896056       0.361494903      -67.9636249      0.361494903      -67.9636249      0.927047082      21.1896056       
1638.58          0.92857329       20.9566027       0.357699675      -68.1978957      0.357699675      -68.1978957      0.92857329       20.9566027       
1655.29          0.930060437      20.7271704       0.353956835      -68.4284951      0.353956835      -68.4284951      0.930060437      20.7271704       
1672             0.931509759      20.5012244       0.350265333      -68.6555082      0.350265333      -68.6555082      0.931509759      20.5012244       
1688.71          0.932922444      20.2786829       0.346624137      -68.8790174      0.346624137      -68.8790174      0.932922444      20.2786829       
1705.42          0.934299639      20.0594663       0.34303224       -69.0991031      0.34303224       -69.0991031      0.934299639      20.0594663       
1722.13          0.935642444      19.8434975       0.339488656      -69.3158431      0.339488656      -69.3158431      0.935642444      19.8434975       
1738.84          0.936951923      19.6307014       0.335992421      -69.5293129      0.335992421      -69.5293129      0.936951923      19.6307014       
1755.55          0.938229097      19.4210052       0.332542591      -69.7395859      0.332542591      -69.7395859      0.938229097      19.4210052       
1772.26          0.939474951      19.214338        0.329138244      -69.9467333      0.329138244      -69.9467333      0.939474951      19.214338        
1788.97          0.940690435      19.0106312       0.325778479      -70.1508245      0.325778479      -70.1508245      0.940690435      19.0106312       
1805.68          0.941876464      18.8098179       0.322462413      -70.3519265      0.322462413      -70.3519265      0.941876464      18.8098179       
1822.39          0.94303392       18.611833        0.319189184      -70.5501046      0.319189184      -70.5501046      0.94303392       18.611833        
1839.1           0.944163652      18.4166134       0.31595795       -70.7454224      0.31595795       -70.7454224      0.944163652      18.4166134       
1855.81          0.945266482      18.2240978       0.312767886      -70.9379413      0.312767886      -70.9379413      0.945266482      18.2240978       
1872.52          0.946343198      18.0342265       0.309618187      -71.1277213      0.309618187      -71.1277213      0.946343198      18.0342265       
1889.23          0.947394565      17.8469413       0.306508065      -71.3148206      0.306508065      -71.3148206      0.947394566      17.8469413       
1905.94          0.948421319      17.6621859       0.303436752      -71.4992956      0.303436752      -71.4992956      0.948421319      17.6621859       
1922.65          0.949424169      17.4799054       0.300403495      -71.6812014      0.300403495      -71.6812014      0.949424169      17.4799054       
1939.36          0.950403802      17.3000463       0.297407558      -71.8605913      0.297407558      -71.8605913      0.950403802      17.3000463       
1956.07          0.951360878      17.1225567       0.294448225      -72.0375172      0.294448225      -72.0375172      0.951360878      17.1225567       
1972.78          0.952296038      16.947386        0.291524791      -72.2120297      0.291524791      -72.2120297      0.952296038      16.947386        
1989.49          0.953209897      16.774485        0.288636572      -72.3841778      0.288636572      -72.3841778      0.953209897      16.774485        
2006.2           0.954103053      16.6038059       0.285782896      -72.5540093      0.285782896      -72.5540093      0.954103053      16.6038059       
2022.91          0.954976081      16.435302        0.282963107      -72.7215706      0.282963107      -72.7215706      0.954976081      16.435302        
2039.62          0.955829537      16.268928        0.280176565      -72.8869067      0.280176565      -72.8869067      0.955829537      16.268928        
2056.33          0.956663959      16.1046396       0.277422644      -73.0500617      0.277422644      -73.0500617      0.956663959      16.1046396       
2073.04          0.957479867      15.942394        0.274700732      -73.2110782      0.274700732      -73.2110782      0.957479867      15.942394        
2089.75          0.958277764      15.7821491       0.272010229      -73.3699978      0.272010229      -73.3699978      0.958277764      15.7821491       
2106.46          0.959058134      15.6238641       0.269350551      -73.5268608      0.269350551      -73.5268608      0.959058134      15.6238641       
2123.17          0.959821449      15.4674995       0.266721127      -73.6817066      0.266721127      -73.6817066      0.959821449      15.4674995       
