! Coilcraft 0402CS-47N Chip Inductor				
! 29 May 2002			
# MHZ S MA R 50
!Freq             MagS11           AngS11           MagS21           AngS21           MagS12           AngS12           MagS22           AngS22
1                0.00333460145    61.9854071       0.99843809       -0.168935978     0.99843809       -0.168935978     0.00333460145    61.9854071       
12.97            0.0384258053     80.0834781       0.994103457      -2.18213481      0.994103457      -2.18213481      0.0384258053     80.0834781       
24.94            0.0732784487     80.271027        0.990254211      -4.18260341      0.990254211      -4.18260341      0.0732784487     80.271027        
36.91            0.107785177      79.2859888       0.985668113      -6.1681154       0.985668113      -6.1681154       0.107785177      79.2859888       
48.88            0.141844488      77.9218222       0.980183164      -8.13515948      0.980183164      -8.13515948      0.141844488      77.9218222       
60.85            0.175356847      76.3904391       0.973768753      -10.0800686      0.973768753      -10.0800686      0.175356847      76.3904391       
72.82            0.208228802      74.7773179       0.966441652      -11.9992777      0.966441652      -11.9992777      0.208228802      74.7773179       
84.79            0.240375303      73.125411        0.958242689      -13.8894401      0.958242689      -13.8894401      0.240375303      73.125411        
96.76            0.271721107      71.4595686       0.949227048      -15.7474934      0.949227048      -15.7474934      0.271721107      71.4595686       
108.73           0.302201601      69.7956331       0.939459014      -17.5706994      0.939459014      -17.5706994      0.302201601      69.7956331       
120.7            0.331763166      68.1444113       0.929008535      -19.356667       0.929008535      -19.356667       0.331763166      68.1444113       
132.67           0.360363186      66.5136216       0.917948691      -21.1033615      0.917948691      -21.1033615      0.360363186      66.5136216       
144.64           0.387969745      64.9089374       0.906353711      -22.8091051      0.906353711      -22.8091051      0.387969745      64.9089374       
156.61           0.414561096      63.3345901       0.894297375      -24.4725674      0.894297375      -24.4725674      0.414561096      63.3345901       
168.58           0.440124952      61.7937417       0.88185173       -26.0927509      0.88185173       -26.0927509      0.440124952      61.7937417       
180.55           0.464657638      60.2887287       0.869086083      -27.6689708      0.869086083      -27.6689708      0.464657638      60.2887287       
192.52           0.488163179      58.8212321       0.856066218      -29.2008315      0.856066218      -29.2008315      0.488163179      58.8212321       
204.49           0.510652341      57.3924015       0.842853836      -30.6882006      0.842853836      -30.6882006      0.510652341      57.3924015       
216.46           0.532141678      56.0029498       0.829506174      -32.1311821      0.829506174      -32.1311821      0.532141678      56.0029498       
228.43           0.552652603      54.6532286       0.816075787      -33.5300889      0.816075787      -33.5300889      0.552652603      54.6532286       
240.4            0.572210509      53.34329         0.802610463      -34.8854158      0.802610463      -34.8854158      0.572210509      53.34329         
252.37           0.590843953      52.0729378       0.789153246      -36.1978136      0.789153246      -36.1978136      0.590843953      52.0729378       
264.34           0.608583912      50.8417711       0.775742555      -37.4680649      0.775742555      -37.4680649      0.608583912      50.8417711       
276.31           0.625463127      49.6492215       0.762412358      -38.6970607      0.762412358      -38.6970607      0.625463127      49.6492215       
288.28           0.64151551       48.4945853       0.749192408      -39.8857803      0.749192408      -39.8857803      0.64151551       48.4945853       
300.25           0.656775647      47.3770507       0.736108505      -41.0352716      0.736108505      -41.0352716      0.656775647      47.3770507       
312.22           0.671278364      46.2957216       0.723182783      -42.1466349      0.723182783      -42.1466349      0.671278364      46.2957216       
324.19           0.685058365      45.2496383       0.710434001      -43.2210075      0.710434001      -43.2210075      0.685058365      45.2496383       
336.16           0.698149938      44.2377943       0.697877843      -44.2595508      0.697877843      -44.2595508      0.698149938      44.2377943       
348.13           0.71058671       43.2591513       0.685527208      -45.2634392      0.685527208      -45.2634392      0.71058671       43.2591513       
360.1            0.722401456      42.312652        0.673392491      -46.2338501      0.673392491      -46.2338501      0.722401456      42.312652        
372.07           0.733625958      41.3972302       0.66148185       -47.171956       0.66148185       -47.171956       0.733625958      41.3972302       
384.04           0.744290889      40.5118201       0.649801453      -48.0789175      0.649801453      -48.0789175      0.744290889      40.5118201       
396.01           0.754425741      39.6553628       0.638355719      -48.9558777      0.638355719      -48.9558777      0.754425741      39.6553628       
407.98           0.764058776      38.826813        0.627147525      -49.8039577      0.627147525      -49.8039577      0.764058776      38.826813        
419.95           0.773216994      38.0251434       0.616178409      -50.6242528      0.616178409      -50.6242528      0.773216994      38.0251434       
431.92           0.781926129      37.2493485       0.605448741      -51.4178297      0.605448741      -51.4178297      0.781926129      37.2493485       
443.89           0.790210657      36.4984475       0.594957894      -52.1857247      0.594957894      -52.1857247      0.790210657      36.4984475       
455.86           0.798093807      35.771487        0.584704379      -52.9289414      0.584704379      -52.9289414      0.798093807      35.771487        
467.83           0.805597599      35.067542        0.574685981      -53.6484504      0.574685981      -53.6484504      0.805597599      35.067542        
479.8            0.81274287       34.3857175       0.564899873      -54.3451884      0.564899873      -54.3451884      0.81274287       34.3857175       
491.77           0.81954932       33.7251489       0.555342716      -55.020058       0.555342716      -55.020058       0.81954932       33.7251489       
503.74           0.826035552      33.0850025       0.54601075       -55.6739275      0.54601075       -55.6739275      0.826035552      33.0850025       
515.71           0.832219122      32.4644755       0.536899875      -56.3076317      0.536899875      -56.3076317      0.832219122      32.4644755       
527.68           0.838116584      31.8627959       0.528005717      -56.9219719      0.528005717      -56.9219719      0.838116584      31.8627959       
539.65           0.843743539      31.279222        0.519323691      -57.5177168      0.519323691      -57.5177168      0.843743539      31.279222        
551.62           0.849114685      30.7130416       0.510849053      -58.0956032      0.510849053      -58.0956032      0.849114685      30.7130416       
563.59           0.854243861      30.1635719       0.502576945      -58.6563371      0.502576945      -58.6563371      0.854243861      30.1635719       
575.56           0.859144097      29.6301585       0.494502435      -59.2005941      0.494502435      -59.2005941      0.859144097      29.6301585       
587.53           0.863827658      29.1121741       0.486620549      -59.7290211      0.486620549      -59.7290211      0.863827658      29.1121741       
599.5            0.868306084      28.6090185       0.478926304      -60.2422365      0.478926304      -60.2422365      0.868306084      28.6090185       
611.47           0.872590241      28.1201168       0.471414725      -60.7408323      0.471414725      -60.7408323      0.872590241      28.1201168       
623.44           0.87669035       27.6449193       0.464080873      -61.2253738      0.464080873      -61.2253738      0.87669035       27.6449193       
635.41           0.880616033      27.1828998       0.456919859      -61.6964021      0.456919859      -61.6964021      0.880616033      27.1828998       
647.38           0.884376347      26.733555        0.449926857      -62.1544339      0.449926857      -62.1544339      0.884376347      26.733555        
659.35           0.887979817      26.2964038       0.44309712       -62.5999633      0.44309712       -62.5999633      0.887979817      26.2964038       
671.32           0.89143447       25.870986        0.436425984      -63.0334623      0.436425984      -63.0334623      0.89143447       25.870986        
683.29           0.894747866      25.4568615       0.429908883      -63.4553823      0.429908883      -63.4553823      0.894747866      25.4568615       
695.26           0.897927124      25.0536094       0.423541347      -63.8661545      0.423541347      -63.8661545      0.897927124      25.0536094       
707.23           0.900978955      24.6608273       0.417319012      -64.266191       0.417319012      -64.266191       0.900978955      24.6608273       
719.2            0.903909681      24.2781305       0.411237622      -64.655886       0.411237622      -64.655886       0.903909681      24.2781305       
731.17           0.906725261      23.9051507       0.405293031      -65.035616       0.405293031      -65.035616       0.906725261      23.9051507       
743.14           0.909431319      23.541536        0.399481205      -65.4057413      0.399481205      -65.4057413      0.909431319      23.541536        
755.11           0.912033155      23.1869495       0.393798222      -65.7666063      0.393798222      -65.7666063      0.912033155      23.1869495       
767.08           0.914535774      22.8410689       0.388240271      -66.1185403      0.388240271      -66.1185403      0.914535774      22.8410689       
779.05           0.916943899      22.5035859       0.382803656      -66.4618584      0.382803656      -66.4618584      0.916943899      22.5035859       
791.02           0.91926199       22.1742053       0.377484788      -66.7968622      0.377484788      -66.7968622      0.91926199       22.1742053       
802.99           0.921494262      21.8526446       0.372280189      -67.1238401      0.372280189      -67.1238401      0.921494262      21.8526446       
814.96           0.923644696      21.538633        0.367186489      -67.4430684      0.367186489      -67.4430684      0.923644696      21.538633        
826.93           0.925717057      21.2319116       0.362200423      -67.7548113      0.362200423      -67.7548113      0.925717057      21.2319116       
838.9            0.927714905      20.9322321       0.35731883       -68.0593222      0.35731883       -68.0593222      0.927714905      20.9322321       
850.87           0.92964161       20.6393566       0.352538649      -68.3568436      0.352538649      -68.3568436      0.92964161       20.6393566       
862.84           0.931500358      20.3530572       0.347856918      -68.6476077      0.347856918      -68.6476077      0.931500358      20.3530572       
874.81           0.93329417       20.0731153       0.343270774      -68.9318374      0.343270774      -68.9318374      0.93329417       20.0731153       
886.78           0.935025905      19.7993214       0.338777443      -69.209746       0.338777443      -69.209746       0.935025905      19.7993214       
898.75           0.936698273      19.5314746       0.334374246      -69.4815383      0.334374246      -69.4815383      0.936698273      19.5314746       
910.72           0.938313843      19.2693821       0.330058589      -69.7474106      0.330058589      -69.7474106      0.938313843      19.2693821       
922.69           0.939875052      19.0128587       0.325827966      -70.0075511      0.325827966      -70.0075511      0.939875052      19.0128587       
934.66           0.941384212      18.7617269       0.321679952      -70.2621406      0.321679952      -70.2621406      0.941384212      18.7617269       
946.63           0.942843516      18.5158162       0.317612205      -70.5113526      0.317612205      -70.5113526      0.942843516      18.5158162       
958.6            0.944255049      18.2749627       0.313622458      -70.7553535      0.313622458      -70.7553535      0.944255049      18.2749627       
970.57           0.945620788      18.0390093       0.30970852       -70.9943033      0.30970852       -70.9943033      0.945620788      18.0390093       
982.54           0.946942616      17.8078046       0.305868274      -71.2283557      0.305868274      -71.2283557      0.946942616      17.8078046       
994.51           0.948222319      17.5812033       0.302099671      -71.4576582      0.302099671      -71.4576582      0.948222319      17.5812033       
1006.48          0.949461599      17.3590657       0.298400732      -71.6823527      0.298400732      -71.6823527      0.949461599      17.3590657       
1018.45          0.950662072      17.1412575       0.294769542      -71.9025756      0.294769542      -71.9025756      0.950662072      17.1412575       
1030.42          0.951825279      16.9276494       0.291204249      -72.1184582      0.291204249      -72.1184582      0.951825279      16.9276494       
1042.39          0.952952685      16.718117        0.287703063      -72.3301264      0.287703063      -72.3301264      0.952952685      16.718117        
1054.36          0.954045687      16.5125406       0.284264253      -72.5377018      0.284264253      -72.5377018      0.954045687      16.5125406       
1066.33          0.955105615      16.3108049       0.280886143      -72.7413011      0.280886143      -72.7413011      0.955105615      16.3108049       
1078.3           0.956133736      16.1127989       0.277567114      -72.9410369      0.277567114      -72.9410369      0.956133736      16.1127989       
1090.27          0.957131262      15.9184157       0.274305597      -73.1370173      0.274305597      -73.1370173      0.957131262      15.9184157       
1102.24          0.958099344      15.7275522       0.271100076      -73.3293466      0.271100076      -73.3293466      0.958099344      15.7275522       
1114.21          0.959039084      15.5401093       0.267949084      -73.5181254      0.267949084      -73.5181254      0.959039084      15.5401093       
1126.18          0.959951533      15.355991        0.264851201      -73.7034504      0.264851201      -73.7034504      0.959951533      15.355991        
1138.15          0.960837694      15.1751052       0.261805052      -73.8854148      0.261805052      -73.8854148      0.960837694      15.1751052       
1150.12          0.961698525      14.9973627       0.258809305      -74.0641087      0.258809305      -74.0641087      0.961698525      14.9973627       
1162.09          0.962534942      14.8226778       0.255862673      -74.2396188      0.255862673      -74.2396188      0.962534942      14.8226778       
1174.06          0.963347822      14.6509674       0.252963909      -74.4120287      0.252963909      -74.4120287      0.963347822      14.6509674       
1186.03          0.964138001      14.4821515       0.250111803      -74.5814191      0.250111803      -74.5814191      0.964138001      14.4821515       
1198             0.964906281      14.3161529       0.247305187      -74.7478679      0.247305187      -74.7478679      0.964906281      14.3161529       
1209.97          0.965653427      14.152897        0.244542925      -74.9114502      0.244542925      -74.9114502      0.965653427      14.152897        
1221.94          0.966380174      13.9923116       0.241823921      -75.0722385      0.241823921      -75.0722385      0.966380174      13.9923116       
1233.91          0.967087224      13.8343271       0.239147109      -75.230303       0.239147109      -75.230303       0.967087224      13.8343271       
1245.88          0.96777525       13.6788762       0.236511458      -75.3857112      0.236511458      -75.3857112      0.96777525       13.6788762       
1257.85          0.968444896      13.5258938       0.233915969      -75.5385285      0.233915969      -75.5385285      0.968444896      13.5258938       
1269.82          0.969096782      13.3753169       0.231359671      -75.6888181      0.231359671      -75.6888181      0.969096782      13.3753169       
1281.79          0.969731498      13.2270847       0.228841626      -75.8366409      0.228841626      -75.8366409      0.969731498      13.2270847       
1293.76          0.970349613      13.0811383       0.226360921      -75.9820559      0.226360921      -75.9820559      0.970349613      13.0811383       
1305.73          0.970951673      12.9374208       0.223916672      -76.1251201      0.223916672      -76.1251201      0.970951673      12.9374208       
1317.7           0.971538201      12.7958769       0.221508022      -76.2658886      0.221508022      -76.2658886      0.971538201      12.7958769       
1329.67          0.972109698      12.6564534       0.21913414       -76.4044147      0.21913414       -76.4044147      0.972109698      12.6564534       
1341.64          0.972666646      12.5190984       0.216794216      -76.54075        0.216794216      -76.54075        0.972666646      12.5190984       
1353.61          0.97320951       12.383762        0.214487468      -76.6749443      0.214487468      -76.6749443      0.97320951       12.383762        
1365.58          0.973738734      12.2503956       0.212213134      -76.8070459      0.212213134      -76.8070459      0.973738734      12.2503956       
1377.55          0.974254745      12.1189523       0.209970477      -76.9371014      0.209970477      -76.9371014      0.974254745      12.1189523       
1389.52          0.974757954      11.9893864       0.207758778      -77.0651561      0.207758778      -77.0651561      0.974757954      11.9893864       
1401.49          0.975248757      11.8616539       0.205577342      -77.1912537      0.205577342      -77.1912537      0.975248757      11.8616539       
1413.46          0.975727534      11.735712        0.203425492      -77.3154365      0.203425492      -77.3154365      0.975727534      11.735712        
1425.43          0.976194651      11.6115191       0.20130257       -77.4377456      0.20130257       -77.4377456      0.976194651      11.6115191       
1437.4           0.976650459      11.489035        0.199207938      -77.5582206      0.199207938      -77.5582206      0.976650459      11.489035        
1449.37          0.977095298      11.3682206       0.197140975      -77.6769001      0.197140975      -77.6769001      0.977095298      11.3682206       
1461.34          0.977529493      11.249038        0.195101078      -77.7938211      0.195101078      -77.7938211      0.977529493      11.249038        
1473.31          0.97795336       11.1314505       0.19308766       -77.9090199      0.19308766       -77.9090199      0.97795336       11.1314505       
1485.28          0.9783672        11.0154224       0.191100152      -78.0225314      0.191100152      -78.0225314      0.9783672        11.0154224       
1497.25          0.978771305      10.9009189       0.189137999      -78.1343894      0.189137999      -78.1343894      0.978771305      10.9009189       
1509.22          0.979165957      10.7879064       0.187200662      -78.2446268      0.187200662      -78.2446268      0.979165957      10.7879064       
1521.19          0.979551426      10.6763521       0.185287616      -78.3532753      0.185287616      -78.3532753      0.979551426      10.6763521       
