! Coilcraft 0402CS-4N3 Chip Inductor				
! 22 July 2002			
# MHZ S MA R 50
!Freq             MagS11           AngS11           MagS21           AngS21           MagS12           AngS12           MagS22           AngS22
1                0.000345832205   51.3430265       0.99978401       -0.0154766567    0.99978401       -0.0154766567    0.000345832205   51.3430265       
37.66            0.010224427      83.1356895       0.998829577      -0.582308931     0.998829577      -0.582308931     0.010224427      83.1356895       
74.32            0.0201050961     84.4165835       0.998244444      -1.14856506      0.998244444      -1.14856506      0.0201050961     84.4165835       
110.98           0.029975783      84.6708629       0.997662483      -1.71432463      0.997662483      -1.71432463      0.029975783      84.6708629       
147.64           0.0398346855     84.5939812       0.997036068      -2.27956363      0.997036068      -2.27956363      0.0398346855     84.5939812       
184.3            0.0496798841     84.3621328       0.996346789      -2.84423286      0.996346789      -2.84423286      0.0496798841     84.3621328       
220.96           0.0595093422     84.0434409       0.99558539       -3.40827207      0.99558539       -3.40827207      0.0595093422     84.0434409       
257.62           0.0693209533     83.6705371       0.994746581      -3.97161521      0.994746581      -3.97161521      0.0693209533     83.6705371       
294.28           0.0791125722     83.2612805       0.99382713       -4.53419283      0.99382713       -4.53419283      0.0791125722     83.2612805       
330.94           0.0888820354     82.8263881       0.992825009      -5.0959335       0.992825009      -5.0959335       0.0888820354     82.8263881       
367.6            0.0986271747     82.3727432       0.991738958      -5.65676464      0.991738958      -5.65676464      0.0986271747     82.3727432       
404.26           0.108345827      81.9050047       0.990568239      -6.21661307      0.990568239      -6.21661307      0.108345827      81.9050047       
440.92           0.118035843      81.4264618       0.989312492      -6.77540541      0.989312492      -6.77540541      0.118035843      81.4264618       
477.58           0.127695092      80.9395182       0.987971639      -7.33306838      0.987971639      -7.33306838      0.127695092      80.9395182       
514.24           0.137321467      80.4459822       0.986545826      -7.88952902      0.986545826      -7.88952902      0.137321467      80.4459822       
550.9            0.14691289       79.9472489       0.985035379      -8.44471491      0.985035379      -8.44471491      0.14691289       79.9472489       
587.56           0.156467315      79.4444179       0.983440771      -8.99855427      0.983440771      -8.99855427      0.156467315      79.4444179       
624.22           0.165982729      78.9383726       0.981762601      -9.55097617      0.981762601      -9.55097617      0.165982729      78.9383726       
660.88           0.175457162      78.4298348       0.98000158       -10.1019106      0.98000158       -10.1019106      0.175457162      78.4298348       
697.54           0.18488868       77.9194032       0.978158511      -10.6512884      0.978158511      -10.6512884      0.18488868       77.9194032       
734.2            0.194275393      77.4075815       0.976234284      -11.1990419      0.976234284      -11.1990419      0.194275393      77.4075815       
770.86           0.203615459      76.8947981       0.974229863      -11.7451042      0.974229863      -11.7451042      0.203615459      76.8947981       
807.52           0.21290708       76.3814222       0.972146281      -12.2894099      0.972146281      -12.2894099      0.21290708       76.3814222       
844.18           0.222148508      75.8677743       0.969984634      -12.8318949      0.969984634      -12.8318949      0.222148508      75.8677743       
880.84           0.231338045      75.3541359       0.967746072      -13.3724963      0.967746072      -13.3724963      0.231338045      75.3541359       
917.5            0.240474045      74.840756        0.965431798      -13.911153       0.965431798      -13.911153       0.240474045      74.840756        
954.16           0.249554915      74.3278563       0.96304306       -14.4478049      0.96304306       -14.4478049      0.249554915      74.3278563       
990.82           0.258579116      73.8156359       0.96058115       -14.9823939      0.96058115       -14.9823939      0.258579116      73.8156359       
1027.48          0.267545163      73.3042745       0.958047398      -15.5148631      0.958047398      -15.5148631      0.267545163      73.3042745       
1064.14          0.276451628      72.7939349       0.955443169      -16.0451573      0.955443169      -16.0451573      0.276451628      72.7939349       
1100.8           0.285297138      72.2847658       0.952769861      -16.5732231      0.952769861      -16.5732231      0.285297138      72.2847658       
1137.46          0.29408038       71.7769034       0.950028899      -17.0990085      0.950028899      -17.0990085      0.29408038       71.7769034       
1174.12          0.302800093      71.2704725       0.947221734      -17.6224632      0.947221734      -17.6224632      0.302800093      71.2704725       
1210.78          0.311455079      70.7655886       0.944349841      -18.1435387      0.944349841      -18.1435387      0.311455079      70.7655886       
1247.44          0.320044194      70.2623582       0.941414714      -18.6621881      0.941414714      -18.6621881      0.320044194      70.2623582       
1284.1           0.328566353      69.7608801       0.938417864      -19.1783663      0.938417864      -19.1783663      0.328566353      69.7608801       
1320.76          0.337020529      69.2612463       0.935360817      -19.6920298      0.935360817      -19.6920298      0.337020529      69.2612463       
1357.42          0.345405753      68.7635419       0.932245111      -20.203137       0.932245111      -20.203137       0.345405753      68.7635419       
1394.08          0.35372111       68.2678468       0.929072296      -20.7116478      0.929072296      -20.7116478      0.35372111       68.2678468       
1430.74          0.361965747      67.774235        0.925843926      -21.217524       0.925843926      -21.217524       0.361965747      67.774235        
1467.4           0.370138863      67.2827758       0.922561565      -21.720729       0.922561565      -21.720729       0.370138863      67.2827758       
1504.06          0.378239715      66.793534        0.919226776      -22.221228       0.919226776      -22.221228       0.378239715      66.793534        
1540.72          0.386267614      66.3065701       0.915841127      -22.7189879      0.915841127      -22.7189879      0.386267614      66.3065701       
1577.38          0.394221927      65.8219404       0.912406183      -23.2139773      0.912406183      -23.2139773      0.394221927      65.8219404       
1614.04          0.402102074      65.3396977       0.908923507      -23.7061664      0.908923507      -23.7061664      0.402102074      65.3396977       
1650.7           0.409907528      64.8598912       0.90539466       -24.195527       0.90539466       -24.195527       0.409907528      64.8598912       
1687.36          0.417637813      64.3825669       0.901821195      -24.6820328      0.901821195      -24.6820328      0.417637813      64.3825669       
1724.02          0.425292507      63.9077675       0.898204658      -25.165659       0.898204658      -25.165659       0.425292507      63.9077675       
1760.68          0.432871234      63.4355328       0.894546586      -25.6463824      0.894546586      -25.6463824      0.432871234      63.4355328       
1797.34          0.440373669      62.9658998       0.890848506      -26.1241813      0.890848506      -26.1241813      0.440373669      62.9658998       
1834             0.447799537      62.4989028       0.887111933      -26.5990357      0.887111933      -26.5990357      0.447799537      62.4989028       
1870.66          0.455148606      62.0345735       0.883338369      -27.0709272      0.883338369      -27.0709272      0.455148606      62.0345735       
1907.32          0.462420692      61.5729413       0.8795293        -27.5398386      0.8795293        -27.5398386      0.462420692      61.5729413       
1943.98          0.469615655      61.1140329       0.8756862        -28.0057545      0.8756862        -28.0057545      0.469615655      61.1140329       
1980.64          0.476733397      60.6578733       0.871810523      -28.4686608      0.871810523      -28.4686608      0.476733397      60.6578733       
2017.3           0.483773863      60.2044848       0.867903707      -28.9285449      0.867903707      -28.9285449      0.483773863      60.2044848       
2053.96          0.49073704       59.7538879       0.863967172      -29.3853955      0.863967172      -29.3853955      0.49073704       59.7538879       
2090.62          0.497622951      59.3061013       0.860002317      -29.8392028      0.860002317      -29.8392028      0.497622951      59.3061013       
2127.28          0.50443166       58.8611415       0.856010523      -30.2899582      0.856010523      -30.2899582      0.50443166       58.8611415       
2163.94          0.511163267      58.4190233       0.851993147      -30.7376545      0.851993147      -30.7376545      0.511163267      58.4190233       
2200.6           0.517817907      57.9797597       0.847951528      -31.1822857      0.847951528      -31.1822857      0.517817907      57.9797597       
2237.26          0.524395749      57.5433621       0.843886979      -31.623847       0.843886979      -31.623847       0.524395749      57.5433621       
2273.92          0.530896996      57.1098404       0.839800794      -32.0623349      0.839800794      -32.0623349      0.530896996      57.1098404       
2310.58          0.537321882      56.6792026       0.835694242      -32.497747       0.835694242      -32.497747       0.537321882      56.6792026       
2347.24          0.543670671      56.2514554       0.831568567      -32.9300821      0.831568567      -32.9300821      0.543670671      56.2514554       
2383.9           0.549943657      55.8266042       0.827424991      -33.35934        0.827424991      -33.35934        0.549943657      55.8266042       
2420.56          0.556141161      55.4046529       0.823264712      -33.7855215      0.823264712      -33.7855215      0.556141161      55.4046529       
2457.22          0.56226353       54.985604        0.8190889        -34.2086287      0.8190889        -34.2086287      0.56226353       54.985604        
2493.88          0.568311138      54.5694589       0.814898705      -34.6286645      0.814898705      -34.6286645      0.568311138      54.5694589       
2530.54          0.574284381      54.1562176       0.810695247      -35.0456327      0.810695247      -35.0456327      0.574284381      54.1562176       
2567.2           0.58018368       53.7458792       0.806479625      -35.4595382      0.806479625      -35.4595382      0.58018368       53.7458792       
2603.86          0.586009476      53.3384413       0.802252911      -35.8703866      0.802252911      -35.8703866      0.586009476      53.3384413       
2640.52          0.591762232      52.9339007       0.79801615       -36.2781846      0.79801615       -36.2781846      0.591762232      52.9339007       
2677.18          0.597442429      52.5322532       0.793770364      -36.6829396      0.793770364      -36.6829396      0.597442429      52.5322532       
2713.84          0.603050566      52.1334935       0.78951655       -37.0846596      0.78951655       -37.0846596      0.603050566      52.1334935       
2750.5           0.608587162      51.7376154       0.785255678      -37.4833537      0.785255678      -37.4833537      0.608587162      51.7376154       
2787.16          0.614052749      51.3446118       0.780988694      -37.8790316      0.780988694      -37.8790316      0.614052749      51.3446118       
2823.82          0.619447876      50.9544748       0.776716518      -38.2717036      0.776716518      -38.2717036      0.619447876      50.9544748       
2860.48          0.624773106      50.5671955       0.772440045      -38.6613807      0.772440045      -38.6613807      0.624773106      50.5671955       
2897.14          0.630029013      50.1827644       0.768160148      -39.0480747      0.768160148      -39.0480747      0.630029013      50.1827644       
2933.8           0.635216186      49.8011712       0.763877671      -39.4317979      0.763877671      -39.4317979      0.635216186      49.8011712       
2970.46          0.640335224      49.4224049       0.759593438      -39.8125631      0.759593438      -39.8125631      0.640335224      49.4224049       
3007.12          0.645386736      49.0464539       0.755308247      -40.1903837      0.755308247      -40.1903837      0.645386736      49.0464539       
3043.78          0.650371342      48.6733057       0.751022872      -40.5652737      0.751022872      -40.5652737      0.650371342      48.6733057       
3080.44          0.655289668      48.3029476       0.746738063      -40.9372476      0.746738063      -40.9372476      0.655289668      48.3029476       
3117.1           0.660142351      47.935366        0.742454549      -41.3063202      0.742454549      -41.3063202      0.660142351      47.935366        
3153.76          0.664930034      47.570547        0.738173034      -41.6725069      0.738173034      -41.6725069      0.664930034      47.570547        
3190.42          0.669653364      47.2084758       0.733894201      -42.0358235      0.733894201      -42.0358235      0.669653364      47.2084758       
3227.08          0.674312997      46.8491376       0.729618709      -42.3962861      0.729618709      -42.3962861      0.674312997      46.8491376       
3263.74          0.678909591      46.4925168       0.725347196      -42.7539113      0.725347196      -42.7539113      0.678909591      46.4925168       
3300.4           0.683443811      46.1385975       0.72108028       -43.1087159      0.72108028       -43.1087159      0.683443811      46.1385975       
3337.06          0.687916324      45.7873634       0.716818556      -43.4607172      0.716818556      -43.4607172      0.687916324      45.7873634       
3373.72          0.6923278        45.4387978       0.712562599      -43.8099326      0.712562599      -43.8099326      0.6923278        45.4387978       
3410.38          0.696678911      45.0928837       0.708312963      -44.15638        0.708312963      -44.15638        0.696678911      45.0928837       
3447.04          0.700970332      44.7496037       0.704070183      -44.5000774      0.704070183      -44.5000774      0.700970332      44.7496037       
3483.7           0.705202739      44.4089402       0.699834774      -44.841043       0.699834774      -44.841043       0.705202739      44.4089402       
3520.36          0.709376808      44.0708751       0.695607232      -45.1792954      0.695607232      -45.1792954      0.709376808      44.0708751       
3557.02          0.713493215      43.7353902       0.691388033      -45.5148533      0.691388033      -45.5148533      0.713493215      43.7353902       
3593.68          0.717552637      43.4024671       0.687177636      -45.8477355      0.687177636      -45.8477355      0.717552637      43.4024671       
3630.34          0.72155575       43.0720871       0.682976482      -46.177961       0.682976482      -46.177961       0.72155575       43.0720871       
3667             0.725503228      42.7442312       0.678784995      -46.5055492      0.678784995      -46.5055492      0.725503228      42.7442312       
3703.66          0.729395745      42.4188805       0.674603579      -46.8305192      0.674603579      -46.8305192      0.729395745      42.4188805       
3740.32          0.733233971      42.0960156       0.670432625      -47.1528906      0.670432625      -47.1528906      0.733233971      42.0960156       
3776.98          0.737018577      41.7756172       0.666272506      -47.4726828      0.666272506      -47.4726828      0.737018577      41.7756172       
3813.64          0.740750229      41.4576658       0.662123578      -47.7899155      0.662123578      -47.7899155      0.740750229      41.4576658       
3850.3           0.744429589      41.1421416       0.657986182      -48.1046083      0.657986182      -48.1046083      0.744429589      41.1421416       
3886.96          0.748057319      40.829025        0.653860646      -48.4167811      0.653860646      -48.4167811      0.748057319      40.829025        
3923.62          0.751634076      40.5182961       0.649747281      -48.7264535      0.649747281      -48.7264535      0.751634076      40.5182961       
3960.28          0.755160512      40.2099349       0.645646383      -49.0336455      0.645646383      -49.0336455      0.755160512      40.2099349       
3996.94          0.758637278      39.9039215       0.641558236      -49.3383767      0.641558236      -49.3383767      0.758637278      39.9039215       
4033.6           0.762065017      39.6002359       0.63748311       -49.6406672      0.63748311       -49.6406672      0.762065017      39.6002359       
4070.26          0.76544437       39.2988581       0.633421262      -49.9405366      0.633421262      -49.9405366      0.76544437       39.2988581       
4106.92          0.768775974      38.9997678       0.629372933      -50.2380049      0.629372933      -50.2380049      0.768775974      38.9997678       
4143.58          0.772060458      38.702945        0.625338357      -50.5330918      0.625338357      -50.5330918      0.772060458      38.702945        
4180.24          0.77529845       38.4083695       0.621317751      -50.825817       0.621317751      -50.825817       0.77529845       38.4083695       
4216.9           0.778490568      38.1160214       0.617311322      -51.1162004      0.617311322      -51.1162004      0.778490568      38.1160214       
4253.56          0.78163743       37.8258804       0.613319267      -51.4042615      0.613319267      -51.4042615      0.78163743       37.8258804       
4290.22          0.784739644      37.5379266       0.60934177       -51.6900199      0.60934177       -51.6900199      0.784739644      37.5379266       
4326.88          0.787797815      37.2521398       0.605379005      -51.9734952      0.605379005      -51.9734952      0.787797815      37.2521398       
4363.54          0.790812542      36.9685001       0.601431135      -52.2547067      0.601431135      -52.2547067      0.790812542      36.9685001       
4400.2           0.793784416      36.6869876       0.597498313      -52.533674       0.597498313      -52.533674       0.793784416      36.6869876       
4436.86          0.796714024      36.4075823       0.593580683      -52.8104162      0.593580683      -52.8104162      0.796714024      36.4075823       
4473.52          0.799601948      36.1302644       0.58967838       -53.0849524      0.58967838       -53.0849524      0.799601948      36.1302644       
4510.18          0.802448761      35.8550142       0.585791527      -53.3573018      0.585791527      -53.3573018      0.802448761      35.8550142       
4546.84          0.805255032      35.581812        0.581920242      -53.6274833      0.581920242      -53.6274833      0.805255032      35.581812        
4583.5           0.808021324      35.3106381       0.578064631      -53.8955157      0.578064631      -53.8955157      0.808021324      35.3106381       
4620.16          0.810748191      35.0414732       0.574224793      -54.1614178      0.574224793      -54.1614178      0.810748191      35.0414732       
4656.82          0.813436183      34.7742977       0.57040082       -54.425208       0.57040082       -54.425208       0.813436183      34.7742977       
