! Coilcraft 0402CS-8N2 Chip Inductor				
! 29 May 2002			
# MHZ S MA R 50
!Freq             MagS11           AngS11           MagS21           AngS21           MagS12           AngS12           MagS22           AngS22
1                0.000629452046   54.8781969       0.999637998      -0.0295093153    0.999637998      -0.0295093153    0.000629452046   54.8781969       
24.44            0.0126712229     82.0720905       0.998331183      -0.720289672     0.998331183      -0.720289672     0.0126712229     82.0720905       
47.88            0.0247062013     83.4730418       0.997493687      -1.41006211      0.997493687      -1.41006211      0.0247062013     83.4730418       
71.32            0.0367228104     83.7217918       0.996652811      -2.09893658      0.996652811      -2.09893658      0.0367228104     83.7217918       
94.76            0.0487176827     83.5945736       0.99574255       -2.78685135      0.99574255       -2.78685135      0.0487176827     83.5945736       
118.2            0.0606871472     83.2907283       0.99473745       -3.47370225      0.99473745       -3.47370225      0.0606871472     83.2907283       
141.64           0.0726273288     82.8878291       0.993624889      -4.1593669       0.993624889      -4.1593669       0.0726273288     82.8878291       
165.08           0.0845342468     82.4231981       0.992397855      -4.8437136       0.992397855      -4.8437136       0.0845342468     82.4231981       
188.52           0.0964038764     81.9173377       0.991052279      -5.52660568      0.991052279      -5.52660568      0.0964038764     81.9173377       
211.96           0.108232188      81.3825959       0.989585832      -6.20790391      0.989585832      -6.20790391      0.108232188      81.3825959       
235.4            0.120015174      80.8269341       0.987997314      -6.88746802      0.987997314      -6.88746802      0.120015174      80.8269341       
258.84           0.131748868      80.2557648       0.986286308      -7.56515779      0.986286308      -7.56515779      0.131748868      80.2557648       
282.28           0.143429364      79.6729276       0.984452973      -8.24083373      0.984452973      -8.24083373      0.143429364      79.6729276       
305.72           0.155052824      79.0812443       0.982497906      -8.91435774      0.982497906      -8.91435774      0.155052824      79.0812443       
329.16           0.166615492      78.482851        0.98042206       -9.58559352      0.98042206       -9.58559352      0.166615492      78.482851        
352.6            0.178113704      77.8794065       0.978226674      -10.254407       0.978226674      -10.254407       0.178113704      77.8794065       
376.04           0.189543891      77.272228        0.97591323       -10.9206666      0.97591323       -10.9206666      0.189543891      77.272228        
399.48           0.200902592      76.6623821       0.973483416      -11.5842435      0.973483416      -11.5842435      0.200902592      76.6623821       
422.92           0.212186456      76.0507468       0.9709391        -12.2450121      0.9709391        -12.2450121      0.212186456      76.0507468       
446.36           0.223392247      75.4380568       0.968282303      -12.9028498      0.968282303      -12.9028498      0.223392247      75.4380568       
469.8            0.234516852      74.8249343       0.965515189      -13.5576375      0.965515189      -13.5576375      0.234516852      74.8249343       
493.24           0.245557281      74.2119132       0.962640039      -14.2092598      0.962640039      -14.2092598      0.245557281      74.2119132       
516.68           0.256510672      73.5994562       0.959659242      -14.8576049      0.959659242      -14.8576049      0.256510672      73.5994562       
540.12           0.267374295      72.9879681       0.956575283      -15.5025648      0.956575283      -15.5025648      0.267374295      72.9879681       
563.56           0.278145551      72.3778059       0.953390729      -16.1440355      0.953390729      -16.1440355      0.278145551      72.3778059       
587              0.288821977      71.7692867       0.95010822       -16.7819171      0.95010822       -16.7819171      0.288821977      71.7692867       
610.44           0.299401245      71.1626942       0.946730458      -17.4161135      0.946730458      -17.4161135      0.299401245      71.1626942       
633.88           0.309881164      70.5582831       0.943260201      -18.046533       0.943260201      -18.046533       0.309881164      70.5582831       
657.32           0.320259679      69.9562834       0.939700251      -18.673088       0.939700251      -18.673088       0.320259679      69.9562834       
680.76           0.330534872      69.3569035       0.936053445      -19.295695       0.936053445      -19.295695       0.330534872      69.3569035       
704.2            0.340704961      68.7603329       0.932322654      -19.9142749      0.932322654      -19.9142749      0.340704961      68.7603329       
727.64           0.350768299      68.1667441       0.928510768      -20.5287528      0.928510768      -20.5287528      0.350768299      68.1667441       
751.08           0.360723374      67.5762949       0.924620694      -21.1390578      0.924620694      -21.1390578      0.360723374      67.5762949       
774.52           0.370568804      66.9891291       0.920655348      -21.7451234      0.920655348      -21.7451234      0.370568804      66.9891291       
797.96           0.380303341      66.4053788       0.916617649      -22.3468873      0.916617649      -22.3468873      0.380303341      66.4053788       
821.4            0.389925862      65.8251645       0.912510514      -22.9442912      0.912510514      -22.9442912      0.389925862      65.8251645       
844.84           0.399435371      65.2485967       0.908336849      -23.537281       0.908336849      -23.537281       0.399435371      65.2485967       
868.28           0.408830996      64.6757763       0.90409955       -24.1258066      0.90409955       -24.1258066      0.408830996      64.6757763       
891.72           0.418111986      64.1067955       0.899801493      -24.709822       0.899801493      -24.709822       0.418111986      64.1067955       
915.16           0.427277705      63.5417385       0.895445531      -25.2892848      0.895445531      -25.2892848      0.427277705      63.5417385       
938.6            0.436327633      62.9806819       0.891034492      -25.8641568      0.891034492      -25.8641568      0.436327633      62.9806819       
962.04           0.445261359      62.423695        0.88657117       -26.4344035      0.88657117       -26.4344035      0.445261359      62.423695        
985.48           0.454078583      61.8708407       0.882058328      -26.9999939      0.882058328      -26.9999939      0.454078583      61.8708407       
1008.92          0.462779104      61.3221755       0.877498688      -27.5609009      0.877498688      -27.5609009      0.462779104      61.3221755       
1032.36          0.471362825      60.7777501       0.872894932      -28.1171007      0.872894932      -28.1171007      0.471362825      60.7777501       
1055.8           0.479829742      60.2376096       0.8682497        -28.668573       0.8682497        -28.668573       0.479829742      60.2376096       
1079.24          0.488179946      59.7017938       0.863565582      -29.2153008      0.863565582      -29.2153008      0.488179946      59.7017938       
1102.68          0.496413615      59.1703376       0.858845124      -29.7572703      0.858845124      -29.7572703      0.496413615      59.1703376       
1126.12          0.504531012      58.6432712       0.854090816      -30.2944709      0.854090816      -30.2944709      0.504531012      58.6432712       
1149.56          0.512532482      58.1206203       0.849305101      -30.8268951      0.849305101      -30.8268951      0.512532482      58.1206203       
1173             0.520418446      57.6024064       0.844490363      -31.3545382      0.844490363      -31.3545382      0.520418446      57.6024064       
1196.44          0.528189398      57.088647        0.839648934      -31.8773983      0.839648934      -31.8773983      0.528189398      57.088647        
1219.88          0.535845902      56.5793557       0.834783087      -32.3954763      0.834783087      -32.3954763      0.535845902      56.5793557       
1243.32          0.543388587      56.0745427       0.829895038      -32.9087756      0.829895038      -32.9087756      0.543388587      56.0745427       
1266.76          0.550818145      55.5742146       0.824986947      -33.4173022      0.824986947      -33.4173022      0.550818145      55.5742146       
1290.2           0.558135324      55.0783748       0.820060911      -33.9210646      0.820060911      -33.9210646      0.558135324      55.0783748       
1313.64          0.56534093       54.5870237       0.81511897       -34.4200733      0.81511897       -34.4200733      0.56534093       54.5870237       
1337.08          0.572435818      54.1001588       0.810163105      -34.9143414      0.810163105      -34.9143414      0.572435818      54.1001588       
1360.52          0.579420889      53.6177748       0.805195235      -35.4038836      0.805195235      -35.4038836      0.579420889      53.6177748       
1383.96          0.586297093      53.1398638       0.80021722       -35.888717       0.80021722       -35.888717       0.586297093      53.1398638       
1407.4           0.593065416      52.6664155       0.795230862      -36.3688605      0.795230862      -36.3688605      0.593065416      52.6664155       
1430.84          0.599726887      52.1974173       0.790237901      -36.8443346      0.790237901      -36.8443346      0.599726887      52.1974173       
1454.28          0.606282565      51.7328544       0.78524002       -37.3151618      0.78524002       -37.3151618      0.606282565      51.7328544       
1477.72          0.612733545      51.2727098       0.780238843      -37.781366       0.780238843      -37.781366       0.612733545      51.2727098       
1501.16          0.619080949      50.8169648       0.775235936      -38.2429726      0.775235936      -38.2429726      0.619080949      50.8169648       
1524.6           0.625325926      50.3655987       0.770232808      -38.7000085      0.770232808      -38.7000085      0.625325926      50.3655987       
1548.04          0.631469648      49.9185893       0.76523091       -39.1525021      0.76523091       -39.1525021      0.631469648      49.9185893       
1571.48          0.63751331       49.4759127       0.76023164       -39.6004828      0.76023164       -39.6004828      0.63751331       49.4759127       
1594.92          0.643458124      49.0375434       0.75523634       -40.0439812      0.75523634       -40.0439812      0.643458124      49.0375434       
1618.36          0.649305318      48.6034546       0.750246298      -40.4830292      0.750246298      -40.4830292      0.649305318      48.6034546       
1641.8           0.655056136      48.1736183       0.745262749      -40.9176596      0.745262749      -40.9176596      0.655056136      48.1736183       
1665.24          0.660711834      47.7480051       0.740286876      -41.347906       0.740286876      -41.347906       0.660711834      47.7480051       
1688.68          0.666273678      47.3265848       0.735319813      -41.7738031      0.735319813      -41.7738031      0.666273678      47.3265848       
1712.12          0.671742939      46.9093258       0.730362642      -42.1953862      0.730362642      -42.1953862      0.671742939      46.9093258       
1735.56          0.677120899      46.4961957       0.725416399      -42.6126916      0.725416399      -42.6126916      0.677120899      46.4961957       
1759             0.682408843      46.0871614       0.72048207       -43.0257561      0.72048207       -43.0257561      0.682408843      46.0871614       
1782.44          0.687608058      45.6821888       0.715560598      -43.434617       0.715560598      -43.434617       0.687608058      45.6821888       
1805.88          0.692719832      45.2812431       0.710652878      -43.8393123      0.710652878      -43.8393123      0.692719832      45.2812431       
1829.32          0.697745456      44.8842888       0.705759763      -44.2398806      0.705759763      -44.2398806      0.697745456      44.8842888       
1852.76          0.702686217      44.4912899       0.700882063      -44.6363607      0.700882063      -44.6363607      0.702686217      44.4912899       
1876.2           0.707543401      44.1022099       0.696020547      -45.0287919      0.696020547      -45.0287919      0.707543401      44.1022099       
1899.64          0.712318288      43.7170116       0.691175943      -45.4172138      0.691175943      -45.4172138      0.712318288      43.7170116       
1923.08          0.717012156      43.3356577       0.686348941      -45.8016664      0.686348941      -45.8016664      0.717012156      43.3356577       
1946.52          0.721626274      42.9581102       0.681540192      -46.1821898      0.681540192      -46.1821898      0.721626274      42.9581102       
1969.96          0.726161907      42.5843309       0.676750313      -46.5588243      0.676750313      -46.5588243      0.726161907      42.5843309       
1993.4           0.73062031       42.2142816       0.671979883      -46.9316106      0.671979883      -46.9316106      0.73062031       42.2142816       
2016.84          0.735002731      41.8479234       0.667229448      -47.300589       0.667229448      -47.300589       0.735002731      41.8479234       
2040.28          0.739310406      41.4852175       0.66249952       -47.6658005      0.66249952       -47.6658005      0.739310406      41.4852175       
2063.72          0.743544564      41.1261249       0.65779058       -48.0272858      0.65779058       -48.0272858      0.743544564      41.1261249       
2087.16          0.747706421      40.7706065       0.653103078      -48.3850856      0.653103078      -48.3850856      0.747706421      40.7706065       
2110.6           0.751797182      40.4186231       0.648437434      -48.7392406      0.648437434      -48.7392406      0.751797182      40.4186231       
2134.04          0.755818041      40.0701356       0.643794039      -49.0897916      0.643794039      -49.0897916      0.755818041      40.0701356       
2157.48          0.759770178      39.7251046       0.639173257      -49.4367791      0.639173257      -49.4367791      0.759770178      39.7251046       
2180.92          0.763654761      39.3834911       0.634575426      -49.7802437      0.634575426      -49.7802437      0.763654761      39.3834911       
2204.36          0.767472945      39.0452557       0.630000856      -50.1202258      0.630000856      -50.1202258      0.767472945      39.0452557       
2227.8           0.771225871      38.7103596       0.625449835      -50.4567655      0.625449835      -50.4567655      0.771225871      38.7103596       
2251.24          0.774914665      38.3787637       0.620922626      -50.789903       0.620922626      -50.789903       0.774914665      38.3787637       
2274.68          0.77854044       38.0504292       0.616419469      -51.119678       0.616419469      -51.119678       0.77854044       38.0504292       
2298.12          0.782104295      37.7253175       0.611940584      -51.4461302      0.611940584      -51.4461302      0.782104295      37.7253175       
2321.56          0.785607312      37.40339         0.607486169      -51.769299       0.607486169      -51.769299       0.785607312      37.40339         
2345             0.789050561      37.0846084       0.6030564        -52.0892236      0.6030564        -52.0892236      0.789050561      37.0846084       
2368.44          0.792435094      36.7689347       0.598651437      -52.4059427      0.598651437      -52.4059427      0.792435094      36.7689347       
2391.88          0.795761951      36.4563309       0.59427142       -52.7194951      0.59427142       -52.7194951      0.795761951      36.4563309       
2415.32          0.799032153      36.1467594       0.589916471      -53.029919       0.589916471      -53.029919       0.799032153      36.1467594       
2438.76          0.80224671       35.840183        0.585586696      -53.3372523      0.585586696      -53.3372523      0.80224671       35.840183        
2462.2           0.805406612      35.5365643       0.581282186      -53.6415329      0.581282186      -53.6415329      0.805406612      35.5365643       
2485.64          0.808512838      35.2358667       0.577003013      -53.9427979      0.577003013      -53.9427979      0.808512838      35.2358667       
2509.08          0.811566348      34.9380536       0.572749238      -54.2410845      0.572749238      -54.2410845      0.811566348      34.9380536       
2532.52          0.814568088      34.6430887       0.568520907      -54.5364292      0.568520907      -54.5364292      0.814568088      34.6430887       
2555.96          0.817518991      34.3509362       0.564318051      -54.8288683      0.564318051      -54.8288683      0.817518991      34.3509362       
2579.4           0.820419971      34.0615604       0.56014069       -55.1184378      0.56014069       -55.1184378      0.820419971      34.0615604       
2602.84          0.823271928      33.7749262       0.555988832      -55.4051733      0.555988832      -55.4051733      0.823271928      33.7749262       
2626.28          0.826075748      33.4909985       0.551862471      -55.6891099      0.551862471      -55.6891099      0.826075748      33.4909985       
2649.72          0.8288323        33.2097427       0.547761594      -55.9702823      0.547761594      -55.9702823      0.8288323        33.2097427       
2673.16          0.83154244       32.9311247       0.543686174      -56.2487251      0.543686174      -56.2487251      0.83154244       32.9311247       
2696.6           0.834207009      32.6551105       0.539636177      -56.5244723      0.539636177      -56.5244723      0.834207009      32.6551105       
2720.04          0.836826831      32.3816666       0.535611557      -56.7975574      0.535611557      -56.7975574      0.836826831      32.3816666       
2743.48          0.839402719      32.1107598       0.53161226       -57.0680137      0.53161226       -57.0680137      0.839402719      32.1107598       
2766.92          0.841935468      31.8423574       0.527638225      -57.335874       0.527638225      -57.335874       0.841935468      31.8423574       
2790.36          0.84442586       31.5764268       0.523689381      -57.6011708      0.523689381      -57.6011708      0.84442586       31.5764268       
2813.8           0.846874665      31.312936        0.519765651      -57.8639361      0.519765651      -57.8639361      0.846874665      31.312936        
2837.24          0.849282636      31.0518533       0.515866949      -58.1242014      0.515866949      -58.1242014      0.849282636      31.0518533       
2860.68          0.851650513      30.7931474       0.511993185      -58.3819981      0.511993185      -58.3819981      0.851650513      30.7931474       
2884.12          0.853979024      30.5367873       0.50814426       -58.6373568      0.50814426       -58.6373568      0.853979024      30.5367873       
2907.56          0.856268882      30.2827423       0.504320071      -58.8903081      0.504320071      -58.8903081      0.856268882      30.2827423       
2931             0.858520786      30.0309824       0.500520507      -59.1408819      0.500520507      -59.1408819      0.858520786      30.0309824       
2954.44          0.860735425      29.7814777       0.496745455      -59.3891078      0.496745455      -59.3891078      0.860735425      29.7814777       
2977.88          0.862913471      29.5341986       0.492994794      -59.635015       0.492994794      -59.635015       0.862913471      29.5341986       
