! Coilcraft 0402CS-15N Chip Inductor				
! 29 May 2002			
# MHZ S MA R 50
!Freq             MagS11           AngS11           MagS21           AngS21           MagS12           AngS12           MagS22           AngS22
1                0.00110236081    58.6476053       0.999426885      -0.0539690607    0.999426885      -0.0539690607    0.00110236081    58.6476053       
19.2             0.0181832084     82.1192497       0.997669467      -1.03444859      0.997669467      -1.03444859      0.0181832084     82.1192497       
37.4             0.0352493014     83.1341958       0.996400927      -2.01280986      0.996400927      -2.01280986      0.0352493014     83.1341958       
55.6             0.0522698105     83.0513196       0.995030101      -2.98904633      0.995030101      -2.98904633      0.0522698105     83.0513196       
73.8             0.0692331861     82.6112357       0.993471843      -3.96283909      0.993471843      -3.96283909      0.0692331861     82.6112357       
92               0.0861275142     82.0045479       0.991694621      -4.93379456      0.991694621      -4.93379456      0.0861275142     82.0045479       
110.2            0.102940691      81.3055976       0.989684233      -5.9014906       0.989684233      -5.9014906       0.102940691      81.3055976       
128.4            0.119660632      80.5502944       0.98743429       -6.8654943       0.98743429       -6.8654943       0.119660632      80.5502944       
146.6            0.13627542       79.7584901       0.984942673      -7.82537106      0.984942673      -7.82537106      0.13627542       79.7584901       
164.8            0.152773404      78.9422498       0.982209932      -8.78069         0.982209932      -8.78069         0.152773404      78.9422498       
183              0.169143276      78.1094467       0.97923844       -9.73102767      0.97923844       -9.73102767      0.169143276      78.1094467       
201.2            0.185374131      77.2655136       0.976031911      -10.6759708      0.976031911      -10.6759708      0.185374131      77.2655136       
219.4            0.201455517      76.4143734       0.972595094      -11.6151182      0.972595094      -11.6151182      0.201455517      76.4143734       
237.6            0.217377474      75.5589661       0.968933566      -12.5480828      0.968933566      -12.5480828      0.217377474      75.5589661       
255.8            0.233130568      74.7015657       0.965053576      -13.4744925      0.965053576      -13.4744925      0.233130568      74.7015657       
274              0.248705915      73.8439776       0.960961928      -14.3939917      0.960961928      -14.3939917      0.248705915      73.8439776       
292.2            0.264095204      72.987667        0.95666589       -15.306242       0.95666589       -15.306242       0.264095204      72.987667        
310.4            0.279290708      72.1338455       0.952173107      -16.2109227      0.952173107      -16.2109227      0.279290708      72.1338455       
328.6            0.294285299      71.2835298       0.947491534      -17.1077319      0.947491534      -17.1077319      0.294285299      71.2835298       
346.8            0.309072451      70.4375842       0.942629373      -17.9963863      0.942629373      -17.9963863      0.309072451      70.4375842       
365              0.323646242      69.5967508       0.937595018      -18.8766218      0.937595018      -18.8766218      0.323646242      69.5967508       
383.2            0.338001352      68.7616712       0.932397         -19.7481936      0.932397         -19.7481936      0.338001352      68.7616712       
401.4            0.352133056      67.9329041       0.927043941      -20.6108762      0.927043941      -20.6108762      0.352133056      67.9329041       
419.6            0.366037216      67.1109373       0.921544512      -21.464463       0.921544512      -21.464463       0.366037216      67.1109373       
437.8            0.379710268      66.2961981       0.915907392      -22.308767       0.915907392      -22.308767       0.379710268      66.2961981       
456              0.393149209      65.4890608       0.91014123       -23.1436194      0.91014123       -23.1436194      0.393149209      65.4890608       
474.2            0.406351575      64.6898534       0.904254615      -23.9688701      0.904254615      -23.9688701      0.406351575      64.6898534       
492.4            0.419315429      63.8988624       0.898256039      -24.7843872      0.898256039      -24.7843872      0.419315429      63.8988624       
510.6            0.432039335      63.1163371       0.892153878      -25.5900559      0.892153878      -25.5900559      0.432039335      63.1163371       
528.8            0.444522339      62.3424933       0.885956358      -26.3857789      0.885956358      -26.3857789      0.444522339      62.3424933       
547              0.456763943      61.5775166       0.879671542      -27.171475       0.879671542      -27.171475       0.456763943      61.5775166       
565.2            0.468764083      60.8215643       0.873307301      -27.947079       0.873307301      -27.947079       0.468764083      60.8215643       
583.4            0.480523106      60.0747687       0.866871308      -28.7125411      0.866871308      -28.7125411      0.480523106      60.0747687       
601.6            0.492041742      59.3372383       0.860371012      -29.4678258      0.860371012      -29.4678258      0.492041742      59.3372383       
619.8            0.503321078      58.6090603       0.853813637      -30.2129115      0.853813637      -30.2129115      0.503321078      58.6090603       
638              0.514362539      57.890302        0.847206161      -30.94779        0.847206161      -30.94779        0.514362539      57.890302        
656.2            0.525167858      57.1810123       0.840555319      -31.6724654      0.840555319      -31.6724654      0.525167858      57.1810123       
674.4            0.535739052      56.4812231       0.833867589      -32.3869537      0.833867589      -32.3869537      0.535739052      56.4812231       
692.6            0.546078401      55.790951        0.827149188      -33.0912819      0.827149188      -33.0912819      0.546078401      55.790951        
710.8            0.556188422      55.1101979       0.820406076      -33.7854876      0.820406076      -33.7854876      0.556188422      55.1101979       
729              0.566071849      54.4389526       0.813643947      -34.4696178      0.813643947      -34.4696178      0.566071849      54.4389526       
747.2            0.57573161       53.7771917       0.806868234      -35.1437289      0.806868234      -35.1437289      0.57573161       53.7771917       
765.4            0.585170804      53.1248806       0.800084108      -35.8078854      0.800084108      -35.8078854      0.585170804      53.1248806       
783.6            0.594392685      52.4819745       0.793296481      -36.4621597      0.793296481      -36.4621597      0.594392685      52.4819745       
801.8            0.603400643      51.848419        0.786510012      -37.1066314      0.786510012      -37.1066314      0.603400643      51.848419        
820              0.612198183      51.2241514       0.779729105      -37.7413864      0.779729105      -37.7413864      0.612198183      51.2241514       
838.2            0.620788908      50.6091009       0.772957921      -38.366517       0.772957921      -38.366517       0.620788908      50.6091009       
856.4            0.629176508      50.00319         0.766200379      -38.9821203      0.766200379      -38.9821203      0.629176508      50.00319         
874.6            0.637364739      49.4063345       0.759460165      -39.5882989      0.759460165      -39.5882989      0.637364739      49.4063345       
892.8            0.645357413      48.8184447       0.752740737      -40.1851594      0.752740737      -40.1851594      0.645357413      48.8184447       
911              0.653158385      48.2394256       0.74604533       -40.7728123      0.74604533       -40.7728123      0.653158385      48.2394256       
929.2            0.660771537      47.6691776       0.73937697       -41.3513719      0.73937697       -41.3513719      0.660771537      47.6691776       
947.4            0.668200772      47.1075974       0.732738473      -41.920955       0.732738473      -41.920955       0.668200772      47.1075974       
965.6            0.675450001      46.5545777       0.72613246       -42.4816814      0.72613246       -42.4816814      0.675450001      46.5545777       
983.8            0.682523132      46.0100083       0.719561358      -43.0336731      0.719561358      -43.0336731      0.682523132      46.0100083       
1002             0.689424065      45.4737764       0.713027414      -43.5770537      0.713027414      -43.5770537      0.689424065      45.4737764       
1020.2           0.696156683      44.9457668       0.7065327        -44.1119485      0.7065327        -44.1119485      0.696156683      44.9457668       
1038.4           0.702724843      44.4258626       0.700079119      -44.6384842      0.700079119      -44.6384842      0.702724843      44.4258626       
1056.6           0.709132373      43.9139452       0.693668415      -45.1567881      0.693668415      -45.1567881      0.709132373      43.9139452       
1074.8           0.715383061      43.4098949       0.687302181      -45.6669883      0.687302181      -45.6669883      0.715383061      43.4098949       
1093             0.721480657      42.9135908       0.680981865      -46.1692134      0.680981865      -46.1692134      0.721480657      42.9135908       
1111.2           0.727428862      42.4249118       0.674708776      -46.6635919      0.674708776      -46.6635919      0.727428862      42.4249118       
1129.4           0.733231328      41.9437359       0.668484095      -47.1502525      0.668484095      -47.1502525      0.733231328      41.9437359       
1147.6           0.738891651      41.4699414       0.662308879      -47.6293236      0.662308879      -47.6293236      0.738891651      41.4699414       
1165.8           0.744413374      41.0034062       0.656184068      -48.100933       0.656184068      -48.100933       0.744413374      41.0034062       
1184             0.749799976      40.5440087       0.650110491      -48.565208       0.650110491      -48.565208       0.749799976      40.5440087       
1202.2           0.755054878      40.0916277       0.644088874      -49.0222753      0.644088874      -49.0222753      0.755054878      40.0916277       
1220.4           0.760181434      39.6461426       0.638119845      -49.4722605      0.638119845      -49.4722605      0.760181434      39.6461426       
1238.6           0.765182937      39.2074332       0.632203939      -49.9152882      0.632203939      -49.9152882      0.765182937      39.2074332       
1256.8           0.770062611      38.7753806       0.626341606      -50.351482       0.626341606      -50.351482       0.770062611      38.7753806       
1275             0.774823612      38.3498665       0.620533214      -50.7809641      0.620533214      -50.7809641      0.774823612      38.3498665       
1293.2           0.779469032      37.930774        0.614779055      -51.2038555      0.614779055      -51.2038555      0.779469032      37.930774        
1311.4           0.784001892      37.5179872       0.609079348      -51.6202759      0.609079348      -51.6202759      0.784001892      37.5179872       
1329.6           0.788425145      37.1113913       0.603434248      -52.0303432      0.603434248      -52.0303432      0.788425145      37.1113913       
1347.8           0.792741676      36.7108731       0.597843847      -52.434174       0.597843847      -52.434174       0.792741676      36.7108731       
1366             0.796954303      36.3163207       0.592308178      -52.8318832      0.592308178      -52.8318832      0.796954303      36.3163207       
1384.2           0.801065774      35.9276237       0.586827222      -53.2235842      0.586827222      -53.2235842      0.801065774      35.9276237       
1402.4           0.805078772      35.5446732       0.581400908      -53.6093886      0.581400908      -53.6093886      0.805078772      35.5446732       
1420.6           0.808995913      35.1673617       0.576029121      -53.9894063      0.576029121      -53.9894063      0.808995913      35.1673617       
1438.8           0.812819744      34.7955834       0.570711699      -54.3637454      0.570711699      -54.3637454      0.812819744      34.7955834       
1457             0.816552752      34.4292342       0.565448445      -54.7325125      0.565448445      -54.7325125      0.816552752      34.4292342       
1475.2           0.820197355      34.0682116       0.560239123      -55.095812       0.560239123      -55.095812       0.820197355      34.0682116       
1493.4           0.82375591       33.7124147       0.555083461      -55.4537468      0.555083461      -55.4537468      0.82375591       33.7124147       
1511.6           0.827230712      33.3617442       0.54998116       -55.806418       0.54998116       -55.806418       0.827230712      33.3617442       
1529.8           0.830623994      33.0161027       0.544931891      -56.1539248      0.544931891      -56.1539248      0.830623994      33.0161027       
1548             0.833937929      32.6753944       0.539935297      -56.4963645      0.539935297      -56.4963645      0.833937929      32.6753944       
1566.2           0.837174631      32.3395251       0.534991         -56.8338329      0.534991         -56.8338329      0.837174631      32.3395251       
1584.4           0.840336157      32.0084024       0.530098599      -57.1664236      0.530098599      -57.1664236      0.840336157      32.0084024       
1602.6           0.843424507      31.6819356       0.525257674      -57.4942289      0.525257674      -57.4942289      0.843424507      31.6819356       
1620.8           0.846441626      31.3600355       0.520467787      -57.8173388      0.520467787      -57.8173388      0.846441626      31.3600355       
1639             0.849389404      31.0426149       0.515728483      -58.1358418      0.515728483      -58.1358418      0.849389404      31.0426149       
1657.2           0.85226968       30.729588        0.511039296      -58.4498248      0.511039296      -58.4498248      0.85226968       30.729588        
1675.4           0.85508424       30.4208708       0.506399743      -58.7593727      0.506399743      -58.7593727      0.85508424       30.4208708       
1693.6           0.857834819      30.1163807       0.501809333      -59.0645687      0.501809333      -59.0645687      0.857834819      30.1163807       
1711.8           0.860523106      29.8160371       0.497267565      -59.3654945      0.497267565      -59.3654945      0.860523106      29.8160371       
1730             0.86315074       29.5197607       0.492773927      -59.6622299      0.492773927      -59.6622299      0.86315074       29.5197607       
1748.2           0.865719312      29.2274738       0.488327903      -59.9548533      0.488327903      -59.9548533      0.865719312      29.2274738       
1766.4           0.868230371      28.9391004       0.483928968      -60.2434412      0.483928968      -60.2434412      0.868230371      28.9391004       
1784.6           0.87068542       28.6545661       0.479576593      -60.5280686      0.479576593      -60.5280686      0.87068542       28.6545661       
1802.8           0.87308592       28.3737977       0.475270245      -60.8088091      0.475270245      -60.8088091      0.87308592       28.3737977       
1821             0.875433288      28.0967238       0.471009387      -61.0857343      0.471009387      -61.0857343      0.875433288      28.0967238       
1839.2           0.877728903      27.8232743       0.46679348       -61.3589148      0.46679348       -61.3589148      0.877728903      27.8232743       
1857.4           0.879974102      27.5533807       0.462621982      -61.6284192      0.462621982      -61.6284192      0.879974102      27.5533807       
1875.6           0.882170187      27.2869757       0.458494353      -61.894315       0.458494353      -61.894315       0.882170187      27.2869757       
1893.8           0.884318419      27.0239938       0.454410048      -62.1566681      0.454410048      -62.1566681      0.884318419      27.0239938       
1912             0.886420025      26.7643704       0.450368528      -62.4155428      0.450368528      -62.4155428      0.886420025      26.7643704       
1930.2           0.888476195      26.5080425       0.446369249      -62.6710023      0.446369249      -62.6710023      0.888476195      26.5080425       
1948.4           0.890488088      26.2549485       0.442411672      -62.9231082      0.442411672      -62.9231082      0.890488088      26.2549485       
1966.6           0.892456827      26.0050279       0.438495259      -63.1719208      0.438495259      -63.1719208      0.892456827      26.0050279       
1984.8           0.894383502      25.7582217       0.434619474      -63.4174992      0.434619474      -63.4174992      0.894383502      25.7582217       
2003             0.896269175      25.5144719       0.430783784      -63.659901       0.430783784      -63.659901       0.896269175      25.5144719       
2021.2           0.898114875      25.2737219       0.426987659      -63.8991826      0.426987659      -63.8991826      0.898114875      25.2737219       
2039.4           0.899921602      25.0359164       0.423230572      -64.1353993      0.423230572      -64.1353993      0.899921602      25.0359164       
2057.6           0.901690329      24.8010009       0.419511999      -64.3686048      0.419511999      -64.3686048      0.901690329      24.8010009       
2075.8           0.903421998      24.5689225       0.415831423      -64.5988521      0.415831423      -64.5988521      0.903421998      24.5689225       
2094             0.905117529      24.3396292       0.412188326      -64.8261926      0.412188326      -64.8261926      0.905117529      24.3396292       
2112.2           0.90677781       24.1130701       0.4085822        -65.0506768      0.4085822        -65.0506768      0.90677781       24.1130701       
2130.4           0.908403709      23.8891954       0.405012539      -65.272354       0.405012539      -65.272354       0.908403709      23.8891954       
2148.6           0.909996066      23.6679565       0.401478841      -65.4912723      0.401478841      -65.4912723      0.909996066      23.6679565       
2166.8           0.911555698      23.4493055       0.39798061       -65.7074789      0.39798061       -65.7074789      0.911555698      23.4493055       
2185             0.9130834        23.233196        0.394517355      -65.9210198      0.394517355      -65.9210198      0.9130834        23.233196        
2203.2           0.914579944      23.0195822       0.391088592      -66.13194        0.391088592      -66.13194        0.914579944      23.0195822       
2221.4           0.916046079      22.8084194       0.387693839      -66.3402835      0.387693839      -66.3402835      0.916046079      22.8084194       
2239.6           0.917482535      22.5996638       0.384332622      -66.5460934      0.384332622      -66.5460934      0.917482535      22.5996638       
2257.8           0.91889002       22.3932728       0.381004472      -66.7494116      0.381004472      -66.7494116      0.91889002       22.3932728       
2276             0.920269223      22.1892043       0.377708925      -66.9502793      0.377708925      -66.9502793      0.920269223      22.1892043       
2294.2           0.921620814      21.9874173       0.374445523      -67.1487366      0.374445523      -67.1487366      0.921620814      21.9874173       
2312.4           0.922945443      21.7878717       0.371213815      -67.3448229      0.371213815      -67.3448229      0.922945443      21.7878717       
