! Coilcraft 0402CS-3N6 Chip Inductor				
! 29 May 2002			
# MHZ S MA R 50
!Freq             MagS11           AngS11           MagS21           AngS21           MagS12           AngS12           MagS22           AngS22
1                0.000275869489   55.0522283       0.999841999      -0.0129579525    0.999841999      -0.0129579525    0.000275869489   55.0522284       
37.66            0.00855022421    84.0438165       0.999148952      -0.487668013     0.999148952      -0.487668013     0.00855022421    84.0438165       
74.32            0.0168280358     85.1804896       0.998726937      -0.96203628      0.998726937      -0.96203628      0.0168280358     85.1804896       
110.98           0.025100161      85.4206389       0.998309587      -1.43612009      0.998309587      -1.43612009      0.025100161      85.4206389       
147.64           0.0333656477     85.3719418       0.997862173      -1.90991363      0.997862173      -1.90991363      0.0333656477     85.3719418       
184.3            0.0416234888     85.1880674       0.9973712        -2.3833956       0.9973712        -2.3833956       0.0416234888     85.1880674       
220.96           0.0498726057     84.9283657       0.996829817      -2.85653784      0.996829817      -2.85653784      0.0498726057     84.9283657       
257.62           0.0581118737     84.6212378       0.996234038      -3.32930852      0.996234038      -3.32930852      0.0581118737     84.6212378       
294.28           0.0663401394     84.2822098       0.995581363      -3.80167356      0.995581363      -3.80167356      0.0663401394     84.2822098       
330.94           0.0745562323     83.9205855       0.994870145      -4.27359748      0.994870145      -4.27359748      0.0745562323     83.9205855       
367.6            0.0827589722     83.5423295       0.994099284      -4.74504387      0.994099284      -4.74504387      0.0827589722     83.5423295       
404.26           0.090947175      83.1514698       0.993268041      -5.21597575      0.993268041      -5.21597575      0.090947175      83.1514698       
440.92           0.0991196562     82.750842        0.992375937      -5.68635573      0.992375937      -5.68635573      0.0991196562     82.750842        
477.58           0.107275235      82.3425113       0.991422684      -6.15614623      0.991422684      -6.15614623      0.107275235      82.3425113       
514.24           0.115412734      81.9280251       0.990408142      -6.62530958      0.990408142      -6.62530958      0.115412734      81.9280251       
550.9            0.123530986      81.5085713       0.989332287      -7.09380812      0.989332287      -7.09380812      0.123530986      81.5085713       
587.56           0.131628831      81.0850816       0.988195191      -7.56160427      0.988195191      -7.56160427      0.131628831      81.0850816       
624.22           0.139705121      80.6582998       0.986997004      -8.02866062      0.986997004      -8.02866062      0.139705121      80.6582998       
660.88           0.14775872       80.2288299       0.985737946      -8.49493995      0.985737946      -8.49493995      0.14775872       80.2288299       
697.54           0.155788503      79.7971693       0.984418292      -8.9604053       0.984418292      -8.9604053       0.155788503      79.7971693       
734.2            0.163793364      79.3637334       0.983038373      -9.42502002      0.983038373      -9.42502002      0.163793364      79.3637334       
770.86           0.171772207      78.9288731       0.981598562      -9.88874778      0.981598562      -9.88874778      0.171772207      78.9288731       
807.52           0.179723957      78.4928879       0.980099276      -10.3515526      0.980099276      -10.3515526      0.179723957      78.4928879       
844.18           0.187647554      78.0560363       0.978540968      -10.813399       0.978540968      -10.813399       0.187647554      78.0560363       
880.84           0.195541956      77.6185435       0.976924126      -11.2742519      0.976924126      -11.2742519      0.195541956      77.6185435       
917.5            0.203406139      77.1806068       0.975249271      -11.7340764      0.975249271      -11.7340764      0.203406139      77.1806068       
954.16           0.211239101      76.7424013       0.97351695       -12.1928385      0.97351695       -12.1928385      0.211239101      76.7424013       
990.82           0.219039858      76.3040826       0.971727739      -12.6505045      0.971727739      -12.6505045      0.219039858      76.3040826       
1027.48          0.226807445      75.8657906       0.969882241      -13.1070412      0.969882241      -13.1070412      0.226807445      75.8657906       
1064.14          0.234540923      75.4276514       0.96798108       -13.5624158      0.96798108       -13.5624158      0.234540923      75.4276514       
1100.8           0.242239369      74.9897795       0.966024903      -14.0165964      0.966024903      -14.0165964      0.242239369      74.9897795       
1137.46          0.249901886      74.5522793       0.964014376      -14.4695515      0.964014376      -14.4695515      0.249901886      74.5522793       
1174.12          0.257527598      74.1152467       0.961950188      -14.9212499      0.961950188      -14.9212499      0.257527598      74.1152467       
1210.78          0.265115653      73.6787696       0.959833042      -15.3716615      0.959833042      -15.3716615      0.265115653      73.6787696       
1247.44          0.272665219      73.2429296       0.95766366       -15.8207565      0.95766366       -15.8207565      0.272665219      73.2429296       
1284.1           0.280175491      72.8078022       0.955442779      -16.2685058      0.955442779      -16.2685058      0.280175491      72.8078022       
1320.76          0.287645686      72.3734577       0.95317115       -16.7148808      0.95317115       -16.7148808      0.287645686      72.3734577       
1357.42          0.295075045      71.9399617       0.950849538      -17.1598537      0.950849538      -17.1598537      0.295075045      71.9399617       
1394.08          0.302462835      71.5073756       0.94847872       -17.6033973      0.94847872       -17.6033973      0.302462835      71.5073756       
1430.74          0.309808343      71.0757569       0.946059486      -18.045485       0.946059486      -18.045485       0.309808343      71.0757569       
1467.4           0.317110886      70.6451597       0.943592635      -18.486091       0.943592635      -18.486091       0.317110886      70.6451597       
1504.06          0.324369801      70.215635        0.941078975      -18.92519        0.941078975      -18.92519        0.324369801      70.215635        
1540.72          0.331584452      69.7872309       0.938519324      -19.3627575      0.938519324      -19.3627575      0.331584452      69.7872309       
1577.38          0.338754225      69.3599927       0.935914508      -19.7987695      0.935914508      -19.7987695      0.338754225      69.3599927       
1614.04          0.345878535      68.9339634       0.933265359      -20.2332028      0.933265359      -20.2332028      0.345878535      68.9339634       
1650.7           0.352956818      68.5091836       0.930572715      -20.6660349      0.930572715      -20.6660349      0.352956818      68.5091836       
1687.36          0.359988535      68.0856918       0.927837422      -21.097244       0.927837422      -21.097244       0.359988535      68.0856918       
1724.02          0.366973172      67.6635247       0.925060327      -21.5268088      0.925060327      -21.5268088      0.366973172      67.6635247       
1760.68          0.373910239      67.2427167       0.922242283      -21.9547089      0.922242283      -21.9547089      0.373910239      67.2427167       
1797.34          0.380799271      66.823301        0.919384145      -22.3809244      0.919384145      -22.3809244      0.380799271      66.823301        
1834             0.387639827      66.4053086       0.916486771      -22.8054361      0.916486771      -22.8054361      0.387639827      66.4053086       
1870.66          0.394431488      65.9887694       0.913551021      -23.2282257      0.913551021      -23.2282257      0.394431488      65.9887694       
1907.32          0.401173861      65.5737114       0.910577755      -23.6492753      0.910577755      -23.6492753      0.401173861      65.5737114       
1943.98          0.407866575      65.1601615       0.907567835      -24.0685678      0.907567835      -24.0685678      0.407866575      65.1601615       
1980.64          0.414509283      64.7481451       0.90452212       -24.4860867      0.90452212       -24.4860867      0.414509283      64.7481451       
2017.3           0.42110166       64.3376862       0.901441471      -24.9018163      0.901441471      -24.9018163      0.42110166       64.3376862       
2053.96          0.427643404      63.9288079       0.898326745      -25.3157413      0.898326745      -25.3157413      0.427643404      63.9288079       
2090.62          0.434134237      63.5215318       0.895178799      -25.7278473      0.895178799      -25.7278473      0.434134237      63.5215318       
2127.28          0.440573899      63.1158785       0.891998486      -26.1381205      0.891998486      -26.1381205      0.440573899      63.1158785       
2163.94          0.446962157      62.7118674       0.888786657      -26.5465476      0.888786657      -26.5465476      0.446962157      62.7118674       
2200.6           0.453298795      62.309517        0.885544157      -26.9531162      0.885544157      -26.9531162      0.453298795      62.309517        
2237.26          0.459583621      61.9088446       0.88227183       -27.3578141      0.88227183       -27.3578141      0.459583621      61.9088446       
2273.92          0.465816461      61.5098667       0.878970513      -27.7606301      0.878970513      -27.7606301      0.465816461      61.5098667       
2310.58          0.471997164      61.1125987       0.875641039      -28.1615536      0.875641039      -28.1615536      0.471997164      61.1125987       
2347.24          0.478125597      60.7170552       0.872284234      -28.5605743      0.872284234      -28.5605743      0.478125597      60.7170552       
2383.9           0.484201647      60.3232498       0.86890092       -28.9576828      0.86890092       -28.9576828      0.484201647      60.3232498       
2420.56          0.490225221      59.9311954       0.865491912      -29.3528701      0.865491912      -29.3528701      0.490225221      59.9311954       
2457.22          0.496196244      59.5409038       0.862058017      -29.7461278      0.862058017      -29.7461278      0.496196244      59.5409038       
2493.88          0.502114659      59.1523863       0.858600037      -30.1374483      0.858600037      -30.1374483      0.502114659      59.1523863       
2530.54          0.507980426      58.7656532       0.855118765      -30.5268242      0.855118765      -30.5268242      0.507980426      58.7656532       
2567.2           0.513793526      58.3807142       0.851614986      -30.9142488      0.851614986      -30.9142488      0.513793526      58.3807142       
2603.86          0.519553953      57.997578        0.848089478      -31.2997161      0.848089478      -31.2997161      0.519553953      57.997578        
2640.52          0.52526172       57.6162528       0.844543011      -31.6832204      0.844543011      -31.6832204      0.52526172       57.6162528       
2677.18          0.530916855      57.2367462       0.840976344      -32.0647566      0.840976344      -32.0647566      0.530916855      57.2367462       
2713.84          0.536519403      56.8590649       0.837390231      -32.4443201      0.837390231      -32.4443201      0.536519403      56.8590649       
2750.5           0.542069423      56.483215        0.833785413      -32.8219068      0.833785413      -32.8219068      0.542069423      56.483215        
2787.16          0.547566989      56.1092021       0.830162624      -33.1975131      0.830162624      -33.1975131      0.547566989      56.1092021       
2823.82          0.55301219       55.7370309       0.826522588      -33.571136       0.826522588      -33.571136       0.55301219       55.7370309       
2860.48          0.558405129      55.3667059       0.822866019      -33.9427726      0.822866019      -33.9427726      0.558405129      55.3667059       
2897.14          0.563745922      54.9982307       0.819193622      -34.3124208      0.819193622      -34.3124208      0.563745922      54.9982307       
2933.8           0.569034699      54.6316084       0.81550609       -34.6800789      0.81550609       -34.6800789      0.569034699      54.6316084       
2970.46          0.574271602      54.2668416       0.811804108      -35.0457454      0.811804108      -35.0457454      0.574271602      54.2668416       
3007.12          0.579456784      53.9039324       0.80808835       -35.4094195      0.80808835       -35.4094195      0.579456784      53.9039324       
3043.78          0.584590413      53.5428824       0.804359479      -35.7711007      0.804359479      -35.7711007      0.584590413      53.5428824       
3080.44          0.589672665      53.1836925       0.800618148      -36.1307889      0.800618148      -36.1307889      0.589672665      53.1836925       
3117.1           0.59470373       52.8263634       0.796865001      -36.4884843      0.796865001      -36.4884843      0.59470373       52.8263634       
3153.76          0.599683806      52.4708951       0.793100668      -36.8441876      0.793100668      -36.8441876      0.599683806      52.4708951       
3190.42          0.604613103      52.1172873       0.78932577       -37.1978998      0.78932577       -37.1978998      0.604613103      52.1172873       
3227.08          0.609491841      51.7655392       0.78554092       -37.5496224      0.78554092       -37.5496224      0.609491841      51.7655392       
3263.74          0.614320247      51.4156495       0.781746715      -37.899357       0.781746715      -37.899357       0.614320247      51.4156495       
3300.4           0.619098558      51.0676167       0.777943745      -38.2471057      0.777943745      -38.2471057      0.619098558      51.0676167       
3337.06          0.623827022      50.7214387       0.774132587      -38.5928709      0.774132587      -38.5928709      0.623827022      50.7214387       
3373.72          0.628505892      50.3771131       0.77031381       -38.9366552      0.77031381       -38.9366552      0.628505892      50.3771131       
3410.38          0.633135431      50.034637        0.76648797       -39.2784618      0.76648797       -39.2784618      0.633135431      50.034637        
3447.04          0.637715908      49.6940074       0.762655612      -39.6182939      0.762655612      -39.6182939      0.637715908      49.6940074       
3483.7           0.6422476        49.3552207       0.75881727       -39.956155       0.75881727       -39.956155       0.6422476        49.3552207       
3520.36          0.64673079       49.0182731       0.754973471      -40.292049       0.754973471      -40.292049       0.64673079       49.0182731       
3557.02          0.651165768      48.6831605       0.751124726      -40.6259801      0.751124726      -40.6259801      0.651165768      48.6831605       
3593.68          0.655552831      48.3498784       0.747271539      -40.9579525      0.747271539      -40.9579525      0.655552831      48.3498784       
3630.34          0.65989228       48.018422        0.743414401      -41.2879709      0.743414401      -41.2879709      0.65989228       48.018422        
3667             0.664184423      47.6887862       0.739553796      -41.6160402      0.739553796      -41.6160402      0.664184423      47.6887862       
3703.66          0.668429571      47.3609659       0.735690193      -41.9421653      0.735690193      -41.9421653      0.668429571      47.3609659       
3740.32          0.672628043      47.0349552       0.731824054      -42.2663517      0.731824054      -42.2663517      0.672628043      47.0349552       
3776.98          0.676780159      46.7107484       0.727955829      -42.5886047      0.727955829      -42.5886047      0.676780159      46.7107484       
3813.64          0.680886245      46.3883395       0.72408596       -42.90893        0.72408596       -42.90893        0.680886245      46.3883395       
3850.3           0.684946632      46.0677219       0.720214875      -43.2273335      0.720214875      -43.2273335      0.684946632      46.0677219       
3886.96          0.688961653      45.7488892       0.716342996      -43.5438212      0.716342996      -43.5438212      0.688961653      45.7488892       
3923.62          0.692931644      45.4318347       0.712470732      -43.8583994      0.712470732      -43.8583994      0.692931644      45.4318347       
3960.28          0.696856946      45.1165512       0.708598485      -44.1710744      0.708598485      -44.1710744      0.696856946      45.1165512       
3996.94          0.700737902      44.8030317       0.704726644      -44.4818528      0.704726644      -44.4818528      0.700737902      44.8030317       
4033.6           0.704574856      44.4912686       0.700855591      -44.7907412      0.700855591      -44.7907412      0.704574856      44.4912686       
4070.26          0.708368158      44.1812546       0.696985699      -45.0977463      0.696985699      -45.0977463      0.708368158      44.1812546       
4106.92          0.712118156      43.8729818       0.693117328      -45.4028753      0.693117328      -45.4028753      0.712118156      43.8729818       
4143.58          0.715825203      43.5664423       0.689250832      -45.706135       0.689250832      -45.706135       0.715825203      43.5664423       
4180.24          0.719489653      43.2616282       0.685386556      -46.0075327      0.685386556      -46.0075327      0.719489653      43.2616282       
4216.9           0.723111859      42.9585311       0.681524833      -46.3070757      0.681524833      -46.3070757      0.723111859      42.9585311       
4253.56          0.72669218       42.6571427       0.677665991      -46.6047712      0.677665991      -46.6047712      0.72669218       42.6571427       
4290.22          0.730230972      42.3574546       0.673810346      -46.9006269      0.673810346      -46.9006269      0.730230972      42.3574546       
4326.88          0.733728593      42.0594581       0.669958207      -47.1946501      0.669958207      -47.1946501      0.733728593      42.0594581       
4363.54          0.737185403      41.7631446       0.666109875      -47.4868486      0.666109875      -47.4868486      0.737185403      41.7631446       
4400.2           0.740601762      41.4685052       0.662265641      -47.77723        0.662265641      -47.77723        0.740601762      41.4685052       
4436.86          0.743978028      41.1755309       0.658425788      -48.0658022      0.658425788      -48.0658022      0.743978028      41.1755309       
4473.52          0.747314563      40.8842126       0.654590594      -48.3525728      0.654590594      -48.3525728      0.747314563      40.8842126       
4510.18          0.750611726      40.5945414       0.650760324      -48.6375498      0.650760324      -48.6375498      0.750611726      40.5945414       
4546.84          0.753869877      40.3065078       0.646935239      -48.9207411      0.646935239      -48.9207411      0.753869877      40.3065078       
4583.5           0.757089377      40.0201027       0.643115592      -49.2021547      0.643115592      -49.2021547      0.757089377      40.0201027       
4620.16          0.760270584      39.7353166       0.639301626      -49.4817984      0.639301626      -49.4817984      0.760270584      39.7353166       
4656.82          0.763413857      39.4521401       0.635493579      -49.7596804      0.635493579      -49.7596804      0.763413857      39.4521401       
