! Coilcraft 0402CS-6N2 Chip Inductor				
! 29 May 2002			
# MHZ S MA R 50
!Freq             MagS11           AngS11           MagS21           AngS21           MagS12           AngS12           MagS22           AngS22
1                0.000475563357   54.9551007       0.999726999      -0.0223139073    0.999726999      -0.0223139073    0.000475563357   54.9551007       
28.43            0.0111298306     82.9827667       0.998701386      -0.633751558     0.998701386      -0.633751558     0.0111298306     82.9827667       
55.86            0.0217864225     84.2446646       0.998050666      -1.24450137      0.998050666      -1.24450137      0.0217864225     84.2446646       
83.29            0.0324307739     84.4680267       0.997396122      -1.85464455      0.997396122      -1.85464455      0.0324307739     84.4680267       
110.72           0.0430604773     84.3552849       0.996686202      -2.46414281      0.996686202      -2.46414281      0.0430604773     84.3552849       
138.15           0.0536730215     84.0851499       0.995900972      -3.07292844      0.995900972      -3.07292844      0.0536730215     84.0851499       
165.58           0.0642657697     83.7268378       0.995030458      -3.68092096      0.995030458      -3.68092096      0.0642657697     83.7268378       
193.01           0.0748360105     83.3135407       0.994069019      -4.28803318      0.994069019      -4.28803318      0.0748360105     83.3135407       
220.44           0.0853809951     82.8634429       0.993013276      -4.89417416      0.993013276      -4.89417416      0.0853809951     82.8634429       
247.87           0.0958979608     82.3874677       0.99186118       -5.49925087      0.99186118       -5.49925087      0.0958979608     82.3874677       
275.3            0.106384148      81.8926394       0.990611534      -6.10316915      0.990611534      -6.10316915      0.106384148      81.8926394       
302.73           0.116836814      81.3837196       0.989263729      -6.70583442      0.989263729      -6.70583442      0.116836814      81.3837196       
330.16           0.12725324       80.8640761       0.987817583      -7.30715217      0.987817583      -7.30715217      0.12725324       80.8640761       
357.59           0.13763074       80.3361748       0.986273238      -7.90702833      0.986273238      -7.90702833      0.13763074       80.3361748       
385.02           0.14796667       79.8018758       0.984631095      -8.50536957      0.984631095      -8.50536957      0.14796667       79.8018758       
412.45           0.158258429      79.262618        0.98289176       -9.10208353      0.98289176       -9.10208353      0.158258429      79.262618        
439.88           0.168503467      78.7195387       0.981056018      -9.69707902      0.981056018      -9.69707902      0.168503467      78.7195387       
467.31           0.178699289      78.1735552       0.9791248        -10.2902662      0.9791248        -10.2902662      0.178699289      78.1735552       
494.74           0.188843456      77.6254193       0.97709917       -10.8815567      0.97709917       -10.8815567      0.188843456      77.6254193       
522.17           0.198933594      77.0757573       0.974980304      -11.4708639      0.974980304      -11.4708639      0.198933594      77.0757573       
549.6            0.208967391      76.5250977       0.972769477      -12.0581027      0.972769477      -12.0581027      0.208967391      76.5250977       
577.03           0.218942604      75.9738921       0.970468058      -12.64319        0.970468058      -12.64319        0.218942604      75.9738921       
604.46           0.228857058      75.4225309       0.968077495      -13.2260446      0.968077495      -13.2260446      0.228857058      75.4225309       
631.89           0.238708653      74.8713545       0.96559931       -13.8065874      0.96559931       -13.8065874      0.238708653      74.8713545       
659.32           0.248495359      74.3206627       0.963035091      -14.3847412      0.963035091      -14.3847412      0.248495359      74.3206627       
686.75           0.258215225      73.7707216       0.960386484      -14.9604312      0.960386484      -14.9604312      0.258215225      73.7707216       
714.18           0.267866375      73.221769        0.957655192      -15.5335847      0.957655192      -15.5335847      0.267866375      73.221769        
741.61           0.277447011      72.6740186       0.954842962      -16.1041311      0.954842962      -16.1041311      0.277447011      72.6740186       
769.04           0.286955414      72.1276638       0.951951587      -16.6720024      0.951951587      -16.6720024      0.286955414      72.1276638       
796.47           0.296389946      71.5828803       0.948982898      -17.2371327      0.948982898      -17.2371327      0.296389946      71.5828803       
823.9            0.305749048      71.0398283       0.94593876       -17.7994588      0.94593876       -17.7994588      0.305749048      71.0398283       
851.33           0.315031241      70.4986547       0.942821064      -18.3589194      0.942821064      -18.3589194      0.315031241      70.4986547       
878.76           0.324235127      69.9594944       0.939631732      -18.9154561      0.939631732      -18.9154561      0.324235127      69.9594944       
906.19           0.333359389      69.4224716       0.936372702      -19.4690126      0.936372702      -19.4690126      0.333359389      69.4224716       
933.62           0.34240279       68.8877011       0.933045932      -20.0195353      0.933045932      -20.0195353      0.34240279       68.8877011       
961.05           0.351364173      68.3552889       0.929653394      -20.5669728      0.929653394      -20.5669728      0.351364173      68.3552889       
988.48           0.360242459      67.8253332       0.926197071      -21.1112764      0.926197071      -21.1112764      0.360242459      67.8253332       
1015.91          0.369036648      67.2979251       0.92267895       -21.6523995      0.92267895       -21.6523995      0.369036648      67.2979251       
1043.34          0.37774582       66.7731489       0.919101025      -22.1902982      0.919101025      -22.1902982      0.37774582       66.7731489       
1070.77          0.386369129      66.2510831       0.915465291      -22.7249309      0.915465291      -22.7249309      0.386369129      66.2510831       
1098.2           0.394905805      65.7318004       0.911773739      -23.2562585      0.911773739      -23.2562585      0.394905805      65.7318004       
1125.63          0.403355154      65.215368        0.908028356      -23.784244       0.908028356      -23.784244       0.403355154      65.215368        
1153.06          0.411716552      64.7018484       0.904231123      -24.3088531      0.904231123      -24.3088531      0.411716552      64.7018484       
1180.49          0.419989449      64.1912994       0.900384009      -24.8300536      0.900384009      -24.8300536      0.419989449      64.1912994       
1207.92          0.428173364      63.6837745       0.896488971      -25.3478155      0.896488971      -25.3478155      0.428173364      63.6837745       
1235.35          0.436267886      63.1793229       0.892547954      -25.8621114      0.892547954      -25.8621114      0.436267886      63.1793229       
1262.78          0.444272668      62.67799         0.888562884      -26.3729156      0.888562884      -26.3729156      0.444272668      62.67799         
1290.21          0.452187431      62.1798176       0.884535668      -26.8802052      0.884535668      -26.8802052      0.452187431      62.1798176       
1317.64          0.460011956      61.6848437       0.880468195      -27.3839588      0.880468195      -27.3839588      0.460011956      61.6848437       
1345.07          0.46774609       61.1931032       0.876362331      -27.8841575      0.876362331      -27.8841575      0.46774609       61.1931032       
1372.5           0.475389734      60.7046277       0.872219916      -28.3807844      0.872219916      -28.3807844      0.475389734      60.7046277       
1399.93          0.482942851      60.2194457       0.868042768      -28.8738244      0.868042768      -28.8738244      0.482942851      60.2194457       
1427.36          0.490405458      59.7375831       0.863832677      -29.3632646      0.863832677      -29.3632646      0.490405458      59.7375831       
1454.79          0.497777625      59.2590626       0.859591405      -29.8490939      0.859591405      -29.8490939      0.497777625      59.2590626       
1482.22          0.505059475      58.7839045       0.855320686      -30.3313029      0.855320686      -30.3313029      0.505059475      58.7839045       
1509.65          0.512251181      58.3121266       0.851022222      -30.8098843      0.851022222      -30.8098843      0.512251181      58.3121266       
1537.08          0.519352962      57.8437441       0.846697686      -31.2848322      0.846697686      -31.2848322      0.519352962      57.8437441       
1564.51          0.526365085      57.3787699       0.842348719      -31.7561428      0.842348719      -31.7561428      0.526365085      57.3787699       
1591.94          0.533287859      56.9172149       0.837976928      -32.2238136      0.837976928      -32.2238136      0.533287859      56.9172149       
1619.37          0.540121636      56.4590877       0.833583888      -32.687844       0.833583888      -32.687844       0.540121636      56.4590877       
1646.8           0.546866808      56.0043947       0.829171141      -33.1482345      0.829171141      -33.1482345      0.546866808      56.0043947       
1674.23          0.553523804      55.5531408       0.824740193      -33.6049876      0.824740193      -33.6049876      0.553523804      55.5531408       
1701.66          0.56009309       55.1053286       0.820292518      -34.0581069      0.820292518      -34.0581069      0.56009309       55.1053286       
1729.09          0.566575166      54.6609592       0.815829552      -34.5075975      0.815829552      -34.5075975      0.566575166      54.6609592       
1756.52          0.572970565      54.2200319       0.811352698      -34.9534658      0.811352698      -34.9534658      0.572970565      54.2200319       
1783.95          0.57927985       53.7825444       0.806863324      -35.3957195      0.806863324      -35.3957195      0.57927985       53.7825444       
1811.38          0.585503612      53.3484928       0.802362761      -35.8343676      0.802362761      -35.8343676      0.585503612      53.3484928       
1838.81          0.591642471      52.9178719       0.797852307      -36.26942        0.797852307      -36.26942        0.591642471      52.9178719       
1866.24          0.597697071      52.4906749       0.793333222      -36.7008881      0.793333222      -36.7008881      0.597697071      52.4906749       
1893.67          0.60366808       52.0668938       0.788806734      -37.1287841      0.788806734      -37.1287841      0.60366808       52.0668938       
1921.1           0.60955619       51.6465191       0.784274033      -37.5531214      0.784274033      -37.5531214      0.60955619       51.6465191       
1948.53          0.61536211       51.2295405       0.779736276      -37.9739143      0.779736276      -37.9739143      0.61536211       51.2295405       
1975.96          0.621086572      50.8159461       0.775194584      -38.3911779      0.775194584      -38.3911779      0.621086572      50.8159461       
2003.39          0.626730323      50.4057233       0.770650044      -38.8049286      0.770650044      -38.8049286      0.626730323      50.4057233       
2030.82          0.632294127      49.9988582       0.766103712      -39.2151831      0.766103712      -39.2151831      0.632294127      49.9988582       
2058.25          0.637778762      49.595336        0.761556605      -39.6219594      0.761556605      -39.6219594      0.637778762      49.595336        
2085.68          0.643185022      49.195141        0.757009712      -40.0252759      0.757009712      -40.0252759      0.643185022      49.195141        
2113.11          0.64851371       48.7982567       0.752463985      -40.4251518      0.752463985      -40.4251518      0.64851371       48.7982567       
2140.54          0.653765642      48.4046656       0.747920346      -40.8216072      0.747920346      -40.8216072      0.653765642      48.4046656       
2167.97          0.658941644      48.0143496       0.743379686      -41.2146625      0.743379686      -41.2146625      0.658941644      48.0143496       
2195.4           0.66404255       47.6272897       0.738842861      -41.6043388      0.738842861      -41.6043388      0.66404255       47.6272897       
2222.83          0.6690692        47.2434664       0.734310701      -41.9906579      0.734310701      -41.9906579      0.6690692        47.2434664       
2250.26          0.674022443      46.8628595       0.729784002      -42.3736419      0.729784002      -42.3736419      0.674022443      46.8628595       
2277.69          0.678903133      46.4854481       0.725263531      -42.7533136      0.725263531      -42.7533136      0.678903133      46.4854481       
2305.12          0.683712126      46.1112108       0.720750027      -43.1296962      0.720750027      -43.1296962      0.683712126      46.1112108       
2332.55          0.688450286      45.7401257       0.7162442        -43.5028131      0.7162442        -43.5028131      0.688450286      45.7401257       
2359.98          0.693118476      45.3721706       0.711746732      -43.8726883      0.711746732      -43.8726883      0.693118476      45.3721706       
2387.41          0.697717562      45.0073225       0.707258276      -44.2393461      0.707258276      -44.2393461      0.697717562      45.0073225       
2414.84          0.702248412      44.6455581       0.702779462      -44.6028111      0.702779462      -44.6028111      0.702248412      44.6455581       
2442.27          0.706711893      44.286854        0.69831089       -44.9631082      0.69831089       -44.9631082      0.706711893      44.286854        
2469.7           0.711108873      43.9311861       0.693853136      -45.3202627      0.693853136      -45.3202627      0.711108873      43.9311861       
2497.13          0.715440217      43.5785302       0.689406752      -45.6742998      0.689406752      -45.6742998      0.715440217      43.5785302       
2524.56          0.719706791      43.2288616       0.684972265      -46.0252452      0.684972265      -46.0252452      0.719706791      43.2288616       
2551.99          0.723909457      42.8821556       0.680550177      -46.3731248      0.680550177      -46.3731248      0.723909457      42.8821556       
2579.42          0.728049074      42.5383872       0.676140969      -46.7179644      0.676140969      -46.7179644      0.728049074      42.5383872       
2606.85          0.732126498      42.197531        0.671745098      -47.0597902      0.671745098      -47.0597902      0.732126498      42.197531        
2634.28          0.73614258       41.8595616       0.667363         -47.3986284      0.667363         -47.3986284      0.73614258       41.8595616       
2661.71          0.74009817       41.5244535       0.66299509       -47.7345053      0.66299509       -47.7345053      0.74009817       41.5244535       
2689.14          0.74399411       41.192181        0.658641761      -48.0674473      0.658641761      -48.0674473      0.74399411       41.192181        
2716.57          0.747831236      40.8627181       0.654303388      -48.3974808      0.654303388      -48.3974808      0.747831236      40.8627181       
2744             0.751610383      40.5360389       0.649980325      -48.7246324      0.649980325      -48.7246324      0.751610383      40.5360389       
2771.43          0.755332374      40.2121175       0.645672908      -49.0489285      0.645672908      -49.0489285      0.755332374      40.2121175       
2798.86          0.758998031      39.8909278       0.641381453      -49.3703956      0.641381453      -49.3703956      0.758998031      39.8909278       
2826.29          0.762608166      39.5724437       0.63710626       -49.6890602      0.63710626       -49.6890602      0.762608166      39.5724437       
2853.72          0.766163585      39.2566391       0.632847612      -50.0049487      0.632847612      -50.0049487      0.766163585      39.2566391       
2881.15          0.769665088      38.9434879       0.628605774      -50.3180877      0.628605774      -50.3180877      0.769665088      38.9434879       
2908.58          0.773113466      38.632964        0.624380995      -50.6285033      0.624380995      -50.6285033      0.773113466      38.632964        
2936.01          0.776509503      38.3250413       0.62017351       -50.936222       0.62017351       -50.936222       0.776509503      38.3250413       
2963.44          0.779853975      38.0196938       0.615983537      -51.2412698      0.615983537      -51.2412698      0.779853975      38.0196938       
2990.87          0.78314765       37.7168955       0.61181128       -51.543673       0.61181128       -51.543673       0.78314765       37.7168955       
3018.3           0.786391288      37.4166205       0.60765693       -51.8434575      0.60765693       -51.8434575      0.786391288      37.4166205       
3045.73          0.789585642      37.118843        0.603520663      -52.1406491      0.603520663      -52.1406491      0.789585642      37.118843        
3073.16          0.792731453      36.8235372       0.599402643      -52.4352736      0.599402643      -52.4352736      0.792731453      36.8235372       
3100.59          0.795829456      36.5306775       0.59530302       -52.7273567      0.59530302       -52.7273567      0.795829456      36.5306775       
3128.02          0.798880378      36.2402384       0.591221933      -53.0169238      0.591221933      -53.0169238      0.798880378      36.2402384       
3155.45          0.801884935      35.9521944       0.587159508      -53.3040002      0.587159508      -53.3040002      0.801884935      35.9521944       
3182.88          0.804843837      35.6665203       0.583115862      -53.588611       0.583115862      -53.588611       0.804843837      35.6665203       
3210.31          0.807757781      35.3831908       0.579091097      -53.8707812      0.579091097      -53.8707812      0.807757781      35.3831908       
3237.74          0.810627459      35.1021811       0.575085309      -54.1505356      0.575085309      -54.1505356      0.810627459      35.1021811       
3265.17          0.813453553      34.8234662       0.571098581      -54.4278989      0.571098581      -54.4278989      0.813453553      34.8234662       
3292.6           0.816236735      34.5470214       0.567130987      -54.7028953      0.567130987      -54.7028953      0.816236735      34.5470214       
3320.03          0.818977668      34.2728222       0.563182592      -54.9755493      0.563182592      -54.9755493      0.818977668      34.2728222       
3347.46          0.821677006      34.0008443       0.559253451      -55.2458847      0.559253451      -55.2458847      0.821677006      34.0008443       
3374.89          0.824335396      33.7310633       0.555343611      -55.5139255      0.555343611      -55.5139255      0.824335396      33.7310633       
3402.32          0.826953474      33.4634554       0.551453112      -55.7796951      0.551453112      -55.7796951      0.826953474      33.4634554       
3429.75          0.829531868      33.1979966       0.547581983      -56.0432171      0.547581983      -56.0432171      0.829531868      33.1979966       
3457.18          0.832071195      32.9346634       0.543730249      -56.3045145      0.543730249      -56.3045145      0.832071195      32.9346634       
3484.61          0.834572065      32.6734322       0.539897924      -56.5636103      0.539897924      -56.5636103      0.834572065      32.6734322       
