! Coilcraft 0402CS-39N Chip Inductor				
! 22 July 2002			
# MHZ S MA R 50
!Freq             MagS11           AngS11           MagS21           AngS21           MagS12           AngS12           MagS22           AngS22
1                0.00283311623    59.5933262       0.998569052      -0.14019924      0.998569052      -0.14019924      0.00283311623    59.5933262       
13.97            0.0343999559     79.8021368       0.994486032      -1.95096777      0.994486032      -1.95096777      0.0343999559     79.8021368       
26.94            0.0657782918     80.3366641       0.991082177      -3.7514538       0.991082177      -3.7514538       0.0657782918     80.3366641       
39.91            0.0968934424     79.6143355       0.987144258      -5.54037635      0.987144258      -5.54037635      0.0968934424     79.6143355       
52.88            0.127672475      78.481976        0.982503921      -7.31528181      0.982503921      -7.31528181      0.127672475      78.481976        
65.85            0.158042273      77.1644385       0.977117194      -9.0735207       0.977117194      -9.0735207       0.158042273      77.1644385       
78.82            0.187932735      75.7517018       0.970983527      -10.8124604      0.970983527      -10.8124604      0.187932735      75.7517018       
91.79            0.217278547      74.2885075       0.964123806      -12.5295776      0.964123806      -12.5295776      0.217278547      74.2885075       
104.76           0.246020269      72.8004386       0.956571598      -14.2225105      0.956571598      -14.2225105      0.246020269      72.8004386       
117.73           0.274105045      71.3036275       0.948368692      -15.8890909      0.948368692      -15.8890909      0.274105045      71.3036275       
130.7            0.301487013      69.808995        0.939562353      -17.5273654      0.939562353      -17.5273654      0.301487013      69.808995        
143.67           0.32812749       68.3243238       0.930203407      -19.1356078      0.930203407      -19.1356078      0.32812749       68.3243238       
156.64           0.353994971      66.8553652       0.920344757      -20.7123238      0.920344757      -20.7123238      0.353994971      66.8553652       
169.61           0.379064967      65.4064716       0.910040208      -22.2562523      0.910040208      -22.2562523      0.379064967      65.4064716       
182.58           0.403319712      63.9809822       0.899343491      -23.7663603      0.899343491      -23.7663603      0.403319712      63.9809822       
195.55           0.426747769      62.5814695       0.888307462      -25.2418352      0.888307462      -25.2418352      0.426747769      62.5814695       
208.52           0.449343565      61.2099059       0.876983452      -26.6820743      0.876983452      -26.6820743      0.449343565      61.2099059       
221.49           0.47110687       59.867781        0.865420744      -28.0866717      0.865420744      -28.0866717      0.47110687       59.867781        
234.46           0.492042244      58.5561889       0.853666179      -29.4554038      0.853666179      -29.4554038      0.492042244      58.5561889       
247.43           0.512158478      57.2758944       0.841763852      -30.7882141      0.841763852      -30.7882141      0.512158478      57.2758944       
260.4            0.531468033      56.0273858       0.829754921      -32.0851969      0.829754921      -32.0851969      0.531468033      56.0273858       
273.37           0.549986501      54.8109185       0.817677481      -33.3465817      0.817677481      -33.3465817      0.549986501      54.8109185       
286.34           0.567732089      53.6265503       0.805566518      -34.5727169      0.805566518      -34.5727169      0.567732089      53.6265503       
299.31           0.584725138      52.474173        0.79345392       -35.7640552      0.79345392       -35.7640552      0.584725138      52.474173        
312.28           0.600987676      51.353538        0.781368535      -36.9211386      0.781368535      -36.9211386      0.600987676      51.353538        
325.25           0.616543024      50.2642794       0.769336265      -38.0445848      0.769336265      -38.0445848      0.616543024      50.2642794       
338.22           0.631415427      49.2059341       0.757380192      -39.1350748      0.757380192      -39.1350748      0.631415427      49.2059341       
351.19           0.645629743      48.177959        0.745520726      -40.1933407      0.745520726      -40.1933407      0.645629743      48.177959        
364.16           0.659211158      47.1797462       0.733775762      -41.220156       0.733775762      -41.220156       0.659211158      47.1797462       
377.13           0.672184954      46.2106363       0.722160855      -42.2163251      0.722160855      -42.2163251      0.672184954      46.2106363       
390.1            0.6845763        45.2699299       0.710689387      -43.1826754      0.710689387      -43.1826754      0.6845763        45.2699299       
403.07           0.696410083      44.356898        0.699372745      -44.1200497      0.699372745      -44.1200497      0.696410083      44.356898        
416.04           0.707710767      43.47079         0.688220491      -45.0292993      0.688220491      -45.0292993      0.707710767      43.47079         
429.01           0.718502277      42.6108419       0.677240526      -45.9112785      0.677240526      -45.9112785      0.718502277      42.6108419       
441.98           0.728807911      41.776282        0.666439249      -46.7668396      0.666439249      -46.7668396      0.728807911      41.776282        
454.95           0.738650267      40.9663369       0.655821706      -47.5968288      0.655821706      -47.5968288      0.738650267      40.9663369       
467.92           0.748051194      40.180236        0.645391733      -48.4020822      0.645391733      -48.4020822      0.748051194      40.180236        
480.89           0.757031752      39.417215        0.635152085      -49.1834232      0.635152085      -49.1834232      0.757031752      39.417215        
493.86           0.765612189      38.6765194       0.625104559      -49.9416599      0.625104559      -49.9416599      0.765612189      38.6765194       
506.83           0.773811933      37.9574073       0.615250105      -50.6775834      0.615250105      -50.6775834      0.773811933      37.9574073       
519.8            0.781649583      37.2591511       0.60558893       -51.3919655      0.60558893       -51.3919655      0.781649583      37.2591511       
532.77           0.789142916      36.5810394       0.596120592      -52.0855583      0.596120592      -52.0855583      0.789142916      36.5810394       
545.74           0.796308899      35.9223786       0.586844082      -52.7590928      0.586844082      -52.7590928      0.796308899      35.9223786       
558.71           0.803163704      35.2824932       0.577757904      -53.4132785      0.577757904      -53.4132785      0.803163704      35.2824932       
571.68           0.809722727      34.6607274       0.568860143      -54.0488026      0.568860143      -54.0488026      0.809722727      34.6607274       
584.65           0.81600061       34.0564449       0.560148527      -54.6663304      0.560148527      -54.6663304      0.81600061       34.0564449       
597.62           0.822011269      33.4690293       0.551620482      -55.2665048      0.551620482      -55.2665048      0.822011269      33.4690293       
610.59           0.827767917      32.8978847       0.543273185      -55.8499466      0.543273185      -55.8499466      0.827767917      32.8978847       
623.56           0.833283094      32.342435        0.535103603      -56.4172547      0.535103603      -56.4172547      0.833283094      32.342435        
636.53           0.838568693      31.8021241       0.527108535      -56.9690061      0.527108535      -56.9690061      0.838568693      31.8021241       
649.5            0.84363599       31.2764157       0.519284648      -57.505757       0.519284648      -57.505757       0.84363599       31.2764157       
662.47           0.848495674      30.7647928       0.511628505      -58.0280426      0.511628505      -58.0280426      0.848495674      30.7647928       
675.44           0.853157868      30.2667574       0.504136592      -58.5363778      0.504136592      -58.5363778      0.853157868      30.2667574       
688.41           0.857632166      29.7818303       0.496805342      -59.0312579      0.496805342      -59.0312579      0.857632166      29.7818303       
701.38           0.861927652      29.3095499       0.489631157      -59.5131591      0.489631157      -59.5131591      0.861927652      29.3095499       
714.35           0.866052928      28.8494726       0.482610422      -59.9825389      0.482610422      -59.9825389      0.866052928      28.8494726       
727.32           0.870016141      28.4011716       0.475739524      -60.439837       0.475739524      -60.439837       0.870016141      28.4011716       
740.29           0.873825005      27.9642367       0.469014864      -60.8854757      0.469014864      -60.8854757      0.873825005      27.9642367       
753.26           0.877486826      27.5382737       0.462432866      -61.3198606      0.462432866      -61.3198606      0.877486826      27.5382737       
766.23           0.881008519      27.1229037       0.455989992      -61.7433813      0.455989992      -61.7433813      0.881008519      27.1229037       
779.2            0.884396638      26.7177626       0.449682745      -62.1564118      0.449682745      -62.1564118      0.884396638      26.7177626       
792.17           0.887657387      26.3225009       0.443507678      -62.5593112      0.443507678      -62.5593112      0.887657387      26.3225009       
805.14           0.890796645      25.9367824       0.4374614        -62.9524242      0.4374614        -62.9524242      0.890796645      25.9367824       
818.11           0.89381998       25.5602845       0.43154058       -63.336082       0.43154058       -63.336082       0.89381998       25.5602845       
831.08           0.896732671      25.1926973       0.425741951      -63.7106024      0.425741951      -63.7106024      0.896732671      25.1926973       
844.05           0.899539721      24.8337228       0.420062313      -64.0762907      0.420062313      -64.0762907      0.899539721      24.8337228       
857.02           0.90224587       24.4830751       0.414498536      -64.4334397      0.414498536      -64.4334397      0.90224587       24.4830751       
869.99           0.904855617      24.1404792       0.40904756       -64.7823311      0.40904756       -64.7823311      0.904855617      24.1404792       
882.96           0.907373226      23.8056712       0.403706397      -65.123235       0.403706397      -65.123235       0.907373226      23.8056712       
895.93           0.909802744      23.4783972       0.398472133      -65.4564111      0.398472133      -65.4564111      0.909802744      23.4783972       
908.9            0.91214801       23.1584136       0.393341925      -65.7821088      0.393341925      -65.7821088      0.91214801       23.1584136       
921.87           0.91441267       22.8454858       0.388313005      -66.1005676      0.388313005      -66.1005676      0.91441267       22.8454858       
934.84           0.916600183      22.5393887       0.383382678      -66.412018       0.383382678      -66.412018       0.916600183      22.5393887       
947.81           0.918713838      22.2399058       0.378548321      -66.716681       0.378548321      -66.716681       0.918713838      22.2399058       
960.78           0.920756756      21.9468287       0.373807381      -67.0147694      0.373807381      -67.0147694      0.920756756      21.9468287       
973.75           0.922731906      21.6599573       0.369157378      -67.3064877      0.369157378      -67.3064877      0.922731906      21.6599573       
986.72           0.924642109      21.3790989       0.3645959        -67.5920325      0.3645959        -67.5920325      0.924642109      21.3790989       
999.69           0.926490047      21.1040684       0.360120603      -67.8715928      0.360120603      -67.8715928      0.926490047      21.1040684       
1012.66          0.928278272      20.8346873       0.355729212      -68.1453506      0.355729212      -68.1453506      0.928278272      20.8346873       
1025.63          0.930009212      20.5707842       0.351419515      -68.4134809      0.351419515      -68.4134809      0.930009212      20.5707842       
1038.6           0.931685179      20.3121939       0.347189366      -68.676152       0.347189366      -68.676152       0.931685179      20.3121939       
1051.57          0.933308373      20.0587573       0.343036682      -68.9335261      0.343036682      -68.9335261      0.933308373      20.0587573       
1064.54          0.934880891      19.8103215       0.33895944       -69.1857591      0.33895944       -69.1857591      0.934880891      19.8103215       
1077.51          0.936404728      19.566739        0.334955677      -69.4330013      0.334955677      -69.4330013      0.936404728      19.566739        
1090.48          0.937881788      19.3278676       0.331023488      -69.6753973      0.331023488      -69.6753973      0.937881788      19.3278676       
1103.45          0.939313885      19.0935705       0.327161026      -69.9130867      0.327161026      -69.9130867      0.939313885      19.0935705       
1116.42          0.94070275       18.8637159       0.323366497      -70.1462036      0.323366497      -70.1462036      0.94070275       18.8637159       
1129.39          0.942050033      18.6381764       0.31963816       -70.3748774      0.31963816       -70.3748774      0.942050033      18.6381764       
1142.36          0.94335731       18.4168296       0.315974329      -70.5992329      0.315974329      -70.5992329      0.94335731       18.4168296       
1155.33          0.944626085      18.1995571       0.312373366      -70.8193905      0.312373366      -70.8193905      0.944626085      18.1995571       
1168.3           0.945857792      17.986245        0.308833682      -71.035466       0.308833682      -71.035466       0.945857792      17.986245        
1181.27          0.947053804      17.7767831       0.305353736      -71.2475713      0.305353736      -71.2475713      0.947053804      17.7767831       
1194.24          0.948215431      17.5710653       0.301932033      -71.4558143      0.301932033      -71.4558143      0.948215431      17.5710653       
1207.21          0.949343926      17.3689891       0.298567122      -71.6602992      0.298567122      -71.6602992      0.949343926      17.3689891       
1220.18          0.950440486      17.1704554       0.295257595      -71.8611265      0.295257595      -71.8611265      0.950440486      17.1704554       
1233.15          0.951506257      16.9753688       0.292002088      -72.0583932      0.292002088      -72.0583932      0.951506257      16.9753688       
1246.12          0.952542335      16.7836369       0.288799274      -72.252193       0.288799274      -72.252193       0.952542335      16.7836369       
1259.09          0.953549767      16.5951705       0.285647869      -72.4426163      0.285647869      -72.4426163      0.953549767      16.5951705       
1272.06          0.95452956       16.4098835       0.282546623      -72.6297506      0.282546623      -72.6297506      0.95452956       16.4098835       
1285.03          0.955482672      16.2276925       0.279494327      -72.8136802      0.279494327      -72.8136802      0.955482672      16.2276925       
1298             0.956410026      16.0485171       0.276489804      -72.9944869      0.276489804      -72.9944869      0.956410026      16.0485171       
1310.97          0.957312504      15.8722794       0.273531914      -73.1722494      0.273531914      -73.1722494      0.957312504      15.8722794       
1323.94          0.95819095       15.6989041       0.270619548      -73.347044       0.270619548      -73.347044       0.95819095       15.6989041       
1336.91          0.959046177      15.5283183       0.267751632      -73.5189445      0.267751632      -73.5189445      0.959046177      15.5283183       
1349.88          0.959878961      15.3604516       0.26492712       -73.688022       0.26492712       -73.688022       0.959878961      15.3604516       
1362.85          0.960690048      15.1952358       0.262145         -73.8543457      0.262145         -73.8543457      0.960690048      15.1952358       
1375.82          0.961480154      15.0326048       0.259404286      -74.0179822      0.259404286      -74.0179822      0.961480154      15.0326048       
1388.79          0.962249966      14.8724947       0.256704022      -74.1789961      0.256704022      -74.1789961      0.962249966      14.8724947       
1401.76          0.963000143      14.7148437       0.254043279      -74.3374499      0.254043279      -74.3374499      0.963000143      14.7148437       
1414.73          0.963731318      14.5595918       0.251421154      -74.4934041      0.251421154      -74.4934041      0.963731318      14.5595918       
1427.7           0.9644441        14.4066808       0.248836769      -74.6469173      0.248836769      -74.6469173      0.9644441        14.4066808       
1440.67          0.965139074      14.2560546       0.246289274      -74.7980462      0.246289274      -74.7980462      0.965139074      14.2560546       
1453.64          0.965816801      14.1076585       0.24377784       -74.9468458      0.24377784       -74.9468458      0.965816801      14.1076585       
1466.61          0.966477822      13.9614397       0.241301661      -75.0933693      0.241301661      -75.0933693      0.966477822      13.9614397       
1479.58          0.967122655      13.817347        0.238859956      -75.2376683      0.238859956      -75.2376683      0.967122655      13.817347        
1492.55          0.967751802      13.6753306       0.236451963      -75.3797928      0.236451963      -75.3797928      0.967751802      13.6753306       
1505.52          0.968365742      13.5353423       0.234076943      -75.5197911      0.234076943      -75.5197911      0.968365742      13.5353423       
1518.49          0.968964938      13.3973353       0.231734177      -75.6577104      0.231734177      -75.6577104      0.968964938      13.3973353       
1531.46          0.969549835      13.2612643       0.229422965      -75.793596       0.229422965      -75.793596       0.969549835      13.2612643       
1544.43          0.970120864      13.1270851       0.227142627      -75.9274922      0.227142627      -75.9274922      0.970120864      13.1270851       
1557.4           0.970678436      12.9947552       0.2248925        -76.0594418      0.2248925        -76.0594418      0.970678436      12.9947552       
1570.37          0.97122295       12.8642328       0.222671941      -76.1894863      0.222671941      -76.1894863      0.97122295       12.8642328       
1583.34          0.971754788      12.7354778       0.220480323      -76.317666       0.220480323      -76.317666       0.971754788      12.7354778       
1596.31          0.972274322      12.608451        0.218317037      -76.44402        0.218317037      -76.44402        0.972274322      12.608451        
1609.28          0.972781907      12.4831143       0.216181488      -76.5685862      0.216181488      -76.5685862      0.972781907      12.4831143       
1622.25          0.973277886      12.3594308       0.214073099      -76.6914016      0.214073099      -76.6914016      0.973277886      12.3594308       
1635.22          0.973762592      12.2373646       0.211991307      -76.8125017      0.211991307      -76.8125017      0.973762592      12.2373646       
1648.19          0.974236343      12.1168809       0.209935564      -76.9319214      0.209935564      -76.9319214      0.974236343      12.1168809       
