! Coilcraft 0402CS-2N7 Chip Inductor				
! 22 July 2002			
# MHZ S MA R 50
!Freq             MagS11           AngS11           MagS21           AngS21           MagS12           AngS12           MagS22           AngS22
1                0.000234292476   44.1888807       0.999832015      -0.0093584277    0.999832015      -0.0093584277    0.000234292476   44.1888807       
45.64            0.00751034363    82.2189555       0.999010905      -0.426775048     0.999010905      -0.426775048     0.00751034363    82.2189555       
90.28            0.0147882591     83.9598158       0.99855219       -0.843853089     0.99855219       -0.843853089     0.0147882591     83.9598158       
134.92           0.0220614251     84.5019321       0.998127847      -1.26067301      0.998127847      -1.26067301      0.0220614251     84.5019321       
179.56           0.0293293387     84.6567697       0.997696249      -1.67724826      0.997696249      -1.67724826      0.0293293387     84.6567697       
224.2            0.0365914739     84.6300271       0.997241192      -2.09357596      0.997241192      -2.09357596      0.0365914739     84.6300271       
268.84           0.0438472363     84.5012392       0.996754396      -2.50964596      0.996754396      -2.50964596      0.0438472363     84.5012392       
313.48           0.0510959825     84.3084857       0.996230987      -2.92544412      0.996230987      -2.92544412      0.0510959825     84.3084857       
358.12           0.0583370368     84.0725846       0.995667844      -3.34095386      0.995667844      -3.34095386      0.0583370368     84.0725846       
402.76           0.0655697016     83.8060053       0.995062852      -3.75615698      0.995062852      -3.75615698      0.0655697016     83.8060053       
447.4            0.0727932647     83.5167348       0.994414524      -4.1710342       0.994414524      -4.1710342       0.0727932647     83.5167348       
492.04           0.080007004      83.2101592       0.993721792      -4.58556544      0.993721792      -4.58556544      0.080007004      83.2101592       
536.68           0.0872101914     82.8900628       0.992983878      -4.99973008      0.992983878      -4.99973008      0.0872101914     82.8900628       
581.32           0.0944020951     82.5591944       0.992200216      -5.41350708      0.992200216      -5.41350708      0.0944020951     82.5591944       
625.96           0.101581982      82.2196073       0.991370399      -5.82687511      0.991370399      -5.82687511      0.101581982      82.2196073       
670.6            0.10874912       81.8728716       0.990494145      -6.23981264      0.990494145      -6.23981264      0.10874912       81.8728716       
715.24           0.115902777      81.5202127       0.989571266      -6.65229801      0.989571266      -6.65229801      0.115902777      81.5202127       
759.88           0.123042224      81.1626039       0.988601657      -7.06430949      0.988601657      -7.06430949      0.123042224      81.1626039       
804.52           0.130166738      80.8008306       0.987585277      -7.47582532      0.987585277      -7.47582532      0.130166738      80.8008306       
849.16           0.137275597      80.4355351       0.98652214       -7.88682374      0.98652214       -7.88682374      0.137275597      80.4355351       
893.8            0.144368087      80.0672498       0.985412309      -8.29728304      0.985412309      -8.29728304      0.144368087      80.0672498       
938.44           0.151443499      79.6964203       0.984255886      -8.70718157      0.984255886      -8.70718157      0.151443499      79.6964203       
983.08           0.158501129      79.323424        0.983053011      -9.11649778      0.983053011      -9.11649778      0.158501129      79.323424        
1027.72          0.165540283      78.9485832       0.981803855      -9.52521025      0.981803855      -9.52521025      0.165540283      78.9485832       
1072.36          0.172560273      78.5721754       0.980508619      -9.93329766      0.980508619      -9.93329766      0.172560273      78.5721754       
1117             0.179560418      78.194442        0.979167529      -10.3407389      0.979167529      -10.3407389      0.179560418      78.194442        
1161.64          0.186540047      77.815594        0.977780836      -10.7475129      0.977780836      -10.7475129      0.186540047      77.815594        
1206.28          0.193498498      77.4358172       0.976348812      -11.153599       0.976348812      -11.153599       0.193498498      77.4358172       
1250.92          0.200435118      77.0552764       0.974871748      -11.5589765      0.974871748      -11.5589765      0.200435118      77.0552764       
1295.56          0.207349262      76.6741186       0.973349957      -11.963625       0.973349957      -11.963625       0.207349262      76.6741186       
1340.2           0.214240297      76.2924755       0.971783765      -12.3675244      0.971783765      -12.3675244      0.214240297      76.2924755       
1384.84          0.221107599      75.9104661       0.970173519      -12.7706546      0.970173519      -12.7706546      0.221107599      75.9104661       
1429.48          0.227950555      75.5281979       0.968519577      -13.1729961      0.968519577      -13.1729961      0.227950555      75.5281979       
1474.12          0.234768563      75.1457687       0.966822313      -13.5745294      0.966822313      -13.5745294      0.234768563      75.1457687       
1518.76          0.241561031      74.7632682       0.965082116      -13.9752351      0.965082116      -13.9752351      0.241561031      74.7632682       
1563.4           0.248327378      74.3807783       0.963299385      -14.3750945      0.963299385      -14.3750945      0.248327378      74.3807783       
1608.04          0.255067037      73.9983746       0.961474532      -14.7740888      0.961474532      -14.7740888      0.255067037      73.9983746       
1652.68          0.26177945       73.6161271       0.95960798       -15.1721997      0.95960798       -15.1721997      0.26177945       73.6161271       
1697.32          0.268464071      73.2341004       0.957700162      -15.569409       0.957700162      -15.569409       0.268464071      73.2341004       
1741.96          0.275120368      72.8523547       0.955751523      -15.9656989      0.955751523      -15.9656989      0.275120368      72.8523547       
1786.6           0.281747818      72.4709463       0.953762515      -16.361052       0.953762515      -16.361052       0.281747818      72.4709463       
1831.24          0.288345913      72.0899275       0.9517336        -16.7554509      0.9517336        -16.7554509      0.288345913      72.0899275       
1875.88          0.294914156      71.7093475       0.949665248      -17.1488788      0.949665248      -17.1488788      0.294914156      71.7093475       
1920.52          0.301452063      71.3292526       0.947557936      -17.541319       0.947557936      -17.541319       0.301452063      71.3292526       
1965.16          0.307959163      70.9496863       0.945412151      -17.9327554      0.945412151      -17.9327554      0.307959163      70.9496863       
2009.8           0.314434996      70.5706894       0.943228383      -18.3231718      0.943228383      -18.3231718      0.314434996      70.5706894       
2054.44          0.320879115      70.1923009       0.941007132      -18.7125526      0.941007132      -18.7125526      0.320879115      70.1923009       
2099.08          0.327291089      69.8145572       0.938748901      -19.1008826      0.938748901      -19.1008826      0.327291089      69.8145572       
2143.72          0.333670496      69.4374932       0.936454199      -19.4881466      0.936454199      -19.4881466      0.333670496      69.4374932       
2188.36          0.340016928      69.0611418       0.934123543      -19.87433        0.934123543      -19.87433        0.340016928      69.0611418       
2233             0.34632999       68.6855343       0.931757451      -20.2594185      0.931757451      -20.2594185      0.34632999       68.6855343       
2277.64          0.352609301      68.3107005       0.929356446      -20.643398       0.929356446      -20.643398       0.352609301      68.3107005       
2322.28          0.358854492      67.9366687       0.926921057      -21.0262548      0.926921057      -21.0262548      0.358854492      67.9366687       
2366.92          0.365065205      67.5634659       0.924451815      -21.4079755      0.924451815      -21.4079755      0.365065205      67.5634659       
2411.56          0.371241099      67.191118        0.921949253      -21.7885472      0.921949253      -21.7885472      0.371241099      67.191118        
2456.2           0.377381842      66.8196494       0.91941391       -22.1679571      0.91941391       -22.1679571      0.377381842      66.8196494       
2500.84          0.383487116      66.4490836       0.916846323      -22.5461929      0.916846323      -22.5461929      0.383487116      66.4490836       
2545.48          0.389556617      66.0794432       0.914247035      -22.9232425      0.914247035      -22.9232425      0.389556617      66.0794432       
2590.12          0.395590053      65.7107494       0.911616589      -23.2990942      0.911616589      -23.2990942      0.395590053      65.7107494       
2634.76          0.401587143      65.3430228       0.90895553       -23.6737367      0.90895553       -23.6737367      0.401587143      65.3430228       
2679.4           0.407547621      64.9762829       0.906264404      -24.0471589      0.906264404      -24.0471589      0.407547621      64.9762829       
2724.04          0.413471231      64.6105486       0.903543756      -24.4193502      0.903543756      -24.4193502      0.413471231      64.6105486       
2768.68          0.419357732      64.2458376       0.900794134      -24.7903001      0.900794134      -24.7903001      0.419357732      64.2458376       
2813.32          0.425206893      63.8821672       0.898016087      -25.1599987      0.898016087      -25.1599987      0.425206893      63.8821672       
2857.96          0.431018497      63.5195537       0.895210159      -25.5284361      0.895210159      -25.5284361      0.431018497      63.5195537       
2902.6           0.436792337      63.1580129       0.8923769        -25.8956031      0.8923769        -25.8956031      0.436792337      63.1580129       
2947.24          0.44252822       62.7975596       0.889516854      -26.2614905      0.889516854      -26.2614905      0.44252822       62.7975596       
2991.88          0.448225964      62.4382083       0.886630567      -26.6260895      0.886630567      -26.6260895      0.448225964      62.4382083       
3036.52          0.453885397      62.0799725       0.883718584      -26.9893919      0.883718584      -26.9893919      0.453885397      62.0799725       
3081.16          0.45950636       61.7228655       0.880781447      -27.3513894      0.880781447      -27.3513894      0.45950636       61.7228655       
3125.8           0.465088707      61.3668996       0.877819697      -27.7120742      0.877819697      -27.7120742      0.465088707      61.3668996       
3170.44          0.470632301      61.0120869       0.874833874      -28.0714389      0.874833874      -28.0714389      0.470632301      61.0120869       
3215.08          0.476137015      60.6584385       0.871824515      -28.4294762      0.871824515      -28.4294762      0.476137015      60.6584385       
3259.72          0.481602737      60.3059655       0.868792155      -28.7861794      0.868792155      -28.7861794      0.481602737      60.3059655       
3304.36          0.487029362      59.954678        0.865737327      -29.1415417      0.865737327      -29.1415417      0.487029362      59.954678        
3349             0.492416797      59.6045859       0.862660559      -29.495557       0.862660559      -29.495557       0.492416797      59.6045859       
3393.64          0.497764959      59.2556985       0.85956238       -29.8482193      0.85956238       -29.8482193      0.497764959      59.2556985       
3438.28          0.503073775      58.9080246       0.856443312      -30.1995228      0.856443312      -30.1995228      0.503073775      58.9080246       
3482.92          0.508343185      58.5615726       0.853303877      -30.5494622      0.853303877      -30.5494622      0.508343185      58.5615726       
3527.56          0.513573134      58.2163505       0.850144591      -30.8980324      0.850144591      -30.8980324      0.513573134      58.2163505       
3572.2           0.51876358       57.8723657       0.846965967      -31.2452284      0.846965967      -31.2452284      0.51876358       57.8723657       
3616.84          0.52391449       57.5296254       0.843768516      -31.5910458      0.843768516      -31.5910458      0.52391449       57.5296254       
3661.48          0.52902584       57.1881361       0.840552744      -31.9354802      0.840552744      -31.9354802      0.52902584       57.1881361       
3706.12          0.534097615      56.8479043       0.837319151      -32.2785276      0.837319151      -32.2785276      0.534097615      56.8479043       
3750.76          0.539129809      56.5089356       0.834068236      -32.6201842      0.834068236      -32.6201842      0.539129809      56.5089356       
3795.4           0.544122425      56.1712358       0.830800492      -32.9604466      0.830800492      -32.9604466      0.544122425      56.1712358       
3840.04          0.549075475      55.8348098       0.827516408      -33.2993116      0.827516408      -33.2993116      0.549075475      55.8348098       
3884.68          0.553988978      55.4996625       0.824216467      -33.636776       0.824216467      -33.636776       0.553988978      55.4996625       
3929.32          0.558862963      55.1657984       0.82090115       -33.9728372      0.82090115       -33.9728372      0.558862963      55.1657984       
3973.96          0.563697466      54.8332214       0.817570932      -34.3074926      0.817570932      -34.3074926      0.563697466      54.8332214       
4018.6           0.568492531      54.5019353       0.814226282      -34.64074        0.814226282      -34.64074        0.568492531      54.5019353       
4063.24          0.573248209      54.1719437       0.810867665      -34.9725774      0.810867665      -34.9725774      0.573248209      54.1719437       
4107.88          0.577964559      53.8432496       0.807495542      -35.3030029      0.807495542      -35.3030029      0.577964559      53.8432496       
4152.52          0.582641648      53.5158557       0.804110367      -35.6320149      0.804110367      -35.6320149      0.582641648      53.5158557       
4197.16          0.587279549      53.1897648       0.80071259       -35.9596122      0.80071259       -35.9596122      0.587279549      53.1897648       
4241.8           0.591878342      52.8649789       0.797302656      -36.2857934      0.797302656      -36.2857934      0.591878342      52.8649789       
4286.44          0.596438114      52.5415001       0.793881003      -36.6105578      0.793881003      -36.6105578      0.596438114      52.5415001       
4331.08          0.600958959      52.2193299       0.790448065      -36.9339046      0.790448065      -36.9339046      0.600958959      52.2193299       
4375.72          0.605440975      51.8984698       0.787004271      -37.2558332      0.787004271      -37.2558332      0.605440975      51.8984698       
4420.36          0.609884268      51.578921        0.783550043      -37.5763433      0.783550043      -37.5763433      0.609884268      51.578921        
4465             0.614288952      51.2606843       0.780085799      -37.8954347      0.780085799      -37.8954347      0.614288952      51.2606843       
4509.64          0.618655141      50.9437603       0.776611951      -38.2131075      0.776611951      -38.2131075      0.618655141      50.9437603       
4554.28          0.622982961      50.6281496       0.773128904      -38.529362       0.773128904      -38.529362       0.622982961      50.6281496       
4598.92          0.627272538      50.3138521       0.769637059      -38.8441985      0.769637059      -38.8441985      0.627272538      50.3138521       
4643.56          0.631524008      50.0008679       0.766136812      -39.1576177      0.766136812      -39.1576177      0.631524008      50.0008679       
4688.2           0.635737507      49.6891967       0.762628551      -39.4696202      0.762628551      -39.4696202      0.635737507      49.6891967       
4732.84          0.639913181      49.378838        0.75911266       -39.7802069      0.75911266       -39.7802069      0.639913181      49.378838        
4777.48          0.644051176      49.0697911       0.755589517      -40.0893791      0.755589517      -40.0893791      0.644051176      49.0697911       
4822.12          0.648151646      48.7620551       0.752059495      -40.3971377      0.752059495      -40.3971377      0.648151646      48.7620551       
4866.76          0.652214748      48.4556288       0.748522959      -40.7034844      0.748522959      -40.7034844      0.652214748      48.4556288       
4911.4           0.656240642      48.150511        0.744980271      -41.0084205      0.744980271      -41.0084205      0.656240642      48.150511        
4956.04          0.660229495      47.8467001       0.741431786      -41.3119478      0.741431786      -41.3119478      0.660229495      47.8467001       
5000.68          0.664181475      47.5441946       0.737877854      -41.614068       0.737877854      -41.614068       0.664181475      47.5441946       
5045.32          0.668096756      47.2429925       0.734318818      -41.9147832      0.734318818      -41.9147832      0.668096756      47.2429925       
5089.96          0.671975513      46.9430919       0.730755016      -42.2140952      0.730755016      -42.2140952      0.671975513      46.9430919       
5134.6           0.675817927      46.6444905       0.727186781      -42.5120065      0.727186781      -42.5120065      0.675817927      46.6444905       
5179.24          0.67962418       46.3471861       0.723614441      -42.8085192      0.723614441      -42.8085192      0.67962418       46.3471861       
5223.88          0.683394459      46.0511761       0.720038315      -43.1036358      0.720038315      -43.1036358      0.683394459      46.0511761       
5268.52          0.687128953      45.7564579       0.716458721      -43.3973589      0.716458721      -43.3973589      0.687128953      45.7564579       
5313.16          0.690827854      45.4630287       0.712875969      -43.6896911      0.712875969      -43.6896911      0.690827854      45.4630287       
5357.8           0.694491357      45.1708856       0.709290362      -43.9806351      0.709290362      -43.9806351      0.694491357      45.1708856       
5402.44          0.698119659      44.8800254       0.705702201      -44.2701938      0.705702201      -44.2701938      0.698119659      44.8800254       
5447.08          0.701712959      44.5904451       0.702111779      -44.5583702      0.702111779      -44.5583702      0.701712959      44.5904451       
5491.72          0.70527146       44.3021412       0.698519385      -44.8451674      0.698519385      -44.8451674      0.70527146       44.3021412       
5536.36          0.708795366      44.0151104       0.694925301      -45.1305883      0.694925301      -45.1305883      0.708795366      44.0151104       
5581             0.712284883      43.729349        0.691329806      -45.4146364      0.691329806      -45.4146364      0.712284883      43.729349        
5625.64          0.715740219      43.4448534       0.687733172      -45.6973147      0.687733172      -45.6973147      0.715740219      43.4448534       
5670.28          0.719161585      43.1616198       0.684135666      -45.9786269      0.684135666      -45.9786269      0.719161585      43.1616198       
