! Coilcraft 0402CS-9N0 Chip Inductor				
! 29 May 2002			
# MHZ S MA R 50
!Freq             MagS11           AngS11           MagS21           AngS21           MagS12           AngS12           MagS22           AngS22
1                0.000667977027   57.7752997       0.999643967      -0.0323884666    0.999643967      -0.0323884666    0.000667977027   57.7752997       
22.69            0.0128949148     82.730328        0.998450222      -0.734042853     0.998450222      -0.734042853     0.0128949148     82.730328        
44.38            0.0251202915     83.9363057       0.997659218      -1.43474199      0.997659218      -1.43474199      0.0251202915     83.9363057       
66.07            0.0373276237     84.0889516       0.996847546      -2.134565        0.996847546      -2.134565        0.0373276237     84.0889516       
87.76            0.0495130815     83.8990146       0.995955284      -2.8334333       0.995955284      -2.8334333       0.0495130815     83.8990146       
109.45           0.0616726567     83.5484853       0.994959368      -3.53122928      0.994959368      -3.53122928      0.0616726567     83.5484853       
131.14           0.0738021778     83.1080728       0.993848423      -4.22781864      0.993848423      -4.22781864      0.0738021778     83.1080728       
152.83           0.0858973898     82.6117659       0.992616208      -4.92305872      0.992616208      -4.92305872      0.0858973898     82.6117659       
174.52           0.0979540083     82.0782289       0.991259183      -5.6168025       0.991259183      -5.6168025       0.0979540083     82.0782289       
196.21           0.109967756      81.5187029       0.989775416      -6.30890088      0.989775416      -6.30890088      0.109967756      81.5187029       
217.9            0.121934386      80.940439        0.988164027      -6.99920415      0.988164027      -6.99920415      0.121934386      80.940439        
239.59           0.133849707      80.3483709       0.986424869      -7.687563        0.986424869      -7.687563        0.133849707      80.3483709       
261.28           0.145709592      79.7460033       0.984558337      -8.3738292       0.984558337      -8.3738292       0.145709592      79.7460033       
282.97           0.157509995      79.1359158       0.982565251      -9.05785624      0.982565251      -9.05785624      0.157509995      79.1359158       
304.66           0.169246962      78.5200654       0.980446769      -9.73949973      0.980446769      -9.73949973      0.169246962      78.5200654       
326.35           0.180916636      77.8999754       0.978204328      -10.4186178      0.978204328      -10.4186178      0.180916636      77.8999754       
348.04           0.192515271      77.2768589       0.975839602      -11.0950715      0.975839602      -11.0950715      0.192515271      77.2768589       
369.73           0.204039236      76.6517008       0.973354469      -11.7687248      0.973354469      -11.7687248      0.204039236      76.6517008       
391.42           0.21548502       76.0253148       0.970750984      -12.4394454      0.970750984      -12.4394454      0.21548502       76.0253148       
413.11           0.226849238      75.3983837       0.968031357      -13.1071042      0.968031357      -13.1071042      0.226849238      75.3983837       
434.8            0.238128639      74.7714881       0.965197934      -13.771576       0.965197934      -13.771576       0.238128639      74.7714881       
456.49           0.249320105      74.1451276       0.962253184      -14.4327396      0.962253184      -14.4327396      0.249320105      74.1451276       
478.18           0.260420658      73.5197368       0.959199681      -15.0904778      0.959199681      -15.0904778      0.260420658      73.5197368       
499.87           0.271427461      72.8956971       0.956040095      -15.7446776      0.956040095      -15.7446776      0.271427461      72.8956971       
521.56           0.282337819      72.2733459       0.952777176      -16.3952301      0.952777176      -16.3952301      0.282337819      72.2733459       
543.25           0.293149183      71.652984        0.949413749      -17.0420309      0.949413749      -17.0420309      0.293149183      71.652984        
564.94           0.303859152      71.0348807       0.945952698      -17.6849801      0.945952698      -17.6849801      0.303859152      71.0348807       
586.63           0.31446547       70.4192789       0.942396962      -18.3239821      0.942396962      -18.3239821      0.31446547       70.4192789       
608.32           0.324966027      69.8063979       0.938749521      -18.958946       0.938749521      -18.958946       0.324966027      69.8063979       
630.01           0.335358861      69.1964372       0.935013393      -19.5897852      0.935013393      -19.5897852      0.335358861      69.1964372       
651.7            0.345642156      68.5895781       0.931191621      -20.2164179      0.931191621      -20.2164179      0.345642156      68.5895781       
673.39           0.35581424       67.9859861       0.927287268      -20.8387667      0.927287268      -20.8387667      0.35581424       67.9859861       
695.08           0.365873582      67.3858123       0.923303412      -21.4567586      0.923303412      -21.4567586      0.365873582      67.3858123       
716.77           0.375818796      66.789195        0.919243135      -22.0703255      0.919243135      -22.0703255      0.375818796      66.789195        
738.46           0.385648633      66.1962606       0.915109517      -22.6794033      0.915109517      -22.6794033      0.385648633      66.1962606       
760.15           0.39536198       65.6071248       0.910905633      -23.2839327      0.910905633      -23.2839327      0.39536198       65.6071248       
781.84           0.404957858      65.0218932       0.906634546      -23.8838587      0.906634546      -23.8838587      0.404957858      65.0218932       
803.53           0.414435419      64.4406625       0.902299301      -24.4791303      0.902299301      -24.4791303      0.414435419      64.4406625       
825.22           0.423793941      63.8635205       0.897902919      -25.0697013      0.897902919      -25.0697013      0.423793941      63.8635205       
846.91           0.433032829      63.2905473       0.893448395      -25.6555291      0.893448395      -25.6555291      0.433032829      63.2905473       
868.6            0.442151604      62.7218155       0.888938691      -26.2365757      0.888938691      -26.2365757      0.442151604      62.7218155       
890.29           0.451149908      62.1573906       0.884376734      -26.8128067      0.884376734      -26.8128067      0.451149908      62.1573906       
911.98           0.460027492      61.5973316       0.879765411      -27.3841918      0.879765411      -27.3841918      0.460027492      61.5973316       
933.67           0.468784218      61.0416913       0.875107565      -27.9507046      0.875107565      -27.9507046      0.468784218      61.0416913       
955.36           0.477420051      60.4905165       0.870405995      -28.5123222      0.870405995      -28.5123222      0.477420051      60.4905165       
977.05           0.485935057      59.9438487       0.865663448      -29.0690254      0.865663448      -29.0690254      0.485935057      59.9438487       
998.74           0.494329399      59.401724        0.860882621      -29.6207985      0.860882621      -29.6207985      0.494329399      59.401724        
1020.43          0.50260333       58.8641736       0.856066156      -30.1676293      0.856066156      -30.1676293      0.50260333       58.8641736       
1042.12          0.510757194      58.3312238       0.851216642      -30.7095087      0.851216642      -30.7095087      0.510757194      58.3312238       
1063.81          0.518791415      57.8028968       0.846336605      -31.246431       0.846336605      -31.246431       0.518791415      57.8028968       
1085.5           0.526706499      57.2792103       0.841428516      -31.7783932      0.841428516      -31.7783932      0.526706499      57.2792103       
1107.19          0.534503026      56.760178        0.836494783      -32.3053955      0.836494783      -32.3053955      0.534503026      56.760178        
1128.88          0.542181647      56.2458099       0.831537753      -32.8274409      0.831537753      -32.8274409      0.542181647      56.2458099       
1150.57          0.549743081      55.7361123       0.826559712      -33.3445351      0.826559712      -33.3445351      0.549743081      55.7361123       
1172.26          0.557188109      55.2310882       0.821562879      -33.8566864      0.821562879      -33.8566864      0.557188109      55.2310882       
1193.95          0.564517571      54.7307373       0.816549413      -34.3639055      0.816549413      -34.3639055      0.564517571      54.7307373       
1215.64          0.571732363      54.2350562       0.811521406      -34.8662055      0.811521406      -34.8662055      0.571732363      54.2350562       
1237.33          0.578833432      53.7440385       0.806480887      -35.3636018      0.806480887      -35.3636018      0.578833432      53.7440385       
1259.02          0.585821774      53.2576754       0.801429822      -35.856112       0.801429822      -35.856112       0.585821774      53.2576754       
1280.71          0.592698428      52.7759552       0.796370112      -36.3437555      0.796370112      -36.3437555      0.592698428      52.7759552       
1302.4           0.599464473      52.2988639       0.791303593      -36.826554       0.791303593      -36.826554       0.599464473      52.2988639       
1324.09          0.606121028      51.8263852       0.786232038      -37.3045307      0.786232038      -37.3045307      0.606121028      51.8263852       
1345.78          0.612669244      51.3585005       0.781157161      -37.7777107      0.781157161      -37.7777107      0.612669244      51.3585005       
1367.47          0.619110305      50.8951894       0.776080608      -38.2461208      0.776080608      -38.2461208      0.619110305      50.8951894       
1389.16          0.625445422      50.4364293       0.771003967      -38.709789       0.771003967      -38.709789       0.625445422      50.4364293       
1410.85          0.631675832      49.9821962       0.765928767      -39.1687451      0.765928767      -39.1687451      0.631675832      49.9821962       
1432.54          0.637802793      49.5324641       0.760856473      -39.62302        0.760856473      -39.62302        0.637802793      49.5324641       
1454.23          0.643827585      49.0872055       0.755788494      -40.072646       0.755788494      -40.072646       0.643827585      49.0872055       
1475.92          0.649751504      48.6463916       0.750726181      -40.5176566      0.750726181      -40.5176566      0.649751504      48.6463916       
1497.61          0.655575862      48.2099921       0.74567083       -40.9580862      0.74567083       -40.9580862      0.655575862      48.2099921       
1519.3           0.661301982      47.7779755       0.740623678      -41.3939703      0.740623678      -41.3939703      0.661301982      47.7779755       
1540.99          0.6669312        47.3503092       0.73558591       -41.8253453      0.73558591       -41.8253453      0.6669312        47.3503092       
1562.68          0.672464858      46.9269594       0.730558658      -42.2522486      0.730558658      -42.2522486      0.672464858      46.9269594       
1584.37          0.677904305      46.5078914       0.725543003      -42.6747182      0.725543003      -42.6747182      0.677904305      46.5078914       
1606.06          0.683250896      46.0930696       0.720539973      -43.0927927      0.720539973      -43.0927927      0.683250896      46.0930696       
1627.75          0.688505988      45.6824575       0.715550549      -43.5065118      0.715550549      -43.5065118      0.688505988      45.6824575       
1649.44          0.693670938      45.276018        0.710575663      -43.9159152      0.710575663      -43.9159152      0.693670938      45.276018        
1671.13          0.698747104      44.8737132       0.705616201      -44.3210435      0.705616201      -44.3210435      0.698747104      44.8737132       
1692.82          0.703735842      44.4755046       0.700673004      -44.7219377      0.700673004      -44.7219377      0.703735842      44.4755046       
1714.51          0.708638505      44.0813532       0.695746867      -45.118639       0.695746867      -45.118639       0.708638505      44.0813532       
1736.2           0.71345644       43.6912195       0.690838545      -45.5111891      0.690838545      -45.5111891      0.71345644       43.6912195       
1757.89          0.718190991      43.3050637       0.68594875       -45.89963        0.68594875       -45.89963        0.718190991      43.3050637       
1779.58          0.722843492      42.9228453       0.681078155      -46.2840039      0.681078155      -46.2840039      0.722843492      42.9228453       
1801.27          0.727415273      42.5445238       0.676227393      -46.6643532      0.676227393      -46.6643532      0.727415273      42.5445238       
1822.96          0.731907651      42.1700583       0.671397061      -47.0407204      0.671397061      -47.0407204      0.731907651      42.1700583       
1844.65          0.736321936      41.7994078       0.666587718      -47.4131482      0.666587718      -47.4131482      0.736321936      41.7994078       
1866.34          0.740659427      41.432531        0.66179989       -47.7816794      0.66179989       -47.7816794      0.740659427      41.432531        
1888.03          0.744921413      41.0693865       0.657034067      -48.1463567      0.657034067      -48.1463567      0.744921413      41.0693865       
1909.72          0.749109168      40.7099328       0.652290709      -48.5072228      0.652290709      -48.5072228      0.749109168      40.7099328       
1931.41          0.753223956      40.3541285       0.647570244      -48.8643204      0.647570244      -48.8643204      0.753223956      40.3541285       
1953.1           0.757267027      40.0019319       0.642873067      -49.2176923      0.642873067      -49.2176923      0.757267027      40.0019319       
1974.79          0.761239618      39.6533016       0.638199547      -49.5673809      0.638199547      -49.5673809      0.761239618      39.6533016       
1996.48          0.765142951      39.3081961       0.633550025      -49.9134286      0.633550025      -49.9134286      0.765142951      39.3081961       
2018.17          0.768978234      38.966574        0.628924814      -50.2558777      0.628924814      -50.2558777      0.768978234      38.966574        
2039.86          0.77274666       38.628394        0.624324201      -50.5947703      0.624324201      -50.5947703      0.77274666       38.628394        
2061.55          0.776449408      38.293615        0.619748449      -50.9301482      0.619748449      -50.9301482      0.776449408      38.293615        
2083.24          0.780087639      37.9621961       0.615197796      -51.2620531      0.615197796      -51.2620531      0.780087639      37.9621961       
2104.93          0.783662501      37.6340963       0.61067246       -51.5905264      0.61067246       -51.5905264      0.783662501      37.6340963       
2126.62          0.787175124      37.3092751       0.606172633      -51.9156091      0.606172633      -51.9156091      0.787175124      37.3092751       
2148.31          0.790626622      36.9876922       0.601698491      -52.2373422      0.601698491      -52.2373422      0.790626622      36.9876922       
2170             0.794018096      36.6693074       0.597250185      -52.5557661      0.597250185      -52.5557661      0.794018096      36.6693074       
2191.69          0.797350626      36.3540808       0.592827851      -52.8709212      0.592827851      -52.8709212      0.797350626      36.3540808       
2213.38          0.800625278      36.0419728       0.588431605      -53.1828472      0.588431605      -53.1828472      0.800625278      36.0419728       
2235.07          0.803843103      35.7329441       0.584061543      -53.4915838      0.584061543      -53.4915838      0.803843103      35.7329441       
2256.76          0.807005132      35.4269557       0.57971775       -53.7971701      0.57971775       -53.7971701      0.807005132      35.4269557       
2278.45          0.810112381      35.123969        0.57540029       -54.099645       0.57540029       -54.099645       0.810112381      35.123969        
2300.14          0.813165852      34.8239455       0.571109214      -54.399047       0.571109214      -54.399047       0.813165852      34.8239455       
2321.83          0.816166526      34.5268472       0.566844558      -54.695414       0.566844558      -54.695414       0.816166526      34.5268472       
2343.52          0.819115371      34.2326364       0.562606345      -54.9887838      0.562606345      -54.9887838      0.819115371      34.2326364       
2365.21          0.822013338      33.9412758       0.558394584      -55.2791937      0.558394584      -55.2791937      0.822013338      33.9412758       
2386.9           0.824861361      33.6527285       0.554209273      -55.5666805      0.554209273      -55.5666805      0.824861361      33.6527285       
2408.59          0.827660358      33.3669578       0.550050395      -55.8512807      0.550050395      -55.8512807      0.827660358      33.3669578       
2430.28          0.830411231      33.0839275       0.545917926      -56.1330303      0.545917926      -56.1330303      0.830411231      33.0839275       
2451.97          0.833114866      32.8036018       0.541811828      -56.411965       0.541811828      -56.411965       0.833114866      32.8036018       
2473.66          0.835772134      32.5259452       0.537732054      -56.6881199      0.537732054      -56.6881199      0.835772134      32.5259452       
2495.35          0.83838389       32.2509226       0.533678548      -56.9615299      0.533678548      -56.9615299      0.83838389       32.2509226       
2517.04          0.840950972      31.9784994       0.529651244      -57.2322291      0.529651244      -57.2322291      0.840950972      31.9784994       
2538.73          0.843474206      31.7086412       0.525650068      -57.5002516      0.525650068      -57.5002516      0.843474206      31.7086412       
2560.42          0.845954399      31.4413143       0.521674938      -57.7656307      0.521674938      -57.7656307      0.845954399      31.4413143       
2582.11          0.848392346      31.1764851       0.517725765      -58.0283996      0.517725765      -58.0283996      0.848392346      31.1764851       
2603.8           0.850788826      30.9141205       0.51380245       -58.2885907      0.51380245       -58.2885907      0.850788826      30.9141205       
2625.49          0.853144603      30.6541878       0.50990489       -58.5462363      0.50990489       -58.5462363      0.853144603      30.6541878       
2647.18          0.855460427      30.3966548       0.506032976      -58.8013679      0.506032976      -58.8013679      0.855460427      30.3966548       
2668.87          0.857737035      30.1414896       0.50218659       -59.054017       0.50218659       -59.054017       0.857737035      30.1414896       
2690.56          0.859975148      29.8886607       0.498365612      -59.3042142      0.498365612      -59.3042142      0.859975148      29.8886607       
2712.25          0.862175473      29.6381371       0.494569914      -59.5519901      0.494569914      -59.5519901      0.862175473      29.6381371       
2733.94          0.864338707      29.389888        0.490799364      -59.7973744      0.490799364      -59.7973744      0.864338707      29.389888        
2755.63          0.866465529      29.1438832       0.487053825      -60.0403969      0.487053825      -60.0403969      0.866465529      29.1438832       
