! Coilcraft 0402CS-6N8 Chip Inductor				
! 22 July 2002			
# MHZ S MA R 50
!Freq             MagS11           AngS11           MagS21           AngS21           MagS12           AngS12           MagS22           AngS22
1                0.000535340844   51.7988761       0.999669021      -0.0241120177    0.999669021      -0.0241120177    0.000535340844   51.7988761       
27.68            0.0117337363     81.8608614       0.998406338      -0.666599022     0.998406338      -0.666599022     0.0117337363     81.8608614       
54.36            0.0229284881     83.394341        0.997622447      -1.30820818      0.997622447      -1.30820818      0.0229284881     83.394341        
81.04            0.0341081314     83.7264504       0.996849539      -1.94906411      0.996849539      -1.94906411      0.0341081314     83.7264504       
107.72           0.0452701464     83.6675804       0.996023639      -2.58913579      0.996023639      -2.58913579      0.0452701464     83.6675804       
134.4            0.0564117901     83.4251243       0.995120001      -3.2283538       0.995120001      -3.2283538       0.0564117901     83.4251243       
161.08           0.0675301377     83.0796403       0.99412623       -3.86663199      0.99412623       -3.86663199      0.0675301377     83.0796403       
187.76           0.0786221616     82.6698295       0.993035311      -4.50387546      0.993035311      -4.50387546      0.0786221616     82.6698295       
214.44           0.0896847811     82.2169196       0.99184303       -5.13998438      0.99184303       -5.13998438      0.0896847811     82.2169196       
241.12           0.100714895      81.7336732       0.990546818      -5.77485608      0.990546818      -5.77485608      0.100714895      81.7336732       
267.8            0.111709405      81.2283017       0.989145157      -6.4083864       0.989145157      -6.4083864       0.111709405      81.2283017       
294.48           0.122665228      80.7063736       0.987637257      -7.04047055      0.987637257      -7.04047055      0.122665228      80.7063736       
321.16           0.133579314      80.1718271       0.986022847      -7.67100372      0.986022847      -7.67100372      0.133579314      80.1718271       
347.84           0.144448651      79.6275464       0.984302056      -8.29988159      0.984302056      -8.29988159      0.144448651      79.6275464       
374.52           0.155270277      79.0757061       0.982475325      -8.92700069      0.982475325      -8.92700069      0.155270277      79.0757061       
401.2            0.166041283      78.5179874       0.980543348      -9.55225869      0.980543348      -9.55225869      0.166041283      78.5179874       
427.88           0.176758822      77.9557188       0.978507029      -10.1755547      0.978507029      -10.1755547      0.176758822      77.9557188       
454.56           0.187420115      77.3899704       0.976367453      -10.7967893      0.976367453      -10.7967893      0.187420115      77.3899704       
481.24           0.198022451      76.8216185       0.974125857      -11.415865       0.974125857      -11.415865       0.198022451      76.8216185       
507.92           0.208563198      76.251392        0.971783614      -12.0326862      0.971783614      -12.0326862      0.208563198      76.251392        
534.6            0.219039798      75.6799053       0.969342215      -12.6471596      0.969342215      -12.6471596      0.219039798      75.6799053       
561.28           0.229449778      75.1076824       0.966803258      -13.2591937      0.966803258      -13.2591937      0.229449778      75.1076824       
587.96           0.239790748      74.5351753       0.964168432      -13.8686996      0.964168432      -13.8686996      0.239790748      74.5351753       
614.64           0.250060408      73.9627775       0.961439513      -14.4755909      0.961439513      -14.4755909      0.250060408      73.9627775       
641.32           0.260256543      73.3908348       0.958618351      -15.0797836      0.958618351      -15.0797836      0.260256543      73.3908348       
668              0.270377032      72.8196531       0.955706863      -15.6811961      0.955706863      -15.6811961      0.270377032      72.8196531       
694.68           0.280419844      72.2495051       0.952707026      -16.2797497      0.952707026      -16.2797497      0.280419844      72.2495051       
721.36           0.290383044      71.6806355       0.949620869      -16.8753683      0.949620869      -16.8753683      0.290383044      71.6806355       
748.04           0.300264789      71.1132647       0.946450471      -17.4679785      0.946450471      -17.4679785      0.300264789      71.1132647       
774.72           0.310063332      70.5475925       0.943197947      -18.0575098      0.943197947      -18.0575098      0.310063332      70.5475925       
801.4            0.319777021      69.9838005       0.939865452      -18.6438945      0.939865452      -18.6438945      0.319777021      69.9838005       
828.08           0.329404301      69.4220545       0.936455168      -19.2270675      0.936455168      -19.2270675      0.329404301      69.4220545       
854.76           0.338943709      68.8625062       0.932969304      -19.8069668      0.932969304      -19.8069668      0.338943709      68.8625062       
881.44           0.34839388       68.3052949       0.929410088      -20.3835332      0.929410088      -20.3835332      0.34839388       68.3052949       
908.12           0.357753541      67.7505486       0.925779763      -20.9567104      0.925779763      -20.9567104      0.357753541      67.7505486       
934.8            0.367021514      67.1983851       0.922080585      -21.5264447      0.922080585      -21.5264447      0.367021514      67.1983851       
961.48           0.376196712      66.6489133       0.918314817      -22.0926856      0.918314817      -22.0926856      0.376196712      66.6489133       
988.16           0.38527814       66.1022333       0.914484724      -22.6553853      0.914484724      -22.6553853      0.38527814       66.1022333       
1014.84          0.394264895      65.5584377       0.910592573      -23.2144986      0.910592573      -23.2144986      0.394264895      65.5584377       
1041.52          0.403156159      65.0176118       0.906640624      -23.7699833      0.906640624      -23.7699833      0.403156159      65.0176118       
1068.2           0.411951204      64.4798346       0.902631132      -24.3218001      0.902631132      -24.3218001      0.411951204      64.4798346       
1094.88          0.420649386      63.9451786       0.898566341      -24.869912       0.898566341      -24.869912       0.420649386      63.9451786       
1121.56          0.429250143      63.4137108       0.894448481      -25.4142852      0.894448481      -25.4142852      0.429250143      63.4137108       
1148.24          0.437752997      62.8854926       0.890279765      -25.954888       0.890279765      -25.954888       0.437752997      62.8854926       
1174.92          0.446157548      62.3605805       0.88606239       -26.4916917      0.88606239       -26.4916917      0.446157548      62.3605805       
1201.6           0.454463473      61.8390263       0.881798527      -27.0246701      0.881798527      -27.0246701      0.454463473      61.8390263       
1228.28          0.462670526      61.320877        0.877490328      -27.5537993      0.877490328      -27.5537993      0.462670526      61.320877        
1254.96          0.47077853       60.8061758       0.873139915      -28.079058       0.873139915      -28.079058       0.47077853       60.8061758       
1281.64          0.478787383      60.2949613       0.868749385      -28.6004274      0.868749385      -28.6004274      0.478787383      60.2949613       
1308.32          0.486697048      59.7872689       0.864320803      -29.1178908      0.864320803      -29.1178908      0.486697048      59.7872689       
1335             0.494507554      59.2831298       0.859856203      -29.6314339      0.859856203      -29.6314339      0.494507554      59.2831298       
1361.68          0.502218994      58.7825722       0.855357587      -30.1410447      0.855357587      -30.1410447      0.502218994      58.7825722       
1388.36          0.509831522      58.2856208       0.850826923      -30.6467132      0.850826923      -30.6467132      0.509831522      58.2856208       
1415.04          0.51734535       57.7922971       0.84626614       -31.1484316      0.84626614       -31.1484316      0.51734535       57.7922971       
1441.72          0.524760746      57.3026198       0.841677133      -31.6461941      0.841677133      -31.6461941      0.524760746      57.3026198       
1468.4           0.532078032      56.8166047       0.837061759      -32.1399969      0.837061759      -32.1399969      0.532078032      56.8166047       
1495.08          0.539297579      56.3342648       0.832421836      -32.6298381      0.832421836      -32.6298381      0.539297579      56.3342648       
1521.76          0.546419811      55.8556107       0.827759141      -33.1157177      0.827759141      -33.1157177      0.546419811      55.8556107       
1548.44          0.553445193      55.3806504       0.823075414      -33.5976372      0.823075414      -33.5976372      0.553445193      55.3806504       
1575.12          0.560374238      54.9093896       0.81837235       -34.0756002      0.81837235       -34.0756002      0.560374238      54.9093896       
1601.8           0.567207498      54.4418319       0.813651607      -34.5496117      0.813651607      -34.5496117      0.567207498      54.4418319       
1628.48          0.573945567      53.9779785       0.8089148        -35.0196784      0.8089148        -35.0196784      0.573945567      53.9779785       
1655.16          0.580589074      53.5178288       0.804163502      -35.4858084      0.804163502      -35.4858084      0.580589074      53.5178288       
1681.84          0.587138683      53.0613803       0.799399245      -35.9480114      0.799399245      -35.9480114      0.587138683      53.0613803       
1708.52          0.593595091      52.6086285       0.794623518      -36.4062983      0.794623518      -36.4062983      0.593595091      52.6086285       
1735.2           0.599959026      52.1595672       0.78983777       -36.8606816      0.78983777       -36.8606816      0.599959026      52.1595672       
1761.88          0.606231245      51.7141888       0.785043407      -37.3111749      0.785043407      -37.3111749      0.606231245      51.7141888       
1788.56          0.61241253       51.2724838       0.780241794      -37.757793       0.780241794      -37.757793       0.61241253       51.2724838       
1815.24          0.61850369       50.8344415       0.775434254      -38.200552       0.775434254      -38.200552       0.61850369       50.8344415       
1841.92          0.624505554      50.4000494       0.770622069      -38.6394688      0.770622069      -38.6394688      0.624505554      50.4000494       
1868.6           0.630418974      49.9692942       0.765806483      -39.0745617      0.765806483      -39.0745617      0.630418974      49.9692942       
1895.28          0.63624482       49.542161        0.760988695      -39.5058498      0.760988695      -39.5058498      0.63624482       49.542161        
1921.96          0.641983981      49.1186336       0.756169868      -39.9333531      0.756169868      -39.9333531      0.641983981      49.1186336       
1948.64          0.647637361      48.6986951       0.751351125      -40.3570925      0.751351125      -40.3570925      0.647637361      48.6986951       
1975.32          0.653205877      48.2823273       0.746533549      -40.7770899      0.746533549      -40.7770899      0.653205877      48.2823273       
2002             0.658690461      47.8695109       0.741718186      -41.1933676      0.741718186      -41.1933676      0.658690461      47.8695109       
2028.68          0.664092055      47.4602258       0.736906043      -41.6059491      0.736906043      -41.6059491      0.664092055      47.4602258       
2055.36          0.669411612      47.0544512       0.732098092      -42.0148582      0.732098092      -42.0148582      0.669411612      47.0544512       
2082.04          0.674650091      46.6521651       0.727295266      -42.4201195      0.727295266      -42.4201195      0.674650091      46.6521651       
2108.72          0.679808461      46.2533451       0.722498466      -42.8217582      0.722498466      -42.8217582      0.679808461      46.2533451       
2135.4           0.684887696      45.8579679       0.717708554      -43.2197999      0.717708554      -43.2197999      0.684887696      45.8579679       
2162.08          0.689888776      45.4660096       0.712926361      -43.614271       0.712926361      -43.614271       0.689888776      45.4660096       
2188.76          0.694812682      45.0774456       0.708152682      -44.0051979      0.708152682      -44.0051979      0.694812682      45.0774456       
2215.44          0.699660401      44.6922509       0.703388282      -44.392608       0.703388282      -44.392608       0.699660401      44.6922509       
2242.12          0.70443292       44.3103998       0.698633891      -44.7765286      0.698633891      -44.7765286      0.70443292       44.3103998       
2268.8           0.709131226      43.9318663       0.693890209      -45.1569876      0.693890209      -45.1569876      0.709131226      43.9318663       
2295.48          0.713756309      43.5566239       0.689157905      -45.5340132      0.689157905      -45.5340132      0.713756309      43.5566239       
2322.16          0.718309153      43.1846456       0.684437621      -45.9076337      0.684437621      -45.9076337      0.718309153      43.1846456       
2348.84          0.722790746      42.8159041       0.679729965      -46.277878       0.679729965      -46.277878       0.722790746      42.8159041       
2375.52          0.727202069      42.4503718       0.675035521      -46.6447748      0.675035521      -46.6447748      0.727202069      42.4503718       
2402.2           0.731544102      42.0880209       0.670354844      -47.0083534      0.670354844      -47.0083534      0.731544102      42.0880209       
2428.88          0.735817821      41.7288232       0.665688461      -47.3686429      0.665688461      -47.3686429      0.735817821      41.7288232       
2455.56          0.740024195      41.3727502       0.661036875      -47.7256727      0.661036875      -47.7256727      0.740024195      41.3727502       
2482.24          0.744164191      41.0197734       0.656400563      -48.0794724      0.656400563      -48.0794724      0.744164191      41.0197734       
2508.92          0.748238769      40.6698641       0.651779978      -48.4300716      0.651779978      -48.4300716      0.748238769      40.6698641       
2535.6           0.752248883      40.3229934       0.647175547      -48.7774998      0.647175547      -48.7774998      0.752248883      40.3229934       
2562.28          0.75619548       39.9791322       0.642587677      -49.1217868      0.642587677      -49.1217868      0.75619548       39.9791322       
2588.96          0.760079499      39.6382514       0.638016751      -49.4629622      0.638016751      -49.4629622      0.760079499      39.6382514       
2615.64          0.763901874      39.300322        0.633463131      -49.8010558      0.633463131      -49.8010558      0.763901874      39.300322        
2642.32          0.767663529      38.9653145       0.628927156      -50.1360971      0.628927156      -50.1360971      0.767663529      38.9653145       
2669             0.771365381      38.6331999       0.624409149      -50.4681159      0.624409149      -50.4681159      0.771365381      38.6331999       
2695.68          0.775008336      38.3039489       0.619909409      -50.7971416      0.619909409      -50.7971416      0.775008336      38.3039489       
2722.36          0.778593295      37.9775321       0.615428219      -51.1232038      0.615428219      -51.1232038      0.778593295      37.9775321       
2749.04          0.782121146      37.6539205       0.610965841      -51.4463317      0.610965841      -51.4463317      0.782121146      37.6539205       
2775.72          0.78559277       37.3330849       0.606522523      -51.7665547      0.606522523      -51.7665547      0.78559277       37.3330849       
2802.4           0.789009038      37.0149961       0.602098492      -52.0839019      0.602098492      -52.0839019      0.789009038      37.0149961       
2829.08          0.792370811      36.6996252       0.597693962      -52.3984024      0.597693962      -52.3984024      0.792370811      36.6996252       
2855.76          0.795678941      36.3869432       0.593309128      -52.7100848      0.593309128      -52.7100848      0.795678941      36.3869432       
2882.44          0.798934267      36.0769213       0.588944172      -53.018978       0.588944172      -53.018978       0.798934267      36.0769213       
2909.12          0.802137621      35.7695308       0.584599261      -53.3251104      0.584599261      -53.3251104      0.802137621      35.7695308       
2935.8           0.805289823      35.4647432       0.580274546      -53.6285103      0.580274546      -53.6285103      0.805289823      35.4647432       
2962.48          0.808391684      35.16253         0.575970167      -53.9292059      0.575970167      -53.9292059      0.808391684      35.16253         
2989.16          0.811444002      34.8628629       0.571686249      -54.227225       0.571686249      -54.227225       0.811444002      34.8628629       
3015.84          0.814447567      34.5657138       0.567422905      -54.5225954      0.567422905      -54.5225954      0.814447567      34.5657138       
3042.52          0.817403157      34.2710549       0.563180236      -54.8153446      0.563180236      -54.8153446      0.817403157      34.2710549       
3069.2           0.820311539      33.9788582       0.558958331      -55.1054997      0.558958331      -55.1054997      0.820311539      33.9788582       
3095.88          0.823173471      33.6890963       0.554757268      -55.3930878      0.554757268      -55.3930878      0.823173471      33.6890963       
3122.56          0.825989699      33.4017418       0.550577113      -55.6781357      0.550577113      -55.6781357      0.825989699      33.4017418       
3149.24          0.828760957      33.1167674       0.546417925      -55.9606699      0.546417925      -55.9606699      0.828760957      33.1167674       
3175.92          0.831487972      32.8341462       0.54227975       -56.2407165      0.54227975       -56.2407165      0.831487972      32.8341462       
3202.6           0.834171457      32.5538515       0.538162626      -56.5183016      0.538162626      -56.5183016      0.834171457      32.5538515       
3229.28          0.836812117      32.2758566       0.534066581      -56.7934509      0.534066581      -56.7934509      0.836812117      32.2758566       
3255.96          0.839410643      32.0001353       0.529991635      -57.0661899      0.529991635      -57.0661899      0.839410643      32.0001353       
3282.64          0.841967719      31.7266615       0.5259378        -57.3365437      0.5259378        -57.3365437      0.841967719      31.7266615       
3309.32          0.844484016      31.4554093       0.52190508       -57.6045373      0.52190508       -57.6045373      0.844484016      31.4554093       
3336             0.846960197      31.186353        0.51789347       -57.8701951      0.51789347       -57.8701951      0.846960197      31.186353        
3362.68          0.849396912      30.9194674       0.513902959      -58.1335416      0.513902959      -58.1335416      0.849396912      30.9194674       
3389.36          0.851794802      30.6547271       0.509933529      -58.3946007      0.509933529      -58.3946007      0.851794802      30.6547271       
