! Coilcraft 0402CS-43N Chip Inductor				
! 22 July 2002			
# MHZ S MA R 50
!Freq             MagS11           AngS11           MagS21           AngS21           MagS12           AngS12           MagS22           AngS22
1                0.00312490119    59.5262667       0.99841886       -0.154555433     0.99841886       -0.154555433     0.00312490119    59.5262667       
13.72            0.0372384412     79.5293069       0.993907353      -2.11141575      0.993907353      -2.11141575      0.0372384412     79.5293069       
26.44            0.0711170332     79.9479903       0.990066566      -4.05579863      0.990066566      -4.05579863      0.0711170332     79.9479903       
39.16            0.104669364      79.09845         0.985578569      -5.98593871      0.985578569      -5.98593871      0.104669364      79.09845         
51.88            0.137803805      77.8369562       0.980265746      -7.89871384      0.980265746      -7.89871384      0.137803805      77.8369562       
64.6             0.170429551      76.3916661       0.974088145      -9.79080717      0.974088145      -9.79080717      0.170429551      76.3916661       
77.32            0.202460713      74.8542762       0.967054566      -11.6589653      0.967054566      -11.6589653      0.202460713      74.8542762       
90.04            0.233818543      73.2706291       0.959198146      -13.5001123      0.959198146      -13.5001123      0.233818543      73.2706291       
102.76           0.264432791      71.6670884       0.95056641       -15.3114133      0.95056641       -15.3114133      0.264432791      71.6670884       
115.48           0.294242506      70.0603614       0.941216032      -17.0903137      0.941216032      -17.0903137      0.294242506      70.0603614       
128.2            0.323196439      68.4617893       0.931209495      -18.8345623      0.931209495      -18.8345623      0.323196439      68.4617893       
140.92           0.351253122      66.8794489       0.920612689      -20.5422221      0.920612689      -20.5422221      0.351253122      66.8794489       
153.64           0.378380675      65.3192767       0.909493053      -22.2116725      0.909493053      -22.2116725      0.378380675      65.3192767       
166.36           0.404556403      63.7857166       0.897918077      -23.8416042      0.897918077      -23.8416042      0.404556403      63.7857166       
179.08           0.429766225      62.2821168       0.885954104      -25.4310077      0.885954104      -25.4310077      0.429766225      62.2821168       
191.8            0.454003986      60.8109877       0.873665365      -26.9791572      0.873665365      -26.9791572      0.454003986      60.8109877       
204.52           0.477270685      59.3741792       0.861113232      -28.4855919      0.861113232      -28.4855919      0.477270685      59.3741792       
217.24           0.49957366       57.9730082       0.848355654      -29.9500941      0.848355654      -29.9500941      0.49957366       57.9730082       
229.96           0.52092576       56.6083551       0.835446763      -31.3726664      0.835446763      -31.3726664      0.52092576       56.6083551       
242.68           0.541344537      55.2807391       0.822436619      -32.7535078      0.822436619      -32.7535078      0.541344537      55.2807391       
255.4            0.560851459      53.9903787       0.809371083      -34.0929908      0.809371083      -34.0929908      0.560851459      53.9903787       
268.12           0.57947118       52.7372428       0.796291792      -35.3916383      0.796291792      -35.3916383      0.57947118       52.7372428       
280.84           0.597230867      51.5210923       0.783236218      -36.6501017      0.783236218      -36.6501017      0.597230867      51.5210923       
293.56           0.614159585      50.3415168       0.770237786      -37.8691406      0.770237786      -37.8691406      0.614159585      50.3415168       
306.28           0.630287756      49.1979653       0.757326057      -39.0496037      0.757326057      -39.0496037      0.630287756      49.1979653       
319              0.64564668       48.0897729       0.744526929      -40.1924112      0.744526929      -40.1924112      0.64564668       48.0897729       
331.72           0.66026812       47.0161841       0.73186288       -41.2985398      0.73186288       -41.2985398      0.66026812       47.0161841       
344.44           0.674183955      45.9763721       0.719353212      -42.369008       0.719353212      -42.369008       0.674183955      45.9763721       
357.16           0.687425876      44.9694566       0.707014307      -43.4048639      0.707014307      -43.4048639      0.687425876      44.9694566       
369.88           0.700025152      43.9945178       0.694859882      -44.4071744      0.694859882      -44.4071744      0.700025152      43.9945178       
382.6            0.712012424      43.0506093       0.682901236      -45.3770161      0.682901236      -45.3770161      0.712012424      43.0506093       
395.32           0.723417554      42.1367684       0.671147494      -46.3154666      0.671147494      -46.3154666      0.723417554      42.1367684       
408.04           0.734269499      41.2520254       0.659605829      -47.2235981      0.659605829      -47.2235981      0.734269499      41.2520254       
420.76           0.744596229      40.3954108       0.64828168       -48.1024715      0.64828168       -48.1024715      0.744596229      40.3954108       
433.48           0.754424653      39.5659614       0.637178949      -48.9531319      0.637178949      -48.9531319      0.754424653      39.5659614       
446.2            0.763780588      38.7627259       0.626300187      -49.7766043      0.626300187      -49.7766043      0.763780588      38.7627259       
458.92           0.772688729      37.9847685       0.615646759      -50.5738907      0.615646759      -50.5738907      0.772688729      37.9847685       
471.64           0.781172649      37.2311726       0.605219001      -51.345968       0.605219001      -51.345968       0.781172649      37.2311726       
484.36           0.789254797      36.5010433       0.595016357      -52.0937855      0.595016357      -52.0937855      0.789254797      36.5010433       
497.08           0.796956519      35.7935092       0.585037504      -52.818264       0.585037504      -52.818264       0.796956519      35.7935092       
509.8            0.80429808       35.1077242       0.575280466      -53.5202948      0.575280466      -53.5202948      0.80429808       35.1077242       
522.52           0.811298694      34.4428682       0.565742711      -54.2007391      0.565742711      -54.2007391      0.811298694      34.4428682       
535.24           0.817976557      33.798148        0.556421245      -54.8604278      0.556421245      -54.8604278      0.817976557      33.798148        
547.96           0.824348883      33.1727978       0.547312688      -55.5001615      0.547312688      -55.5001615      0.824348883      33.1727978       
560.68           0.83043195       32.5660789       0.538413342      -56.1207107      0.538413342      -56.1207107      0.83043195       32.5660789       
573.4            0.836241133      31.9772797       0.529719259      -56.722816       0.529719259      -56.722816       0.836241133      31.9772797       
586.12           0.841790951      31.4057157       0.521226286      -57.3071892      0.521226286      -57.3071892      0.841790951      31.4057157       
598.84           0.847095107      30.8507287       0.512930119      -57.8745133      0.512930119      -57.8745133      0.847095107      30.8507287       
611.56           0.852166528      30.3116866       0.504826342      -58.4254435      0.504826342      -58.4254435      0.852166528      30.3116866       
624.28           0.857017408      29.7879826       0.49691046       -58.9606082      0.49691046       -58.9606082      0.857017408      29.7879826       
637              0.861659245      29.2790344       0.489177934      -59.4806094      0.489177934      -59.4806094      0.861659245      29.2790344       
649.72           0.866102881      28.7842836       0.481624202      -59.986024       0.481624202      -59.986024       0.866102881      28.7842836       
662.44           0.870358538      28.303195        0.474244707      -60.4774043      0.474244707      -60.4774043      0.870358538      28.303195        
675.16           0.874435852      27.8352558       0.467034912      -60.9552794      0.467034912      -60.9552794      0.874435852      27.8352558       
687.88           0.878343909      27.3799746       0.459990319      -61.4201555      0.459990319      -61.4201555      0.878343909      27.3799746       
700.6            0.882091276      26.9368807       0.453106479      -61.8725172      0.453106479      -61.8725172      0.882091276      26.9368807       
713.32           0.885686031      26.5055232       0.446379009      -62.3128285      0.446379009      -62.3128285      0.885686031      26.5055232       
726.04           0.889135794      26.0854707       0.439803595      -62.741533       0.439803595      -62.741533       0.889135794      26.0854707       
738.76           0.89244775       25.6763097       0.433376003      -63.1590557      0.433376003      -63.1590557      0.89244775       25.6763097       
751.48           0.895628681      25.2776445       0.427092087      -63.5658031      0.427092087      -63.5658031      0.895628681      25.2776445       
764.2            0.898684985      24.8890961       0.420947789      -63.9621641      0.420947789      -63.9621641      0.898684985      24.8890961       
776.92           0.901622703      24.5103016       0.414939145      -64.3485113      0.414939145      -64.3485113      0.901622703      24.5103016       
789.64           0.904447536      24.1409135       0.409062289      -64.7252008      0.409062289      -64.7252008      0.904447536      24.1409135       
802.36           0.907164871      23.7805989       0.403313451      -65.0925741      0.403313451      -65.0925741      0.907164871      23.7805989       
815.08           0.909779795      23.4290392       0.397688963      -65.4509576      0.397688963      -65.4509576      0.909779795      23.4290392       
827.8            0.912297117      23.0859289       0.392185255      -65.8006643      0.392185255      -65.8006643      0.912297117      23.0859289       
840.52           0.914721383      22.7509754       0.386798858      -66.1419937      0.386798858      -66.1419937      0.914721383      22.7509754       
853.24           0.91705689       22.4238985       0.3815264        -66.4752326      0.3815264        -66.4752326      0.91705689       22.4238985       
865.96           0.919307705      22.1044294       0.376364609      -66.8006561      0.376364609      -66.8006561      0.919307705      22.1044294       
878.68           0.921477675      21.7923106       0.37131031       -67.1185276      0.37131031       -67.1185276      0.921477675      21.7923106       
891.4            0.923570442      21.4872951       0.366360424      -67.4290996      0.366360424      -67.4290996      0.923570442      21.4872951       
904.12           0.925589456      21.1891463       0.361511963      -67.732614       0.361511963      -67.732614       0.925589456      21.1891463       
916.84           0.927537984      20.8976369       0.356762034      -68.0293029      0.356762034      -68.0293029      0.927537984      20.8976369       
929.56           0.929419121      20.612549        0.352107834      -68.3193891      0.352107834      -68.3193891      0.929419121      20.612549        
942.28           0.931235804      20.3336737       0.347546644      -68.6030858      0.347546644      -68.6030858      0.931235804      20.3336737       
955              0.932990815      20.0608102       0.343075836      -68.8805982      0.343075836      -68.8805982      0.932990815      20.0608102       
967.72           0.934686797      19.7937658       0.338692861      -69.1521227      0.338692861      -69.1521227      0.934686797      19.7937658       
980.44           0.936326255      19.5323555       0.334395254      -69.4178481      0.334395254      -69.4178481      0.936326255      19.5323555       
993.16           0.937911569      19.2764017       0.330180627      -69.6779557      0.330180627      -69.6779557      0.937911569      19.2764017       
1005.88          0.939445         19.0257336       0.326046669      -69.9326196      0.326046669      -69.9326196      0.939445         19.0257336       
1018.6           0.940928695      18.7801872       0.321991145      -70.182007       0.321991145      -70.182007       0.940928695      18.7801872       
1031.32          0.942364695      18.5396047       0.318011889      -70.4262786      0.318011889      -70.4262786      0.942364695      18.5396047       
1044.04          0.943754942      18.3038346       0.314106808      -70.665589       0.314106808      -70.665589       0.943754942      18.3038346       
1056.76          0.945101282      18.072731        0.310273872      -70.9000866      0.310273872      -70.9000866      0.945101282      18.072731        
1069.48          0.946405471      17.8461537       0.306511122      -71.1299142      0.306511122      -71.1299142      0.946405471      17.8461537       
1082.2           0.947669183      17.6239676       0.302816658      -71.3552093      0.302816658      -71.3552093      0.947669183      17.6239676       
1094.92          0.94889401       17.4060429       0.299188642      -71.5761039      0.299188642      -71.5761039      0.94889401       17.4060429       
1107.64          0.95008147       17.1922545       0.295625296      -71.7927254      0.295625296      -71.7927254      0.95008147       17.1922545       
1120.36          0.951233007      16.9824819       0.292124898      -72.0051962      0.292124898      -72.0051962      0.951233007      16.9824819       
1133.08          0.952350001      16.7766093       0.288685782      -72.2136342      0.288685782      -72.2136342      0.952350001      16.7766093       
1145.8           0.953433767      16.5745247       0.285306335      -72.418153       0.285306335      -72.418153       0.953433767      16.5745247       
1158.52          0.954485557      16.3761206       0.281984995      -72.6188619      0.281984995      -72.6188619      0.954485557      16.3761206       
1171.24          0.95550657       16.1812931       0.278720251      -72.8158664      0.278720251      -72.8158664      0.95550657       16.1812931       
1183.96          0.956497947      15.9899421       0.275510637      -73.0092681      0.275510637      -73.0092681      0.956497947      15.9899421       
1196.68          0.95746078       15.8019711       0.272354736      -73.1991649      0.272354736      -73.1991649      0.95746078       15.8019711       
1209.4           0.958396111      15.6172869       0.269251175      -73.3856513      0.269251175      -73.3856513      0.958396111      15.6172869       
1222.12          0.959304937      15.4357997       0.266198624      -73.5688184      0.266198624      -73.5688184      0.959304937      15.4357997       
1234.84          0.960188209      15.2574228       0.263195794      -73.7487541      0.263195794      -73.7487541      0.960188209      15.2574228       
1247.56          0.96104684       15.0820723       0.260241437      -73.925543       0.260241437      -73.925543       0.96104684       15.0820723       
1260.28          0.961881699      14.9096676       0.257334343      -74.0992672      0.257334343      -74.0992672      0.961881699      14.9096676       
1273             0.962693621      14.7401304       0.25447334       -74.2700056      0.25447334       -74.2700056      0.962693621      14.7401304       
1285.72          0.963483403      14.5733854       0.251657292      -74.4378345      0.251657292      -74.4378345      0.963483403      14.5733854       
1298.44          0.964251811      14.4093597       0.248885097      -74.6028275      0.248885097      -74.6028275      0.964251811      14.4093597       
1311.16          0.964999575      14.2479827       0.246155687      -74.7650559      0.246155687      -74.7650559      0.964999575      14.2479827       
1323.88          0.965727398      14.0891864       0.243468027      -74.9245885      0.243468027      -74.9245885      0.965727398      14.0891864       
1336.6           0.966435952      13.9329048       0.240821113      -75.0814916      0.240821113      -75.0814916      0.966435952      13.9329048       
1349.32          0.967125881      13.7790744       0.238213971      -75.2358295      0.238213971      -75.2358295      0.967125881      13.7790744       
1362.04          0.967797803      13.6276334       0.235645657      -75.3876643      0.235645657      -75.3876643      0.967797803      13.6276334       
1374.76          0.968452312      13.4785222       0.233115253      -75.5370561      0.233115253      -75.5370561      0.968452312      13.4785222       
1387.48          0.969089976      13.331683        0.230621871      -75.684063       0.230621871      -75.684063       0.969089976      13.331683        
1400.2           0.969711342      13.18706         0.228164647      -75.8287411      0.228164647      -75.8287411      0.969711342      13.18706         
1412.92          0.970316934      13.0445991       0.225742744      -75.9711448      0.225742744      -75.9711448      0.970316934      13.0445991       
1425.64          0.970907257      12.9042477       0.223355348      -76.1113267      0.223355348      -76.1113267      0.970907257      12.9042477       
1438.36          0.971482793      12.7659553       0.22100167       -76.2493377      0.22100167       -76.2493377      0.971482793      12.7659553       
1451.08          0.972044009      12.6296725       0.218680943      -76.3852272      0.218680943      -76.3852272      0.972044009      12.6296725       
1463.8           0.972591351      12.4953516       0.216392422      -76.5190427      0.216392422      -76.5190427      0.972591351      12.4953516       
1476.52          0.973125249      12.3629465       0.214135385      -76.6508305      0.214135385      -76.6508305      0.973125249      12.3629465       
1489.24          0.973646117      12.2324124       0.211909127      -76.7806355      0.211909127      -76.7806355      0.973646117      12.2324124       
1501.96          0.974154353      12.1037057       0.209712967      -76.9085008      0.209712967      -76.9085008      0.974154353      12.1037057       
1514.68          0.974650339      11.9767843       0.207546241      -77.0344686      0.207546241      -77.0344686      0.974650339      11.9767843       
1527.4           0.975134444      11.8516074       0.205408303      -77.1585794      0.205408303      -77.1585794      0.975134444      11.8516074       
1540.12          0.975607023      11.7281352       0.203298527      -77.2808728      0.203298527      -77.2808728      0.975607023      11.7281352       
1552.84          0.976068417      11.6063292       0.201216304      -77.401387       0.201216304      -77.401387       0.976068417      11.6063292       
1565.56          0.976518956      11.4861521       0.199161041      -77.5201589      0.199161041      -77.5201589      0.976518956      11.4861521       
1578.28          0.976958957      11.3675675       0.19713216       -77.6372246      0.19713216       -77.6372246      0.976958957      11.3675675       
1591             0.977388725      11.2505403       0.195129102      -77.7526188      0.195129102      -77.7526188      0.977388725      11.2505403       
1603.72          0.977808556      11.1350361       0.193151321      -77.8663753      0.193151321      -77.8663753      0.977808556      11.1350361       
1616.44          0.978218734      11.0210217       0.191198287      -77.9785269      0.191198287      -77.9785269      0.978218734      11.0210217       
