! Coilcraft 0402CS-36N Chip Inductor				
! 29 May 2002			
# MHZ S MA R 50
!Freq             MagS11           AngS11           MagS21           AngS21           MagS12           AngS12           MagS22           AngS22
1                0.00266693708    57.7508913       0.998579466      -0.129416014     0.998579466      -0.129416014     0.00266693708    57.7508913       
13.47            0.0306877944     79.2409796       0.994728217      -1.73679287      0.994728217      -1.73679287      0.0306877944     79.2409796       
25.94            0.0585638073     80.1888343       0.991701061      -3.33593798      0.991701061      -3.33593798      0.0585638073     80.1888343       
38.41            0.086244417      79.7646412       0.988325958      -4.92631028      0.988325958      -4.92631028      0.086244417      79.7646412       
50.88            0.113680108      78.8877875       0.984430687      -6.5063307       0.984430687      -6.5063307       0.113680108      78.8877875       
63.35            0.140820091      77.8024081       0.979961384      -8.07420964      0.979961384      -8.07420964      0.140820091      77.8024081       
75.82            0.167614643      76.605732        0.97490441       -9.62812178      0.97490441       -9.62812178      0.167614643      76.605732        
88.29            0.194016391      75.3456995       0.96926537       -11.166279       0.96926537       -11.166279       0.194016391      75.3456995       
100.76           0.21998112       74.04942         0.963061003      -12.6869702      0.963061003      -12.6869702      0.21998112       74.04942         
113.23           0.245468303      72.7337825       0.956315257      -14.1885866      0.956315257      -14.1885866      0.245468303      72.7337825       
125.7            0.270441464      71.4100917       0.949057024      -15.6696384      0.949057024      -15.6696384      0.270441464      71.4100917       
138.17           0.294868396      70.0863376       0.941318652      -17.1287657      0.941318652      -17.1287657      0.294868396      70.0863376       
150.64           0.318721282      68.7684041       0.93313486       -18.5647464      0.93313486       -18.5647464      0.318721282      68.7684041       
163.11           0.341976705      67.4607578       0.924541889      -19.9764989      0.924541889      -19.9764989      0.341976705      67.4607578       
175.58           0.364615592      66.1668639       0.915576808      -21.3630839      0.915576808      -21.3630839      0.364615592      66.1668639       
188.05           0.386623085      64.8894487       0.906276937      -22.7237029      0.906276937      -22.7237029      0.386623085      64.8894487       
200.52           0.407988356      63.6306736       0.896679363      -24.0576949      0.896679363      -24.0576949      0.407988356      63.6306736       
212.99           0.428704379      62.3922541       0.886820527      -25.3645318      0.886820527      -25.3645318      0.428704379      62.3922541       
225.46           0.448767671      61.1755454       0.876735888      -26.6438121      0.876735888      -26.6438121      0.448767671      61.1755454       
237.93           0.468178008      59.981605        0.866459646      -27.8952541      0.866459646      -27.8952541      0.468178008      59.981605        
250.4            0.486938125      58.8112416       0.856024524      -29.1186879      0.856024524      -29.1186879      0.486938125      58.8112416       
262.87           0.505053417      57.6650522       0.845461598      -30.3140473      0.845461598      -30.3140473      0.505053417      57.6650522       
275.34           0.522531629      56.5434537       0.834800175      -31.4813612      0.834800175      -31.4813612      0.522531629      56.5434537       
287.81           0.539382562      55.4467079       0.824067718      -32.6207448      0.824067718      -32.6207448      0.539382562      55.4467079       
300.28           0.555617788      54.3749431       0.813289795      -33.7323914      0.813289795      -33.7323914      0.555617788      54.3749431       
312.75           0.571250378      53.3281729       0.802490072      -34.8165635      0.802490072      -34.8165635      0.571250378      53.3281729       
325.22           0.586294643      52.306312        0.791690322      -35.8735852      0.791690322      -35.8735852      0.586294643      52.306312        
337.69           0.600765901      51.3091901       0.780910461      -36.9038338      0.780910461      -36.9038338      0.600765901      51.3091901       
350.16           0.614680262      50.3365647       0.770168601      -37.9077333      0.770168601      -37.9077333      0.614680262      50.3365647       
362.63           0.628054428      49.3881318       0.759481119      -38.8857467      0.759481119      -38.8857467      0.628054428      49.3881318       
375.1            0.640905519      48.4635357       0.748862729      -39.8383701      0.748862729      -39.8383701      0.640905519      48.4635357       
387.57           0.653250916      47.5623776       0.738326572      -40.7661267      0.738326572      -40.7661267      0.653250916      47.5623776       
400.04           0.665108121      46.6842231       0.727884304      -41.6695616      0.727884304      -41.6695616      0.665108121      46.6842231       
412.51           0.676494639      45.8286091       0.71754619       -42.5492365      0.71754619       -42.5492365      0.676494639      45.8286091       
424.98           0.687427876      44.99505         0.707321195      -43.4057259      0.707321195      -43.4057259      0.687427876      44.99505         
437.45           0.697925044      44.1830424       0.697217082      -44.2396124      0.697217082      -44.2396124      0.697925044      44.1830424       
449.92           0.708003095      43.3920702       0.687240502      -45.0514841      0.687240502      -45.0514841      0.708003095      43.3920702       
462.39           0.717678651      42.6216085       0.677397081      -45.8419306      0.677397081      -45.8419306      0.717678651      42.6216085       
474.86           0.72696796       41.8711272       0.667691512      -46.6115411      0.667691512      -46.6115411      0.72696796       41.8711272       
487.33           0.735886852      41.1400938       0.65812763       -47.3609014      0.65812763       -47.3609014      0.735886852      41.1400938       
499.8            0.744450708      40.4279765       0.648708496      -48.0905922      0.648708496      -48.0905922      0.744450708      40.4279765       
512.27           0.75267444       39.734246        0.639436467      -48.8011873      0.639436467      -48.8011873      0.75267444       39.734246        
524.74           0.760572468      39.0583778       0.630313267      -49.4932519      0.630313267      -49.4932519      0.760572468      39.0583778       
537.21           0.768158716      38.3998537       0.621340049      -50.1673418      0.621340049      -50.1673418      0.768158716      38.3998537       
549.68           0.7754466        37.758163        0.612517455      -50.824002       0.612517455      -50.824002       0.7754466        37.758163        
562.15           0.782449034      37.132804        0.603845674      -51.4637659      0.603845674      -51.4637659      0.782449034      37.132804        
574.62           0.789178424      36.5232846       0.59532449       -52.0871547      0.59532449       -52.0871547      0.789178424      36.5232846       
587.09           0.795646681      35.9291233       0.586953328      -52.694677       0.586953328      -52.694677       0.795646681      35.9291233       
599.56           0.801865223      35.3498496       0.578731302      -53.2868283      0.578731302      -53.2868283      0.801865223      35.3498496       
612.03           0.80784499       34.7850045       0.570657245      -53.8640908      0.570657245      -53.8640908      0.80784499       34.7850045       
624.5            0.81359645       34.2341409       0.562729756      -54.426933       0.562729756      -54.426933       0.81359645       34.2341409       
636.97           0.819129617      33.6968237       0.554947221      -54.97581        0.554947221      -54.97581        0.819129617      33.6968237       
649.44           0.82445406       33.1726301       0.54730785       -55.5111633      0.54730785       -55.5111633      0.82445406       33.1726301       
661.91           0.829578924      32.6611496       0.5398097        -56.0334209      0.5398097        -56.0334209      0.829578924      32.6611496       
674.38           0.834512937      32.1619837       0.532450701      -56.5429971      0.532450701      -56.5429971      0.834512937      32.1619837       
686.85           0.83926443       31.6747462       0.525228674      -57.0402935      0.525228674      -57.0402935      0.83926443       31.6747462       
699.32           0.843841352      31.199063        0.518141354      -57.5256983      0.518141354      -57.5256983      0.843841352      31.199063        
711.79           0.848251285      30.7345718       0.511186404      -57.999587       0.511186404      -57.999587       0.848251285      30.7345718       
724.26           0.852501458      30.280922        0.504361433      -58.4623226      0.504361433      -58.4623226      0.852501458      30.280922        
736.73           0.856598763      29.8377745       0.497664008      -58.9142559      0.497664008      -58.9142559      0.856598763      29.8377745       
749.2            0.86054977       29.4048014       0.491091666      -59.3557256      0.491091666      -59.3557256      0.86054977       29.4048014       
761.67           0.864360739      28.9816857       0.484641927      -59.7870591      0.484641927      -59.7870591      0.864360739      28.9816857       
774.14           0.868037639      28.5681212       0.4783123        -60.2085723      0.4783123        -60.2085723      0.868037639      28.5681212       
786.61           0.871586157      28.1638122       0.472100294      -60.6205699      0.472100294      -60.6205699      0.871586157      28.1638122       
799.08           0.87501171       27.7684727       0.466003425      -61.0233464      0.466003425      -61.0233464      0.87501171       27.7684727       
811.55           0.878319464      27.381827        0.460019222      -61.4171856      0.460019222      -61.4171856      0.878319464      27.381827        
824.02           0.881514341      27.0036087       0.454145231      -61.8023616      0.454145231      -61.8023616      0.881514341      27.0036087       
836.49           0.884601029      26.6335606       0.448379023      -62.1791387      0.448379023      -62.1791387      0.884601029      26.6335606       
848.96           0.887584         26.2714346       0.442718195      -62.5477718      0.442718195      -62.5477718      0.887584         26.2714346       
861.43           0.890467515      25.9169909       0.437160377      -62.908507       0.437160377      -62.908507       0.890467515      25.9169909       
873.9            0.893255636      25.5699986       0.431703231      -63.2615815      0.431703231      -63.2615815      0.893255636      25.5699986       
886.37           0.895952236      25.2302342       0.426344456      -63.6072241      0.426344456      -63.6072241      0.895952236      25.2302342       
898.84           0.898561009      24.8974826       0.42108179       -63.9456558      0.42108179       -63.9456558      0.898561009      24.8974826       
911.31           0.901085476      24.5715358       0.415913012      -64.2770893      0.415913012      -64.2770893      0.901085476      24.5715358       
923.78           0.903528996      24.2521932       0.410835941      -64.6017303      0.410835941      -64.6017303      0.903528996      24.2521932       
936.25           0.905894776      23.9392612       0.405848439      -64.9197768      0.405848439      -64.9197768      0.905894776      23.9392612       
948.72           0.908185873      23.6325529       0.400948413      -65.2314202      0.400948413      -65.2314202      0.908185873      23.6325529       
961.19           0.910405207      23.3318879       0.396133813      -65.5368449      0.396133813      -65.5368449      0.910405207      23.3318879       
973.66           0.912555564      23.037092        0.391402632      -65.8362291      0.391402632      -65.8362291      0.912555564      23.037092        
986.13           0.914639604      22.7479971       0.386752911      -66.1297444      0.386752911      -66.1297444      0.914639604      22.7479971       
998.6            0.916659867      22.4644408       0.382182731      -66.4175569      0.382182731      -66.4175569      0.916659867      22.4644408       
1011.07          0.918618782      22.1862663       0.377690222      -66.6998265      0.377690222      -66.6998265      0.918618782      22.1862663       
1023.54          0.920518665      21.9133224       0.373273555      -66.9767078      0.373273555      -66.9767078      0.920518665      21.9133224       
1036.01          0.922361733      21.6454626       0.368930945      -67.24835        0.368930945      -67.24835        0.922361733      21.6454626       
1048.48          0.924150103      21.3825458       0.364660653      -67.5148972      0.364660653      -67.5148972      0.924150103      21.3825458       
1060.95          0.925885801      21.1244355       0.360460979      -67.7764884      0.360460979      -67.7764884      0.925885801      21.1244355       
1073.42          0.927570763      20.8709999       0.356330269      -68.0332581      0.356330269      -68.0332581      0.927570763      20.8709999       
1085.89          0.929206841      20.6221114       0.352266906      -68.2853361      0.352266906      -68.2853361      0.929206841      20.6221114       
1098.36          0.930795808      20.377647        0.348269319      -68.5328478      0.348269319      -68.5328478      0.930795808      20.377647        
1110.83          0.932339359      20.1374876       0.344335974      -68.7759143      0.344335974      -68.7759143      0.932339359      20.1374876       
1123.3           0.933839118      19.9015181       0.340465376      -69.0146529      0.340465376      -69.0146529      0.933839118      19.9015181       
1135.77          0.93529664       19.6696271       0.33665607       -69.2491766      0.33665607       -69.2491766      0.93529664       19.6696271       
1148.24          0.936713413      19.4417071       0.332906638      -69.4795949      0.332906638      -69.4795949      0.936713413      19.4417071       
1160.71          0.938090863      19.2176539       0.329215699      -69.7060137      0.329215699      -69.7060137      0.938090863      19.2176539       
1173.18          0.939430358      18.9973668       0.325581908      -69.9285352      0.325581908      -69.9285352      0.939430358      18.9973668       
1185.65          0.940733207      18.7807483       0.322003956      -70.1472583      0.322003956      -70.1472583      0.940733207      18.7807483       
1198.12          0.942000666      18.5677042       0.318480568      -70.3622789      0.318480568      -70.3622789      0.942000666      18.5677042       
1210.59          0.94323394       18.3581431       0.315010501      -70.5736894      0.315010501      -70.5736894      0.94323394       18.3581431       
1223.06          0.944434183      18.1519767       0.311592548      -70.7815795      0.311592548      -70.7815795      0.944434183      18.1519767       
1235.53          0.945602503      17.9491193       0.30822553       -70.9860359      0.30822553       -70.9860359      0.945602503      17.9491193       
1248             0.946739964      17.7494882       0.304908303      -71.1871425      0.304908303      -71.1871425      0.946739964      17.7494882       
1260.47          0.947847588      17.5530031       0.30163975       -71.3849806      0.30163975       -71.3849806      0.947847588      17.5530031       
1272.94          0.948926354      17.3595862       0.298418785      -71.5796287      0.298418785      -71.5796287      0.948926354      17.3595862       
1285.41          0.949977203      17.1691622       0.295244351      -71.7711632      0.295244351      -71.7711632      0.949977203      17.1691622       
1297.88          0.95100104       16.9816582       0.292115418      -71.9596577      0.292115418      -71.9596577      0.95100104       16.9816582       
1310.35          0.951998734      16.7970032       0.289030983      -72.1451837      0.289030983      -72.1451837      0.951998734      16.7970032       
1322.82          0.95297112       16.6151289       0.285990072      -72.3278105      0.285990072      -72.3278105      0.95297112       16.6151289       
1335.29          0.953919001      16.4359686       0.282991732      -72.5076051      0.282991732      -72.5076051      0.953919001      16.4359686       
1347.76          0.954843148      16.2594579       0.28003504       -72.6846325      0.28003504       -72.6846325      0.954843148      16.2594579       
1360.23          0.955744304      16.0855342       0.277119094      -72.8589557      0.277119094      -72.8589557      0.955744304      16.0855342       
1372.7           0.956623184      15.9141369       0.274243016      -73.0306358      0.274243016      -73.0306358      0.956623184      15.9141369       
1385.17          0.957480475      15.7452071       0.271405952      -73.199732       0.271405952      -73.199732       0.957480475      15.7452071       
1397.64          0.958316838      15.5786877       0.268607069      -73.3663017      0.268607069      -73.3663017      0.958316838      15.5786877       
1410.11          0.95913291       15.4145232       0.265845557      -73.5304006      0.265845557      -73.5304006      0.95913291       15.4145232       
1422.58          0.959929304      15.2526598       0.263120627      -73.6920826      0.263120627      -73.6920826      0.959929304      15.2526598       
1435.05          0.960706612      15.0930452       0.260431509      -73.8514002      0.260431509      -73.8514002      0.960706612      15.0930452       
1447.52          0.961465401      14.9356288       0.257777453      -74.0084041      0.257777453      -74.0084041      0.961465401      14.9356288       
1459.99          0.962206221      14.7803612       0.25515773       -74.1631437      0.25515773       -74.1631437      0.962206221      14.7803612       
1472.46          0.9629296        14.6271946       0.252571628      -74.3156668      0.252571628      -74.3156668      0.9629296        14.6271946       
1484.93          0.963636047      14.4760825       0.250018455      -74.4660198      0.250018455      -74.4660198      0.963636047      14.4760825       
1497.4           0.964326053      14.3269796       0.247497534      -74.6142478      0.247497534      -74.6142478      0.964326053      14.3269796       
1509.87          0.965000093      14.1798421       0.245008208      -74.7603945      0.245008208      -74.7603945      0.965000093      14.1798421       
1522.34          0.965658623      14.0346272       0.242549834      -74.9045025      0.242549834      -74.9045025      0.965658623      14.0346272       
1534.81          0.966302084      13.8912936       0.240121788      -75.0466128      0.240121788      -75.0466128      0.966302084      13.8912936       
1547.28          0.966930903      13.7498007       0.237723459      -75.1867656      0.237723459      -75.1867656      0.966930903      13.7498007       
1559.75          0.967545489      13.6101095       0.235354254      -75.3249998      0.235354254      -75.3249998      0.967545489      13.6101095       
1572.22          0.96814624       13.4721816       0.233013592      -75.4613531      0.233013592      -75.4613531      0.96814624       13.4721816       
1584.69          0.968733538      13.33598         0.230700909      -75.5958621      0.230700909      -75.5958621      0.968733538      13.33598         
