! Coilcraft 0402CS-7N5 Chip Inductor				
! 29 May 2002			
# MHZ S MA R 50
!Freq             MagS11           AngS11           MagS21           AngS21           MagS12           AngS12           MagS22           AngS22
1                0.000568317326   55.9608637       0.99968199       -0.0269914149    0.99968199       -0.0269914149    0.000568317326   55.9608637       
27.68            0.0131052068     82.8672132       0.998457419      -0.746234257     0.998457419      -0.746234257     0.0131052068     82.8672132       
54.36            0.0256370081     84.0134286       0.99765205       -1.46447917      0.99765205       -1.46447917      0.0256370081     84.0134286       
81.04            0.0381494921     84.128392        0.996819957      -2.18180114      0.996819957      -2.18180114      0.0381494921     84.128392        
107.72           0.0506386021     83.9088236       0.995900421      -2.89810947      0.995900421      -2.89810947      0.0506386021     83.9088236       
134.4            0.0630999916     83.5326034       0.994870202      -3.61327304      0.994870202      -3.61327304      0.0630999916     83.5326034       
161.08           0.0755291264     83.068787        0.993717915      -4.32714365      0.993717915      -4.32714365      0.0755291264     83.068787        
187.76           0.0879213842     82.5505639       0.992437377      -5.03956459      0.992437377      -5.03956459      0.0879213842     82.5505639       
214.44           0.100272116      81.9961637       0.991025145      -5.75037488      0.991025145      -5.75037488      0.100272116      81.9961637       
241.12           0.112576685      81.4165718       0.989479416      -6.45941166      0.989479416      -6.45941166      0.112576685      81.4165718       
267.8            0.124830498      80.8188803       0.987799458      -7.16651169      0.987799458      -7.16651169      0.124830498      80.8188803       
294.48           0.137029022      80.2079197       0.985985294      -7.87151242      0.985985294      -7.87151242      0.137029022      80.2079197       
321.16           0.149167805      79.5871262       0.984037507      -8.57425277      0.984037507      -8.57425277      0.149167805      79.5871262       
347.84           0.161242487      78.959033        0.981957116      -9.27457375      0.981957116      -9.27457375      0.161242487      78.959033        
374.52           0.173248815      78.3255652       0.979745495      -9.97231893      0.979745495      -9.97231893      0.173248815      78.3255652       
401.2            0.18518265       77.6882246       0.977404309      -10.6673349      0.977404309      -10.6673349      0.18518265       77.6882246       
427.88           0.197039978      77.0482095       0.974935469      -11.3594715      0.974935469      -11.3594715      0.197039978      77.0482095       
454.56           0.208816915      76.406495        0.972341102      -12.0485823      0.972341102      -12.0485823      0.208816915      76.406495        
481.24           0.220509717      75.7638887       0.969623519      -12.7345248      0.969623519      -12.7345248      0.220509717      75.7638887       
507.92           0.232114783      75.1210697       0.966785193      -13.4171604      0.966785193      -13.4171604      0.232114783      75.1210697       
534.6            0.243628662      74.4786168       0.963828742      -14.0963552      0.963828742      -14.0963552      0.243628662      74.4786168       
561.28           0.255048057      73.837029        0.960756908      -14.7719793      0.960756908      -14.7719793      0.255048057      73.837029        
587.96           0.266369825      73.1967414       0.957572545      -15.4439078      0.957572545      -15.4439078      0.266369825      73.1967414       
614.64           0.277590984      72.5581361       0.954278604      -16.1120205      0.954278604      -16.1120205      0.277590984      72.5581361       
641.32           0.288708713      71.9215521       0.95087812       -16.776202       0.95087812       -16.776202       0.288708713      71.9215521       
668              0.299720356      71.2872914       0.947374201      -17.4363417      0.947374201      -17.4363417      0.299720356      71.2872914       
694.68           0.310623418      70.6556252       0.943770015      -18.0923343      0.943770015      -18.0923343      0.310623418      70.6556252       
721.36           0.321415569      70.0267976       0.940068784      -18.7440795      0.940068784      -18.7440795      0.321415569      70.0267976       
748.04           0.332094643      69.4010295       0.936273769      -19.3914817      0.936273769      -19.3914817      0.332094643      69.4010295       
774.72           0.342658638      68.7785215       0.932388265      -20.034451       0.932388265      -20.034451       0.342658638      68.7785215       
801.4            0.353105712      68.159456        0.928415589      -20.6729022      0.928415589      -20.6729022      0.353105712      68.159456        
828.08           0.363434183      67.543999        0.924359075      -21.3067553      0.924359075      -21.3067553      0.363434183      67.543999        
854.76           0.373642529      66.9323021       0.920222063      -21.9359353      0.920222063      -21.9359353      0.373642529      66.9323021       
881.44           0.383729383      66.3245036       0.916007893      -22.5603723      0.916007893      -22.5603723      0.383729383      66.3245036       
908.12           0.393693528      65.7207296       0.911719899      -23.1800015      0.911719899      -23.1800015      0.393693528      65.7207296       
934.8            0.403533899      65.1210953       0.9073614        -23.7947628      0.9073614        -23.7947628      0.403533899      65.1210953       
961.48           0.413249577      64.5257053       0.902935697      -24.404601       0.902935697      -24.404601       0.413249577      64.5257053       
988.16           0.422839783      63.934655        0.898446063      -25.0094657      0.898446063      -25.0094657      0.422839783      63.934655        
1014.84          0.43230388       63.3480306       0.893895743      -25.6093112      0.893895743      -25.6093112      0.43230388       63.3480306       
1041.52          0.441641361      62.7659104       0.889287943      -26.2040964      0.889287943      -26.2040964      0.441641361      62.7659104       
1068.2           0.450851851      62.1883645       0.88462583       -26.7937846      0.88462583       -26.7937846      0.450851851      62.1883645       
1094.88          0.459935099      61.6154561       0.879912527      -27.3783435      0.879912527      -27.3783435      0.459935099      61.6154561       
1121.56          0.468890977      61.0472412       0.875151106      -27.9577451      0.875151106      -27.9577451      0.468890977      61.0472412       
1148.24          0.477719471      60.4837694       0.870344588      -28.5319657      0.870344588      -28.5319657      0.477719471      60.4837694       
1174.92          0.486420677      59.9250844       0.865495938      -29.1009852      0.865495938      -29.1009852      0.486420677      59.9250844       
1201.6           0.494994801      59.3712239       0.860608063      -29.6647879      0.860608063      -29.6647879      0.494994801      59.3712239       
1228.28          0.503442146      58.82222         0.855683808      -30.2233615      0.855683808      -30.2233615      0.503442146      58.82222         
1254.96          0.511763116      58.2781001       0.850725957      -30.7766976      0.850725957      -30.7766976      0.511763116      58.2781001       
1281.64          0.519958203      57.7388861       0.845737226      -31.3247911      0.845737226      -31.3247911      0.519958203      57.7388861       
1308.32          0.528027989      57.2045956       0.840720266      -31.8676404      0.840720266      -31.8676404      0.528027989      57.2045956       
1335             0.535973135      56.6752419       0.835677659      -32.4052471      0.835677659      -32.4052471      0.535973135      56.6752419       
1361.68          0.543794383      56.1508338       0.830611917      -32.9376161      0.830611917      -32.9376161      0.543794383      56.1508338       
1388.36          0.551492546      55.6313765       0.825525484      -33.464755       0.825525484      -33.464755       0.551492546      55.6313765       
1415.04          0.559068504      55.1168711       0.820420729      -33.9866745      0.820420729      -33.9866745      0.559068504      55.1168711       
1441.72          0.566523204      54.6073155       0.815299955      -34.5033878      0.815299955      -34.5033878      0.566523204      54.6073155       
1468.4           0.573857648      54.1027041       0.810165388      -35.0149109      0.810165388      -35.0149109      0.573857648      54.1027041       
1495.08          0.581072898      53.6030283       0.805019186      -35.5212622      0.805019186      -35.5212622      0.581072898      53.6030283       
1521.76          0.588170065      53.1082763       0.799863432      -36.0224623      0.799863432      -36.0224623      0.588170065      53.1082763       
1548.44          0.595150305      52.6184338       0.794700142      -36.5185342      0.794700142      -36.5185342      0.595150305      52.6184338       
1575.12          0.60201482       52.1334836       0.789531258      -37.009503       0.789531258      -37.009503       0.60201482       52.1334836       
1601.8           0.60876485       51.6534062       0.784358652      -37.4953956      0.784358652      -37.4953956      0.60876485       51.6534062       
1628.48          0.615401672      51.1781797       0.779184128      -37.9762409      0.779184128      -37.9762409      0.615401672      51.1781797       
1655.16          0.621926594      50.7077801       0.774009418      -38.4520696      0.774009418      -38.4520696      0.621926594      50.7077801       
1681.84          0.628340953      50.2421813       0.768836191      -38.9229138      0.768836191      -38.9229138      0.628340953      50.2421813       
1708.52          0.634646113      49.7813553       0.763666044      -39.3888074      0.763666044      -39.3888074      0.634646113      49.7813553       
1735.2           0.640843459      49.3252724       0.758500512      -39.8497856      0.758500512      -39.8497856      0.640843459      49.3252724       
1761.88          0.646934398      48.8739013       0.753341064      -40.3058849      0.753341064      -40.3058849      0.646934398      48.8739013       
1788.56          0.652920351      48.427209        0.748189107      -40.7571431      0.748189107      -40.7571431      0.652920351      48.427209        
1815.24          0.658802757      47.9851611       0.743045983      -41.2035991      0.743045983      -41.2035991      0.658802757      47.9851611       
1841.92          0.664583064      47.5477222       0.737912977      -41.6452929      0.737912977      -41.6452929      0.664583064      47.5477222       
1868.6           0.670262729      47.1148553       0.732791312      -42.0822653      0.732791312      -42.0822653      0.670262729      47.1148553       
1895.28          0.67584322       46.6865225       0.727682155      -42.5145582      0.727682155      -42.5145582      0.67584322       46.6865225       
1921.96          0.681326005      46.262685        0.722586616      -42.942214       0.722586616      -42.942214       0.681326005      46.262685        
1948.64          0.686712559      45.8433027       0.71750575       -43.3652762      0.71750575       -43.3652762      0.686712559      45.8433027       
1975.32          0.692004356      45.4283351       0.71244056       -43.7837887      0.71244056       -43.7837887      0.692004356      45.4283351       
2002             0.69720287       45.0177408       0.707391994      -44.1977959      0.707391994      -44.1977959      0.69720287       45.0177408       
2028.68          0.702309573      44.6114776       0.702360953      -44.6073428      0.702360953      -44.6073428      0.702309573      44.6114776       
2055.36          0.707325933      44.2095028       0.697348287      -45.0124749      0.697348287      -45.0124749      0.707325933      44.2095028       
2082.04          0.712253412      43.8117732       0.692354801      -45.413238       0.692354801      -45.413238       0.712253412      43.8117732       
2108.72          0.717093466      43.4182452       0.687381253      -45.8096783      0.687381253      -45.8096783      0.717093466      43.4182452       
2135.4           0.721847544      43.0288746       0.682428354      -46.2018421      0.682428354      -46.2018421      0.721847544      43.0288746       
2162.08          0.726517083      42.6436171       0.677496778      -46.589776       0.677496778      -46.589776       0.726517083      42.6436171       
2188.76          0.731103513      42.2624279       0.672587152      -46.9735268      0.672587152      -46.9735268      0.731103513      42.2624279       
2215.44          0.735608252      41.8852622       0.667700066      -47.3531414      0.667700066      -47.3531414      0.735608252      41.8852622       
2242.12          0.740032704      41.5120749       0.662836071      -47.7286666      0.662836071      -47.7286666      0.740032704      41.5120749       
2268.8           0.744378263      41.1428208       0.657995682      -48.1001495      0.657995682      -48.1001495      0.744378263      41.1428208       
2295.48          0.748646307      40.7774545       0.653179375      -48.467637       0.653179375      -48.467637       0.748646307      40.7774545       
2322.16          0.752838201      40.4159308       0.648387596      -48.8311759      0.648387596      -48.8311759      0.752838201      40.4159308       
2348.84          0.756955295      40.0582043       0.643620754      -49.1908131      0.643620754      -49.1908131      0.756955295      40.0582043       
2375.52          0.760998923      39.7042298       0.638879229      -49.5465951      0.638879229      -49.5465951      0.760998923      39.7042298       
2402.2           0.764970403      39.353962        0.63416337       -49.8985685      0.63416337       -49.8985685      0.764970403      39.353962        
2428.88          0.768871038      39.0073559       0.629473495      -50.2467797      0.629473495      -50.2467797      0.768871038      39.0073559       
2455.56          0.772702111      38.6643665       0.624809895      -50.5912746      0.624809895      -50.5912746      0.772702111      38.6643665       
2482.24          0.77646489       38.324949        0.620172836      -50.9320992      0.620172836      -50.9320992      0.77646489       38.324949        
2508.92          0.780160627      37.9890589       0.615562555      -51.269299       0.615562555      -51.269299       0.780160627      37.9890589       
2535.6           0.783790552      37.6566517       0.610979266      -51.6029194      0.610979266      -51.6029194      0.783790552      37.6566517       
2562.28          0.787355882      37.3276834       0.60642316       -51.9330053      0.60642316       -51.9330053      0.787355882      37.3276834       
2588.96          0.790857811      37.0021102       0.601894404      -52.2596015      0.601894404      -52.2596015      0.790857811      37.0021102       
2615.64          0.79429752       36.6798883       0.597393144      -52.5827521      0.597393144      -52.5827521      0.79429752       36.6798883       
2642.32          0.797676166      36.3609747       0.592919507      -52.9025012      0.592919507      -52.9025012      0.797676166      36.3609747       
2669             0.800994893      36.0453263       0.588473598      -53.2188924      0.588473598      -53.2188924      0.800994893      36.0453263       
2695.68          0.804254822      35.7329005       0.584055504      -53.5319689      0.584055504      -53.5319689      0.804254822      35.7329005       
2722.36          0.807457058      35.4236552       0.579665296      -53.8417734      0.579665296      -53.8417734      0.807457058      35.4236552       
2749.04          0.810602689      35.1175483       0.575303025      -54.1483483      0.575303025      -54.1483483      0.810602689      35.1175483       
2775.72          0.81369278       34.8145385       0.570968728      -54.4517356      0.570968728      -54.4517356      0.81369278       34.8145385       
2802.4           0.816728382      34.5145846       0.566662427      -54.7519768      0.566662427      -54.7519768      0.816728382      34.5145846       
2829.08          0.819710526      34.2176459       0.562384127      -55.0491129      0.562384127      -55.0491129      0.819710526      34.2176459       
2855.76          0.822640224      33.9236821       0.558133821      -55.3431846      0.558133821      -55.3431846      0.822640224      33.9236821       
2882.44          0.825518472      33.6326533       0.55391149       -55.634232       0.55391149       -55.634232       0.825518472      33.6326533       
2909.12          0.828346247      33.34452         0.549717099      -55.9222949      0.549717099      -55.9222949      0.828346247      33.34452         
2935.8           0.831124508      33.0592432       0.545550606      -56.2074124      0.545550606      -56.2074124      0.831124508      33.0592432       
2962.48          0.833854196      32.7767842       0.541411952      -56.4896233      0.541411952      -56.4896233      0.833854196      32.7767842       
2989.16          0.836536235      32.497105        0.537301074      -56.768966       0.537301074      -56.768966       0.836536235      32.497105        
3015.84          0.839171533      32.2201677       0.533217893      -57.0454782      0.533217893      -57.0454782      0.839171533      32.2201677       
3042.52          0.84176098       31.9459351       0.529162325      -57.3191972      0.529162325      -57.3191972      0.84176098       31.9459351       
3069.2           0.844305447      31.6743703       0.525134275      -57.5901599      0.525134275      -57.5901599      0.844305447      31.6743703       
3095.88          0.846805793      31.405437        0.52113364       -57.8584027      0.52113364       -57.8584027      0.846805793      31.405437        
3122.56          0.849262855      31.1390992       0.51716031       -58.1239614      0.51716031       -58.1239614      0.849262855      31.1390992       
3149.24          0.851677459      30.8753214       0.513214166      -58.3868714      0.513214166      -58.3868714      0.851677459      30.8753214       
3175.92          0.854050411      30.6140686       0.509295084      -58.6471676      0.509295084      -58.6471676      0.854050411      30.6140686       
3202.6           0.856382504      30.3553061       0.505402932      -58.9048845      0.505402932      -58.9048845      0.856382504      30.3553061       
3229.28          0.858674513      30.099           0.501537573      -59.1600559      0.501537573      -59.1600559      0.858674513      30.099           
3255.96          0.8609272        29.8451164       0.497698864      -59.4127154      0.497698864      -59.4127154      0.8609272        29.8451164       
3282.64          0.863141311      29.5936221       0.493886656      -59.6628959      0.493886656      -59.6628959      0.863141311      29.5936221       
3309.32          0.865317576      29.3444844       0.490100796      -59.9106299      0.490100796      -59.9106299      0.865317576      29.3444844       
3336             0.867456711      29.097671        0.486341126      -60.1559494      0.486341126      -60.1559494      0.867456711      29.097671        
3362.68          0.86955942       28.8531498       0.482607485      -60.3988861      0.482607485      -60.3988861      0.86955942       28.8531498       
3389.36          0.871626389      28.6108895       0.478899705      -60.6394709      0.478899705      -60.6394709      0.871626389      28.6108895       
