! Coilcraft 0402CS-12N Chip Inductor				
! 29 May 2002			
# MHZ S MA R 50
!Freq             MagS11           AngS11           MagS21           AngS21           MagS12           AngS12           MagS22           AngS22
1                0.000889645375   57.855302        0.99952694       -0.0431795686    0.99952694       -0.0431795686    0.000889645375   57.855302        
18.95            0.0143726704     82.0388629       0.998110868      -0.817128031     0.998110868      -0.817128031     0.0143726704     82.0388629       
36.9             0.0278525563     83.3422265       0.997154644      -1.58979916      0.997154644      -1.58979916      0.0278525563     83.3422265       
54.85            0.0413081073     83.5023812       0.996171346      -2.36128368      0.996171346      -2.36128368      0.0413081073     83.5023812       
72.8             0.0547339852     83.289094        0.995089647      -3.13146735      0.995089647      -3.13146735      0.0547339852     83.289094        
90.75            0.0681246812     82.9006002       0.993882169      -3.90018493      0.993882169      -3.90018493      0.0681246812     82.9006002       
108.7            0.0814745002     82.4141195       0.992535567      -4.66724964      0.992535567      -4.66724964      0.0814745002     82.4141195       
126.65           0.0947776615     81.866838        0.99104269       -5.43246427      0.99104269       -5.43246427      0.0947776615     81.866838        
144.6            0.10802837       81.2792096       0.989399674      -6.19562659      0.989399674      -6.19562659      0.10802837       81.2792096       
162.55           0.121220868      80.663576        0.987604626      -6.95653243      0.987604626      -6.95653243      0.121220868      80.663576        
180.5            0.134349468      80.0279147       0.985656952      -7.71497772      0.985656952      -7.71497772      0.134349468      80.0279147       
198.45           0.147408583      79.3776671       0.983556976      -8.47075985      0.983556976      -8.47075985      0.147408583      79.3776671       
216.4            0.160392747      78.7167092       0.981305708      -9.22367873      0.981305708      -9.22367873      0.160392747      78.7167092       
234.35           0.173296636      78.0479032       0.978904694      -9.97353756      0.978904694      -9.97353756      0.173296636      78.0479032       
252.3            0.186115079      77.3734275       0.97635591       -10.7201436      0.97635591       -10.7201436      0.186115079      77.3734275       
270.25           0.198843078      76.6949844       0.973661694      -11.4633085      0.973661694      -11.4633085      0.198843078      76.6949844       
288.2            0.211475812      76.013934        0.970824684      -12.202849       0.970824684      -12.202849       0.211475812      76.013934        
306.15           0.224008651      75.3313848       0.967847777      -12.9385873      0.967847777      -12.9385873      0.224008651      75.3313848       
324.1            0.236437165      74.6482557       0.964734094      -13.6703511      0.964734094      -13.6703511      0.236437165      74.6482557       
342.05           0.248757128      73.9653202       0.961486948      -14.3979742      0.961486948      -14.3979742      0.248757128      73.9653202       
360              0.260964526      73.2832375       0.958109822      -15.1212967      0.958109822      -15.1212967      0.260964526      73.2832375       
377.95           0.273055558      72.602576        0.954606341      -15.8401652      0.954606341      -15.8401652      0.273055558      72.602576        
395.9            0.285026647      71.9238308       0.950980257      -16.5544327      0.950980257      -16.5544327      0.285026647      71.9238308       
413.85           0.296874432      71.2474363       0.947235427      -17.2639591      0.947235427      -17.2639591      0.296874432      71.2474363       
431.8            0.30859578       70.5737768       0.943375795      -17.9686112      0.943375795      -17.9686112      0.30859578       70.5737768       
449.75           0.320187777      69.903194        0.939405381      -18.6682626      0.939405381      -18.6682626      0.320187777      69.903194        
467.7            0.331647735      69.2359933       0.93532826       -19.3627939      0.93532826       -19.3627939      0.331647735      69.2359933       
485.65           0.342973186      68.5724488       0.931148552      -20.0520929      0.931148552      -20.0520929      0.342973186      68.5724488       
503.6            0.354161883      67.9128068       0.926870408      -20.736054       0.926870408      -20.736054       0.354161883      67.9128068       
521.55           0.365211796      67.2572899       0.922497996      -21.414579       0.922497996      -21.414579       0.365211796      67.2572899       
539.5            0.376121108      66.6060989       0.918035494      -22.0875765      0.918035494      -22.0875765      0.376121108      66.6060989       
557.45           0.386888212      65.9594151       0.913487072      -22.7549617      0.913487072      -22.7549617      0.386888212      65.9594151       
575.4            0.397511708      65.3174025       0.908856889      -23.416657       0.908856889      -23.416657       0.397511708      65.3174025       
593.35           0.407990394      64.6802091       0.904149079      -24.0725912      0.904149079      -24.0725912      0.407990394      64.6802091       
611.3            0.418323264      64.0479684       0.899367745      -24.7226998      0.899367745      -24.7226998      0.418323264      64.0479684       
629.25           0.428509503      63.4208004       0.894516946      -25.3669247      0.894516946      -25.3669247      0.428509503      63.4208004       
647.2            0.438548475      62.7988127       0.889600698      -26.0052142      0.889600698      -26.0052142      0.438548475      62.7988127       
665.15           0.448439726      62.1821015       0.884622957      -26.6375225      0.884622957      -26.6375225      0.448439726      62.1821015       
683.1            0.458182966      61.5707521       0.879587622      -27.2638102      0.879587622      -27.2638102      0.458182966      61.5707521       
701.05           0.467778074      60.9648401       0.874498521      -27.8840433      0.874498521      -27.8840433      0.467778074      60.9648401       
719              0.477225081      60.3644314       0.869359412      -28.4981939      0.869359412      -28.4981939      0.477225081      60.3644314       
736.95           0.48652417       59.7695835       0.864173977      -29.1062391      0.864173977      -29.1062391      0.48652417       59.7695835       
754.9            0.495675664      59.1803454       0.858945815      -29.7081617      0.858945815      -29.7081617      0.495675664      59.1803454       
772.85           0.504680022      58.5967586       0.853678441      -30.3039493      0.853678441      -30.3039493      0.504680022      58.5967586       
790.8            0.51353783       58.0188573       0.848375284      -30.8935946      0.848375284      -30.8935946      0.51353783       58.0188573       
808.75           0.522249795      57.4466687       0.84303968       -31.4770949      0.84303968       -31.4770949      0.522249795      57.4466687       
826.7            0.530816737      56.8802138       0.837674876      -32.054452       0.837674876      -32.054452       0.530816737      56.8802138       
844.65           0.539239583      56.3195075       0.832284021      -32.6256722      0.832284021      -32.6256722      0.539239583      56.3195075       
862.6            0.54751936       55.764559        0.826870172      -33.1907655      0.826870172      -33.1907655      0.54751936       55.764559        
880.55           0.555657186      55.2153722       0.821436288      -33.7497462      0.821436288      -33.7497462      0.555657186      55.2153722       
898.5            0.563654268      54.671946        0.815985231      -34.3026323      0.815985231      -34.3026323      0.563654268      54.671946        
916.45           0.571511891      54.1342746       0.810519764      -34.8494451      0.810519764      -34.8494451      0.571511891      54.1342746       
934.4            0.579231414      53.6023476       0.805042555      -35.3902094      0.805042555      -35.3902094      0.579231414      53.6023476       
952.35           0.586814263      53.0761508       0.799556174      -35.9249531      0.799556174      -35.9249531      0.586814263      53.0761508       
970.3            0.594261928      52.5556659       0.794063093      -36.4537073      0.794063093      -36.4537073      0.594261928      52.5556659       
988.25           0.601575952      52.040871        0.788565689      -36.9765054      0.788565689      -36.9765054      0.601575952      52.040871        
1006.2           0.608757931      51.5317408       0.783066245      -37.4933839      0.783066245      -37.4933839      0.608757931      51.5317408       
1024.15          0.615809506      51.028247        0.777566949      -38.0043816      0.777566949      -38.0043816      0.615809506      51.028247        
1042.1           0.622732357      50.5303581       0.772069895      -38.5095395      0.772069895      -38.5095395      0.622732357      50.5303581       
1060.05          0.629528202      50.0380403       0.766577089      -39.0089008      0.766577089      -39.0089008      0.629528202      50.0380403       
1078             0.636198788      49.5512568       0.761090446      -39.5025106      0.761090446      -39.5025106      0.636198788      49.5512568       
1095.95          0.64274589       49.0699689       0.755611793      -39.9904159      0.755611793      -39.9904159      0.64274589       49.0699689       
1113.9           0.649171305      48.5941353       0.750142872      -40.4726654      0.750142872      -40.4726654      0.649171305      48.5941353       
1131.85          0.655476851      48.1237132       0.74468534       -40.9493093      0.74468534       -40.9493093      0.655476851      48.1237132       
1149.8           0.661664358      47.6586576       0.739240775      -41.4203991      0.739240775      -41.4203991      0.661664358      47.6586576       
1167.75          0.66773567       47.198922        0.733810671      -41.8859878      0.733810671      -41.8859878      0.66773567       47.198922        
1185.7           0.673692638      46.7444585       0.728396448      -42.3461293      0.728396448      -42.3461293      0.673692638      46.7444585       
1203.65          0.679537119      46.2952177       0.722999448      -42.8008787      0.722999448      -42.8008787      0.679537119      46.2952177       
1221.6           0.685270973      45.851149        0.717620941      -43.250292       0.717620941      -43.250292       0.685270973      45.851149        
1239.55          0.690896059      45.4122005       0.712262127      -43.6944261      0.712262127      -43.6944261      0.690896059      45.4122005       
1257.5           0.696414233      44.9783198       0.706924135      -44.1333383      0.706924135      -44.1333383      0.696414233      44.9783198       
1275.45          0.701827348      44.5494532       0.701608028      -44.5670868      0.701608028      -44.5670868      0.701827348      44.5494532       
1293.4           0.707137247      44.1255463       0.696314806      -44.9957303      0.696314806      -44.9957303      0.707137247      44.1255463       
1311.35          0.712345766      43.7065443       0.691045405      -45.4193278      0.691045405      -45.4193278      0.712345766      43.7065443       
1329.3           0.717454729      43.2923915       0.685800702      -45.8379389      0.685800702      -45.8379389      0.717454729      43.2923915       
1347.25          0.722465948      42.8830319       0.680581518      -46.2516231      0.680581518      -46.2516231      0.722465948      42.8830319       
1365.2           0.72738122       42.4784092       0.675388614      -46.6604404      0.675388614      -46.6604404      0.72738122       42.4784092       
1383.15          0.732202325      42.0784666       0.670222702      -47.0644509      0.670222702      -47.0644509      0.732202325      42.0784666       
1401.1           0.73693103       41.6831473       0.665084441      -47.4637146      0.665084441      -47.4637146      0.73693103       41.6831473       
1419.05          0.74156908       41.292394        0.659974439      -47.8582916      0.659974439      -47.8582916      0.74156908       41.292394        
1437             0.746118202      40.9061496       0.654893259      -48.2482421      0.654893259      -48.2482421      0.746118202      40.9061496       
1454.95          0.750580104      40.524357        0.649841418      -48.6336259      0.649841418      -48.6336259      0.750580104      40.524357        
1472.9           0.75495647       40.1469588       0.644819388      -49.0145029      0.644819388      -49.0145029      0.75495647       40.1469588       
1490.85          0.759248966      39.773898        0.639827602      -49.3909325      0.639827602      -49.3909325      0.759248966      39.773898        
1508.8           0.763459234      39.4051177       0.634866451      -49.7629742      0.634866451      -49.7629742      0.763459234      39.4051177       
1526.75          0.76758889       39.0405609       0.629936289      -50.1306869      0.629936289      -50.1306869      0.76758889       39.0405609       
1544.7           0.771639532      38.6801713       0.625037433      -50.4941294      0.625037433      -50.4941294      0.771639532      38.6801713       
1562.65          0.77561273       38.3238923       0.620170168      -50.8533599      0.620170168      -50.8533599      0.77561273       38.3238923       
1580.6           0.77951003       37.9716681       0.615334741      -51.2084365      0.615334741      -51.2084365      0.77951003       37.9716681       
1598.55          0.783332956      37.6234429       0.610531373      -51.5594166      0.610531373      -51.5594166      0.783332956      37.6234429       
1616.5           0.787083005      37.2791616       0.605760251      -51.9063572      0.605760251      -51.9063572      0.787083005      37.2791616       
1634.45          0.790761648      36.938769        0.601021536      -52.249315       0.601021536      -52.249315       0.790761648      36.938769        
1652.4           0.794370334      36.6022109       0.59631536       -52.588346       0.59631536       -52.588346       0.794370334      36.6022109       
1670.35          0.797910485      36.2694331       0.591641831      -52.9235057      0.591641831      -52.9235057      0.797910485      36.2694331       
1688.3           0.801383498      35.9403821       0.587001032      -53.2548491      0.587001032      -53.2548491      0.801383498      35.9403821       
1706.25          0.804790744      35.6150049       0.582393023      -53.5824307      0.582393023      -53.5824307      0.804790744      35.6150049       
1724.2           0.80813357       35.2932488       0.577817841      -53.9063042      0.577817841      -53.9063042      0.80813357       35.2932488       
1742.15          0.811413298      34.9750619       0.573275504      -54.226523       0.573275504      -54.226523       0.811413298      34.9750619       
1760.1           0.814631224      34.6603927       0.56876601       -54.5431397      0.56876601       -54.5431397      0.814631224      34.6603927       
1778.05          0.81778862       34.3491902       0.564289337      -54.8562064      0.564289337      -54.8562064      0.81778862       34.3491902       
1796             0.820886734      34.0414041       0.559845448      -55.1657744      0.559845448      -55.1657744      0.820886734      34.0414041       
1813.95          0.823926788      33.7369846       0.555434287      -55.4718945      0.555434287      -55.4718945      0.823926788      33.7369846       
1831.9           0.826909982      33.4358825       0.551055784      -55.7746169      0.551055784      -55.7746169      0.826909982      33.4358825       
1849.85          0.829837489      33.1380491       0.546709854      -56.0739911      0.546709854      -56.0739911      0.829837489      33.1380491       
1867.8           0.832710462      32.8434366       0.542396399      -56.370066       0.542396399      -56.370066       0.832710462      32.8434366       
1885.75          0.835530027      32.5519974       0.538115306      -56.6628897      0.538115306      -56.6628897      0.835530027      32.5519974       
1903.7           0.838297289      32.2636849       0.533866453      -56.9525098      0.533866453      -56.9525098      0.838297289      32.2636849       
1921.65          0.84101333       31.9784527       0.529649704      -57.2389731      0.529649704      -57.2389731      0.84101333       31.9784527       
1939.6           0.84367921       31.6962554       0.525464913      -57.522326       0.525464913      -57.522326       0.84367921       31.6962554       
1957.55          0.846295965      31.417048        0.521311926      -57.802614       0.521311926      -57.802614       0.846295965      31.417048        
1975.5           0.848864611      31.1407862       0.517190577      -58.079882       0.517190577      -58.079882       0.848864611      31.1407862       
1993.45          0.851386141      30.8674263       0.513100693      -58.3541742      0.513100693      -58.3541742      0.851386141      30.8674263       
2011.4           0.853861528      30.5969251       0.509042094      -58.6255344      0.509042094      -58.6255344      0.853861528      30.5969251       
2029.35          0.856291725      30.3292402       0.505014589      -58.8940053      0.505014589      -58.8940053      0.856291725      30.3292402       
2047.3           0.858677661      30.0643297       0.501017984      -59.1596295      0.501017984      -59.1596295      0.858677661      30.0643297       
2065.25          0.861020249      29.8021524       0.497052076      -59.4224484      0.497052076      -59.4224484      0.861020249      29.8021524       
2083.2           0.86332038       29.5426676       0.493116659      -59.6825032      0.493116659      -59.6825032      0.86332038       29.5426676       
2101.15          0.865578926      29.2858353       0.489211519      -59.9398342      0.489211519      -59.9398342      0.865578926      29.2858353       
2119.1           0.86779674       29.031616        0.485336437      -60.1944811      0.485336437      -60.1944811      0.86779674       29.031616        
2137.05          0.869974657      28.7799709       0.481491192      -60.4464832      0.481491192      -60.4464832      0.869974657      28.7799709       
2155             0.872113493      28.5308617       0.477675558      -60.6958789      0.477675558      -60.6958789      0.872113493      28.5308617       
2172.95          0.874214045      28.2842508       0.473889303      -60.9427061      0.473889303      -60.9427061      0.874214045      28.2842508       
2190.9           0.876277095      28.0401011       0.470132194      -61.187002       0.470132194      -61.187002       0.876277095      28.0401011       
2208.85          0.878303405      27.7983761       0.466403995      -61.4288034      0.466403995      -61.4288034      0.878303405      27.7983761       
2226.8           0.880293722      27.5590397       0.462704467      -61.6681464      0.462704467      -61.6681464      0.880293722      27.5590397       
2244.75          0.882248777      27.3220568       0.459033368      -61.9050663      0.459033368      -61.9050663      0.882248777      27.3220568       
2262.7           0.884169282      27.0873924       0.455390454      -62.1395981      0.455390454      -62.1395981      0.884169282      27.0873924       
2280.65          0.886055935      26.8550122       0.451775481      -62.3717762      0.451775481      -62.3717762      0.886055935      26.8550122       
