! Coilcraft 0402CS-19N Chip Inductor				
! 29 May 2002			
# MHZ S MA R 50
!Freq             MagS11           AngS11           MagS21           AngS21           MagS12           AngS12           MagS22           AngS22
1                0.00136853755    60.592687        0.999328739      -0.0683541034    0.999328739      -0.0683541034    0.00136853755    60.592687        
17.71            0.0212322353     82.0401766       0.997281497      -1.20817053      0.997281497      -1.20817053      0.0212322353     82.0401766       
34.42            0.0410604706     82.8555691       0.995727122      -2.34499737      0.995727122      -2.34499737      0.0410604706     82.8555691       
51.13            0.0608195576     82.6007655       0.993999018      -3.47868596      0.993999018      -3.47868596      0.0608195576     82.6007655       
67.84            0.0804910831     81.9969199       0.992000936      -4.6086766       0.992000936      -4.6086766       0.0804910831     81.9969199       
84.55            0.100056008      81.2308348       0.989698606      -5.73431505      0.989698606      -5.73431505      0.100056008      81.2308348       
101.26           0.119495182      80.3757303       0.987078094      -6.85491539      0.987078094      -6.85491539      0.119495182      80.3757303       
117.97           0.138789703      79.4671703       0.984134836      -7.96978491      0.984134836      -7.96978491      0.138789703      79.4671703       
134.68           0.157921162      78.5249497       0.980869533      -9.07823728      0.980869533      -9.07823728      0.157921162      78.5249497       
151.39           0.176871801      77.5612001       0.977286264      -10.1796007      0.977286264      -10.1796007      0.176871801      77.5612001       
168.1            0.19562465       76.5839164       0.973391475      -11.2732238      0.973391475      -11.2732238      0.19562465       76.5839164       
184.81           0.214163619      75.5986766       0.969193387      -12.3584796      0.969193387      -12.3584796      0.214163619      75.5986766       
201.52           0.232473582      74.6095551       0.96470159       -13.4347689      0.96470159       -13.4347689      0.232473582      74.6095551       
218.23           0.250540431      73.6196411       0.959926767      -14.501523       0.959926767      -14.501523       0.250540431      73.6196411       
234.94           0.268351126      72.6313495       0.954880466      -15.5582056      0.954880466      -15.5582056      0.268351126      72.6313495       
251.65           0.285893724      71.6466152       0.949574927      -16.604314       0.949574927      -16.604314       0.285893724      71.6466152       
268.36           0.303157401      70.6670195       0.944022925      -17.6393809      0.944022925      -17.6393809      0.303157401      70.6670195       
285.07           0.320132456      69.693875        0.938237642      -18.6629744      0.938237642      -18.6629744      0.320132456      69.693875        
301.78           0.336810311      68.7282843       0.932232544      -19.6746989      0.932232544      -19.6746989      0.336810311      68.7282843       
318.49           0.353183499      67.7711818       0.926021279      -20.6741948      0.926021279      -20.6741948      0.353183499      67.7711818       
335.2            0.369245643      66.8233636       0.919617576      -21.6611389      0.919617576      -21.6611389      0.369245643      66.8233636       
351.91           0.384991428      65.8855107       0.913035164      -22.6352432      0.913035164      -22.6352432      0.384991428      65.8855107       
368.62           0.400416568      64.9582056       0.906287688      -23.5962551      0.906287688      -23.5962551      0.400416568      64.9582056       
385.33           0.415517765      64.0419457       0.899388644      -24.5439558      0.899388644      -24.5439558      0.415517765      64.0419457       
402.04           0.430292667      63.1371543       0.892351311      -25.4781598      0.892351311      -25.4781598      0.430292667      63.1371543       
418.75           0.444739818      62.244189        0.885188702      -26.3987137      0.885188702      -26.3987137      0.444739818      62.244189        
435.46           0.458858608      61.3633488       0.877913511      -27.3054948      0.877913511      -27.3054948      0.458858608      61.3633488       
452.17           0.47264922       60.49488         0.870538077      -28.1984098      0.870538077      -28.1984098      0.47264922       60.49488         
468.88           0.486112577      59.6389819       0.863074342      -29.0773934      0.863074342      -29.0773934      0.486112577      59.6389819       
485.59           0.499250287      58.7958106       0.85553383       -29.9424069      0.85553383       -29.9424069      0.499250287      58.7958106       
502.3            0.512064589      57.9654836       0.84792762       -30.7934366      0.84792762       -30.7934366      0.512064589      57.9654836       
519.01           0.524558299      57.1480829       0.840266327      -31.6304921      0.840266327      -31.6304921      0.524558299      57.1480829       
535.72           0.536734753      56.3436586       0.832560092      -32.4536051      0.832560092      -32.4536051      0.536734753      56.3436586       
552.43           0.548597762      55.5522315       0.824818573      -33.2628276      0.824818573      -33.2628276      0.548597762      55.5522315       
569.14           0.560151559      54.7737961       0.81705094       -34.0582306      0.81705094       -34.0582306      0.560151559      54.7737961       
585.85           0.571400747      54.0083227       0.809265874      -34.8399023      0.809265874      -34.8399023      0.571400747      54.0083227       
602.56           0.582350262      53.2557602       0.801471569      -35.6079471      0.801471569      -35.6079471      0.582350262      53.2557602       
619.27           0.593005321      52.5160375       0.793675739      -36.3624836      0.793675739      -36.3624836      0.593005321      52.5160375       
635.98           0.603371384      51.7890663       0.785885624      -37.1036439      0.785885624      -37.1036439      0.603371384      51.7890663       
652.69           0.613454119      51.0747421       0.778108001      -37.8315718      0.778108001      -37.8315718      0.613454119      51.0747421       
669.4            0.62325936       50.3729465       0.770349194      -38.5464217      0.770349194      -38.5464217      0.62325936       50.3729465       
686.11           0.632793079      49.6835485       0.76261509       -39.2483576      0.76261509       -39.2483576      0.632793079      49.6835485       
702.82           0.64206135       49.0064059       0.75491115       -39.9375516      0.75491115       -39.9375516      0.64206135       49.0064059       
719.53           0.651070326      48.3413668       0.747242426      -40.6141834      0.747242426      -40.6141834      0.651070326      48.3413668       
736.24           0.659826207      47.6882708       0.739613577      -41.2784388      0.739613577      -41.2784388      0.659826207      47.6882708       
752.95           0.668335223      47.0469502       0.732028885      -41.9305089      0.732028885      -41.9305089      0.668335223      47.0469502       
769.66           0.676603607      46.4172309       0.724492271      -42.5705893      0.724492271      -42.5705893      0.676603607      46.4172309       
786.37           0.684637578      45.7989336       0.717007314      -43.1988793      0.717007314      -43.1988793      0.684637578      45.7989336       
803.08           0.692443323      45.1918744       0.709577266      -43.8155813      0.709577266      -43.8155813      0.692443323      45.1918744       
819.79           0.700026984      44.5958661       0.702205072      -44.4208997      0.702205072      -44.4208997      0.700026984      44.5958661       
836.5            0.707394639      44.0107185       0.694893381      -45.0150406      0.694893381      -45.0150406      0.707394639      44.0107185       
853.21           0.714552295      43.4362392       0.687644567      -45.5982111      0.687644567      -45.5982111      0.714552295      43.4362392       
869.92           0.721505875      42.8722345       0.680460745      -46.1706187      0.680460745      -46.1706187      0.721505875      42.8722345       
886.63           0.72826121       42.3185098       0.673343785      -46.7324711      0.673343785      -46.7324711      0.72826121       42.3185098       
903.34           0.734824029      41.7748698       0.666295325      -47.2839753      0.666295325      -47.2839753      0.734824029      41.7748698       
920.05           0.741199958      41.2411195       0.659316791      -47.8253376      0.659316791      -47.8253376      0.741199958      41.2411195       
936.76           0.747394506      40.7170644       0.652409406      -48.3567631      0.652409406      -48.3567631      0.747394506      40.7170644       
953.47           0.753413068      40.2025109       0.645574207      -48.8784553      0.645574207      -48.8784553      0.753413068      40.2025109       
970.18           0.759260918      39.6972664       0.638812054      -49.3906158      0.638812054      -49.3906158      0.759260918      39.6972664       
986.89           0.764943205      39.2011401       0.632123648      -49.8934443      0.632123648      -49.8934443      0.764943205      39.2011401       
1003.6           0.770464956      38.7139427       0.625509535      -50.3871382      0.625509535      -50.3871382      0.770464956      38.7139427       
1020.31          0.775831069      38.2354872       0.618970125      -50.8718921      0.618970125      -50.8718921      0.775831069      38.2354872       
1037.02          0.781046315      37.7655886       0.612505698      -51.3478982      0.612505698      -51.3478982      0.781046315      37.7655886       
1053.73          0.786115339      37.3040644       0.606116412      -51.8153458      0.606116412      -51.8153458      0.786115339      37.3040644       
1070.44          0.791042657      36.8507348       0.59980232       -52.2744212      0.59980232       -52.2744212      0.791042657      36.8507348       
1087.15          0.79583266       36.4054225       0.59356337       -52.7253077      0.59356337       -52.7253077      0.79583266       36.4054225       
1103.86          0.800489612      35.967953        0.58739942       -53.1681855      0.58739942       -53.1681855      0.800489612      35.967953        
1120.57          0.805017652      35.538155        0.581310243      -53.6032313      0.581310243      -53.6032313      0.805017652      35.538155        
1137.28          0.8094208        35.1158599       0.575295532      -54.0306188      0.575295532      -54.0306188      0.8094208        35.1158599       
1153.99          0.813702951      34.7009023       0.569354913      -54.4505183      0.569354913      -54.4505183      0.813702951      34.7009023       
1170.7           0.817867885      34.2931197       0.563487948      -54.8630968      0.563487948      -54.8630968      0.817867885      34.2931197       
1187.41          0.821919262      33.8923531       0.557694137      -55.2685178      0.557694137      -55.2685178      0.821919262      33.8923531       
1204.12          0.825860631      33.4984463       0.551972933      -55.6669414      0.551972933      -55.6669414      0.825860631      33.4984463       
1220.83          0.829695427      33.1112464       0.546323737      -56.0585244      0.546323737      -56.0585244      0.829695427      33.1112464       
1237.54          0.833426977      32.7306037       0.540745913      -56.4434203      0.540745913      -56.4434203      0.833426977      32.7306037       
1254.25          0.837058502      32.3563717       0.535238782      -56.8217791      0.535238782      -56.8217791      0.837058502      32.3563717       
1270.96          0.840593118      31.988407        0.529801636      -57.1937476      0.529801636      -57.1937476      0.840593118      31.988407        
1287.67          0.844033841      31.6265694       0.524433735      -57.5594691      0.524433735      -57.5594691      0.844033841      31.6265694       
1304.38          0.847383587      31.2707217       0.519134315      -57.9190837      0.519134315      -57.9190837      0.847383587      31.2707217       
1321.09          0.850645179      30.92073         0.513902587      -58.2727284      0.513902587      -58.2727284      0.850645179      30.92073         
1337.8           0.853821344      30.5764631       0.508737746      -58.6205369      0.508737746      -58.6205369      0.853821344      30.5764631       
1354.51          0.856914721      30.2377933       0.503638967      -58.9626397      0.503638967      -58.9626397      0.856914721      30.2377933       
1371.22          0.859927861      29.9045955       0.498605415      -59.2991643      0.498605415      -59.2991643      0.859927861      29.9045955       
1387.93          0.86286323       29.5767476       0.493636239      -59.630235       0.493636239      -59.630235       0.86286323       29.5767476       
1404.64          0.865723211      29.2541305       0.488730583      -59.9559732      0.488730583      -59.9559732      0.865723211      29.2541305       
1421.35          0.868510109      28.936628        0.483887583      -60.2764974      0.483887583      -60.2764974      0.868510109      28.936628        
1438.06          0.871226151      28.6241264       0.479106367      -60.5919231      0.479106367      -60.5919231      0.871226151      28.6241264       
1454.77          0.873873489      28.316515        0.474386064      -60.902363       0.474386064      -60.902363       0.873873489      28.316515        
1471.48          0.876454204      28.0136857       0.469725798      -61.2079271      0.469725798      -61.2079271      0.876454204      28.0136857       
1488.19          0.878970306      27.7155331       0.465124693      -61.5087226      0.465124693      -61.5087226      0.878970306      27.7155331       
1504.9           0.881423738      27.4219542       0.460581876      -61.804854       0.460581876      -61.804854       0.881423738      27.4219542       
1521.61          0.883816379      27.1328488       0.456096473      -62.0964232      0.456096473      -62.0964232      0.883816379      27.1328488       
1538.32          0.886150042      26.8481189       0.451667617      -62.3835297      0.451667617      -62.3835297      0.886150042      26.8481189       
1555.03          0.888426483      26.567669        0.447294441      -62.6662703      0.447294441      -62.6662703      0.888426483      26.567669        
1571.74          0.890647396      26.2914061       0.442976086      -62.9447396      0.442976086      -62.9447396      0.890647396      26.2914061       
1588.45          0.89281442       26.0192394       0.438711699      -63.2190296      0.438711699      -63.2190296      0.89281442       26.0192394       
1605.16          0.894929139      25.7510802       0.434500431      -63.4892301      0.434500431      -63.4892301      0.894929139      25.7510802       
1621.87          0.896993083      25.4868424       0.430341444      -63.7554287      0.430341444      -63.7554287      0.896993083      25.4868424       
1638.58          0.899007734      25.2264416       0.426233905      -64.0177106      0.426233905      -64.0177106      0.899007734      25.2264416       
1655.29          0.90097452       24.9697958       0.422176991      -64.276159       0.422176991      -64.276159       0.90097452       24.9697958       
1672             0.902894826      24.7168249       0.418169887      -64.5308551      0.418169887      -64.5308551      0.902894826      24.7168249       
1688.71          0.904769988      24.4674509       0.414211787      -64.7818777      0.414211787      -64.7818777      0.904769988      24.4674509       
1705.42          0.906601301      24.2215976       0.410301895      -65.0293039      0.410301895      -65.0293039      0.906601301      24.2215976       
1722.13          0.908390013      23.9791909       0.406439426      -65.2732089      0.406439426      -65.2732089      0.908390013      23.9791909       
1738.84          0.910137335      23.7401583       0.402623604      -65.5136657      0.402623604      -65.5136657      0.910137335      23.7401583       
1755.55          0.911844436      23.5044293       0.398853663      -65.7507458      0.398853663      -65.7507458      0.911844436      23.5044293       
1772.26          0.913512446      23.271935        0.395128848      -65.9845188      0.395128848      -65.9845188      0.913512446      23.271935        
1788.97          0.915142462      23.0426084       0.391448414      -66.2150523      0.391448414      -66.2150523      0.915142462      23.0426084       
1805.68          0.91673554       22.8163839       0.38781163       -66.4424126      0.38781163       -66.4424126      0.91673554       22.8163839       
1822.39          0.918292706      22.5931977       0.384217771      -66.6666641      0.384217771      -66.6666641      0.918292706      22.5931977       
1839.1           0.919814951      22.3729876       0.380666127      -66.8878696      0.380666127      -66.8878696      0.919814951      22.3729876       
1855.81          0.921303233      22.1556928       0.377155997      -67.1060904      0.377155997      -67.1060904      0.921303233      22.1556928       
1872.52          0.922758481      21.9412541       0.373686691      -67.3213862      0.373686691      -67.3213862      0.922758481      21.9412541       
1889.23          0.924181594      21.7296137       0.370257531      -67.5338153      0.370257531      -67.5338153      0.924181594      21.7296137       
1905.94          0.925573441      21.5207152       0.36686785       -67.7434344      0.36686785       -67.7434344      0.925573441      21.5207152       
1922.65          0.926934864      21.3145037       0.363516991      -67.9502991      0.363516991      -67.9502991      0.926934864      21.3145037       
1939.36          0.928266679      21.1109255       0.360204309      -68.1544632      0.360204309      -68.1544632      0.928266679      21.1109255       
1956.07          0.929569676      20.9099283       0.356929169      -68.3559795      0.356929169      -68.3559795      0.929569676      20.9099283       
1972.78          0.930844619      20.7114609       0.353690947      -68.5548993      0.353690947      -68.5548993      0.930844619      20.7114609       
1989.49          0.932092249      20.5154735       0.350489031      -68.7512729      0.350489031      -68.7512729      0.932092249      20.5154735       
2006.2           0.933313284      20.3219175       0.347322817      -68.945149       0.347322817      -68.945149       0.933313284      20.3219175       
2022.91          0.934508418      20.1307455       0.344191714      -69.1365754      0.344191714      -69.1365754      0.934508418      20.1307455       
2039.62          0.935678326      19.9419111       0.341095141      -69.3255986      0.341095141      -69.3255986      0.935678326      19.9419111       
2056.33          0.936823659      19.755369        0.338032525      -69.512264       0.338032525      -69.512264       0.936823659      19.755369        
2073.04          0.937945052      19.5710752       0.335003307      -69.6966159      0.335003307      -69.6966159      0.937945052      19.5710752       
2089.75          0.939043116      19.3889865       0.332006935      -69.8786975      0.332006935      -69.8786975      0.939043116      19.3889865       
2106.46          0.940118447      19.2090608       0.329042869      -70.058551       0.329042869      -70.058551       0.940118447      19.2090608       
2123.17          0.941171621      19.0312571       0.326110576      -70.2362175      0.326110576      -70.2362175      0.941171621      19.0312571       
