! Coilcraft 0402CS-22N Chip Inductor				
! 22 July 2002			
# MHZ S MA R 50
!Freq             MagS11           AngS11           MagS21           AngS21           MagS12           AngS12           MagS22           AngS22
1                0.00164311235    57.1159515       0.99910884       -0.0791294469    0.99910884       -0.0791294469    0.00164311235    57.1159515       
17.71            0.0246243045     80.7028967       0.996318247      -1.39761916      0.996318247      -1.39761916      0.0246243045     80.7028967       
34.42            0.0475346842     81.6563594       0.994215291      -2.71140035      0.994215291      -2.71140035      0.0475346842     81.6563594       
51.13            0.0703364646     81.3729354       0.991890087      -4.02026116      0.991890087      -4.02026116      0.0703364646     81.3729354       
67.84            0.0930018861     80.6850634       0.989213111      -5.32334525      0.989213111      -5.32334525      0.0930018861     80.6850634       
84.55            0.115502113      79.8097291       0.98613996       -6.61965416      0.98613996       -6.61965416      0.115502113      79.8097291       
101.26           0.137808342      78.8323657       0.982654389      -7.90814805      0.982654389      -7.90814805      0.137808342      78.8323657       
117.97           0.159892454      77.7946583       0.978753276      -9.18778623      0.978753276      -9.18778623      0.159892454      77.7946583       
134.68           0.181727432      76.7199273       0.974440961      -10.4575489      0.974440961      -10.4575489      0.181727432      76.7199273       
151.39           0.203287644      75.6225451       0.969726594      -11.7164507      0.969726594      -11.7164507      0.203287644      75.6225451       
168.1            0.22454906       74.5120382       0.964622702      -12.9635502      0.964622702      -12.9635502      0.22454906       74.5120382       
184.81           0.245489403      73.3950888       0.959144297      -14.197957       0.959144297      -14.197957       0.245489403      73.3950888       
201.52           0.266088268      72.2765992       0.953308269      -15.4188363      0.953308269      -15.4188363      0.266088268      72.2765992       
218.23           0.286327192      71.1602959       0.947132928      -16.625413       0.947132928      -16.625413       0.286327192      71.1602959       
234.94           0.306189706      70.0490923       0.940637643      -17.8169744      0.940637643      -17.8169744      0.306189706      70.0490923       
251.65           0.325661344      68.945316        0.933842544      -18.9928712      0.933842544      -18.9928712      0.325661344      68.945316        
268.36           0.344729641      67.850857        0.926768258      -20.1525189      0.926768258      -20.1525189      0.344729641      67.850857        
285.07           0.363384098      66.7672682       0.919435689      -21.2953975      0.919435689      -21.2953975      0.363384098      66.7672682       
301.78           0.381616134      65.6958346       0.911865816      -22.4210511      0.911865816      -22.4210511      0.381616134      65.6958346       
318.49           0.399419015      64.6376236       0.904079522      -23.5290866      0.904079522      -23.5290866      0.399419015      64.6376236       
335.2            0.416787779      63.5935222       0.89609744       -24.6191718      0.89609744       -24.6191718      0.416787779      63.5935222       
351.91           0.433719141      62.5642642       0.887939822      -25.691034       0.887939822      -25.691034       0.433719141      62.5642642       
368.62           0.450211393      61.5504529       0.879626423      -26.744457       0.879626423      -26.744457       0.450211393      61.5504529       
385.33           0.466264299      60.5525777       0.871176408      -27.7792787      0.871176408      -27.7792787      0.466264299      60.5525777       
402.04           0.481878981      59.5710287       0.862608269      -28.795388       0.862608269      -28.795388       0.481878981      59.5710287       
418.75           0.497057809      58.6061084       0.853939763      -29.7927221      0.853939763      -29.7927221      0.497057809      58.6061084       
435.46           0.511804288      57.6580416       0.845187861      -30.7712631      0.845187861      -30.7712631      0.511804288      57.6580416       
452.17           0.526122946      56.7269845       0.836368709      -31.7310349      0.836368709      -31.7310349      0.526122946      56.7269845       
468.88           0.540019222      55.8130315       0.827497607      -32.6720999      0.827497607      -32.6720999      0.540019222      55.8130315       
485.59           0.553499362      54.9162229       0.818588987      -33.5945561      0.818588987      -33.5945561      0.553499362      54.9162229       
502.3            0.566570318      54.0365503       0.809656414      -34.4985335      0.809656414      -34.4985335      0.566570318      54.0365503       
519.01           0.57923965       53.1739621       0.800712586      -35.3841917      0.800712586      -35.3841917      0.57923965       53.1739621       
535.72           0.591515436      52.3283684       0.79176934       -36.2517162      0.79176934       -36.2517162      0.591515436      52.3283684       
552.43           0.603406186      51.4996459       0.782837674      -37.1013163      0.782837674      -37.1013163      0.603406186      51.4996459       
569.14           0.614920761      50.6876413       0.773927763      -37.9332218      0.773927763      -37.9332218      0.614920761      50.6876413       
585.85           0.626068305      49.8921754       0.765048986      -38.747681       0.765048986      -38.747681       0.626068305      49.8921754       
602.56           0.636858173      49.1130463       0.756209954      -39.5449579      0.756209954      -39.5449579      0.636858173      49.1130463       
619.27           0.647299871      48.3500327       0.74741854       -40.3253301      0.74741854       -40.3253301      0.647299871      48.3500327       
635.98           0.657403004      47.6028966       0.738681911      -41.0890868      0.738681911      -41.0890868      0.657403004      47.6028966       
652.69           0.667177223      46.8713855       0.730006564      -41.8365265      0.730006564      -41.8365265      0.667177223      46.8713855       
669.4            0.676632183      46.1552354       0.72139836       -42.5679558      0.72139836       -42.5679558      0.676632183      46.1552354       
686.11           0.6857775        45.4541724       0.712862557      -43.2836871      0.712862557      -43.2836871      0.6857775        45.4541724       
702.82           0.694622723      44.7679147       0.704403849      -43.9840376      0.704403849      -43.9840376      0.694622723      44.7679147       
719.53           0.703177299      44.0961743       0.696026397      -44.6693275      0.696026397      -44.6693275      0.703177299      44.0961743       
736.24           0.711450547      43.4386587       0.687733865      -45.3398794      0.687733865      -45.3398794      0.711450547      43.4386587       
752.95           0.719451639      42.7950723       0.679529451      -45.9960163      0.679529451      -45.9960163      0.719451639      42.7950723       
769.66           0.727189579      42.1651172       0.671415922      -46.6380612      0.671415922      -46.6380612      0.727189579      42.1651172       
786.37           0.734673188      41.5484951       0.663395645      -47.2663362      0.663395645      -47.2663362      0.734673188      41.5484951       
803.08           0.741911089      40.9449073       0.655470613      -47.8811614      0.655470613      -47.8811614      0.741911089      40.9449073       
819.79           0.748911699      40.3540565       0.647642477      -48.4828543      0.647642477      -48.4828543      0.748911699      40.3540565       
836.5            0.755683223      39.7756469       0.63991257       -49.0717293      0.63991257       -49.0717293      0.755683223      39.7756469       
853.21           0.762233643      39.2093854       0.632281938      -49.648097       0.632281938      -49.648097       0.762233643      39.2093854       
869.92           0.768570717      38.6549815       0.624751356      -50.2122639      0.624751356      -50.2122639      0.768570717      38.6549815       
886.63           0.774701975      38.1121486       0.617321357      -50.7645316      0.617321357      -50.7645316      0.774701975      38.1121486       
903.34           0.780634718      37.5806039       0.609992253      -51.3051972      0.609992253      -51.3051972      0.780634718      37.5806039       
920.05           0.786376022      37.0600689       0.602764152      -51.8345523      0.602764152      -51.8345523      0.786376022      37.0600689       
936.76           0.791932731      36.5502696       0.595636979      -52.3528828      0.595636979      -52.3528828      0.791932731      36.5502696       
953.47           0.797311466      36.0509373       0.588610491      -52.8604695      0.588610491      -52.8604695      0.797311466      36.0509373       
970.18           0.802518625      35.561808        0.581684297      -53.3575868      0.581684297      -53.3575868      0.802518625      35.561808        
986.89           0.807560385      35.082623        0.574857872      -53.8445035      0.574857872      -53.8445035      0.807560385      35.082623        
1003.6           0.81244271       34.6131294       0.568130567      -54.3214823      0.568130567      -54.3214823      0.81244271       34.6131294       
1020.31          0.817171352      34.1530792       0.561501628      -54.7887798      0.561501628      -54.7887798      0.817171352      34.1530792       
1037.02          0.821751856      33.7022306       0.554970203      -55.2466466      0.554970203      -55.2466466      0.821751856      33.7022306       
1053.73          0.826189566      33.2603468       0.548535358      -55.695327       0.548535358      -55.695327       0.826189566      33.2603468       
1070.44          0.830489631      32.8271972       0.54219608       -56.1350594      0.54219608       -56.1350594      0.830489631      32.8271972       
1087.15          0.834657009      32.4025563       0.535951294      -56.5660761      0.535951294      -56.5660761      0.834657009      32.4025563       
1103.86          0.838696473      31.9862046       0.529799868      -56.9886035      0.529799868      -56.9886035      0.838696473      31.9862046       
1120.57          0.842612617      31.577928        0.52374062       -57.4028617      0.52374062       -57.4028617      0.842612617      31.577928        
1137.28          0.846409862      31.1775179       0.517772326      -57.8090654      0.517772326      -57.8090654      0.846409862      31.1775179       
1153.99          0.85009246       30.7847713       0.511893728      -58.2074232      0.511893728      -58.2074232      0.85009246       30.7847713       
1170.7           0.853664501      30.3994903       0.506103539      -58.5981381      0.506103539      -58.5981381      0.853664501      30.3994903       
1187.41          0.857129919      30.0214826       0.500400447      -58.9814077      0.500400447      -58.9814077      0.857129919      30.0214826       
1204.12          0.860492496      29.6505609       0.494783122      -59.3574238      0.494783122      -59.3574238      0.860492496      29.6505609       
1220.83          0.86375587       29.2865431       0.489250221      -59.7263731      0.489250221      -59.7263731      0.86375587       29.2865431       
1237.54          0.866923536      28.9292522       0.483800388      -60.0884369      0.483800388      -60.0884369      0.866923536      28.9292522       
1254.25          0.869998857      28.5785161       0.478432264      -60.4437914      0.478432264      -60.4437914      0.869998857      28.5785161       
1270.96          0.872985062      28.2341672       0.473144484      -60.7926078      0.473144484      -60.7926078      0.872985062      28.2341672       
1287.67          0.875885259      27.8960431       0.467935685      -61.1350523      0.467935685      -61.1350523      0.875885259      27.8960431       
1304.38          0.878702433      27.5639856       0.462804506      -61.4712865      0.462804506      -61.4712865      0.878702433      27.5639856       
1321.09          0.881439454      27.2378411       0.457749589      -61.8014673      0.457749589      -61.8014673      0.881439454      27.2378411       
1337.8           0.884099082      26.9174605       0.452769586      -62.1257469      0.452769586      -62.1257469      0.884099082      26.9174605       
1354.51          0.886683968      26.6026987       0.447863158      -62.4442733      0.447863158      -62.4442733      0.886683968      26.6026987       
1371.22          0.889196662      26.293415        0.443028974      -62.75719        0.443028974      -62.75719        0.889196662      26.293415        
1387.93          0.891639616      25.9894725       0.438265717      -63.0646366      0.438265717      -63.0646366      0.891639616      25.9894725       
1404.64          0.894015187      25.6907384       0.433572085      -63.3667484      0.433572085      -63.3667484      0.894015187      25.6907384       
1421.35          0.896325641      25.3970836       0.428946788      -63.6636568      0.428946788      -63.6636568      0.896325641      25.3970836       
1438.06          0.898573157      25.1083829       0.424388554      -63.9554895      0.424388554      -63.9554895      0.898573157      25.1083829       
1454.77          0.900759832      24.8245143       0.419896126      -64.2423703      0.419896126      -64.2423703      0.900759832      24.8245143       
1471.48          0.90288768       24.5453598       0.415468264      -64.5244196      0.415468264      -64.5244196      0.90288768       24.5453598       
1488.19          0.904958642      24.2708045       0.411103749      -64.8017542      0.411103749      -64.8017542      0.904958642      24.2708045       
1504.9           0.906974582      24.0007367       0.406801377      -65.0744874      0.406801377      -65.0744874      0.906974582      24.0007367       
1521.61          0.908937295      23.7350482       0.402559964      -65.3427292      0.402559964      -65.3427292      0.908937295      23.7350482       
1538.32          0.910848508      23.4736337       0.398378347      -65.6065868      0.398378347      -65.6065868      0.910848508      23.4736337       
1555.03          0.912709883      23.216391        0.394255379      -65.8661637      0.394255379      -65.8661637      0.912709883      23.216391        
1571.74          0.914523019      22.9632207       0.390189937      -66.1215609      0.390189937      -66.1215609      0.914523019      22.9632207       
1588.45          0.916289456      22.7140264       0.386180914      -66.3728762      0.386180914      -66.3728762      0.916289456      22.7140264       
1605.16          0.918010677      22.4687143       0.382227225      -66.6202047      0.382227225      -66.6202047      0.918010677      22.4687143       
1621.87          0.919688108      22.2271933       0.378327804      -66.8636387      0.378327804      -66.8636387      0.919688108      22.2271933       
1638.58          0.921323125      21.989375        0.374481606      -67.1032679      0.374481606      -67.1032679      0.921323125      21.989375        
1655.29          0.922917051      21.7551733       0.370687606      -67.3391794      0.370687606      -67.3391794      0.922917051      21.7551733       
1672             0.924471162      21.5245046       0.366944796      -67.5714578      0.366944796      -67.5714578      0.924471162      21.5245046       
1688.71          0.925986687      21.2972878       0.363252192      -67.8001855      0.363252192      -67.8001855      0.925986687      21.2972878       
1705.42          0.927464809      21.0734438       0.359608825      -68.0254421      0.359608825      -68.0254421      0.927464809      21.0734438       
1722.13          0.92890667       20.8528959       0.35601375       -68.2473054      0.35601375       -68.2473054      0.92890667       20.8528959       
1738.84          0.93031337       20.6355695       0.352466036      -68.4658507      0.352466036      -68.4658507      0.93031337       20.6355695       
1755.55          0.93168597       20.421392        0.348964776      -68.6811514      0.348964776      -68.6811514      0.93168597       20.421392        
1772.26          0.933025491      20.210293        0.345509077      -68.8932787      0.345509077      -68.8932787      0.933025491      20.210293        
1788.97          0.934332921      20.0022037       0.342098068      -69.1023019      0.342098068      -69.1023019      0.934332921      20.0022037       
1805.68          0.93560921       19.7970576       0.338730895      -69.3082881      0.338730895      -69.3082881      0.93560921       19.7970576       
1822.39          0.936855276      19.5947897       0.33540672       -69.511303       0.33540672       -69.511303       0.936855276      19.5947897       
1839.1           0.938072005      19.3953368       0.332124726      -69.71141        0.332124726      -69.71141        0.938072005      19.3953368       
1855.81          0.93926025       19.1986377       0.32888411       -69.9086711      0.32888411       -69.9086711      0.93926025       19.1986377       
1872.52          0.940420838      19.0046325       0.325684089      -70.1031464      0.325684089      -70.1031464      0.940420838      19.0046325       
1889.23          0.941554564      18.8132632       0.322523894      -70.2948944      0.322523894      -70.2948944      0.941554564      18.8132632       
1905.94          0.942662196      18.6244731       0.319402774      -70.4839719      0.319402774      -70.4839719      0.942662196      18.6244731       
1922.65          0.943744477      18.4382072       0.316319994      -70.6704344      0.316319994      -70.6704344      0.943744477      18.4382072       
1939.36          0.944802125      18.2544119       0.313274835      -70.8543356      0.313274835      -70.8543356      0.944802125      18.2544119       
1956.07          0.945835831      18.073035        0.310266591      -71.035728       0.310266591      -71.035728       0.945835831      18.073035        
1972.78          0.946846265      17.8940258       0.307294576      -71.2146624      0.307294576      -71.2146624      0.946846265      17.8940258       
1989.49          0.947834074      17.7173347       0.304358113      -71.3911886      0.304358113      -71.3911886      0.947834074      17.7173347       
2006.2           0.948799883      17.5429137       0.301456545      -71.5653546      0.301456545      -71.5653546      0.948799883      17.5429137       
2022.91          0.949744296      17.3707158       0.298589226      -71.7372076      0.298589226      -71.7372076      0.949744296      17.3707158       
2039.62          0.950667897      17.2006953       0.295755524      -71.9067931      0.295755524      -71.9067931      0.950667897      17.2006953       
2056.33          0.951571252      17.0328077       0.292954823      -72.0741557      0.292954823      -72.0741557      0.951571252      17.0328077       
2073.04          0.952454905      16.8670096       0.290186518      -72.2393386      0.290186518      -72.2393386      0.952454905      16.8670096       
2089.75          0.953319387      16.7032589       0.287450018      -72.4023841      0.287450018      -72.4023841      0.953319387      16.7032589       
2106.46          0.954165209      16.5415143       0.284744744      -72.5633332      0.284744744      -72.5633332      0.954165209      16.5415143       
2123.17          0.954992864      16.3817357       0.282070132      -72.7222259      0.282070132      -72.7222259      0.954992864      16.3817357       
