! Coilcraft 0805CS-821 Chip Inductor				
! 11 June 2002			
# MHZ S MA R 50
!Freq             MagS11           AngS11           MagS21           AngS21           MagS12           AngS12           MagS22           AngS22
1                0.0502097258     53.3278393       0.970848575      -2.37735302      0.970848575      -2.37735302      0.0502097258     53.3278393       
2.24             0.0975208767     65.8487074       0.964214436      -5.29520501      0.964214436      -5.29520501      0.0975208767     65.8487074       
3.48             0.146134239      68.4639433       0.956068696      -8.17390927      0.956068696      -8.17390927      0.146134239      68.4639433       
4.72             0.194133748      68.4602895       0.946116831      -11.0029916      0.946116831      -11.0029916      0.194133748      68.4602895       
5.96             0.240896839      67.426214        0.934389508      -13.7720675      0.934389508      -13.7720675      0.240896839      67.426214        
7.2              0.286069292      65.9078796       0.921024351      -16.4717686      0.921024351      -16.4717686      0.286069292      65.9078796       
8.44             0.329410742      64.1461161       0.906208661      -19.0941132      0.906208661      -19.0941132      0.329410742      64.1461161       
9.68             0.370755389      62.2649807       0.890153338      -21.6326626      0.890153338      -21.6326626      0.370755389      62.2649807       
10.92            0.409996737      60.3353147       0.873077054      -24.0825508      0.873077054      -24.0825508      0.409996737      60.3353147       
12.16            0.44707831       58.4004244       0.855195411      -26.4404285      0.855195411      -26.4404285      0.44707831       58.4004244       
13.4             0.481985899      56.4879182       0.836713348      -28.7043479      0.836713348      -28.7043479      0.481985899      56.4879182       
14.64            0.514740264      54.6157549       0.817820043      -30.8736105      0.817820043      -30.8736105      0.514740264      54.6157549       
15.88            0.545390196      52.7956097       0.798685816      -32.9485958      0.798685816      -32.9485958      0.545390196      52.7956097       
17.12            0.574006071      51.0348856       0.779460627      -34.9305843      0.779460627      -34.9305843      0.574006071      51.0348856       
18.36            0.60067406       49.3379942       0.760273812      -36.8215858      0.760273812      -36.8215858      0.60067406       49.3379942       
19.6             0.625491094      47.7072113       0.741234715      -38.6241795      0.741234715      -38.6241795      0.625491094      47.7072113       
20.84            0.648560627      46.1432734       0.722433938      -40.3413704      0.722433938      -40.3413704      0.648560627      46.1432734       
22.08            0.66998919       44.6458069       0.703944969      -41.9764646      0.703944969      -41.9764646      0.66998919       44.6458069       
23.32            0.689883659      43.2136428       0.685826002      -43.5329632      0.685826002      -43.5329632      0.689883659      43.2136428       
24.56            0.708349174      41.8450524       0.668121813      -45.0144742      0.668121813      -45.0144742      0.708349174      41.8450524       
25.8             0.725487602      40.5379232       0.650865591      -46.4246416      0.650865591      -46.4246416      0.725487602      40.5379232       
27.04            0.741396464      39.2898937       0.634080662      -47.7670886      0.634080662      -47.7670886      0.741396464      39.2898937       
28.28            0.756168237      38.0984536       0.617782066      -49.0453745      0.617782066      -49.0453745      0.756168237      38.0984536       
29.52            0.769889938      36.9610198       0.601977969      -50.2629618      0.601977969      -50.2629618      0.769889938      36.9610198       
30.76            0.782642947      35.8749932       0.586670911      -51.4231926      0.586670911      -51.4231926      0.782642947      35.8749932       
32               0.794502988      34.8378005       0.571858882      -52.529273       0.571858882      -52.529273       0.794502988      34.8378005       
33.24            0.805540246      33.846924        0.557536247      -53.5842622      0.557536247      -53.5842622      0.805540246      33.846924        
34.48            0.815819559      32.8999232       0.543694536      -54.5910673      0.543694536      -54.5910673      0.815819559      32.8999232       
35.72            0.825400673      31.9944492       0.530323098      -55.5524417      0.530323098      -55.5524417      0.825400673      31.9944492       
36.96            0.834338535      31.1282538       0.517409653      -56.4709854      0.517409653      -56.4709854      0.834338535      31.1282538       
38.2             0.842683596      30.2991947       0.504940746      -57.3491486      0.504940746      -57.3491486      0.842683596      30.2991947       
39.44            0.85048213       29.5052378       0.492902118      -58.1892361      0.492902118      -58.1892361      0.85048213       29.5052378       
40.68            0.857776543      28.744457        0.481279009      -58.9934125      0.481279009      -58.9934125      0.857776543      28.744457        
41.92            0.864605676      28.0150326       0.470056403      -59.7637088      0.470056403      -59.7637088      0.864605676      28.0150326       
43.16            0.871005091      27.3152484       0.459219218      -60.5020286      0.459219218      -60.5020286      0.871005091      27.3152484       
44.4             0.877007349      26.643488        0.448752466      -61.2101557      0.448752466      -61.2101557      0.877007349      26.643488        
45.64            0.88264226       25.9982308       0.438641366      -61.8897603      0.438641366      -61.8897603      0.88264226       25.9982308       
46.88            0.887937125      25.3780471       0.428871438      -62.5424057      0.428871438      -62.5424057      0.887937125      25.3780471       
48.12            0.892916951      24.7815937       0.419428575      -63.1695557      0.419428575      -63.1695557      0.892916951      24.7815937       
49.36            0.897604657      24.2076093       0.410299086      -63.77258        0.410299086      -63.77258        0.897604657      24.2076093       
50.6             0.902021257      23.6549094       0.401469736      -64.352761       0.401469736      -64.352761       0.902021257      23.6549094       
51.84            0.906186028      23.1223817       0.392927769      -64.9112994      0.392927769      -64.9112994      0.906186028      23.1223817       
53.08            0.91011667       22.6089824       0.384660916      -65.4493194      0.384660916      -65.4493194      0.91011667       22.6089824       
54.32            0.913829439      22.113731        0.376657405      -65.9678741      0.376657405      -65.9678741      0.913829439      22.113731        
55.56            0.917339283      21.6357067       0.368905956      -66.4679506      0.368905956      -66.4679506      0.917339283      21.6357067       
56.8             0.92065995       21.1740448       0.361395781      -66.9504738      0.361395781      -66.9504738      0.92065995       21.1740448       
58.04            0.923804101      20.7279323       0.354116568      -67.4163115      0.354116568      -67.4163115      0.923804101      20.7279323       
59.28            0.926783401      20.2966056       0.347058474      -67.8662775      0.347058474      -67.8662775      0.926783401      20.2966056       
60.52            0.929608609      19.879346        0.340212107      -68.3011361      0.340212107      -68.3011361      0.929608609      19.879346        
61.76            0.932289655      19.4754778       0.333568515      -68.7216047      0.333568515      -68.7216047      0.932289655      19.4754778       
63               0.93483571       19.0843649       0.327119166      -69.1283577      0.327119166      -69.1283577      0.93483571       19.0843649       
64.24            0.937255255      18.7054084       0.320855934      -69.5220288      0.320855934      -69.5220288      0.937255255      18.7054084       
65.48            0.939556137      18.3380439       0.314771079      -69.9032144      0.314771079      -69.9032144      0.939556137      18.3380439       
66.72            0.941745623      17.9817394       0.308857231      -70.2724754      0.308857231      -70.2724754      0.941745623      17.9817394       
67.96            0.94383045       17.6359935       0.303107376      -70.6303402      0.303107376      -70.6303402      0.94383045       17.6359935       
69.2             0.945816865      17.3003328       0.297514835      -70.9773064      0.297514835      -70.9773064      0.945816865      17.3003328       
70.44            0.947710671      16.9743103       0.292073248      -71.3138431      0.292073248      -71.3138431      0.947710671      16.9743103       
71.68            0.949517259      16.657504        0.286776564      -71.6403926      0.286776564      -71.6403926      0.949517259      16.657504        
72.92            0.951241641      16.349515        0.281619017      -71.9573724      0.281619017      -71.9573724      0.951241641      16.349515        
74.16            0.952888485      16.0499659       0.27659512       -72.2651764      0.27659512       -72.2651764      0.952888485      16.0499659       
75.4             0.954462136      15.7584999       0.271699645      -72.5641767      0.271699645      -72.5641767      0.954462136      15.7584999       
76.64            0.955966648      15.4747789       0.266927612      -72.8547249      0.266927612      -72.8547249      0.955966648      15.4747789       
77.88            0.957405801      15.1984829       0.262274275      -73.1371535      0.262274275      -73.1371535      0.957405801      15.1984829       
79.12            0.958783124      14.9293086       0.257735114      -73.4117767      0.257735114      -73.4117767      0.958783124      14.9293086       
80.36            0.960101917      14.6669683       0.253305817      -73.6788921      0.253305817      -73.6788921      0.960101917      14.6669683       
81.6             0.961365264      14.411189        0.248982272      -73.9387812      0.248982272      -73.9387812      0.961365264      14.411189        
82.84            0.962576051      14.1617118       0.24476056       -74.1917106      0.24476056       -74.1917106      0.962576051      14.1617118       
84.08            0.963736983      13.9182907       0.240636939      -74.4379329      0.240636939      -74.4379329      0.963736983      13.9182907       
85.32            0.964850591      13.6806917       0.236607838      -74.6776875      0.236607838      -74.6776875      0.964850591      13.6806917       
86.56            0.965919253      13.4486927       0.23266985       -74.9112013      0.23266985       -74.9112013      0.965919253      13.4486927       
87.8             0.966945199      13.2220821       0.228819718      -75.1386895      0.228819718      -75.1386895      0.966945199      13.2220821       
89.04            0.967930523      13.0006589       0.225054333      -75.3603563      0.225054333      -75.3603563      0.967930523      13.0006589       
90.28            0.968877194      12.7842313       0.221370722      -75.5763954      0.221370722      -75.5763954      0.968877194      12.7842313       
91.52            0.969787062      12.5726169       0.217766046      -75.7869905      0.217766046      -75.7869905      0.969787062      12.5726169       
92.76            0.970661869      12.3656417       0.214237586      -75.9923164      0.214237586      -75.9923164      0.970661869      12.3656417       
94               0.971503257      12.1631397       0.210782745      -76.1925385      0.210782745      -76.1925385      0.971503257      12.1631397       
95.24            0.97231277       11.9649527       0.207399035      -76.3878144      0.207399035      -76.3878144      0.97231277       11.9649527       
96.48            0.973091866      11.7709297       0.204084075      -76.5782936      0.204084075      -76.5782936      0.973091866      11.7709297       
97.72            0.973841919      11.5809264       0.200835587      -76.7641179      0.200835587      -76.7641179      0.973841919      11.5809264       
98.96            0.974564229      11.394805        0.197651386      -76.9454222      0.197651386      -76.9454222      0.974564229      11.394805        
100.2            0.97526002       11.2124338       0.194529379      -77.1223347      0.194529379      -77.1223347      0.97526002       11.2124338       
101.44           0.975930451      11.0336869       0.191467562      -77.294977       0.191467562      -77.294977       0.975930451      11.0336869       
102.68           0.976576617      10.8584437       0.188464011      -77.4634648      0.188464011      -77.4634648      0.976576617      10.8584437       
103.92           0.977199557      10.6865891       0.185516882      -77.6279077      0.185516882      -77.6279077      0.977199557      10.6865891       
105.16           0.97780025       10.5180125       0.182624404      -77.78841        0.182624404      -77.78841        0.97780025       10.5180125       
106.4            0.978379627      10.3526083       0.179784878      -77.9450706      0.179784878      -77.9450706      0.978379627      10.3526083       
107.64           0.978938569      10.1902752       0.176996674      -78.0979834      0.176996674      -78.0979834      0.978938569      10.1902752       
108.88           0.97947791       10.0309161       0.174258225      -78.2472374      0.174258225      -78.2472374      0.97947791       10.0309161       
110.12           0.979998445      9.87443785       0.171568025      -78.392917       0.171568025      -78.392917       0.979998445      9.87443785       
111.36           0.980500924      9.7207511        0.168924627      -78.5351022      0.168924627      -78.5351022      0.980500924      9.7207511        
112.6            0.980986063      9.56977013       0.166326643      -78.6738687      0.166326643      -78.6738687      0.980986063      9.56977013       
113.84           0.98145454       9.42141264       0.163772733      -78.8092881      0.163772733      -78.8092881      0.98145454       9.42141264       
115.08           0.981907001      9.27559957       0.161261611      -78.9414281      0.161261611      -78.9414281      0.981907001      9.27559957       
116.32           0.982344059      9.13225498       0.15879204       -79.0703527      0.15879204       -79.0703527      0.982344059      9.13225498       
117.56           0.982766299      8.99130587       0.156362827      -79.1961222      0.156362827      -79.1961222      0.982766299      8.99130587       
118.8            0.983174276      8.85268207       0.153972826      -79.3187931      0.153972826      -79.3187931      0.983174276      8.85268207       
120.04           0.98356852       8.71631606       0.151620932      -79.4384189      0.151620932      -79.4384189      0.98356852       8.71631606       
121.28           0.983949535      8.58214292       0.14930608       -79.5550496      0.14930608       -79.5550496      0.983949535      8.58214292       
122.52           0.984317803      8.45010014       0.147027243      -79.6687321      0.147027243      -79.6687321      0.984317803      8.45010014       
123.76           0.984673781      8.32012754       0.144783434      -79.7795099      0.144783434      -79.7795099      0.984673781      8.32012754       
125              0.985017907      8.19216717       0.142573699      -79.8874238      0.142573699      -79.8874238      0.985017907      8.19216717       
126.24           0.985350598      8.06616322       0.140397118      -79.9925114      0.140397118      -79.9925114      0.985350598      8.06616322       
127.48           0.985672254      7.94206186       0.138252803      -80.0948076      0.138252803      -80.0948076      0.985672254      7.94206186       
128.72           0.985983255      7.81981124       0.1361399        -80.1943444      0.1361399        -80.1943444      0.985983255      7.81981124       
129.96           0.986283966      7.69936135       0.13405758       -80.2911509      0.13405758       -80.2911509      0.986283966      7.69936135       
131.2            0.986574733      7.58066395       0.132005047      -80.3852535      0.132005047      -80.3852535      0.986574733      7.58066395       
132.44           0.98685589       7.46367248       0.12998153       -80.4766761      0.12998153       -80.4766761      0.98685589       7.46367248       
133.68           0.987127754      7.34834203       0.127986284      -80.5654397      0.127986284      -80.5654397      0.987127754      7.34834203       
134.92           0.987390632      7.23462923       0.12601859       -80.6515628      0.12601859       -80.6515628      0.987390632      7.23462923       
136.16           0.987644813      7.12249219       0.124077754      -80.7350612      0.124077754      -80.7350612      0.987644813      7.12249219       
137.4            0.987890578      7.01189046       0.122163102      -80.8159482      0.122163102      -80.8159482      0.987890578      7.01189046       
138.64           0.988128194      6.90278494       0.120273985      -80.8942345      0.120273985      -80.8942345      0.988128194      6.90278494       
139.88           0.988357918      6.79513786       0.118409776      -80.969928       0.118409776      -80.969928       0.988357918      6.79513786       
141.12           0.988579996      6.68891268       0.116569865      -81.0430343      0.116569865      -81.0430343      0.988579996      6.68891268       
142.36           0.988794663      6.58407408       0.114753665      -81.1135562      0.114753665      -81.1135562      0.988794663      6.58407408       
143.6            0.989002145      6.48058791       0.112960607      -81.181494       0.112960607      -81.181494       0.989002145      6.48058791       
144.84           0.989202661      6.37842109       0.111190139      -81.2468452      0.111190139      -81.2468452      0.989202661      6.37842109       
146.08           0.989396418      6.27754165       0.109441728      -81.3096048      0.109441728      -81.3096048      0.989396418      6.27754165       
147.32           0.989583617      6.17791861       0.107714857      -81.3697649      0.107714857      -81.3697649      0.989583617      6.17791861       
148.56           0.989764449      6.07952199       0.106009026      -81.427315       0.106009026      -81.427315       0.989764449      6.07952199       
149.8            0.989939101      5.98232276       0.10432375       -81.4822417      0.10432375       -81.4822417      0.989939101      5.98232276       
151.04           0.99010775       5.88629278       0.102658559      -81.5345286      0.102658559      -81.5345286      0.99010775       5.88629278       
152.28           0.990270566      5.79140479       0.101012999      -81.5841567      0.101012999      -81.5841567      0.990270566      5.79140479       
153.52           0.990427713      5.69763238       0.0993866273     -81.6311036      0.0993866273     -81.6311036      0.990427713      5.69763238       
154.76           0.990579351      5.60494995       0.0977790169     -81.675344       0.0977790169     -81.675344       0.990579351      5.60494995       
156              0.990725631      5.51333266       0.0961897529     -81.7168492      0.0961897529     -81.7168492      0.990725631      5.51333266       
157.24           0.9908667        5.42275643       0.0946184331     -81.7555875      0.0946184331     -81.7555875      0.9908667        5.42275643       
158.48           0.991002699      5.33319791       0.0930646674     -81.7915234      0.0930646674     -81.7915234      0.991002699      5.33319791       
