! Coilcraft 1008HQ-12N Chip Inductor				
! 10 July 2002			
# MHZ S MA R 50
!Freq             MagS11           AngS11           MagS21           AngS21           MagS12           AngS12           MagS22           AngS22
1                0.00108471704    43.9484554       0.999219326      -0.0431662813    0.999219326      -0.0431662813    0.00108471704    43.9484554       
13.72            0.0104086862     82.4065756       0.998677865      -0.59193715      0.998677865      -0.59193715      0.0104086862     82.4065756       
26.44            0.0199602427     84.4688569       0.998273812      -1.14035646      0.998273812      -1.14035646      0.0199602427     84.4688569       
39.16            0.029515307      84.9530498       0.997836715      -1.68844244      0.997836715      -1.68844244      0.029515307      84.9530498       
51.88            0.0390646267     84.9774435       0.997339456      -2.23615963      0.997339456      -2.23615963      0.0390646267     84.9774435       
64.6             0.0486046104     84.8006433       0.996771374      -2.78345853      0.996771374      -2.78345853      0.0486046104     84.8006433       
77.32            0.058132734      84.5164998       0.996127096      -3.33028343      0.996127096      -3.33028343      0.058132734      84.5164998       
90.04            0.0676467936     84.1678437       0.995403576      -3.87657538      0.995403576      -3.87657538      0.0676467936     84.1678437       
102.76           0.0771447111     83.7772163       0.994598992      -4.42227355      0.994598992      -4.42227355      0.0771447111     83.7772163       
115.48           0.0866244694     83.357707        0.993712246      -4.96731604      0.993712246      -4.96731604      0.0866244694     83.357707        
128.2            0.0960840887     82.9174876       0.992742709      -5.5116404       0.992742709      -5.5116404       0.0960840887     82.9174876       
140.92           0.105521618      82.461953        0.991690075      -6.05518391      0.991690075      -6.05518391      0.105521618      82.461953        
153.64           0.114935129      81.9948275       0.990554278      -6.59788388      0.990554278      -6.59788388      0.114935129      81.9948275       
166.36           0.124322722      81.5187783       0.989335434      -7.13967779      0.989335434      -7.13967779      0.124322722      81.5187783       
179.08           0.133682519      81.0357751       0.988033807      -7.68050344      0.988033807      -7.68050344      0.133682519      81.0357751       
191.8            0.14301267       80.5473113       0.986649778      -8.22029911      0.986649778      -8.22029911      0.14301267       80.5473113       
204.52           0.152311352      80.0545454       0.985183835      -8.7590036       0.985183835      -8.7590036       0.152311352      80.0545454       
217.24           0.161576774      79.5583944       0.98363655       -9.29655638      0.98363655       -9.29655638      0.161576774      79.5583944       
229.96           0.170807173      79.0595973       0.982008576      -9.83289761      0.982008576      -9.83289761      0.170807173      79.0595973       
242.68           0.180000822      78.5587591       0.980300634      -10.3679682      0.980300634      -10.3679682      0.180000822      78.5587591       
255.4            0.189156026      78.0563825       0.97851351       -10.9017101      0.97851351       -10.9017101      0.189156026      78.0563825       
268.12           0.198271128      77.5528905       0.976648043      -11.4340659      0.976648043      -11.4340659      0.198271128      77.5528905       
280.84           0.207344506      77.0486435       0.97470513       -11.9649792      0.97470513       -11.9649792      0.207344506      77.0486435       
293.56           0.216374579      76.5439519       0.972685712      -12.4943948      0.972685712      -12.4943948      0.216374579      76.5439519       
306.28           0.225359805      76.0390854       0.970590778      -13.0222584      0.970590778      -13.0222584      0.225359805      76.0390854       
319              0.234298681      75.5342809       0.968421356      -13.5485167      0.968421356      -13.5485167      0.234298681      75.5342809       
331.72           0.243189747      75.0297481       0.966178513      -14.0731177      0.966178513      -14.0731177      0.243189747      75.0297481       
344.44           0.252031588      74.5256735       0.963863351      -14.5960105      0.963863351      -14.5960105      0.252031588      74.5256735       
357.16           0.260822829      74.0222251       0.961477008      -15.1171452      0.961477008      -15.1171452      0.260822829      74.0222251       
369.88           0.26956214       73.519554        0.959020649      -15.6364734      0.959020649      -15.6364734      0.26956214       73.519554        
382.6            0.278248239      73.0177979       0.956495467      -16.1539477      0.956495467      -16.1539477      0.278248239      73.0177979       
395.32           0.286879885      72.5170821       0.953902683      -16.6695222      0.953902683      -16.6695222      0.286879885      72.5170821       
408.04           0.295455886      72.0175218       0.951243541      -17.183152       0.951243541      -17.183152       0.295455886      72.0175218       
420.76           0.303975095      71.5192228       0.948519304      -17.6947937      0.948519304      -17.6947937      0.303975095      71.5192228       
433.48           0.312436411      71.0222828       0.945731258      -18.2044051      0.945731258      -18.2044051      0.312436411      71.0222828       
446.2            0.320838781      70.5267923       0.942880704      -18.7119453      0.942880704      -18.7119453      0.320838781      70.5267923       
458.92           0.329181199      70.0328357       0.939968959      -19.2173749      0.939968959      -19.2173749      0.329181199      70.0328357       
471.64           0.337462703      69.5404911       0.936997355      -19.7206556      0.936997355      -19.7206556      0.337462703      69.5404911       
484.36           0.345682382      69.0498317       0.933967232      -20.2217507      0.933967232      -20.2217507      0.345682382      69.0498317       
497.08           0.353839369      68.5609258       0.930879945      -20.7206247      0.930879945      -20.7206247      0.353839369      68.5609258       
509.8            0.361932843      68.0738372       0.927736854      -21.2172433      0.927736854      -21.2172433      0.361932843      68.0738372       
522.52           0.369962031      67.5886259       0.924539326      -21.7115739      0.924539326      -21.7115739      0.369962031      67.5886259       
535.24           0.377926206      67.1053479       0.921288734      -22.2035849      0.921288734      -22.2035849      0.377926206      67.1053479       
547.96           0.385824685      66.624056        0.917986455      -22.6932463      0.917986455      -22.6932463      0.385824685      66.624056        
560.68           0.393656832      66.1447995       0.914633865      -23.1805294      0.914633865      -23.1805294      0.393656832      66.1447995       
573.4            0.401422053      65.6676248       0.911232343      -23.6654066      0.911232343      -23.6654066      0.401422053      65.6676248       
586.12           0.409119801      65.1925755       0.907783266      -24.1478519      0.907783266      -24.1478519      0.409119801      65.1925755       
598.84           0.416749571      64.7196923       0.904288011      -24.6278405      0.904288011      -24.6278405      0.416749571      64.7196923       
611.56           0.424310901      64.2490136       0.900747947      -25.1053489      0.900747947      -25.1053489      0.424310901      64.2490136       
624.28           0.431803371      63.7805752       0.897164443      -25.5803549      0.897164443      -25.5803549      0.431803371      63.7805752       
637              0.439226603      63.3144106       0.893538857      -26.0528376      0.893538857      -26.0528376      0.439226603      63.3144106       
649.72           0.446580259      62.8505513       0.889872545      -26.5227772      0.889872545      -26.5227772      0.446580259      62.8505513       
662.44           0.453864042      62.3890264       0.88616685       -26.9901554      0.88616685       -26.9901554      0.453864042      62.3890264       
675.16           0.461077693      61.9298634       0.882423108      -27.454955       0.882423108      -27.454955       0.461077693      61.9298634       
687.88           0.468220992      61.4730875       0.878642644      -27.9171599      0.878642644      -27.9171599      0.468220992      61.4730875       
700.6            0.475293755      61.0187224       0.874826773      -28.3767554      0.874826773      -28.3767554      0.475293755      61.0187224       
713.32           0.482295837      60.5667897       0.870976796      -28.8337278      0.870976796      -28.8337278      0.482295837      60.5667897       
726.04           0.489227125      60.1173095       0.867094002      -29.2880646      0.867094002      -29.2880646      0.489227125      60.1173095       
738.76           0.496087543      59.6703003       0.863179665      -29.7397545      0.863179665      -29.7397545      0.496087543      59.6703003       
751.48           0.502877049      59.225779        0.859235045      -30.1887872      0.859235045      -30.1887872      0.502877049      59.225779        
764.2            0.509595633      58.7837609       0.855261388      -30.6351536      0.855261388      -30.6351536      0.509595633      58.7837609       
776.92           0.516243315      58.34426         0.851259923      -31.0788455      0.851259923      -31.0788455      0.516243315      58.34426         
789.64           0.522820148      57.9072888       0.847231861      -31.5198559      0.847231861      -31.5198559      0.522820148      57.9072888       
802.36           0.529326213      57.4728584       0.843178399      -31.9581786      0.843178399      -31.9581786      0.529326213      57.4728584       
815.08           0.535761623      57.0409786       0.839100714      -32.3938087      0.839100714      -32.3938087      0.535761623      57.0409786       
827.8            0.542126514      56.6116582       0.834999966      -32.8267419      0.834999966      -32.8267419      0.542126514      56.6116582       
840.52           0.548421053      56.1849045       0.830877295      -33.2569751      0.830877295      -33.2569751      0.548421053      56.1849045       
853.24           0.55464543       55.7607238       0.826733826      -33.6845061      0.826733826      -33.6845061      0.55464543       55.7607238       
865.96           0.560799862      55.339121        0.82257066       -34.1093335      0.82257066       -34.1093335      0.560799862      55.339121        
878.68           0.566884587      54.9201003       0.818388881      -34.5314567      0.818388881      -34.5314567      0.566884587      54.9201003       
891.4            0.572899869      54.5036646       0.814189553      -34.9508762      0.814189553      -34.9508762      0.572899869      54.5036646       
904.12           0.578845991      54.0898159       0.809973722      -35.367593       0.809973722      -35.367593       0.578845991      54.0898159       
916.84           0.58472326       53.6785551       0.805742409      -35.781609       0.805742409      -35.781609       0.58472326       53.6785551       
929.56           0.590532002      53.2698824       0.801496619      -36.192927       0.801496619      -36.192927       0.590532002      53.2698824       
942.28           0.59627256       52.8637969       0.797237335      -36.6015505      0.797237335      -36.6015505      0.59627256       52.8637969       
955              0.601945298      52.4602969       0.792965519      -37.0074834      0.792965519      -37.0074834      0.601945298      52.4602969       
967.72           0.607550595      52.0593797       0.788682113      -37.4107308      0.788682113      -37.4107308      0.607550595      52.0593797       
980.44           0.61308885       51.6610422       0.784388039      -37.8112981      0.784388039      -37.8112981      0.61308885       51.6610422       
993.16           0.618560474      51.2652802       0.780084197      -38.2091914      0.780084197      -38.2091914      0.618560474      51.2652802       
1005.88          0.623965893      50.8720889       0.775771467      -38.6044175      0.775771467      -38.6044175      0.623965893      50.8720889       
1018.6           0.629305551      50.4814626       0.771450709      -38.9969837      0.771450709      -38.9969837      0.629305551      50.4814626       
1031.32          0.6345799        50.0933952       0.767122761      -39.3868981      0.767122761      -39.3868981      0.6345799        50.0933952       
1044.04          0.639789407      49.7078798       0.762788443      -39.774169       0.762788443      -39.774169       0.639789407      49.7078798       
1056.76          0.64493455       49.3249089       0.758448551      -40.1588055      0.758448551      -40.1588055      0.64493455       49.3249089       
1069.48          0.65001582       48.9444745       0.754103865      -40.5408171      0.754103865      -40.5408171      0.65001582       48.9444745       
1082.2           0.655033713      48.5665677       0.749755142      -40.9202138      0.749755142      -40.9202138      0.655033713      48.5665677       
1094.92          0.659988741      48.1911795       0.74540312       -41.2970059      0.74540312       -41.2970059      0.659988741      48.1911795       
1107.64          0.664881419      47.8183001       0.741048517      -41.6712045      0.741048517      -41.6712045      0.664881419      47.8183001       
1120.36          0.669712273      47.4479192       0.736692033      -42.0428208      0.736692033      -42.0428208      0.669712273      47.4479192       
1133.08          0.674481835      47.0800263       0.732334347      -42.4118665      0.732334347      -42.4118665      0.674481835      47.0800263       
1145.8           0.679190647      46.7146101       0.727976119      -42.7783536      0.727976119      -42.7783536      0.679190647      46.7146101       
1158.52          0.683839253      46.3516591       0.72361799       -43.1422948      0.72361799       -43.1422948      0.683839253      46.3516591       
1171.24          0.688428204      45.9911614       0.719260585      -43.5037026      0.719260585      -43.5037026      0.688428204      45.9911614       
1183.96          0.692958058      45.6331046       0.714904507      -43.8625903      0.714904507      -43.8625903      0.692958058      45.6331046       
1196.68          0.697429375      45.2774759       0.710550342      -44.2189712      0.710550342      -44.2189712      0.697429375      45.2774759       
1209.4           0.70184272       44.9242624       0.70619866       -44.572859       0.70619866       -44.572859       0.70184272       44.9242624       
1222.12          0.706198662      44.5734506       0.701850012      -44.9242677      0.701850012      -44.9242677      0.706198662      44.5734506       
1234.84          0.710497771      44.2250269       0.697504931      -45.2732116      0.697504931      -45.2732116      0.710497771      44.2250269       
1247.56          0.714740622      43.8789774       0.693163934      -45.619705       0.693163934      -45.619705       0.714740622      43.8789774       
1260.28          0.71892779       43.5352877       0.688827521      -45.9637626      0.688827521      -45.9637626      0.71892779       43.5352877       
1273             0.723059853      43.1939434       0.684496177      -46.3053993      0.684496177      -46.3053993      0.723059853      43.1939434       
1285.72          0.72713739       42.8549298       0.680170368      -46.6446302      0.680170368      -46.6446302      0.72713739       42.8549298       
1298.44          0.731160979      42.518232        0.675850546      -46.9814706      0.675850546      -46.9814706      0.731160979      42.518232        
1311.16          0.735131201      42.1838348       0.671537148      -47.3159358      0.671537148      -47.3159358      0.735131201      42.1838348       
1323.88          0.739048636      41.8517228       0.667230595      -47.6480413      0.667230595      -47.6480413      0.739048636      41.8517228       
1336.6           0.742913864      41.5218807       0.662931293      -47.9778029      0.662931293      -47.9778029      0.742913864      41.5218807       
1349.32          0.746727463      41.1942926       0.658639633      -48.3052364      0.658639633      -48.3052364      0.746727463      41.1942926       
1362.04          0.750490011      40.8689429       0.654355993      -48.6303577      0.654355993      -48.6303577      0.750490011      40.8689429       
1374.76          0.754202085      40.5458155       0.650080737      -48.9531827      0.650080737      -48.9531827      0.754202085      40.5458155       
1387.48          0.757864261      40.2248944       0.645814214      -49.2737277      0.645814214      -49.2737277      0.757864261      40.2248944       
1400.2           0.761477112      39.9061634       0.641556761      -49.5920088      0.641556761      -49.5920088      0.761477112      39.9061634       
1412.92          0.765041209      39.5896063       0.6373087        -49.9080421      0.6373087        -49.9080421      0.765041209      39.5896063       
1425.64          0.768557121      39.2752066       0.633070343      -50.2218441      0.633070343      -50.2218441      0.768557121      39.2752066       
1438.36          0.772025416      38.962948        0.628841987      -50.533431       0.628841987      -50.533431       0.772025416      38.962948        
1451.08          0.775446656      38.6528139       0.624623919      -50.8428193      0.624623919      -50.8428193      0.775446656      38.6528139       
1463.8           0.778821403      38.3447877       0.620416413      -51.1500252      0.620416413      -51.1500252      0.778821403      38.3447877       
1476.52          0.782150214      38.038853        0.616219732      -51.4550652      0.616219732      -51.4550652      0.782150214      38.038853        
1489.24          0.785433643      37.7349929       0.612034126      -51.7579558      0.612034126      -51.7579558      0.785433643      37.7349929       
1501.96          0.788672243      37.433191        0.607859837      -52.0587132      0.607859837      -52.0587132      0.788672243      37.433191        
1514.68          0.791866558      37.1334303       0.603697093      -52.357354       0.603697093      -52.357354       0.791866558      37.1334303       
1527.4           0.795017134      36.8356944       0.599546115      -52.6538945      0.599546115      -52.6538945      0.795017134      36.8356944       
1540.12          0.798124509      36.5399663       0.595407111      -52.948351       0.595407111      -52.948351       0.798124509      36.5399663       
1552.84          0.801189219      36.2462296       0.59128028       -53.2407399      0.59128028       -53.2407399      0.801189219      36.2462296       
1565.56          0.804211795      35.9544673       0.587165813      -53.5310774      0.587165813      -53.5310774      0.804211795      35.9544673       
1578.28          0.807192763      35.6646629       0.58306389       -53.8193799      0.58306389       -53.8193799      0.807192763      35.6646629       
1591             0.810132645      35.3767997       0.578974682      -54.1056634      0.578974682      -54.1056634      0.810132645      35.3767997       
1603.72          0.813031961      35.0908612       0.574898351      -54.389944       0.574898351      -54.389944       0.813031961      35.0908612       
1616.44          0.815891222      34.8068305       0.570835051      -54.672238       0.570835051      -54.672238       0.815891222      34.8068305       
