! Coilcraft 1008HQ-56N Chip Inductor				
! 10 July 2002			
# MHZ S MA R 50
!Freq             MagS11           AngS11           MagS21           AngS21           MagS12           AngS12           MagS22           AngS22
1                0.00396838709    62.0515366       0.998146263      -0.20122678      0.998146263      -0.20122678      0.00396838709    62.0515366       
5.74             0.0203243919     81.0653827       0.997045651      -1.15385872      0.997045651      -1.15385872      0.0203243919     81.0653827       
10.48            0.0368774921     82.7695731       0.996030693      -2.10494948      0.996030693      -2.10494948      0.0368774921     82.7695731       
15.22            0.0534123088     82.9509234       0.99485849       -3.054311        0.99485849       -3.054311        0.0534123088     82.9509234       
19.96            0.0699036629     82.6502321       0.993479497      -4.00160065      0.993479497      -4.00160065      0.0699036629     82.6502321       
24.7             0.0863365899     82.1316648       0.991874763      -4.94643332      0.991874763      -4.94643332      0.0863365899     82.1316648       
29.44            0.102698325      81.4954633       0.990036011      -5.88840806      0.990036011      -5.88840806      0.102698325      81.4954633       
34.18            0.118976932      80.7887379       0.987960016      -6.82711914      0.987960016      -6.82711914      0.118976932      80.7887379       
38.92            0.135160967      80.0368693       0.985646434      -7.76216195      0.985646434      -7.76216195      0.135160967      80.0368693       
43.66            0.151239389      79.2549158       0.983096784      -8.6931367       0.983096784      -8.6931367       0.151239389      79.2549158       
48.4             0.16720155       78.4524835       0.980313912      -9.61965107      0.980313912      -9.61965107      0.16720155       78.4524835       
53.14            0.183037212      77.6360611       0.977301669      -10.5413222      0.977301669      -10.5413222      0.183037212      77.6360611       
57.88            0.19873656       76.81024         0.974064705      -11.4577783      0.974064705      -11.4577783      0.19873656       76.81024         
62.62            0.214290236      75.9783972       0.970608325      -12.3686599      0.970608325      -12.3686599      0.214290236      75.9783972       
67.36            0.22968935       75.1430986       0.966938382      -13.2736209      0.966938382      -13.2736209      0.22968935       75.1430986       
72.1             0.244925507      74.3063488       0.96306119       -14.1723296      0.96306119       -14.1723296      0.244925507      74.3063488       
76.84            0.259990818      73.4697508       0.958983454      -15.0644694      0.958983454      -15.0644694      0.259990818      73.4697508       
81.58            0.274877913      72.634613        0.954712206      -15.9497391      0.954712206      -15.9497391      0.274877913      72.634613        
86.32            0.289579952      71.8020209       0.950254751      -16.8278541      0.950254751      -16.8278541      0.289579952      71.8020209       
91.06            0.30409063       70.9728881       0.945618621      -17.6985458      0.945618621      -17.6985458      0.30409063       70.9728881       
95.8             0.318404176      70.1479928       0.94081152       -18.5615628      0.94081152       -18.5615628      0.318404176      70.1479928       
100.54           0.332515357      69.3280039       0.93584129       -19.4166704      0.93584129       -19.4166704      0.332515357      69.3280039       
105.28           0.346419471      68.5135004       0.930715868      -20.2636509      0.930715868      -20.2636509      0.346419471      68.5135004       
110.02           0.360112341      67.704987        0.925443249      -21.1023037      0.925443249      -21.1023037      0.360112341      67.704987        
114.76           0.373590307      66.9029044       0.92003145       -21.9324449      0.92003145       -21.9324449      0.373590307      66.9029044       
119.5            0.386850214      66.1076395       0.914488484      -22.7539074      0.914488484      -22.7539074      0.386850214      66.1076395       
124.24           0.399889399      65.3195311       0.908822321      -23.5665404      0.908822321      -23.5665404      0.399889399      65.3195311       
128.98           0.412705676      64.5388767       0.903040871      -24.3702094      0.903040871      -24.3702094      0.412705676      64.5388767       
133.72           0.425297317      63.7659364       0.897151951      -25.1647958      0.897151951      -25.1647958      0.425297317      63.7659364       
138.46           0.437663041      63.0009372       0.891163268      -25.9501959      0.891163268      -25.9501959      0.437663041      63.0009372       
143.2            0.449801985      62.244076        0.885082393      -26.7263214      0.885082393      -26.7263214      0.449801985      62.244076        
147.94           0.461713693      61.4955224       0.878916748      -27.4930983      0.878916748      -27.4930983      0.461713693      61.4955224       
152.68           0.473398091      60.7554212       0.872673587      -28.2504664      0.872673587      -28.2504664      0.473398091      60.7554212       
157.42           0.484855467      60.0238943       0.866359984      -28.9983789      0.866359984      -28.9983789      0.484855467      60.0238943       
162.16           0.49608645       59.3010426       0.859982816      -29.7368021      0.859982816      -29.7368021      0.49608645       59.3010426       
166.9            0.507091986      58.586948        0.853548757      -30.4657142      0.853548757      -30.4657142      0.507091986      58.586948        
171.64           0.517873322      57.8816744       0.847064271      -31.1851053      0.847064271      -31.1851053      0.517873322      57.8816744       
176.38           0.52843198       57.1852692       0.840535599      -31.8949763      0.840535599      -31.8949763      0.52843198       57.1852692       
181.12           0.538769739      56.4977649       0.833968758      -32.595339       0.833968758      -32.595339       0.538769739      56.4977649       
185.86           0.548888613      55.8191797       0.827369536      -33.2862147      0.827369536      -33.2862147      0.548888613      55.8191797       
190.6            0.558790833      55.1495191       0.820743489      -33.9676342      0.820743489      -33.9676342      0.558790833      55.1495191       
195.34           0.568478823      54.4887764       0.814095941      -34.6396368      0.814095941      -34.6396368      0.568478823      54.4887764       
200.08           0.577955187      53.836934        0.807431983      -35.3022703      0.807431983      -35.3022703      0.577955187      53.836934        
204.82           0.587222689      53.1939643       0.800756472      -35.9555898      0.800756472      -35.9555898      0.587222689      53.1939643       
209.56           0.596284234      52.5598301       0.794074037      -36.5996574      0.794074037      -36.5996574      0.596284234      52.5598301       
214.3            0.605142852      51.9344858       0.787389077      -37.2345419      0.787389077      -37.2345419      0.605142852      51.9344858       
219.04           0.613801686      51.3178779       0.780705767      -37.8603181      0.780705767      -37.8603181      0.613801686      51.3178779       
223.78           0.622263971      50.7099458       0.774028064      -38.477066       0.774028064      -38.477066       0.622263971      50.7099458       
228.52           0.630533026      50.1106223       0.767359704      -39.084871       0.767359704      -39.084871       0.630533026      50.1106223       
233.26           0.638612236      49.5198343       0.760704216      -39.6838227      0.760704216      -39.6838227      0.638612236      49.5198343       
238              0.646505043      48.9375035       0.754064924      -40.2740151      0.754064924      -40.2740151      0.646505043      48.9375035       
242.74           0.654214933      48.3635464       0.747444948      -40.8555457      0.747444948      -40.8555457      0.654214933      48.3635464       
247.48           0.661745424      47.7978757       0.74084722       -41.4285154      0.74084722       -41.4285154      0.661745424      47.7978757       
252.22           0.669100058      47.2403997       0.734274479      -41.993028       0.734274479      -41.993028       0.669100058      47.2403997       
256.96           0.676282391      46.6910237       0.727729288      -42.5491899      0.727729288      -42.5491899      0.676282391      46.6910237       
261.7            0.683295985      46.1496498       0.721214034      -43.0971096      0.721214034      -43.0971096      0.683295985      46.1496498       
266.44           0.690144399      45.6161776       0.714730934      -43.6368976      0.714730934      -43.6368976      0.690144399      45.6161776       
271.18           0.696831182      45.0905042       0.708282047      -44.168666       0.708282047      -44.168666       0.696831182      45.0905042       
275.92           0.703359867      44.572525        0.701869277      -44.6925282      0.701869277      -44.6925282      0.703359867      44.572525        
280.66           0.709733965      44.0621339       0.695494379      -45.2085986      0.695494379      -45.2085986      0.709733965      44.0621339       
285.4            0.715956959      43.559223        0.689158968      -45.7169925      0.689158968      -45.7169925      0.715956959      43.559223        
290.14           0.7220323        43.0636839       0.682864524      -46.2178257      0.682864524      -46.2178257      0.7220323        43.0636839       
294.88           0.727963401      42.575407        0.676612397      -46.7112143      0.676612397      -46.7112143      0.727963401      42.575407        
299.62           0.733753636      42.0942823       0.670403818      -47.1972748      0.670403818      -47.1972748      0.733753636      42.0942823       
304.36           0.739406334      41.6201994       0.6642399        -47.6761235      0.6642399        -47.6761235      0.739406334      41.6201994       
309.1            0.744924776      41.1530478       0.658121644      -48.1478764      0.658121644      -48.1478764      0.744924776      41.1530478       
313.84           0.750312193      40.6927169       0.652049949      -48.6126495      0.652049949      -48.6126495      0.750312193      40.6927169       
318.58           0.755571767      40.2390964       0.646025615      -49.0705579      0.646025615      -49.0705579      0.755571767      40.2390964       
323.32           0.760706623      39.7920763       0.640049347      -49.5217164      0.640049347      -49.5217164      0.760706623      39.7920763       
328.06           0.765719831      39.3515469       0.634121763      -49.9662388      0.634121763      -49.9662388      0.765719831      39.3515469       
332.8            0.770614403      38.9173995       0.628243396      -50.4042383      0.628243396      -50.4042383      0.770614403      38.9173995       
337.54           0.775393297      38.4895257       0.622414704      -50.835827       0.622414704      -50.835827       0.775393297      38.4895257       
342.28           0.780059406      38.0678181       0.616636067      -51.2611159      0.616636067      -51.2611159      0.780059406      38.0678181       
347.02           0.78461557       37.6521704       0.610907797      -51.680215       0.610907797      -51.680215       0.78461557       37.6521704       
351.76           0.789064563      37.2424769       0.605230143      -52.0932331      0.605230143      -52.0932331      0.789064563      37.2424769       
356.5            0.793409103      36.8386333       0.59960329       -52.5002777      0.59960329       -52.5002777      0.793409103      36.8386333       
361.24           0.797651847      36.4405363       0.594027367      -52.9014549      0.594027367      -52.9014549      0.797651847      36.4405363       
365.98           0.801795392      36.0480838       0.588502449      -53.2968697      0.588502449      -53.2968697      0.801795392      36.0480838       
370.72           0.805842272      35.6611751       0.583028563      -53.6866253      0.583028563      -53.6866253      0.805842272      35.6611751       
375.46           0.809794967      35.2797106       0.577605687      -54.0708238      0.577605687      -54.0708238      0.809794967      35.2797106       
380.2            0.813655893      34.9035921       0.572233757      -54.4495657      0.572233757      -54.4495657      0.813655893      34.9035921       
384.94           0.817427411      34.5327228       0.566912667      -54.82295        0.566912667      -54.82295        0.817427411      34.5327228       
389.68           0.821111822      34.1670075       0.561642277      -55.1910741      0.561642277      -55.1910741      0.821111822      34.1670075       
394.42           0.82471137       33.806352        0.556422408      -55.5540339      0.556422408      -55.5540339      0.82471137       33.806352        
399.16           0.828228244      33.4506639       0.551252852      -55.9119239      0.551252852      -55.9119239      0.828228244      33.4506639       
403.9            0.831664576      33.0998521       0.546133371      -56.2648368      0.546133371      -56.2648368      0.831664576      33.0998521       
408.64           0.835022444      32.7538269       0.541063698      -56.6128639      0.541063698      -56.6128639      0.835022444      32.7538269       
413.38           0.838303873      32.4125005       0.536043542      -56.9560948      0.536043542      -56.9560948      0.838303873      32.4125005       
418.12           0.841510833      32.0757859       0.531072588      -57.2946176      0.531072588      -57.2946176      0.841510833      32.0757859       
422.86           0.844645244      31.7435983       0.526150502      -57.6285188      0.526150502      -57.6285188      0.844645244      31.7435983       
427.6            0.847708976      31.4158538       0.521276929      -57.9578833      0.521276929      -57.9578833      0.847708976      31.4158538       
432.34           0.850703847      31.0924703       0.516451496      -58.2827946      0.516451496      -58.2827946      0.850703847      31.0924703       
437.08           0.853631628      30.7733672       0.511673815      -58.6033344      0.511673815      -58.6033344      0.853631628      30.7733672       
441.82           0.856494041      30.4584651       0.506943485      -58.9195831      0.506943485      -58.9195831      0.856494041      30.4584651       
446.56           0.859292764      30.1476864       0.502260088      -59.2316193      0.502260088      -59.2316193      0.859292764      30.1476864       
451.3            0.862029428      29.8409548       0.497623198      -59.5395204      0.497623198      -59.5395204      0.862029428      29.8409548       
456.04           0.864705617      29.5381952       0.493032378      -59.8433621      0.493032378      -59.8433621      0.864705617      29.5381952       
460.78           0.867322877      29.2393343       0.488487181      -60.1432186      0.488487181      -60.1432186      0.867322877      29.2393343       
465.52           0.869882707      28.9443          0.483987152      -60.4391627      0.483987152      -60.4391627      0.869882707      28.9443          
470.26           0.872386566      28.6530217       0.47953183       -60.7312659      0.47953183       -60.7312659      0.872386566      28.6530217       
475              0.874835876      28.3654301       0.475120746      -61.0195979      0.475120746      -61.0195979      0.874835876      28.3654301       
479.74           0.877232014      28.0814571       0.470753428      -61.3042273      0.470753428      -61.3042273      0.877232014      28.0814571       
484.48           0.879576325      27.8010364       0.4664294        -61.5852213      0.4664294        -61.5852213      0.879576325      27.8010364       
489.22           0.881870111      27.5241024       0.46214818       -61.8626455      0.46214818       -61.8626455      0.881870111      27.5241024       
493.96           0.884114643      27.2505914       0.457909285      -62.1365645      0.457909285      -62.1365645      0.884114643      27.2505914       
498.7            0.886311154      26.9804405       0.45371223       -62.4070412      0.45371223       -62.4070412      0.886311154      26.9804405       
503.44           0.888460842      26.7135884       0.449556528      -62.6741374      0.449556528      -62.6741374      0.888460842      26.7135884       
508.18           0.890564873      26.4499748       0.445441692      -62.9379136      0.445441692      -62.9379136      0.890564873      26.4499748       
512.92           0.892624382      26.1895408       0.441367234      -63.1984291      0.441367234      -63.1984291      0.892624382      26.1895408       
517.66           0.894640469      25.9322286       0.437332666      -63.4557418      0.437332666      -63.4557418      0.894640469      25.9322286       
522.4            0.896614207      25.6779815       0.433337502      -63.7099086      0.433337502      -63.7099086      0.896614207      25.6779815       
527.14           0.898546636      25.4267441       0.429381256      -63.9609849      0.429381256      -63.9609849      0.898546636      25.4267441       
531.88           0.90043877       25.1784622       0.425463443      -64.2090252      0.425463443      -64.2090252      0.90043877       25.1784622       
536.62           0.902291593      24.9330824       0.421583583      -64.4540828      0.421583583      -64.4540828      0.902291593      24.9330824       
541.36           0.904106061      24.6905527       0.417741194      -64.6962098      0.417741194      -64.6962098      0.904106061      24.6905527       
546.1            0.905883106      24.450822        0.4139358        -64.9354571      0.4139358        -64.9354571      0.905883106      24.450822        
550.84           0.907623633      24.2138403       0.410166926      -65.1718748      0.410166926      -65.1718748      0.907623633      24.2138403       
555.58           0.909328521      23.9795587       0.406434101      -65.4055116      0.406434101      -65.4055116      0.909328521      23.9795587       
560.32           0.910998625      23.7479292       0.402736858      -65.6364155      0.402736858      -65.6364155      0.910998625      23.7479292       
565.06           0.912634778      23.5189048       0.399074731      -65.8646332      0.399074731      -65.8646332      0.912634778      23.5189048       
569.8            0.914237789      23.2924396       0.395447261      -66.0902105      0.395447261      -66.0902105      0.914237789      23.2924396       
574.54           0.915808444      23.0684884       0.39185399       -66.3131922      0.39185399       -66.3131922      0.915808444      23.0684884       
579.28           0.917347508      22.8470072       0.388294467      -66.5336222      0.388294467      -66.5336222      0.917347508      22.8470072       
584.02           0.918855726      22.6279527       0.384768244      -66.7515433      0.384768244      -66.7515433      0.918855726      22.6279527       
588.76           0.920333822      22.4112827       0.381274877      -66.9669976      0.381274877      -66.9669976      0.920333822      22.4112827       
593.5            0.921782498      22.1969556       0.377813926      -67.1800262      0.377813926      -67.1800262      0.921782498      22.1969556       
598.24           0.923202441      21.9849309       0.374384958      -67.3906692      0.374384958      -67.3906692      0.923202441      21.9849309       
602.98           0.924594317      21.7751689       0.370987542      -67.5989659      0.370987542      -67.5989659      0.924594317      21.7751689       
