! Coilcraft 1008HQ-10N Chip Inductor				
! 10 July 2002			
# MHZ S MA R 50
!Freq             MagS11           AngS11           MagS21           AngS21           MagS12           AngS12           MagS22           AngS22
1                0.000992285182   39.2148849       0.999231394      -0.0359723336    0.999231394      -0.0359723336    0.000992285182   39.2148849       
17.96            0.0113455605     82.7015206       0.998622091      -0.645689235     0.998622091      -0.645689235     0.0113455605     82.7015206       
34.92            0.0219594992     84.5776332       0.998164319      -1.2549603       0.998164319      -1.2549603       0.0219594992     84.5776332       
51.88            0.0325740461     84.9452208       0.997657753      -1.86379032      0.997657753      -1.86379032      0.0325740461     84.9452208       
68.84            0.0431793876     84.8774092       0.997072586      -2.47211699      0.997072586      -2.47211699      0.0431793876     84.8774092       
85.8             0.0537711678     84.6197092       0.996397281      -3.07986107      0.996397281      -3.07986107      0.0537711678     84.6197092       
102.76           0.0643460398     84.2609128       0.99562613       -3.68693596      0.99562613       -3.68693596      0.0643460398     84.2609128       
119.72           0.0749009592     83.8414957       0.994756003      -4.29325137      0.994756003      -4.29325137      0.0749009592     83.8414957       
136.68           0.0854330052     83.382761        0.993785127      -4.89871507      0.993785127      -4.89871507      0.0854330052     83.382761        
153.64           0.0959393241     82.8970897       0.992712546      -5.50323385      0.992712546      -5.50323385      0.0959393241     82.8970897       
170.6            0.10641711       82.3922239       0.991537838      -6.10671418      0.991537838      -6.10671418      0.10641711       82.3922239       
187.56           0.116863599      81.8732866       0.99026096       -6.70906265      0.99026096       -6.70906265      0.116863599      81.8732866       
204.52           0.127276068      81.3438254       0.988882152      -7.31018629      0.988882152      -7.31018629      0.127276068      81.3438254       
221.48           0.137651839      80.8063902       0.987401874      -7.90999282      0.987401874      -7.90999282      0.137651839      80.8063902       
238.44           0.147988279      80.2628729       0.985820768      -8.50839087      0.985820768      -8.50839087      0.147988279      80.2628729       
255.4            0.158282802      79.7147155       0.98413963       -9.10529017      0.98413963       -9.10529017      0.158282802      79.7147155       
272.36           0.168532876      79.1630433       0.982359383      -9.70060165      0.982359383      -9.70060165      0.168532876      79.1630433       
289.32           0.178736022      78.6087531       0.980481069      -10.2942376      0.980481069      -10.2942376      0.178736022      78.6087531       
306.28           0.188889822      78.0525728       0.978505829      -10.8861119      0.978505829      -10.8861119      0.188889822      78.0525728       
323.24           0.198991914      77.4951032       0.976434897      -11.4761398      0.976434897      -11.4761398      0.198991914      77.4951032       
340.2            0.209040002      76.9368475       0.974269591      -12.0642385      0.974269591      -12.0642385      0.209040002      76.9368475       
357.16           0.219031852      76.3782327       0.972011304      -12.6503268      0.972011304      -12.6503268      0.219031852      76.3782327       
374.12           0.228965301      75.8196258       0.969661498      -13.2343253      0.969661498      -13.2343253      0.228965301      75.8196258       
391.08           0.238838252      75.2613456       0.967221699      -13.8161567      0.967221699      -13.8161567      0.238838252      75.2613456       
408.04           0.248648679      74.7036715       0.964693491      -14.3957455      0.964693491      -14.3957455      0.248648679      74.7036715       
425              0.258394631      74.1468507       0.962078511      -14.9730184      0.962078511      -14.9730184      0.258394631      74.1468507       
441.96           0.268074227      73.5911038       0.959378444      -15.5479042      0.959378444      -15.5479042      0.268074227      73.5911038       
458.92           0.277685664      73.0366286       0.956595018      -16.1203336      0.956595018      -16.1203336      0.277685664      73.0366286       
475.88           0.287227211      72.4836038       0.953730004      -16.6902397      0.953730004      -16.6902397      0.287227211      72.4836038       
492.84           0.296697215      71.9321917       0.950785205      -17.2575578      0.950785205      -17.2575578      0.296697215      71.9321917       
509.8            0.306094101      71.3825404       0.947762457      -17.8222254      0.947762457      -17.8222254      0.306094101      71.3825404       
526.76           0.31541637       70.8347855       0.944663626      -18.3841821      0.944663626      -18.3841821      0.31541637       70.8347855       
543.72           0.324662599      70.2890516       0.941490598      -18.9433701      0.941490598      -18.9433701      0.324662599      70.2890516       
560.68           0.333831445      69.7454536       0.938245285      -19.4997336      0.938245285      -19.4997336      0.333831445      69.7454536       
577.64           0.342921639      69.2040977       0.934929613      -20.0532193      0.934929613      -20.0532193      0.342921639      69.2040977       
594.6            0.351931993      68.6650823       0.931545523      -20.6037761      0.931545523      -20.6037761      0.351931993      68.6650823       
611.56           0.360861391      68.1284984       0.928094968      -21.1513553      0.928094968      -21.1513553      0.360861391      68.1284984       
628.52           0.369708796      67.5944307       0.924579907      -21.6959104      0.924579907      -21.6959104      0.369708796      67.5944307       
645.48           0.378473244      67.0629579       0.921002307      -22.2373973      0.921002307      -22.2373973      0.378473244      67.0629579       
662.44           0.387153847      66.5341529       0.917364133      -22.7757741      0.917364133      -22.7757741      0.387153847      66.5341529       
679.4            0.39574979       66.0080839       0.913667355      -23.3110012      0.913667355      -23.3110012      0.39574979       66.0080839       
696.36           0.404260329      65.4848138       0.909913935      -23.8430413      0.909913935      -23.8430413      0.404260329      65.4848138       
713.32           0.412684791      64.9644013       0.906105832      -24.3718593      0.906105832      -24.3718593      0.412684791      64.9644013       
730.28           0.421022575      64.4469009       0.902244996      -24.8974224      0.902244996      -24.8974224      0.421022575      64.4469009       
747.24           0.429273146      63.9323628       0.898333368      -25.4196997      0.898333368      -25.4196997      0.429273146      63.9323628       
764.2            0.437436036      63.4208338       0.894372875      -25.9386628      0.894372875      -25.9386628      0.437436036      63.4208338       
781.16           0.445510845      62.912357        0.89036543       -26.4542852      0.89036543       -26.4542852      0.445510845      62.912357        
798.12           0.453497234      62.4069719       0.88631293       -26.9665425      0.88631293       -26.9665425      0.453497234      62.4069719       
815.08           0.461394927      61.9047151       0.882217254      -27.4754125      0.882217254      -27.4754125      0.461394927      61.9047151       
832.04           0.46920371       61.4056199       0.878080261      -27.9808749      0.878080261      -27.9808749      0.46920371       61.4056199       
849              0.476923424      60.9097167       0.873903788      -28.4829113      0.873903788      -28.4829113      0.476923424      60.9097167       
865.96           0.484553973      60.417033        0.86968965       -28.9815054      0.86968965       -28.9815054      0.484553973      60.417033        
882.92           0.49209531       59.9275939       0.865439635      -29.4766426      0.865439635      -29.4766426      0.49209531       59.9275939       
899.88           0.499547445      59.4414217       0.861155509      -29.9683104      0.861155509      -29.9683104      0.499547445      59.4414217       
916.84           0.506910438      58.9585362       0.85683901       -30.4564978      0.85683901       -30.4564978      0.506910438      58.9585362       
933.8            0.514184401      58.4789549       0.852491845      -30.9411958      0.852491845      -30.9411958      0.514184401      58.4789549       
950.76           0.521369491      58.002693        0.848115698      -31.4223969      0.848115698      -31.4223969      0.521369491      58.002693        
967.72           0.528465913      57.5297637       0.843712217      -31.9000954      0.843712217      -31.9000954      0.528465913      57.5297637       
984.68           0.535473914      57.0601779       0.839283025      -32.3742872      0.839283025      -32.3742872      0.535473914      57.0601779       
1001.64          0.542393785      56.5939446       0.834829709      -32.8449696      0.834829709      -32.8449696      0.542393785      56.5939446       
1018.6           0.549225857      56.1310708       0.830353828      -33.3121417      0.830353828      -33.3121417      0.549225857      56.1310708       
1035.56          0.555970499      55.6715617       0.825856906      -33.7758038      0.825856906      -33.7758038      0.555970499      55.6715617       
1052.52          0.562628118      55.2154209       0.821340436      -34.2359577      0.821340436      -34.2359577      0.562628118      55.2154209       
1069.48          0.569199155      54.7626501       0.816805877      -34.6926066      0.816805877      -34.6926066      0.569199155      54.7626501       
1086.44          0.575684085      54.3132494       0.812254655      -35.145755       0.812254655      -35.145755       0.575684085      54.3132494       
1103.4           0.582083412      53.8672176       0.80768816       -35.5954086      0.80768816       -35.5954086      0.582083412      53.8672176       
1120.36          0.588397673      53.4245517       0.803107752      -36.0415745      0.803107752      -36.0415745      0.588397673      53.4245517       
1137.32          0.594627431      52.9852474       0.798514754      -36.4842608      0.798514754      -36.4842608      0.594627431      52.9852474       
1154.28          0.600773277      52.5492992       0.793910456      -36.9234767      0.793910456      -36.9234767      0.600773277      52.5492992       
1171.24          0.606835826      52.1167001       0.789296115      -37.3592327      0.789296115      -37.3592327      0.606835826      52.1167001       
1188.2           0.612815715      51.687442        0.784672952      -37.7915401      0.784672952      -37.7915401      0.612815715      51.687442        
1205.16          0.618713606      51.2615156       0.780042156      -38.2204113      0.780042156      -38.2204113      0.618713606      51.2615156       
1222.12          0.624530178      50.8389104       0.775404881      -38.6458596      0.775404881      -38.6458596      0.624530178      50.8389104       
1239.08          0.63026613       50.419615        0.77076225       -39.0678993      0.77076225       -39.0678993      0.63026613       50.419615        
1256.04          0.63592218       50.0036169       0.76611535       -39.4865453      0.76611535       -39.4865453      0.63592218       50.0036169       
1273             0.641499059      49.5909027       0.761465236      -39.9018137      0.761465236      -39.9018137      0.641499059      49.5909027       
1289.96          0.646997515      49.1814579       0.756812932      -40.313721       0.756812932      -40.313721       0.646997515      49.1814579       
1306.92          0.65241831       48.7752675       0.752159427      -40.7222847      0.752159427      -40.7222847      0.65241831       48.7752675       
1323.88          0.657762217      48.3723153       0.747505682      -41.1275228      0.747505682      -41.1275228      0.657762217      48.3723153       
1340.84          0.663030019      47.9725845       0.742852623      -41.5294542      0.742852623      -41.5294542      0.663030019      47.9725845       
1357.8           0.668222511      47.5760577       0.738201148      -41.9280981      0.738201148      -41.9280981      0.668222511      47.5760577       
1374.76          0.673340497      47.1827167       0.733552122      -42.3234745      0.733552122      -42.3234745      0.673340497      47.1827167       
1391.72          0.678384786      46.7925426       0.728906381      -42.7156038      0.728906381      -42.7156038      0.678384786      46.7925426       
1408.68          0.683356197      46.4055161       0.724264733      -43.1045072      0.724264733      -43.1045072      0.683356197      46.4055161       
1425.64          0.688255553      46.021617        0.719627956      -43.490206       0.719627956      -43.490206       0.688255553      46.021617        
1442.6           0.693083683      45.6408249       0.714996798      -43.8727221      0.714996798      -43.8727221      0.693083683      45.6408249       
1459.56          0.697841419      45.2631187       0.710371982      -44.252078       0.710371982      -44.252078       0.697841419      45.2631187       
1476.52          0.702529596      44.8884771       0.705754201      -44.6282962      0.705754201      -44.6282962      0.702529596      44.8884771       
1493.48          0.707149052      44.5168781       0.701144124      -45.0014         0.701144124      -45.0014         0.707149052      44.5168781       
1510.44          0.711700627      44.1482995       0.696542391      -45.3714126      0.696542391      -45.3714126      0.711700627      44.1482995       
1527.4           0.71618516       43.7827185       0.691949619      -45.7383577      0.691949619      -45.7383577      0.71618516       43.7827185       
1544.36          0.720603492      43.4201123       0.687366398      -46.1022594      0.687366398      -46.1022594      0.720603492      43.4201123       
1561.32          0.724956464      43.0604575       0.682793295      -46.4631417      0.682793295      -46.4631417      0.724956464      43.0604575       
1578.28          0.729244912      42.7037307       0.678230851      -46.8210292      0.678230851      -46.8210292      0.729244912      42.7037307       
1595.24          0.733469676      42.349908        0.673679587      -47.1759464      0.673679587      -47.1759464      0.733469676      42.349908        
1612.2           0.737631588      41.9989653       0.669139999      -47.5279182      0.669139999      -47.5279182      0.737631588      41.9989653       
1629.16          0.741731481      41.6508786       0.664612561      -47.8769694      0.664612561      -47.8769694      0.741731481      41.6508786       
1646.12          0.745770183      41.3056233       0.660097726      -48.2231251      0.660097726      -48.2231251      0.745770183      41.3056233       
1663.08          0.749748519      40.963175        0.655595925      -48.5664106      0.655595925      -48.5664106      0.749748519      40.963175        
1680.04          0.753667309      40.623509        0.651107571      -48.906851       0.651107571      -48.906851       0.753667309      40.623509        
1697             0.757527369      40.2866004       0.646633056      -49.2444718      0.646633056      -49.2444718      0.757527369      40.2866004       
1713.96          0.76132951       39.9524244       0.642172751      -49.5792982      0.642172751      -49.5792982      0.76132951       39.9524244       
1730.92          0.765074536      39.6209561       0.63772701       -49.9113558      0.63772701       -49.9113558      0.765074536      39.6209561       
1747.88          0.768763248      39.2921703       0.633296169      -50.2406699      0.633296169      -50.2406699      0.768763248      39.2921703       
1764.84          0.772396439      38.9660421       0.628880545      -50.5672661      0.628880545      -50.5672661      0.772396439      38.9660421       
1781.8           0.775974896      38.6425463       0.624480441      -50.8911697      0.624480441      -50.8911697      0.775974896      38.6425463       
1798.76          0.779499399      38.3216579       0.620096138      -51.2124062      0.620096138      -51.2124062      0.779499399      38.3216579       
1815.72          0.782970723      38.0033518       0.615727907      -51.531001       0.615727907      -51.531001       0.782970723      38.0033518       
1832.68          0.786389633      37.6876029       0.611375999      -51.8469793      0.611375999      -51.8469793      0.786389633      37.6876029       
1849.64          0.78975689       37.3743862       0.607040652      -52.1603665      0.607040652      -52.1603665      0.78975689       37.3743862       
1866.6           0.793073245      37.0636766       0.602722089      -52.4711877      0.602722089      -52.4711877      0.793073245      37.0636766       
1883.56          0.796339443      36.7554493       0.598420519      -52.779468       0.598420519      -52.779468       0.796339443      36.7554493       
1900.52          0.799556219      36.4496794       0.594136136      -53.0852324      0.594136136      -53.0852324      0.799556219      36.4496794       
1917.48          0.802724303      36.1463421       0.589869124      -53.3885059      0.589869124      -53.3885059      0.802724303      36.1463421       
1934.44          0.805844415      35.8454127       0.58561965       -53.6893131      0.58561965       -53.6893131      0.805844415      35.8454127       
1951.4           0.808917267      35.5468666       0.581387873      -53.9876788      0.581387873      -53.9876788      0.808917267      35.5468666       
1968.36          0.811943564      35.2506793       0.577173936      -54.2836275      0.577173936      -54.2836275      0.811943564      35.2506793       
1985.32          0.814924         34.9568264       0.572977975      -54.5771835      0.572977975      -54.5771835      0.814924         34.9568264       
2002.28          0.817859264      34.6652836       0.56880011       -54.8683711      0.56880011       -54.8683711      0.817859264      34.6652836       
2019.24          0.820750034      34.3760269       0.564640455      -55.1572144      0.564640455      -55.1572144      0.820750034      34.3760269       
2036.2           0.823596981      34.0890323       0.560499111      -55.4437372      0.560499111      -55.4437372      0.823596981      34.0890323       
2053.16          0.826400766      33.8042758       0.556376169      -55.7279634      0.556376169      -55.7279634      0.826400766      33.8042758       
2070.12          0.829162043      33.5217338       0.552271712      -56.0099164      0.552271712      -56.0099164      0.829162043      33.5217338       
2087.08          0.831881457      33.2413828       0.548185812      -56.2896197      0.548185812      -56.2896197      0.831881457      33.2413828       
2104.04          0.834559642      32.9631994       0.544118535      -56.5670965      0.544118535      -56.5670965      0.834559642      32.9631994       
2121             0.837197228      32.6871603       0.540069936      -56.8423699      0.540069936      -56.8423699      0.837197228      32.6871603       
2137.96          0.839794832      32.4132426       0.536040062      -57.1154625      0.536040062      -57.1154625      0.839794832      32.4132426       
2154.92          0.842353065      32.1414232       0.532028952      -57.3863971      0.532028952      -57.3863971      0.842353065      32.1414232       
