! Coilcraft 1008HQ-68N Chip Inductor				
! 10 July 2002			
# MHZ S MA R 50
!Freq             MagS11           AngS11           MagS21           AngS21           MagS12           AngS12           MagS22           AngS22
1                0.00472917943    64.1237638       0.997945122      -0.244297804     0.997945122      -0.244297804     0.00472917943    64.1237638       
5.74             0.024635942      81.4024109       0.996614816      -1.40055375      0.996614816      -1.40055375      0.024635942      81.4024109       
10.48            0.0447220722     82.6862316       0.995295715      -2.55439685      0.995295715      -2.55439685      0.0447220722     82.6862316       
15.22            0.0647619096     82.5762919       0.993709646      -3.7053552       0.993709646      -3.7053552       0.0647619096     82.5762919       
19.96            0.0847208934     82.025506        0.991801688      -4.85274619      0.991801688      -4.85274619      0.0847208934     82.025506        
24.7             0.104574658      81.276391        0.989552715      -5.99583489      0.989552715      -5.99583489      0.104574658      81.276391        
29.44            0.124301258      80.4213488       0.986956437      -7.13387307      0.986956437      -7.13387307      0.124301258      80.4213488       
34.18            0.143879931      79.5040548       0.984012901      -8.2661161       0.984012901      -8.2661161       0.143879931      79.5040548       
38.92            0.163290851      78.548225        0.980725938      -9.39183264      0.980725938      -9.39183264      0.163290851      78.548225        
43.66            0.182515112      77.5680738       0.977101959      -10.5103111      0.977101959      -10.5103111      0.182515112      77.5680738       
48.4             0.201534773      76.5727834       0.973149269      -11.6208645      0.973149269      -11.6208645      0.201534773      76.5727834       
53.14            0.220332917      75.5686466       0.968877654      -12.722834       0.968877654      -12.722834       0.220332917      75.5686466       
57.88            0.238893704      74.5601875       0.964298081      -13.8155918      0.964298081      -13.8155918      0.238893704      74.5601875       
62.62            0.257202422      73.5507886       0.959422472      -14.8985437      0.959422472      -14.8985437      0.257202422      73.5507886       
67.36            0.275245519      72.5430612       0.954263524      -15.9711307      0.954263524      -15.9711307      0.275245519      72.5430612       
72.1             0.293010632      71.5390751       0.948834551      -17.0328305      0.948834551      -17.0328305      0.293010632      71.5390751       
76.84            0.310486598      70.5405057       0.943149346      -18.0831585      0.943149346      -18.0831585      0.310486598      70.5405057       
81.58            0.327663459      69.548732        0.937222056      -19.1216682      0.937222056      -19.1216682      0.327663459      69.548732        
86.32            0.344532451      68.5649038       0.93106707       -20.1479517      0.93106707       -20.1479517      0.344532451      68.5649038       
91.06            0.361085994      67.5899885       0.924698914      -21.1616399      0.924698914      -21.1616399      0.361085994      67.5899885       
95.8             0.37731766       66.6248053       0.918132156      -22.1624016      0.918132156      -22.1624016      0.37731766       66.6248053       
100.54           0.393222145      65.6700504       0.911381321      -23.1499434      0.911381321      -23.1499434      0.393222145      65.6700504       
105.28           0.408795229      64.7263156       0.904460812      -24.124009       0.904460812      -24.124009       0.408795229      64.7263156       
110.02           0.424033727      63.7941035       0.897384839      -25.0843778      0.897384839      -25.0843778      0.424033727      63.7941035       
114.76           0.438935449      62.8738385       0.890167355      -26.0308643      0.890167355      -26.0308643      0.438935449      62.8738385       
119.5            0.453499138      61.9658764       0.882822006      -26.9633164      0.882822006      -26.9633164      0.453499138      61.9658764       
124.24           0.467724419      61.070512        0.875362076      -27.8816143      0.875362076      -27.8816143      0.467724419      61.070512        
128.98           0.481611741      60.187986        0.867800452      -28.7856689      0.867800452      -28.7856689      0.481611741      60.187986        
133.72           0.495162318      59.3184896       0.860149587      -29.6754202      0.860149587      -29.6754202      0.495162318      59.3184896       
138.46           0.508378071      58.4621704       0.852421471      -30.5508357      0.852421471      -30.5508357      0.508378071      58.4621704       
143.2            0.521261569      57.6191357       0.844627612      -31.4119089      0.844627612      -31.4119089      0.521261569      57.6191357       
147.94           0.533815969      56.7894568       0.836779017      -32.2586576      0.836779017      -32.2586576      0.533815969      56.7894568       
152.68           0.546044965      55.973172        0.82888618       -33.091122       0.82888618       -33.091122       0.546044965      55.973172        
157.42           0.557952725      55.1702904       0.820959077      -33.9093634      0.820959077      -33.9093634      0.557952725      55.1702904       
162.16           0.569543846      54.3807936       0.813007162      -34.7134625      0.813007162      -34.7134625      0.569543846      54.3807936       
166.9            0.580823298      53.6046394       0.805039369      -35.5035176      0.805039369      -35.5035176      0.580823298      53.6046394       
171.64           0.59179638       52.8417634       0.797064114      -36.2796434      0.797064114      -36.2796434      0.59179638       52.8417634       
176.38           0.602468668      52.0920817       0.789089304      -37.041969       0.789089304      -37.041969       0.602468668      52.0920817       
181.12           0.61284598       51.3554926       0.781122346      -37.7906373      0.781122346      -37.7906373      0.61284598       51.3554926       
185.86           0.62293433       50.6318785       0.773170158      -38.5258027      0.773170158      -38.5258027      0.62293433       50.6318785       
190.6            0.632739895      49.921108        0.765239183      -39.2476306      0.765239183      -39.2476306      0.632739895      49.921108        
195.34           0.642268975      49.2230372       0.757335404      -39.9562955      0.757335404      -39.9562955      0.642268975      49.2230372       
200.08           0.651527969      48.5375111       0.749464359      -40.6519803      0.749464359      -40.6519803      0.651527969      48.5375111       
204.82           0.660523336      47.8643654       0.74163116       -41.3348751      0.74163116       -41.3348751      0.660523336      47.8643654       
209.56           0.669261579      47.2034275       0.733840509      -42.005176       0.733840509      -42.005176       0.669261579      47.2034275       
214.3            0.677749213      46.5545176       0.726096716      -42.6630844      0.726096716      -42.6630844      0.677749213      46.5545176       
219.04           0.685992746      45.91745         0.718403717      -43.3088057      0.718403717      -43.3088057      0.685992746      45.91745         
223.78           0.693998659      45.292034        0.710765094      -43.9425491      0.710765094      -43.9425491      0.693998659      45.292034        
228.52           0.701773392      44.6780749       0.703184091      -44.5645261      0.703184091      -44.5645261      0.701773392      44.6780749       
233.26           0.709323322      44.0753747       0.695663634      -45.1749505      0.695663634      -45.1749505      0.709323322      44.0753747       
238              0.716654754      43.4837328       0.688206348      -45.7740371      0.688206348      -45.7740371      0.716654754      43.4837328       
242.74           0.72377391       42.9029471       0.680814573      -46.3620017      0.680814573      -46.3620017      0.72377391       42.9029471       
247.48           0.730686915      42.3328142       0.673490385      -46.9390601      0.673490385      -46.9390601      0.730686915      42.3328142       
252.22           0.737399791      41.7731302       0.666235608      -47.5054279      0.666235608      -47.5054279      0.737399791      41.7731302       
256.96           0.743918447      41.223691        0.659051831      -48.0613198      0.659051831      -48.0613198      0.743918447      41.223691        
261.7            0.750248677      40.6842932       0.651940427      -48.6069495      0.651940427      -48.6069495      0.750248677      40.6842932       
266.44           0.756396151      40.1547339       0.644902562      -49.1425292      0.644902562      -49.1425292      0.756396151      40.1547339       
271.18           0.762366411      39.6348118       0.637939212      -49.6682691      0.637939212      -49.6682691      0.762366411      39.6348118       
275.92           0.768164871      39.1243268       0.631051179      -50.1843774      0.631051179      -50.1843774      0.768164871      39.1243268       
280.66           0.773796811      38.623081        0.624239097      -50.69106        0.624239097      -50.69106        0.773796811      38.623081        
285.4            0.779267378      38.1308781       0.61750345       -51.1885199      0.61750345       -51.1885199      0.779267378      38.1308781       
290.14           0.784581585      37.6475247       0.610844583      -51.6769579      0.610844583      -51.6769579      0.784581585      37.6475247       
294.88           0.789744308      37.1728296       0.60426271       -52.1565712      0.60426271       -52.1565712      0.789744308      37.1728296       
299.62           0.79476029       36.7066043       0.597757925      -52.6275543      0.597757925      -52.6275543      0.79476029       36.7066043       
304.36           0.799634136      36.2486633       0.591330214      -53.0900985      0.591330214      -53.0900985      0.799634136      36.2486633       
309.1            0.804370323      35.798824        0.584979461      -53.5443916      0.584979461      -53.5443916      0.804370323      35.798824        
313.84           0.808973192      35.3569069       0.578705461      -53.9906182      0.578705461      -53.9906182      0.808973192      35.3569069       
318.58           0.813446955      34.9227355       0.572507921      -54.4289593      0.572507921      -54.4289593      0.813446955      34.9227355       
323.32           0.817795697      34.4961368       0.566386476      -54.8595925      0.566386476      -54.8595925      0.817795697      34.4961368       
328.06           0.822023374      34.0769409       0.560340688      -55.2826919      0.560340688      -55.2826919      0.822023374      34.0769409       
332.8            0.826133823      33.6649814       0.554370058      -55.6984279      0.554370058      -55.6984279      0.826133823      33.6649814       
337.54           0.830130754      33.2600949       0.548474032      -56.1069674      0.548474032      -56.1069674      0.830130754      33.2600949       
342.28           0.834017765      32.8621218       0.542652001      -56.5084739      0.542652001      -56.5084739      0.834017765      32.8621218       
347.02           0.837798332      32.4709055       0.536903313      -56.903107       0.536903313      -56.903107       0.837798332      32.4709055       
351.76           0.841475822      32.086293        0.531227277      -57.2910231      0.531227277      -57.2910231      0.841475822      32.086293        
356.5            0.845053491      31.7081345       0.525623162      -57.6723749      0.525623162      -57.6723749      0.845053491      31.7081345       
361.24           0.848534488      31.3362837       0.520090208      -58.0473116      0.520090208      -58.0473116      0.848534488      31.3362837       
365.98           0.851921858      30.9705974       0.514627627      -58.4159789      0.514627627      -58.4159789      0.851921858      30.9705974       
370.72           0.855218543      30.6109358       0.509234604      -58.7785194      0.509234604      -58.7785194      0.855218543      30.6109358       
375.46           0.858427389      30.2571623       0.503910307      -59.135072       0.503910307      -59.135072       0.858427389      30.2571623       
380.2            0.861551145      29.9091435       0.498653883      -59.4857723      0.498653883      -59.4857723      0.861551145      29.9091435       
384.94           0.864592469      29.5667491       0.493464466      -59.8307528      0.493464466      -59.8307528      0.864592469      29.5667491       
389.68           0.867553927      29.2298521       0.488341177      -60.1701426      0.488341177      -60.1701426      0.867553927      29.2298521       
394.42           0.870438001      28.8983283       0.483283127      -60.5040679      0.483283127      -60.5040679      0.870438001      28.8983283       
399.16           0.873247087      28.5720566       0.478289421      -60.8326514      0.478289421      -60.8326514      0.873247087      28.5720566       
403.9            0.8759835        28.250919        0.473359155      -61.1560132      0.473359155      -61.1560132      0.8759835        28.250919        
408.64           0.878649476      27.9348001       0.468491424      -61.47427        0.468491424      -61.47427        0.878649476      27.9348001       
413.38           0.881247177      27.6235876       0.46368532       -61.7875359      0.46368532       -61.7875359      0.881247177      27.6235876       
418.12           0.883778689      27.3171718       0.458939935      -62.095922       0.458939935      -62.095922       0.883778689      27.3171718       
422.86           0.886246029      27.0154459       0.454254361      -62.3995366      0.454254361      -62.3995366      0.886246029      27.0154459       
427.6            0.888651143      26.7183055       0.449627693      -62.6984852      0.449627693      -62.6984852      0.888651143      26.7183055       
432.34           0.890995912      26.4256491       0.44505903       -62.9928707      0.44505903       -62.9928707      0.890995912      26.4256491       
437.08           0.893282154      26.1373776       0.440547473      -63.2827935      0.440547473      -63.2827935      0.893282154      26.1373776       
441.82           0.895511625      25.8533943       0.436092132      -63.5683512      0.436092132      -63.5683512      0.895511625      25.8533943       
446.56           0.897686019      25.573605        0.431692119      -63.849639       0.431692119      -63.849639       0.897686019      25.573605        
451.3            0.899806976      25.2979181       0.427346557      -64.1267499      0.427346557      -64.1267499      0.899806976      25.2979181       
456.04           0.901876078      25.0262439       0.423054574      -64.3997742      0.423054574      -64.3997742      0.901876078      25.0262439       
460.78           0.903894855      24.7584953       0.418815307      -64.6687999      0.418815307      -64.6687999      0.903894855      24.7584953       
465.52           0.905864785      24.4945873       0.414627903      -64.9339131      0.414627903      -64.9339131      0.905864785      24.4945873       
470.26           0.907787295      24.2344368       0.410491516      -65.1951973      0.410491516      -65.1951973      0.907787295      24.2344368       
475              0.909663766      23.9779632       0.406405312      -65.4527341      0.406405312      -65.4527341      0.909663766      23.9779632       
479.74           0.911495532      23.7250877       0.402368467      -65.7066028      0.402368467      -65.7066028      0.911495532      23.7250877       
484.48           0.913283882      23.4757336       0.398380165      -65.956881       0.398380165      -65.956881       0.913283882      23.4757336       
489.22           0.915030062      23.2298259       0.394439603      -66.203644       0.394439603      -66.203644       0.915030062      23.2298259       
493.96           0.916735277      22.9872918       0.390545989      -66.4469653      0.390545989      -66.4469653      0.916735277      22.9872918       
498.7            0.918400691      22.7480601       0.386698541      -66.6869165      0.386698541      -66.6869165      0.918400691      22.7480601       
503.44           0.920027432      22.5120616       0.382896489      -66.9235675      0.382896489      -66.9235675      0.920027432      22.5120616       
508.18           0.921616588      22.2792286       0.379139073      -67.1569862      0.379139073      -67.1569862      0.921616588      22.2792286       
512.92           0.923169213      22.0494952       0.375425546      -67.3872389      0.375425546      -67.3872389      0.923169213      22.0494952       
517.66           0.924686324      21.8227972       0.371755173      -67.6143903      0.371755173      -67.6143903      0.924686324      21.8227972       
522.4            0.926168909      21.5990719       0.368127228      -67.8385032      0.368127228      -67.8385032      0.926168909      21.5990719       
527.14           0.92761792       21.3782584       0.364541         -68.0596391      0.364541         -68.0596391      0.92761792       21.3782584       
531.88           0.929034279      21.1602969       0.360995786      -68.2778578      0.360995786      -68.2778578      0.929034279      21.1602969       
536.62           0.930418879      20.9451295       0.357490898      -68.4932175      0.357490898      -68.4932175      0.930418879      20.9451295       
541.36           0.931772584      20.7326994       0.354025657      -68.7057751      0.354025657      -68.7057751      0.931772584      20.7326994       
546.1            0.93309623       20.5229515       0.350599397      -68.915586       0.350599397      -68.915586       0.93309623       20.5229515       
550.84           0.934390627      20.3158317       0.347211463      -69.1227042      0.347211463      -69.1227042      0.934390627      20.3158317       
555.58           0.935656557      20.1112877       0.34386121       -69.3271824      0.34386121       -69.3271824      0.935656557      20.1112877       
560.32           0.936894779      19.909268        0.340548007      -69.5290719      0.340548007      -69.5290719      0.936894779      19.909268        
565.06           0.938106028      19.7097227       0.33727123       -69.7284228      0.33727123       -69.7284228      0.938106028      19.7097227       
569.8            0.939291016      19.5126029       0.334030272      -69.9252838      0.334030272      -69.9252838      0.939291016      19.5126029       
574.54           0.940450431      19.317861        0.33082453       -70.1197026      0.33082453       -70.1197026      0.940450431      19.317861        
579.28           0.94158494       19.1254506       0.327653418      -70.3117256      0.327653418      -70.3117256      0.94158494       19.1254506       
584.02           0.942695191      18.9353263       0.324516356      -70.5013981      0.324516356      -70.5013981      0.942695191      18.9353263       
588.76           0.94378181       18.7474437       0.321412778      -70.6887643      0.321412778      -70.6887643      0.94378181       18.7474437       
593.5            0.944845405      18.5617598       0.318342125      -70.8738671      0.318342125      -70.8738671      0.944845405      18.5617598       
598.24           0.945886563      18.3782324       0.315303852      -71.0567486      0.315303852      -71.0567486      0.945886563      18.3782324       
602.98           0.946905856      18.1968203       0.312297421      -71.2374498      0.312297421      -71.2374498      0.946905856      18.1968203       
