! Coilcraft 1008HQ-22N Chip Inductor				
! 10 July 2002			
# MHZ S MA R 50
!Freq             MagS11           AngS11           MagS21           AngS21           MagS12           AngS12           MagS22           AngS22
1                0.00170965787    53.7935883       0.998991064      -0.0791201276    0.998991064      -0.0791201276    0.00170965787    53.7935883       
9.23             0.0128415107     81.9509742       0.998282905      -0.729788887     0.998282905      -0.729788887     0.0128415107     81.9509742       
17.46            0.0241628304     83.903784        0.997723275      -1.37987388      0.997723275      -1.37987388      0.0241628304     83.903784        
25.69            0.03548398       84.3190804       0.997112887      -2.02937911      0.997112887      -2.02937911      0.03548398       84.3190804       
33.92            0.0467932548     84.2699324       0.996416455      -2.67822888      0.996416455      -2.67822888      0.0467932548     84.2699324       
42.15            0.0580852976     84.0141172       0.995620025      -3.3263259       0.995620025      -3.3263259       0.0580852976     84.0141172       
50.38            0.0693559848     83.6469859       0.994716656      -3.97356343      0.994716656      -3.97356343      0.0693559848     83.6469859       
58.61            0.0806015743     83.2126054       0.99370254       -4.61982996      0.99370254       -4.61982996      0.0806015743     83.2126054       
66.84            0.091818484      82.7343922       0.992575546      -5.26501155      0.992575546      -5.26501155      0.091818484      82.7343922       
75.07            0.103003222      82.2260548       0.991334554      -5.90899306      0.991334554      -5.90899306      0.103003222      82.2260548       
83.3             0.114152364      81.6962155       0.989979109      -6.5516591       0.989979109      -6.5516591       0.114152364      81.6962155       
91.53            0.125262545      81.1506077       0.988509233      -7.19289454      0.988509233      -7.19289454      0.125262545      81.1506077       
99.76            0.136330457      80.5932186       0.986925301      -7.832585        0.986925301      -7.832585        0.136330457      80.5932186       
107.99           0.147352857      80.026925        0.985227967      -8.47061717      0.985227967      -8.47061717      0.147352857      80.026925        
116.22           0.158326567      79.4538689       0.983418115      -9.10687911      0.983418115      -9.10687911      0.158326567      79.4538689       
124.45           0.169248478      78.8756878       0.98149682       -9.74126047      0.98149682       -9.74126047      0.169248478      78.8756878       
132.68           0.180115554      78.2936637       0.979465319      -10.3736527      0.979465319      -10.3736527      0.180115554      78.2936637       
140.91           0.190924839      77.7088207       0.977324996      -11.0039493      0.977324996      -11.0039493      0.190924839      77.7088207       
149.14           0.201673454      77.1219924       0.97507736       -11.6320458      0.97507736       -11.6320458      0.201673454      77.1219924       
157.37           0.21235861       76.533868        0.972724035      -12.2578401      0.972724035      -12.2578401      0.21235861       76.533868        
165.6            0.222977603      75.9450258       0.970266745      -12.8812325      0.970266745      -12.8812325      0.222977603      75.9450258       
173.83           0.233527819      75.3559578       0.96770731       -13.5021258      0.96770731       -13.5021258      0.233527819      75.3559578       
182.06           0.244006739      74.7670867       0.96504763       -14.1204253      0.96504763       -14.1204253      0.244006739      74.7670867       
190.29           0.25441194       74.1787804       0.96228968       -14.7360393      0.96228968       -14.7360393      0.25441194       74.1787804       
198.52           0.264741095      73.5913613       0.959435507      -15.3488786      0.959435507      -15.3488786      0.264741095      73.5913613       
206.75           0.274991977      73.0051146       0.956487215      -15.958857       0.956487215      -15.958857       0.274991977      73.0051146       
214.98           0.285162458      72.4202947       0.953446964      -16.5658913      0.953446964      -16.5658913      0.285162458      72.4202947       
223.21           0.295250514      71.8371294       0.950316964      -17.169901       0.950316964      -17.169901       0.295250514      71.8371294       
231.44           0.30525422       71.2558243       0.947099467      -17.7708088      0.947099467      -17.7708088      0.30525422       71.2558243       
239.67           0.315171757      70.6765656       0.94379676       -18.3685405      0.94379676       -18.3685405      0.315171757      70.6765656       
247.9            0.325001407      70.0995228       0.940411165      -18.9630248      0.940411165      -18.9630248      0.325001407      70.0995228       
256.13           0.334741554      69.5248507       0.936945029      -19.5541935      0.936945029      -19.5541935      0.334741554      69.5248507       
264.36           0.344390686      68.9526909       0.933400723      -20.1419818      0.933400723      -20.1419818      0.344390686      68.9526909       
272.59           0.353947393      68.3831735       0.929780631      -20.7263275      0.929780631      -20.7263275      0.353947393      68.3831735       
280.82           0.363410364      67.8164181       0.926087155      -21.3071719      0.926087155      -21.3071719      0.363410364      67.8164181       
289.05           0.372778391      67.2525347       0.922322701      -21.8844592      0.922322701      -21.8844592      0.372778391      67.2525347       
297.28           0.382050363      66.691625        0.918489682      -22.4581369      0.918489682      -22.4581369      0.382050363      66.691625        
305.51           0.391225267      66.1337824       0.914590509      -23.0281551      0.914590509      -23.0281551      0.391225267      66.1337824       
313.74           0.400302188      65.5790932       0.91062759       -23.5944675      0.91062759       -23.5944675      0.400302188      65.5790932       
321.97           0.409280303      65.0276371       0.906603327      -24.1570304      0.906603327      -24.1570304      0.409280303      65.0276371       
330.2            0.418158883      64.4794872       0.90252011       -24.7158032      0.90252011       -24.7158032      0.418158883      64.4794872       
338.43           0.426937288      63.934711        0.898380315      -25.2707483      0.898380315      -25.2707483      0.426937288      63.934711        
346.66           0.43561497       63.3933704       0.894186302      -25.8218308      0.894186302      -25.8218308      0.43561497       63.3933704       
354.89           0.444191463      62.8555221       0.889940411      -26.3690187      0.889940411      -26.3690187      0.444191463      62.8555221       
363.12           0.452666387      62.321218        0.885644958      -26.912283       0.885644958      -26.912283       0.452666387      62.321218        
371.35           0.461039446      61.7905054       0.881302235      -27.4515971      0.881302235      -27.4515971      0.461039446      61.7905054       
379.58           0.469310419      61.2634273       0.876914506      -27.9869374      0.876914506      -27.9869374      0.469310419      61.2634273       
387.81           0.477479164      60.7400223       0.872484005      -28.5182825      0.872484005      -28.5182825      0.477479164      60.7400223       
396.04           0.485545614      60.2203255       0.868012936      -29.0456141      0.868012936      -29.0456141      0.485545614      60.2203255       
404.27           0.49350977       59.704368        0.863503467      -29.5689158      0.863503467      -29.5689158      0.49350977       59.704368        
412.5            0.501371707      59.1921773       0.858957732      -30.0881741      0.858957732      -30.0881741      0.501371707      59.1921773       
420.73           0.509131561      58.6837777       0.854377827      -30.6033777      0.854377827      -30.6033777      0.509131561      58.6837777       
428.96           0.516789535      58.1791903       0.849765812      -31.1145174      0.849765812      -31.1145174      0.516789535      58.1791903       
437.19           0.524345892      57.678433        0.845123703      -31.6215865      0.845123703      -31.6215865      0.524345892      57.678433        
445.42           0.531800953      57.1815207       0.84045348       -32.1245804      0.84045348       -32.1245804      0.531800953      57.1815207       
453.65           0.539155093      56.6884658       0.83575708       -32.6234963      0.83575708       -32.6234963      0.539155093      56.6884658       
461.88           0.546408744      56.1992777       0.831036396      -33.1183339      0.831036396      -33.1183339      0.546408744      56.1992777       
470.11           0.553562385      55.7139636       0.826293278      -33.6090944      0.826293278      -33.6090944      0.553562385      55.7139636       
478.34           0.560616542      55.232528        0.821529535      -34.095781       0.821529535      -34.095781       0.560616542      55.232528        
486.57           0.567571789      54.7549731       0.816746928      -34.5783989      0.816746928      -34.5783989      0.567571789      54.7549731       
494.8            0.574428741      54.2812992       0.811947175      -35.0569547      0.811947175      -35.0569547      0.574428741      54.2812992       
503.03           0.581188054      53.8115042       0.807131951      -35.531457       0.807131951      -35.531457       0.581188054      53.8115042       
511.26           0.58785042       53.3455841       0.802302883      -36.0019156      0.802302883      -36.0019156      0.58785042       53.3455841       
519.49           0.594416569      52.8835331       0.797461554      -36.4683422      0.797461554      -36.4683422      0.594416569      52.8835331       
527.72           0.600887262      52.4253435       0.792609502      -36.9307497      0.792609502      -36.9307497      0.600887262      52.4253435       
535.95           0.607263293      51.9710059       0.787748221      -37.3891525      0.787748221      -37.3891525      0.607263293      51.9710059       
544.18           0.613545482      51.5205092       0.782879158      -37.8435663      0.782879158      -37.8435663      0.613545482      51.5205092       
552.41           0.619734677      51.073841        0.778003717      -38.2940081      0.778003717      -38.2940081      0.619734677      51.073841        
560.64           0.625831752      50.6309872       0.773123257      -38.7404959      0.773123257      -38.7404959      0.625831752      50.6309872       
568.87           0.631837601      50.1919326       0.768239095      -39.1830491      0.768239095      -39.1830491      0.631837601      50.1919326       
577.1            0.63775314       49.7566603       0.763352503      -39.6216879      0.763352503      -39.6216879      0.63775314       49.7566603       
585.33           0.643579304      49.3251526       0.75846471       -40.0564338      0.75846471       -40.0564338      0.643579304      49.3251526       
593.56           0.649317044      48.8973903       0.753576903      -40.487309       0.753576903      -40.487309       0.649317044      48.8973903       
601.79           0.654967327      48.4733533       0.748690227      -40.9143368      0.748690227      -40.9143368      0.654967327      48.4733533       
610.02           0.660531133      48.0530206       0.743805786      -41.3375411      0.743805786      -41.3375411      0.660531133      48.0530206       
618.25           0.666009454      47.6363699       0.738924645      -41.7569469      0.738924645      -41.7569469      0.666009454      47.6363699       
626.48           0.671403294      47.2233783       0.734047827      -42.1725797      0.734047827      -42.1725797      0.671403294      47.2233783       
634.71           0.676713663      46.8140219       0.729176316      -42.5844658      0.729176316      -42.5844658      0.676713663      46.8140219       
642.94           0.681941583      46.4082761       0.72431106       -42.992632       0.72431106       -42.992632       0.681941583      46.4082761       
651.17           0.687088078      46.0061156       0.719452968      -43.3971058      0.719452968      -43.3971058      0.687088078      46.0061156       
659.4            0.69215418       45.6075144       0.714602911      -43.7979153      0.714602911      -43.7979153      0.69215418       45.6075144       
667.63           0.697140923      45.2124458       0.709761726      -44.195089       0.709761726      -44.195089       0.697140923      45.2124458       
675.86           0.702049345      44.8208826       0.704930213      -44.588656       0.704930213      -44.588656       0.702049345      44.8208826       
684.09           0.706880484      44.4327971       0.70010914       -44.9786455      0.70010914       -44.9786455      0.706880484      44.4327971       
692.32           0.711635381      44.0481611       0.695299239      -45.3650875      0.695299239      -45.3650875      0.711635381      44.0481611       
700.55           0.716315075      43.666946        0.690501212      -45.7480121      0.690501212      -45.7480121      0.716315075      43.666946        
708.78           0.720920603      43.2891226       0.685715726      -46.1274496      0.685715726      -46.1274496      0.720920603      43.2891226       
717.01           0.725453002      42.9146617       0.680943419      -46.5034308      0.680943419      -46.5034308      0.725453002      42.9146617       
725.24           0.729913305      42.5435334       0.6761849        -46.8759867      0.6761849        -46.8759867      0.729913305      42.5435334       
733.47           0.734302541      42.1757078       0.671440745      -47.2451484      0.671440745      -47.2451484      0.734302541      42.1757078       
741.7            0.738621734      41.8111547       0.666711504      -47.6109473      0.666711504      -47.6109473      0.738621734      41.8111547       
749.93           0.742871904      41.4498434       0.661997699      -47.9734147      0.661997699      -47.9734147      0.742871904      41.4498434       
758.16           0.747054065      41.0917435       0.657299825      -48.3325823      0.657299825      -48.3325823      0.747054065      41.0917435       
766.39           0.751169225      40.736824        0.652618351      -48.6884818      0.652618351      -48.6884818      0.751169225      40.736824        
774.62           0.755218383      40.3850541       0.647953721      -49.041145       0.647953721      -49.041145       0.755218383      40.3850541       
782.85           0.759202534      40.0364027       0.643306353      -49.3906034      0.643306353      -49.3906034      0.759202534      40.0364027       
791.08           0.763122663      39.6908386       0.638676642      -49.7368891      0.638676642      -49.7368891      0.763122663      39.6908386       
799.31           0.766979747      39.3483308       0.634064962      -50.0800338      0.634064962      -50.0800338      0.766979747      39.3483308       
807.54           0.770774754      39.0088479       0.629471662      -50.4200691      0.629471662      -50.4200691      0.770774754      39.0088479       
815.77           0.774508644      38.6723588       0.624897071      -50.757027       0.624897071      -50.757027       0.774508644      38.6723588       
824              0.778182368      38.3388324       0.620341496      -51.0909389      0.620341496      -51.0909389      0.778182368      38.3388324       
832.23           0.781796864      38.0082374       0.615805226      -51.4218365      0.615805226      -51.4218365      0.781796864      38.0082374       
840.46           0.785353065      37.6805428       0.611288529      -51.7497512      0.611288529      -51.7497512      0.785353065      37.6805428       
848.69           0.78885189       37.3557175       0.606791656      -52.0747144      0.606791656      -52.0747144      0.78885189       37.3557175       
856.92           0.792294249      37.0337305       0.602314837      -52.3967572      0.602314837      -52.3967572      0.792294249      37.0337305       
865.15           0.795681042      36.7145511       0.597858287      -52.7159109      0.597858287      -52.7159109      0.795681042      36.7145511       
873.38           0.799013156      36.3981485       0.593422205      -53.0322062      0.593422205      -53.0322062      0.799013156      36.3981485       
881.61           0.80229147       36.0844921       0.589006771      -53.3456739      0.589006771      -53.3456739      0.80229147       36.0844921       
889.84           0.805516851      35.7735514       0.584612153      -53.6563446      0.584612153      -53.6563446      0.805516851      35.7735514       
898.07           0.808690153      35.4652962       0.580238501      -53.9642486      0.580238501      -53.9642486      0.808690153      35.4652962       
906.3            0.81181222       35.1596963       0.575885953      -54.2694161      0.575885953      -54.2694161      0.81181222       35.1596963       
914.53           0.814883887      34.8567217       0.571554632      -54.571877       0.571554632      -54.571877       0.814883887      34.8567217       
922.76           0.817905973      34.5563427       0.567244648      -54.8716611      0.567244648      -54.8716611      0.817905973      34.5563427       
930.99           0.820879289      34.2585298       0.562956097      -55.1687977      0.562956097      -55.1687977      0.820879289      34.2585298       
939.22           0.823804634      33.9632534       0.558689067      -55.4633162      0.558689067      -55.4633162      0.823804634      33.9632534       
947.45           0.826682795      33.6704846       0.554443629      -55.7552456      0.554443629      -55.7552456      0.826682795      33.6704846       
955.68           0.829514547      33.3801943       0.550219847      -56.0446145      0.550219847      -56.0446145      0.829514547      33.3801943       
963.91           0.832300655      33.0923538       0.546017771      -56.3314515      0.546017771      -56.3314515      0.832300655      33.0923538       
972.14           0.835041871      32.8069347       0.541837444      -56.6157848      0.541837444      -56.6157848      0.835041871      32.8069347       
980.37           0.837738937      32.5239086       0.537678897      -56.8976423      0.537678897      -56.8976423      0.837738937      32.5239086       
988.6            0.840392583      32.2432477       0.533542152      -57.1770517      0.533542152      -57.1770517      0.840392583      32.2432477       
996.83           0.843003528      31.9649241       0.529427222      -57.4540403      0.529427222      -57.4540403      0.843003528      31.9649241       
1005.06          0.845572478      31.6889104       0.525334111      -57.7286353      0.525334111      -57.7286353      0.845572478      31.6889104       
1013.29          0.848100131      31.4151793       0.521262817      -58.0008635      0.521262817      -58.0008635      0.848100131      31.4151793       
1021.52          0.850587171      31.1437038       0.517213327      -58.2707513      0.517213327      -58.2707513      0.850587171      31.1437038       
1029.75          0.853034273      30.8744572       0.513185622      -58.538325       0.513185622      -58.538325       0.853034273      30.8744572       
1037.98          0.8554421        30.607413        0.509179678      -58.8036106      0.509179678      -58.8036106      0.8554421        30.607413        
1046.21          0.857811304      30.3425451       0.505195459      -59.0666336      0.505195459      -59.0666336      0.857811304      30.3425451       
