! Coilcraft 1008HQ-47N Chip Inductor				
! 10 July 2002			
# MHZ S MA R 50
!Freq             MagS11           AngS11           MagS21           AngS21           MagS12           AngS12           MagS22           AngS22
1                0.00343224117    59.0225          0.998237758      -0.168902116     0.998237758      -0.168902116     0.00343224117    59.0225          
6.98             0.020726666      81.4085266       0.997114314      -1.17770571      0.997114314      -1.17770571      0.020726666      81.4085266       
12.96            0.0382578929     83.006496        0.996065936      -2.18482974      0.996065936      -2.18482974      0.0382578929     83.006496        
18.94            0.0557653427     83.0848312       0.99482738       -3.19001595      0.99482738       -3.19001595      0.0557653427     83.0848312       
24.92            0.073221454      82.6953536       0.993348826      -4.19283555      0.993348826      -4.19283555      0.073221454      82.6953536       
30.9             0.0906090285     82.0973582       0.991611963      -5.19281582      0.991611963      -5.19281582      0.0906090285     82.0973582       
36.88            0.107913079      81.3879512       0.989609377      -6.18946917      0.989609377      -6.18946917      0.107913079      81.3879512       
42.86            0.125119495      80.6124431       0.987338838      -7.18230525      0.987338838      -7.18230525      0.125119495      80.6124431       
48.84            0.142214741      79.7951527       0.984801111      -8.17083743      0.984801111      -8.17083743      0.142214741      79.7951527       
54.82            0.15918578       78.9504868       0.981998934      -9.15458713      0.981998934      -9.15458713      0.15918578       78.9504868       
60.8             0.176020088      78.0876398       0.978936465      -10.1330868      0.978936465      -10.1330868      0.176020088      78.0876398       
66.78            0.19270567       77.2128339       0.975618962      -11.1058822      0.975618962      -11.1058822      0.19270567       77.2128339       
72.76            0.209231095      76.3304859       0.972052558      -12.0725346      0.972052558      -12.0725346      0.209231095      76.3304859       
78.74            0.225585526      75.4438574       0.968244114      -13.0326216      0.968244114      -13.0326216      0.225585526      75.4438574       
84.72            0.241758746      74.5554384       0.964201094      -13.9857394      0.964201094      -13.9857394      0.241758746      74.5554384       
90.7             0.25774118       73.6671835       0.959931468      -14.931503       0.959931468      -14.931503       0.25774118       73.6671835       
96.68            0.273523914      72.7806635       0.95544363       -15.8695474      0.95544363       -15.8695474      0.273523914      72.7806635       
102.66           0.289098705      71.8971659       0.950746322      -16.7995283      0.950746322      -16.7995283      0.289098705      71.8971659       
108.64           0.304457991      71.017763        0.94584857       -17.7211224      0.94584857       -17.7211224      0.304457991      71.017763        
114.62           0.319594893      70.1433598       0.94075962       -18.634028       0.94075962       -18.634028       0.319594893      70.1433598       
120.6            0.334503215      69.2747283       0.935488882      -19.5379652      0.935488882      -19.5379652      0.334503215      69.2747283       
126.58           0.349177435      68.4125321       0.930045878      -20.4326754      0.930045878      -20.4326754      0.349177435      68.4125321       
132.56           0.363612702      67.5573451       0.924440192      -21.3179221      0.924440192      -21.3179221      0.363612702      67.5573451       
138.54           0.377804815      66.7096656       0.918681428      -22.1934902      0.918681428      -22.1934902      0.377804815      66.7096656       
144.52           0.391750213      65.8699273       0.91277916       -23.0591858      0.91277916       -23.0591858      0.391750213      65.8699273       
150.5            0.405445954      65.0385075       0.906742905      -23.9148359      0.906742905      -23.9148359      0.405445954      65.0385075       
156.48           0.418889692      64.2157342       0.900582077      -24.760288       0.900582077      -24.760288       0.418889692      64.2157342       
162.46           0.432079657      63.4018915       0.894305962      -25.5954095      0.894305962      -25.5954095      0.432079657      63.4018915       
168.44           0.445014627      62.5972243       0.887923683      -26.4200871      0.887923683      -26.4200871      0.445014627      62.5972243       
174.42           0.457693904      61.801942        0.881444182      -27.2342262      0.881444182      -27.2342262      0.457693904      61.801942        
180.4            0.470117284      61.0162222       0.87487619       -28.0377501      0.87487619       -28.0377501      0.470117284      61.0162222       
186.38           0.48228503       60.2402129       0.868228211      -28.8305997      0.868228211      -28.8305997      0.48228503       60.2402129       
192.36           0.494197844      59.4740357       0.861508505      -29.612732       0.861508505      -29.612732       0.494197844      59.4740357       
198.34           0.505856835      58.7177874       0.854725072      -30.3841201      0.854725072      -30.3841201      0.505856835      58.7177874       
204.32           0.517263495      57.9715426       0.847885642      -31.1447517      0.847885642      -31.1447517      0.517263495      57.9715426       
210.3            0.528419667      57.235355        0.840997664      -31.894629       0.840997664      -31.894629       0.528419667      57.235355        
216.28           0.539327516      56.5092593       0.834068301      -32.6337672      0.834068301      -32.6337672      0.539327516      56.5092593       
222.26           0.549989505      55.7932728       0.827104422      -33.3621943      0.827104422      -33.3621943      0.549989505      55.7932728       
228.24           0.560408364      55.0873967       0.820112602      -34.0799498      0.820112602      -34.0799498      0.560408364      55.0873967       
234.22           0.570587069      54.3916172       0.813099118      -34.7870843      0.813099118      -34.7870843      0.570587069      54.3916172       
240.2            0.58052881       53.7059073       0.806069951      -35.4836585      0.806069951      -35.4836585      0.58052881       53.7059073       
246.18           0.590236974      53.0302274       0.799030789      -36.1697425      0.799030789      -36.1697425      0.590236974      53.0302274       
252.16           0.599715118      52.3645263       0.791987024      -36.8454151      0.791987024      -36.8454151      0.599715118      52.3645263       
258.14           0.60896695       51.708743        0.784943763      -37.510763       0.784943763      -37.510763       0.60896695       51.708743        
264.12           0.617996304      51.0628065       0.77790583       -38.1658803      0.77790583       -38.1658803      0.617996304      51.0628065       
270.1            0.626807126      50.4266377       0.77087777       -38.8108677      0.77087777       -38.8108677      0.626807126      50.4266377       
276.08           0.635403452      49.8001496       0.763863859      -39.4458317      0.763863859      -39.4458317      0.635403452      49.8001496       
282.06           0.643789392      49.1832483       0.756868112      -40.0708845      0.756868112      -40.0708845      0.643789392      49.1832483       
288.04           0.651969113      48.5758338       0.749894285      -40.6861428      0.749894285      -40.6861428      0.651969113      48.5758338       
294.02           0.659946829      47.9778003       0.742945888      -41.2917278      0.742945888      -41.2917278      0.659946829      47.9778003       
300              0.667726781      47.3890374       0.736026195      -41.8877643      0.736026195      -41.8877643      0.667726781      47.3890374       
305.98           0.675313228      46.8094301       0.729138247      -42.4743805      0.729138247      -42.4743805      0.675313228      46.8094301       
311.96           0.682710434      46.23886         0.722284865      -43.0517072      0.722284865      -43.0517072      0.682710434      46.23886         
317.94           0.689922661      45.6772052       0.715468658      -43.6198778      0.715468658      -43.6198778      0.689922661      45.6772052       
323.92           0.696954153      45.1243412       0.708692034      -44.1790275      0.708692034      -44.1790275      0.696954153      45.1243412       
329.9            0.703809135      44.5801409       0.701957203      -44.7292931      0.701957203      -44.7292931      0.703809135      44.5801409       
335.88           0.710491796      44.0444758       0.695266194      -45.2708128      0.695266194      -45.2708128      0.710491796      44.0444758       
341.86           0.717006293      43.5172153       0.688620857      -45.8037254      0.688620857      -45.8037254      0.717006293      43.5172153       
347.84           0.723356734      42.9982281       0.682022876      -46.3281706      0.682022876      -46.3281706      0.723356734      42.9982281       
353.82           0.729547179      42.4873819       0.675473775      -46.8442883      0.675473775      -46.8442883      0.729547179      42.4873819       
359.8            0.735581635      41.9845437       0.668974928      -47.3522184      0.668974928      -47.3522184      0.735581635      41.9845437       
365.78           0.741464049      41.4895804       0.662527566      -47.8521009      0.662527566      -47.8521009      0.741464049      41.4895804       
371.76           0.747198303      41.0023588       0.656132785      -48.344075       0.656132785      -48.344075       0.747198303      41.0023588       
377.74           0.752788217      40.522746        0.649791555      -48.8282796      0.649791555      -48.8282796      0.752788217      40.522746        
383.72           0.758237541      40.0506095       0.643504724      -49.3048529      0.643504724      -49.3048529      0.758237541      40.0506095       
389.7            0.763549953      39.5858173       0.637273028      -49.7739318      0.637273028      -49.7739318      0.763549953      39.5858173       
395.68           0.768729061      39.1282382       0.631097099      -50.2356525      0.631097099      -50.2356525      0.768729061      39.1282382       
401.66           0.773778396      38.6777421       0.624977466      -50.6901497      0.624977466      -50.6901497      0.773778396      38.6777421       
407.64           0.778701417      38.2341998       0.618914568      -51.1375569      0.618914568      -51.1375569      0.778701417      38.2341998       
413.62           0.783501506      37.7974833       0.612908754      -51.5780063      0.612908754      -51.5780063      0.783501506      37.7974833       
419.6            0.788181967      37.3674661       0.606960294      -52.0116282      0.606960294      -52.0116282      0.788181967      37.3674661       
425.58           0.792746029      36.9440228       0.601069379      -52.4385515      0.601069379      -52.4385515      0.792746029      36.9440228       
431.56           0.797196845      36.5270298       0.595236133      -52.8589034      0.595236133      -52.8589034      0.797196845      36.5270298       
437.54           0.80153749       36.1163649       0.58946061       -53.2728093      0.58946061       -53.2728093      0.80153749       36.1163649       
443.52           0.805770964      35.7119076       0.583742806      -53.6803928      0.583742806      -53.6803928      0.805770964      35.7119076       
449.5            0.809900191      35.3135391       0.578082657      -54.0817755      0.578082657      -54.0817755      0.809900191      35.3135391       
455.48           0.813928021      34.9211423       0.572480048      -54.4770773      0.572480048      -54.4770773      0.813928021      34.9211423       
461.46           0.817857229      34.5346019       0.566934817      -54.8664161      0.566934817      -54.8664161      0.817857229      34.5346019       
467.44           0.821690518      34.1538044       0.561446754      -55.2499077      0.561446754      -55.2499077      0.821690518      34.1538044       
473.42           0.825430517      33.7786383       0.556015609      -55.6276661      0.556015609      -55.6276661      0.825430517      33.7786383       
479.4            0.829079787      33.4089938       0.550641093      -55.9998032      0.550641093      -55.9998032      0.829079787      33.4089938       
485.38           0.832640818      33.044763        0.545322885      -56.3664289      0.545322885      -56.3664289      0.832640818      33.044763        
491.36           0.836116031      32.68584         0.540060629      -56.7276511      0.540060629      -56.7276511      0.836116031      32.68584         
497.34           0.83950778       32.3321207       0.534853941      -57.0835759      0.534853941      -57.0835759      0.83950778       32.3321207       
503.32           0.842818355      31.983503        0.529702411      -57.434307       0.529702411      -57.434307       0.842818355      31.983503        
509.3            0.846049979      31.6398865       0.524605604      -57.7799463      0.524605604      -57.7799463      0.846049979      31.6398865       
515.28           0.849204815      31.301173        0.519563064      -58.1205938      0.519563064      -58.1205938      0.849204815      31.301173        
521.26           0.852284961      30.967266        0.514574315      -58.4563474      0.514574315      -58.4563474      0.852284961      30.967266        
527.24           0.855292457      30.6380709       0.509638864      -58.7873032      0.509638864      -58.7873032      0.855292457      30.6380709       
533.22           0.858229285      30.3134948       0.504756202      -59.113555       0.504756202      -59.113555       0.858229285      30.3134948       
539.2            0.861097369      29.993447        0.499925805      -59.4351952      0.499925805      -59.4351952      0.861097369      29.993447        
545.18           0.863898575      29.6778384       0.49514714       -59.7523138      0.49514714       -59.7523138      0.863898575      29.6778384       
551.16           0.866634719      29.3665817       0.490419661      -60.0649992      0.490419661      -60.0649992      0.866634719      29.3665817       
557.14           0.869307561      29.0595915       0.485742812      -60.373338       0.485742812      -60.373338       0.869307561      29.0595915       
563.12           0.87191881       28.756784        0.481116031      -60.6774148      0.481116031      -60.6774148      0.87191881       28.756784        
569.1            0.874470125      28.4580773       0.476538749      -60.9773124      0.476538749      -60.9773124      0.874470125      28.4580773       
575.08           0.876963117      28.1633911       0.472010391      -61.2731119      0.472010391      -61.2731119      0.876963117      28.1633911       
581.06           0.879399348      27.8726469       0.467530378      -61.5648927      0.467530378      -61.5648927      0.879399348      27.8726469       
587.04           0.881780336      27.5857678       0.463098127      -61.8527324      0.463098127      -61.8527324      0.881780336      27.5857678       
593.02           0.884107553      27.3026785       0.458713054      -62.136707       0.458713054      -62.136707       0.884107553      27.3026785       
599              0.886382427      27.0233053       0.454374571      -62.4168908      0.454374571      -62.4168908      0.886382427      27.0233053       
604.98           0.888606346      26.7475763       0.450082092      -62.6933563      0.450082092      -62.6933563      0.888606346      26.7475763       
610.96           0.890780655      26.4754207       0.445835028      -62.9661747      0.445835028      -62.9661747      0.890780655      26.4754207       
616.94           0.892906659      26.2067697       0.441632794      -63.2354154      0.441632794      -63.2354154      0.892906659      26.2067697       
622.92           0.894985626      25.9415557       0.437474803      -63.5011465      0.437474803      -63.5011465      0.894985626      25.9415557       
628.9            0.897018786      25.6797128       0.433360472      -63.7634343      0.433360472      -63.7634343      0.897018786      25.6797128       
634.88           0.899007333      25.4211762       0.429289219      -64.0223438      0.429289219      -64.0223438      0.899007333      25.4211762       
640.86           0.900952424      25.1658827       0.425260465      -64.2779386      0.425260465      -64.2779386      0.900952424      25.1658827       
646.84           0.902855185      24.9137706       0.421273635      -64.5302807      0.421273635      -64.5302807      0.902855185      24.9137706       
652.82           0.904716705      24.6647795       0.417328156      -64.7794309      0.417328156      -64.7794309      0.904716705      24.6647795       
658.8            0.906538045      24.41885         0.413423462      -65.0254485      0.413423462      -65.0254485      0.906538045      24.41885         
664.78           0.908320233      24.1759244       0.409558988      -65.2683916      0.409558988      -65.2683916      0.908320233      24.1759244       
670.76           0.910064265      23.9359461       0.405734176      -65.5083168      0.405734176      -65.5083168      0.910064265      23.9359461       
676.74           0.911771111      23.6988598       0.40194847       -65.7452796      0.40194847       -65.7452796      0.911771111      23.6988598       
682.72           0.913441711      23.4646113       0.398201324      -65.9793342      0.398201324      -65.9793342      0.913441711      23.4646113       
688.7            0.915076977      23.2331476       0.394492191      -66.2105336      0.394492191      -66.2105336      0.915076977      23.2331476       
694.68           0.916677797      23.0044171       0.390820536      -66.4389296      0.390820536      -66.4389296      0.916677797      23.0044171       
700.66           0.918245031      22.7783689       0.387185824      -66.6645728      0.387185824      -66.6645728      0.918245031      22.7783689       
706.64           0.919779514      22.5549537       0.383587531      -66.8875127      0.383587531      -66.8875127      0.919779514      22.5549537       
712.62           0.921282057      22.3341229       0.380025134      -67.1077976      0.380025134      -67.1077976      0.921282057      22.3341229       
718.6            0.922753449      22.1158291       0.37649812       -67.3254749      0.37649812       -67.3254749      0.922753449      22.1158291       
724.58           0.924194455      21.900026        0.37300598       -67.5405906      0.37300598       -67.5405906      0.924194455      21.900026        
730.56           0.925605818      21.6866682       0.369548213      -67.7531901      0.369548213      -67.7531901      0.925605818      21.6866682       
736.54           0.92698826       21.4757113       0.366124322      -67.9633174      0.366124322      -67.9633174      0.92698826       21.4757113       
742.52           0.928342482      21.267112        0.362733818      -68.1710158      0.362733818      -68.1710158      0.928342482      21.267112        
748.5            0.929669166      21.0608278       0.359376219      -68.3763273      0.359376219      -68.3763273      0.929669166      21.0608278       
754.48           0.930968974      20.8568172       0.356051048      -68.5792932      0.356051048      -68.5792932      0.930968974      20.8568172       
760.46           0.932242549      20.6550394       0.352757835      -68.7799539      0.352757835      -68.7799539      0.932242549      20.6550394       
