! Coilcraft 1008HQ-33N Chip Inductor				
! 10 July 2002			
# MHZ S MA R 50
!Freq             MagS11           AngS11           MagS21           AngS21           MagS12           AngS12           MagS22           AngS22
1                0.00244357402    57.8145524       0.998700544      -0.11864573      0.998700544      -0.11864573      0.00244357402    57.8145524       
8.23             0.0171492128     82.1917981       0.997814813      -0.975646466     0.997814813      -0.975646466     0.0171492128     82.1917981       
15.46            0.0320562939     83.7642899       0.997027464      -1.83157893      0.997027464      -1.83157893      0.0320562939     83.7642899       
22.69            0.0469509478     83.9068733       0.996111035      -2.68632124      0.996111035      -2.68632124      0.0469509478     83.9068733       
29.92            0.0618150878     83.6156312       0.995024472      -3.53963021      0.995024472      -3.53963021      0.0618150878     83.6156312       
37.15            0.0766380392     83.1316526       0.993752158      -4.39123074      0.993752158      -4.39123074      0.0766380392     83.1316526       
44.38            0.0914106157     82.5444527       0.992287043      -5.24083531      0.992287043      -5.24083531      0.0914106157     82.5444527       
51.61            0.106124156      81.8955463       0.990626042      -6.08815181      0.990626042      -6.08815181      0.106124156      81.8955463       
58.84            0.120770292      81.20709         0.988768281      -6.9328876       0.988768281      -6.9328876       0.120770292      81.20709         
66.07            0.135340888      80.4921309       0.986714301      -7.77475204      0.986714301      -7.77475204      0.135340888      80.4921309       
73.3             0.149828036      79.7589388       0.984465632      -8.61345817      0.984465632      -8.61345817      0.149828036      79.7589388       
80.53            0.164224059      79.0130678       0.982024553      -9.4487241       0.982024553      -9.4487241       0.164224059      79.0130678       
87.76            0.178521528      78.2584269       0.979393933      -10.280274       0.979393933      -10.280274       0.178521528      78.2584269       
94.99            0.192713281      77.4978776       0.976577132      -11.1078391      0.976577132      -11.1078391      0.192713281      77.4978776       
102.22           0.20679243       76.7335847       0.973577919      -11.931158       0.973577919      -11.931158       0.20679243       76.7335847       
109.45           0.220752385      75.9672333       0.970400418      -12.749978       0.970400418      -12.749978       0.220752385      75.9672333       
116.68           0.234586859      75.2001675       0.96704906       -13.5640549      0.96704906       -13.5640549      0.234586859      75.2001675       
123.91           0.248289881      74.4334821       0.963528539      -14.3731539      0.963528539      -14.3731539      0.248289881      74.4334821       
131.14           0.261855806      73.6680855       0.95984378       -15.1770499      0.95984378       -15.1770499      0.261855806      73.6680855       
138.37           0.275279322      72.9047429       0.955999907      -15.9755278      0.955999907      -15.9755278      0.275279322      72.9047429       
145.6            0.288555454      72.1441076       0.952002213      -16.7683826      0.952002213      -16.7683826      0.288555454      72.1441076       
152.83           0.301679567      71.3867437       0.947856133      -17.55542        0.947856133      -17.55542        0.301679567      71.3867437       
160.06           0.314647371      70.6331424       0.943567217      -18.336456       0.943567217      -18.336456       0.314647371      70.6331424       
167.29           0.327454916      69.883735        0.939141112      -19.1113176      0.939141112      -19.1113176      0.327454916      69.883735        
174.52           0.340098597      69.1389025       0.934583531      -19.8798425      0.934583531      -19.8798425      0.340098597      69.1389025       
181.75           0.352575146      68.3989827       0.929900241      -20.641879       0.929900241      -20.641879       0.352575146      68.3989827       
188.98           0.36488163       67.6642764       0.925097033      -21.3972864      0.925097033      -21.3972864      0.36488163       67.6642764       
196.21           0.377015446      66.9350518       0.920179713      -22.1459345      0.920179713      -22.1459345      0.377015446      66.9350518       
203.44           0.388974313      66.2115485       0.915154075      -22.8877038      0.915154075      -22.8877038      0.388974313      66.2115485       
210.67           0.400756266      65.4939802       0.910025893      -23.6224851      0.910025893      -23.6224851      0.400756266      65.4939802       
217.9            0.412359648      64.7825378       0.9048009        -24.3501796      0.9048009        -24.3501796      0.412359648      64.7825378       
225.13           0.423783097      64.077391        0.899484772      -25.0706986      0.899484772      -25.0706986      0.423783097      64.077391        
232.36           0.43502554       63.3786906       0.894083123      -25.783963       0.894083123      -25.783963       0.43502554       63.3786906       
239.59           0.446086182      62.6865694       0.888601484      -26.4899036      0.888601484      -26.4899036      0.446086182      62.6865694       
246.82           0.456964493      62.0011444       0.883045296      -27.1884604      0.883045296      -27.1884604      0.456964493      62.0011444       
254.05           0.467660198      61.3225172       0.877419902      -27.8795824      0.877419902      -27.8795824      0.467660198      61.3225172       
261.28           0.478173265      60.6507757       0.871730533      -28.5632277      0.871730533      -28.5632277      0.478173265      60.6507757       
268.51           0.488503891      59.9859947       0.865982305      -29.2393624      0.865982305      -29.2393624      0.488503891      59.9859947       
275.74           0.498652495      59.3282369       0.860180207      -29.907961       0.860180207      -29.907961       0.498652495      59.3282369       
282.97           0.508619699      58.6775536       0.854329101      -30.5690059      0.854329101      -30.5690059      0.508619699      58.6775536       
290.2            0.518406324      58.0339856       0.848433712      -31.2224868      0.848433712      -31.2224868      0.518406324      58.0339856       
297.43           0.528013367      57.3975638       0.842498626      -31.8684007      0.842498626      -31.8684007      0.528013367      57.3975638       
304.66           0.537442002      56.7683097       0.836528286      -32.5067513      0.836528286      -32.5067513      0.537442002      56.7683097       
311.89           0.546693556      56.1462363       0.830526989      -33.1375489      0.830526989      -33.1375489      0.546693556      56.1462363       
319.12           0.555769507      55.5313485       0.824498885      -33.7608099      0.824498885      -33.7608099      0.555769507      55.5313485       
326.35           0.564671466      54.9236435       0.818447974      -34.3765566      0.818447974      -34.3765566      0.564671466      54.9236435       
333.58           0.57340117       54.3231115       0.812378107      -34.9848166      0.812378107      -34.9848166      0.57340117       54.3231115       
340.81           0.581960469      53.7297361       0.806292987      -35.5856229      0.806292987      -35.5856229      0.581960469      53.7297361       
348.04           0.590351319      53.1434949       0.800196165      -36.1790133      0.800196165      -36.1790133      0.590351319      53.1434949       
355.27           0.598575766      52.5643596       0.794091045      -36.76503        0.794091045      -36.76503        0.598575766      52.5643596       
362.5            0.606635944      51.9922968       0.787980885      -37.3437195      0.787980885      -37.3437195      0.606635944      51.9922968       
369.73           0.614534061      51.4272681       0.781868795      -37.9151325      0.781868795      -37.9151325      0.614534061      51.4272681       
376.96           0.622272389      50.8692304       0.775757745      -38.479323       0.775757745      -38.479323       0.622272389      50.8692304       
384.19           0.629853262      50.3181368       0.769650562      -39.0363486      0.769650562      -39.0363486      0.629853262      50.3181368       
391.42           0.637279062      49.7739363       0.763549936      -39.58627        0.763549936      -39.58627        0.637279062      49.7739363       
398.65           0.644552214      49.2365744       0.757458421      -40.1291507      0.757458421      -40.1291507      0.644552214      49.2365744       
405.88           0.651675179      48.7059934       0.751378439      -40.6650568      0.751378439      -40.6650568      0.651675179      48.7059934       
413.11           0.658650447      48.1821328       0.745312284      -41.1940568      0.745312284      -41.1940568      0.658650447      48.1821328       
420.34           0.665480531      47.6649291       0.739262125      -41.7162214      0.739262125      -41.7162214      0.665480531      47.6649291       
427.57           0.672167961      47.1543168       0.733230008      -42.2316232      0.733230008      -42.2316232      0.672167961      47.1543168       
434.8            0.67871528       46.650228        0.727217861      -42.7403365      0.727217861      -42.7403365      0.67871528       46.650228        
442.03           0.685125034      46.1525929       0.721227498      -43.2424372      0.721227498      -43.2424372      0.685125034      46.1525929       
449.26           0.691399773      45.6613399       0.715260623      -43.7380025      0.715260623      -43.7380025      0.691399773      45.6613399       
456.49           0.697542046      45.1763962       0.709318831      -44.2271106      0.709318831      -44.2271106      0.697542046      45.1763962       
463.72           0.703554393      44.6976873       0.703403617      -44.709841       0.703403617      -44.709841       0.703554393      44.6976873       
470.95           0.709439343      44.2251378       0.697516375      -45.1862739      0.697516375      -45.1862739      0.709439343      44.2251378       
478.18           0.715199414      43.7586712       0.691658403      -45.65649        0.691658403      -45.65649        0.715199414      43.7586712       
485.41           0.720837104      43.2982104       0.685830908      -46.1205708      0.685830908      -46.1205708      0.720837104      43.2982104       
492.64           0.726354895      42.8436775       0.68003501       -46.5785981      0.68003501       -46.5785981      0.726354895      42.8436775       
499.87           0.731755242      42.3949939       0.674271742      -47.0306541      0.674271742      -47.0306541      0.731755242      42.3949939       
507.1            0.737040579      41.9520811       0.668542059      -47.476821       0.668542059      -47.476821       0.737040579      41.9520811       
514.33           0.742213312      41.5148599       0.662846837      -47.9171811      0.662846837      -47.9171811      0.742213312      41.5148599       
521.56           0.747275818      41.0832511       0.657186878      -48.3518168      0.657186878      -48.3518168      0.747275818      41.0832511       
528.79           0.752230443      40.6571755       0.651562916      -48.7808102      0.651562916      -48.7808102      0.752230443      40.6571755       
536.02           0.757079503      40.236554        0.645975615      -49.2042433      0.645975615      -49.2042433      0.757079503      40.236554        
543.25           0.76182528       39.8213074       0.640425575      -49.6221976      0.640425575      -49.6221976      0.76182528       39.8213074       
550.48           0.76647002       39.4113571       0.634913338      -50.0347546      0.634913338      -50.0347546      0.76647002       39.4113571       
557.71           0.771015937      39.0066245       0.629439385      -50.4419949      0.629439385      -50.4419949      0.771015937      39.0066245       
564.94           0.775465206      38.6070315       0.624004144      -50.8439989      0.624004144      -50.8439989      0.775465206      38.6070315       
572.17           0.779819968      38.2125005       0.61860799       -51.2408464      0.61860799       -51.2408464      0.779819968      38.2125005       
579.4            0.784082324      37.8229543       0.613251248      -51.6326164      0.613251248      -51.6326164      0.784082324      37.8229543       
586.63           0.788254339      37.4383164       0.607934197      -52.0193874      0.607934197      -52.0193874      0.788254339      37.4383164       
593.86           0.79233804       37.0585109       0.602657072      -52.4012371      0.602657072      -52.4012371      0.79233804       37.0585109       
601.09           0.796335414      36.6834622       0.597420065      -52.7782424      0.597420065      -52.7782424      0.796335414      36.6834622       
608.32           0.800248412      36.313096        0.592223328      -53.1504796      0.592223328      -53.1504796      0.800248412      36.313096        
615.55           0.804078944      35.9473383       0.587066979      -53.5180239      0.587066979      -53.5180239      0.804078944      35.9473383       
622.78           0.807828885      35.586116        0.581951096      -53.88095        0.581951096      -53.88095        0.807828885      35.586116        
630.01           0.811500069      35.2293569       0.576875727      -54.2393313      0.576875727      -54.2393313      0.811500069      35.2293569       
637.24           0.815094292      34.8769893       0.571840889      -54.5932406      0.571840889      -54.5932406      0.815094292      34.8769893       
644.47           0.818613313      34.5289429       0.566846567      -54.9427496      0.566846567      -54.9427496      0.818613313      34.5289429       
651.7            0.822058854      34.1851477       0.561892723      -55.2879293      0.561892723      -55.2879293      0.822058854      34.1851477       
658.93           0.825432597      33.8455349       0.556979288      -55.6288494      0.556979288      -55.6288494      0.825432597      33.8455349       
666.16           0.828736191      33.5100366       0.552106173      -55.965579       0.552106173      -55.965579       0.828736191      33.5100366       
673.39           0.831971245      33.1785857       0.547273265      -56.2981859      0.547273265      -56.2981859      0.831971245      33.1785857       
680.62           0.835139334      32.8511162       0.542480429      -56.6267372      0.542480429      -56.6267372      0.835139334      32.8511162       
687.85           0.838241996      32.5275627       0.537727511      -56.9512987      0.537727511      -56.9512987      0.838241996      32.5275627       
695.08           0.841280736      32.2078612       0.533014341      -57.2719355      0.533014341      -57.2719355      0.841280736      32.2078612       
702.31           0.844257021      31.8919483       0.528340728      -57.5887115      0.528340728      -57.5887115      0.844257021      31.8919483       
709.54           0.847172288      31.5797616       0.523706468      -57.9016897      0.523706468      -57.9016897      0.847172288      31.5797616       
716.77           0.850027937      31.2712397       0.519111342      -58.2109321      0.519111342      -58.2109321      0.850027937      31.2712397       
724              0.852825338      30.9663223       0.514555116      -58.5164997      0.514555116      -58.5164997      0.852825338      30.9663223       
731.23           0.855565826      30.6649497       0.510037546      -58.8184525      0.510037546      -58.8184525      0.855565826      30.6649497       
738.46           0.858250706      30.3670635       0.505558374      -59.1168495      0.505558374      -59.1168495      0.858250706      30.3670635       
745.69           0.860881252      30.0726061       0.501117333      -59.4117486      0.501117333      -59.4117486      0.860881252      30.0726061       
752.92           0.863458706      29.7815207       0.496714146      -59.703207       0.496714146      -59.703207       0.863458706      29.7815207       
760.15           0.865984281      29.4937517       0.492348528      -59.9912806      0.492348528      -59.9912806      0.865984281      29.4937517       
767.38           0.86845916       29.2092441       0.488020184      -60.2760247      0.488020184      -60.2760247      0.86845916       29.2092441       
774.61           0.870884499      28.9279442       0.483728813      -60.5574933      0.483728813      -60.5574933      0.870884499      28.9279442       
781.84           0.873261425      28.6497989       0.479474109      -60.8357397      0.479474109      -60.8357397      0.873261425      28.6497989       
789.07           0.875591035      28.3747562       0.475255757      -61.110816       0.475255757      -61.110816       0.875591035      28.3747562       
796.3            0.877874403      28.1027649       0.471073438      -61.3827737      0.471073438      -61.3827737      0.877874403      28.1027649       
803.53           0.880112574      27.8337746       0.46692683       -61.6516632      0.46692683       -61.6516632      0.880112574      27.8337746       
810.76           0.882306569      27.567736        0.462815605      -61.9175338      0.462815605      -61.9175338      0.882306569      27.567736        
817.99           0.884457383      27.3046005       0.458739432      -62.1804343      0.458739432      -62.1804343      0.884457383      27.3046005       
825.22           0.886565986      27.0443203       0.454697976      -62.4404124      0.454697976      -62.4404124      0.886565986      27.0443203       
832.45           0.888633325      26.7868487       0.450690902      -62.6975149      0.450690902      -62.6975149      0.888633325      26.7868487       
839.68           0.890660322      26.5321396       0.44671787       -62.9517878      0.44671787       -62.9517878      0.890660322      26.5321396       
846.91           0.892647878      26.2801478       0.442778541      -63.2032761      0.442778541      -63.2032761      0.892647878      26.2801478       
854.14           0.894596871      26.0308289       0.438872571      -63.4520243      0.438872571      -63.4520243      0.894596871      26.0308289       
861.37           0.896508157      25.7841393       0.434999619      -63.6980757      0.434999619      -63.6980757      0.896508157      25.7841393       
868.6            0.898382571      25.5400363       0.43115934       -63.9414731      0.43115934       -63.9414731      0.898382571      25.5400363       
875.83           0.900220927      25.2984776       0.427351392      -64.1822581      0.427351392      -64.1822581      0.900220927      25.2984776       
883.06           0.902024019      25.0594222       0.423575429      -64.420472       0.423575429      -64.420472       0.902024019      25.0594222       
890.29           0.90379262       24.8228294       0.41983111       -64.6561549      0.41983111       -64.6561549      0.90379262       24.8228294       
897.52           0.905527487      24.5886595       0.416118089      -64.8893464      0.416118089      -64.8893464      0.905527487      24.5886595       
904.75           0.907229355      24.3568735       0.412436026      -65.1200851      0.412436026      -65.1200851      0.907229355      24.3568735       
911.98           0.908898942      24.1274329       0.408784579      -65.3484092      0.408784579      -65.3484092      0.908898942      24.1274329       
919.21           0.910536949      23.9003002       0.405163408      -65.5743559      0.405163408      -65.5743559      0.910536949      23.9003002       
