! Coilcraft 1008HQ-18N Chip Inductor				
! 10 July 2002			
# MHZ S MA R 50
!Freq             MagS11           AngS11           MagS21           AngS21           MagS12           AngS12           MagS22           AngS22
1                0.00147754665    49.816534        0.99904727       -0.064738281     0.99904727       -0.064738281     0.00147754665    49.816534        
12.47            0.014169132      82.7471929       0.998310136      -0.806725673     0.998310136      -0.806725673     0.014169132      82.7471929       
23.94            0.0270834308     84.3580752       0.997701513      -1.54799504      0.997701513      -1.54799504      0.0270834308     84.3580752       
35.41            0.0399916771     84.5591973       0.997003275      -2.28849567      0.997003275      -2.28849567      0.0399916771     84.5591973       
46.88            0.0528809826     84.345176        0.996180269      -3.02808305      0.996180269      -3.02808305      0.0528809826     84.345176        
58.35            0.0657442954     83.9486993       0.995219037      -3.76658865      0.995219037      -3.76658865      0.0657442954     83.9486993       
69.82            0.0785756706     83.4548547       0.994113211      -4.50383409      0.994113211      -4.50383409      0.0785756706     83.4548547       
81.29            0.0913695188     82.9027282       0.992859612      -5.23963658      0.992859612      -5.23963658      0.0913695188     82.9027282       
92.76            0.104120424      82.3130269       0.9914568        -5.97381169      0.9914568        -5.97381169      0.104120424      82.3130269       
104.23           0.116823091      81.6978639       0.989904409      -6.70617494      0.989904409      -6.70617494      0.116823091      81.6978639       
115.7            0.129472336      81.0648669       0.98820281       -7.43654291      0.98820281       -7.43654291      0.129472336      81.0648669       
127.17           0.142063084      80.4191233       0.986352909      -8.16473407      0.986352909      -8.16473407      0.142063084      80.4191233       
138.64           0.154590378      79.7641875       0.984356035      -8.89056934      0.984356035      -8.89056934      0.154590378      79.7641875       
150.11           0.167049386      79.1026405       0.982213857      -9.61387265      0.982213857      -9.61387265      0.167049386      79.1026405       
161.58           0.179435411      78.4364192       0.979928331      -10.3344713      0.979928331      -10.3344713      0.179435411      78.4364192       
173.05           0.191743896      77.7670182       0.977501657      -11.0521965      0.977501657      -11.0521965      0.191743896      77.7670182       
184.52           0.203970435      77.0956201       0.974936252      -11.7668834      0.974936252      -11.7668834      0.203970435      77.0956201       
195.99           0.216110775      76.4231804       0.972234719      -12.4783717      0.972234719      -12.4783717      0.216110775      76.4231804       
207.46           0.22816083       75.7504859       0.969399833      -13.1865055      0.969399833      -13.1865055      0.22816083       75.7504859       
218.93           0.240116678      75.0781957       0.966434516      -13.891134       0.966434516      -13.891134       0.240116678      75.0781957       
230.4            0.251974572      74.4068695       0.963341823      -14.5921112      0.963341823      -14.5921112      0.251974572      74.4068695       
241.87           0.263730941      73.7369889       0.960124929      -15.2892966      0.960124929      -15.2892966      0.263730941      73.7369889       
253.34           0.275382394      73.0689728       0.956787114      -15.9825548      0.956787114      -15.9825548      0.275382394      73.0689728       
264.81           0.286925721      72.4031893       0.953331747      -16.671756       0.953331747      -16.671756       0.286925721      72.4031893       
276.28           0.2983579        71.739964        0.949762278      -17.3567759      0.949762278      -17.3567759      0.2983579        71.739964        
287.75           0.30967609       71.0795872       0.946082224      -18.0374957      0.946082224      -18.0374957      0.30967609       71.0795872       
299.22           0.320877638      70.4223193       0.94229516       -18.7138027      0.94229516       -18.7138027      0.320877638      70.4223193       
310.69           0.331960078      69.7683947       0.938404705      -19.3855895      0.938404705      -19.3855895      0.331960078      69.7683947       
322.16           0.342921126      69.1180253       0.934414516      -20.0527547      0.934414516      -20.0527547      0.342921126      69.1180253       
333.63           0.353758684      68.4714032       0.930328275      -20.7152025      0.930328275      -20.7152025      0.353758684      68.4714032       
345.1            0.364470835      67.8287031       0.926149682      -21.3728431      0.926149682      -21.3728431      0.364470835      67.8287031       
356.57           0.375055841      67.1900837       0.921882444      -22.0255923      0.921882444      -22.0255923      0.375055841      67.1900837       
368.04           0.385512141      66.5556894       0.917530268      -22.6733713      0.917530268      -22.6733713      0.385512141      66.5556894       
379.51           0.395838348      65.925652        0.913096856      -23.3161073      0.913096856      -23.3161073      0.395838348      65.925652        
390.98           0.406033244      65.300091        0.90858589       -23.953733       0.90858589       -23.953733       0.406033244      65.300091        
402.45           0.416095777      64.679115        0.904001033      -24.5861863      0.904001033      -24.5861863      0.416095777      64.679115        
413.92           0.426025057      64.0628227       0.899345917      -25.2134108      0.899345917      -25.2134108      0.426025057      64.0628227       
425.39           0.435820349      63.4513031       0.894624141      -25.8353553      0.894624141      -25.8353553      0.435820349      63.4513031       
436.86           0.445481074      62.8446363       0.88983926       -26.4519735      0.88983926       -26.4519735      0.445481074      62.8446363       
448.33           0.455006796      62.2428944       0.884994784      -27.0632246      0.884994784      -27.0632246      0.455006796      62.2428944       
459.8            0.464397222      61.6461413       0.880094174      -27.6690725      0.880094174      -27.6690725      0.464397222      61.6461413       
471.27           0.473652198      61.0544341       0.875140832      -28.2694858      0.875140832      -28.2694858      0.473652198      61.0544341       
482.74           0.482771698      60.4678224       0.870138103      -28.8644381      0.870138103      -28.8644381      0.482771698      60.4678224       
494.21           0.491755823      59.8863498       0.865089266      -29.4539071      0.865089266      -29.4539071      0.491755823      59.8863498       
505.68           0.500604794      59.3100534       0.859997535      -30.0378752      0.859997535      -30.0378752      0.500604794      59.3100534       
517.15           0.509318945      58.7389646       0.854866055      -30.616329       0.854866055      -30.616329       0.509318945      58.7389646       
528.62           0.517898721      58.1731091       0.849697898      -31.1892591      0.849697898      -31.1892591      0.517898721      58.1731091       
540.09           0.526344667      57.6125076       0.844496061      -31.7566601      0.844496061      -31.7566601      0.526344667      57.6125076       
551.56           0.534657429      57.0571757       0.839263467      -32.3185303      0.839263467      -32.3185303      0.534657429      57.0571757       
563.03           0.542837741      56.5071242       0.834002958      -32.8748717      0.834002958      -32.8748717      0.542837741      56.5071242       
574.5            0.550886427      55.9623597       0.828717301      -33.4256898      0.828717301      -33.4256898      0.550886427      55.9623597       
585.97           0.558804391      55.4228845       0.82340918       -33.9709934      0.82340918       -33.9709934      0.558804391      55.4228845       
597.44           0.566592611      54.8886969       0.818081198      -34.5107945      0.818081198      -34.5107945      0.566592611      54.8886969       
608.91           0.574252138      54.3597914       0.812735881      -35.045108       0.812735881      -35.045108       0.574252138      54.3597914       
620.38           0.581784087      53.836159        0.807375668      -35.5739519      0.807375668      -35.5739519      0.581784087      53.836159        
631.85           0.589189636      53.3177874       0.802002922      -36.0973467      0.802002922      -36.0973467      0.589189636      53.3177874       
643.32           0.596470017      52.8046612       0.796619921      -36.6153157      0.796619921      -36.6153157      0.596470017      52.8046612       
654.79           0.603626514      52.2967619       0.791228863      -37.1278844      0.791228863      -37.1278844      0.603626514      52.2967619       
666.26           0.610660458      51.7940683       0.785831869      -37.6350808      0.785831869      -37.6350808      0.610660458      51.7940683       
677.73           0.617573223      51.2965565       0.780430977      -38.1369351      0.780430977      -38.1369351      0.617573223      51.2965565       
689.2            0.624366221      50.8042004       0.775028147      -38.6334793      0.775028147      -38.6334793      0.624366221      50.8042004       
700.67           0.631040899      50.3169714       0.769625264      -39.1247475      0.769625264      -39.1247475      0.631040899      50.3169714       
712.14           0.637598734      49.8348389       0.764224134      -39.6107755      0.764224134      -39.6107755      0.637598734      49.8348389       
723.61           0.644041233      49.3577701       0.758826489      -40.0916009      0.758826489      -40.0916009      0.644041233      49.3577701       
735.08           0.650369922      48.8857307       0.753433988      -40.5672627      0.753433988      -40.5672627      0.650369922      48.8857307       
746.55           0.656586353      48.4186844       0.748048217      -41.0378013      0.748048217      -41.0378013      0.656586353      48.4186844       
758.02           0.66269209       47.9565935       0.74267069       -41.5032585      0.74267069       -41.5032585      0.66269209       47.9565935       
769.49           0.668688715      47.4994187       0.737302853      -41.9636774      0.737302853      -41.9636774      0.668688715      47.4994187       
780.96           0.67457782       47.0471195       0.731946086      -42.419102       0.731946086      -42.419102       0.67457782       47.0471195       
792.43           0.680361006      46.599654        0.726601699      -42.8695775      0.726601699      -42.8695775      0.680361006      46.599654        
803.9            0.68603988       46.1569796       0.721270941      -43.31515        0.721270941      -43.31515        0.68603988       46.1569796       
815.37           0.691616054      45.7190521       0.715954997      -43.7558662      0.715954997      -43.7558662      0.691616054      45.7190521       
826.84           0.697091142      45.2858268       0.710654992      -44.1917739      0.710654992      -44.1917739      0.697091142      45.2858268       
838.31           0.702466754      44.8572581       0.705371992      -44.6229213      0.705371992      -44.6229213      0.702466754      44.8572581       
849.78           0.707744504      44.4332995       0.700107003      -45.0493572      0.700107003      -45.0493572      0.707744504      44.4332995       
861.25           0.712925996      44.0139041       0.69486098       -45.4711311      0.69486098       -45.4711311      0.712925996      44.0139041       
872.72           0.718012831      43.5990243       0.68963482       -45.8882927      0.68963482       -45.8882927      0.718012831      43.5990243       
884.19           0.723006602      43.188612        0.68442937       -46.3008922      0.68442937       -46.3008922      0.723006602      43.188612        
895.66           0.727908894      42.7826186       0.679245427      -46.7089801      0.679245427      -46.7089801      0.727908894      42.7826186       
907.13           0.732721281      42.3809954       0.674083739      -47.112607       0.674083739      -47.112607       0.732721281      42.3809954       
918.6            0.737445325      41.9836932       0.668945005      -47.5118239      0.668945005      -47.5118239      0.737445325      41.9836932       
930.07           0.742082577      41.5906626       0.663829882      -47.9066818      0.663829882      -47.9066818      0.742082577      41.5906626       
941.54           0.746634574      41.2018541       0.658738982      -48.2972317      0.658738982      -48.2972317      0.746634574      41.2018541       
953.01           0.751102836      40.817218        0.653672876      -48.6835248      0.653672876      -48.6835248      0.751102836      40.817218        
964.48           0.75548887       40.4367046       0.648632092      -49.0656121      0.648632092      -49.0656121      0.75548887       40.4367046       
975.95           0.759794167      40.0602642       0.643617121      -49.4435447      0.643617121      -49.4435447      0.759794167      40.0602642       
987.42           0.7640202        39.6878471       0.638628419      -49.8173736      0.638628419      -49.8173736      0.7640202        39.6878471       
998.89           0.768168425      39.3194036       0.633666402      -50.1871494      0.633666402      -50.1871494      0.768168425      39.3194036       
1010.36          0.772240279      38.9548841       0.628731454      -50.5529228      0.628731454      -50.5529228      0.772240279      38.9548841       
1021.83          0.77623718       38.5942394       0.623823926      -50.9147442      0.623823926      -50.9147442      0.77623718       38.5942394       
1033.3           0.780160529      38.2374202       0.618944138      -51.2726636      0.618944138      -51.2726636      0.780160529      38.2374202       
1044.77          0.784011706      37.8843775       0.614092378      -51.626731       0.614092378      -51.626731       0.784011706      37.8843775       
1056.24          0.787792072      37.5350626       0.609268907      -51.976996       0.609268907      -51.976996       0.787792072      37.5350626       
1067.71          0.791502967      37.1894269       0.604473958      -52.3235077      0.604473958      -52.3235077      0.791502967      37.1894269       
1079.18          0.795145711      36.8474224       0.599707737      -52.666315       0.599707737      -52.666315       0.795145711      36.8474224       
1090.65          0.798721604      36.5090011       0.594970426      -53.0054666      0.594970426      -53.0054666      0.798721604      36.5090011       
1102.12          0.802231925      36.1741155       0.590262183      -53.3410103      0.590262183      -53.3410103      0.802231925      36.1741155       
1113.59          0.805677932      35.8427184       0.58558314       -53.6729941      0.58558314       -53.6729941      0.805677932      35.8427184       
1125.06          0.809060864      35.5147631       0.580933413      -54.0014652      0.580933413      -54.0014652      0.809060864      35.5147631       
1136.53          0.812381938      35.1902032       0.576313092      -54.3264704      0.576313092      -54.3264704      0.812381938      35.1902032       
1148             0.815642349      34.8689926       0.57172225       -54.6480561      0.57172225       -54.6480561      0.815642349      34.8689926       
1159.47          0.818843273      34.551086        0.56716094       -54.9662683      0.56716094       -54.9662683      0.818843273      34.551086        
1170.94          0.821985865      34.236438        0.562629199      -55.2811523      0.562629199      -55.2811523      0.821985865      34.236438        
1182.41          0.825071259      33.9250041       0.558127046      -55.5927532      0.558127046      -55.5927532      0.825071259      33.9250041       
1193.88          0.828100568      33.6167401       0.553654483      -55.9011154      0.553654483      -55.9011154      0.828100568      33.6167401       
1205.35          0.831074887      33.3116022       0.549211498      -56.2062829      0.549211498      -56.2062829      0.831074887      33.3116022       
1216.82          0.833995288      33.0095472       0.544798065      -56.508299       0.544798065      -56.508299       0.833995288      33.0095472       
1228.29          0.836862825      32.7105323       0.540414143      -56.8072068      0.540414143      -56.8072068      0.836862825      32.7105323       
1239.76          0.83967853       32.4145151       0.53605968       -57.1030486      0.53605968       -57.1030486      0.83967853       32.4145151       
1251.23          0.842443417      32.121454        0.53173461       -57.3958662      0.53173461       -57.3958662      0.842443417      32.121454        
1262.7           0.845158481      31.8313076       0.527438856      -57.6857011      0.527438856      -57.6857011      0.845158481      31.8313076       
1274.17          0.847824696      31.5440352       0.523172332      -57.972594       0.523172332      -57.972594       0.847824696      31.5440352       
1285.64          0.850443019      31.2595964       0.51893494       -58.2565852      0.51893494       -58.2565852      0.850443019      31.2595964       
1297.11          0.853014386      30.9779514       0.514726572      -58.5377144      0.514726572      -58.5377144      0.853014386      30.9779514       
1308.58          0.855539716      30.6990611       0.510547113      -58.8160208      0.510547113      -58.8160208      0.855539716      30.6990611       
1320.05          0.858019909      30.4228866       0.506396437      -59.091543       0.506396437      -59.091543       0.858019909      30.4228866       
1331.52          0.860455847      30.1493897       0.502274413      -59.3643192      0.502274413      -59.3643192      0.860455847      30.1493897       
1342.99          0.862848396      29.8785327       0.498180901      -59.6343869      0.498180901      -59.6343869      0.862848396      29.8785327       
1354.46          0.865198403      29.6102782       0.494115754      -59.9017832      0.494115754      -59.9017832      0.865198403      29.6102782       
1365.93          0.867506696      29.3445897       0.490078819      -60.1665446      0.490078819      -60.1665446      0.867506696      29.3445897       
1377.4           0.869774089      29.0814309       0.486069937      -60.4287069      0.486069937      -60.4287069      0.869774089      29.0814309       
1388.87          0.872001379      28.820766        0.482088943      -60.6883058      0.482088943      -60.6883058      0.872001379      28.820766        
1400.34          0.874189345      28.5625599       0.478135667      -60.945376       0.478135667      -60.945376       0.874189345      28.5625599       
1411.81          0.876338752      28.3067778       0.474209935      -61.1999519      0.474209935      -61.1999519      0.876338752      28.3067778       
1423.28          0.878450346      28.0533855       0.470311567      -61.4520674      0.470311567      -61.4520674      0.878450346      28.0533855       
1434.75          0.880524861      27.8023493       0.466440381      -61.7017559      0.466440381      -61.7017559      0.880524861      27.8023493       
1446.22          0.882563014      27.553636        0.46259619       -61.9490501      0.46259619       -61.9490501      0.882563014      27.553636        
1457.69          0.884565507      27.3072129       0.458778803      -62.1939823      0.458778803      -62.1939823      0.884565507      27.3072129       
