! Coilcraft 1008HQ-3N0 Chip Inductor				
! 10 July 2002			
# MHZ S MA R 50
!Freq             MagS11           AngS11           MagS21           AngS21           MagS12           AngS12           MagS22           AngS22
1                0.000511719865   21.592725        0.999524209      -0.0107948616    0.999524209      -0.0107948616    0.000511719865   21.592725        
36.16            0.00686368004    82.4433072       0.999120545      -0.390190692     0.999120545      -0.390190692     0.00686368004    82.4433072       
71.32            0.0134689853     84.799151        0.99886914       -0.769432122     0.99886914       -0.769432122     0.0134689853     84.799151        
106.48           0.0200794957     85.474699        0.998616377      -1.14854985      0.998616377      -1.14854985      0.0200794957     85.474699        
141.64           0.0266893407     85.6750573       0.998342067      -1.52754529      0.998342067      -1.52754529      0.0266893407     85.6750573       
176.8            0.0332968284     85.6697503       0.998038332      -1.90641265      0.998038332      -1.90641265      0.0332968284     85.6697503       
211.96           0.0399010361     85.5552188       0.997701142      -2.2851429       0.997701142      -2.2851429       0.0399010361     85.5552188       
247.12           0.0465012688     85.3751117       0.997328129      -2.66372528      0.997328129      -2.66372528      0.0465012688     85.3751117       
282.28           0.0530969165     85.1522656       0.996917776      -3.0421479       0.996917776      -3.0421479       0.0530969165     85.1522656       
317.44           0.0596874064     84.899876        0.996469061      -3.42039817      0.996469061      -3.42039817      0.0596874064     84.899876        
352.6            0.0662721841     84.6261425       0.995981267      -3.79846303      0.995981267      -3.79846303      0.0662721841     84.6261425       
387.76           0.0728507045     84.3364518       0.995453885      -4.17632903      0.995453885      -4.17632903      0.0728507045     84.3364518       
422.92           0.0794224285     84.0345025       0.994886549      -4.55398249      0.994886549      -4.55398249      0.0794224285     84.0345025       
458.08           0.0859868212     83.7229266       0.994278997      -4.93140955      0.994278997      -4.93140955      0.0859868212     83.7229266       
493.24           0.0925433503     83.403654        0.993631048      -5.30859622      0.993631048      -5.30859622      0.0925433503     83.403654        
528.4            0.0990914867     83.0781357       0.992942581      -5.6855284       0.992942581      -5.6855284       0.0990914867     83.0781357       
563.56           0.105630704      82.7474865       0.992213525      -6.06219194      0.992213525      -6.06219194      0.105630704      82.7474865       
598.72           0.112160478      82.4125795       0.991443852      -6.43857266      0.991443852      -6.43857266      0.112160478      82.4125795       
633.88           0.118680287      82.0741093       0.990633564      -6.81465636      0.990633564      -6.81465636      0.118680287      82.0741093       
669.04           0.125189614      81.7326374       0.989782694      -7.19042883      0.989782694      -7.19042883      0.125189614      81.7326374       
704.2            0.131687944      81.3886229       0.988891299      -7.56587589      0.988891299      -7.56587589      0.131687944      81.3886229       
739.36           0.138174765      81.0424465       0.98795946       -7.9409834       0.98795946       -7.9409834       0.138174765      81.0424465       
774.52           0.14464957       80.6944265       0.986987275      -8.31573722      0.986987275      -8.31573722      0.14464957       80.6944265       
809.68           0.151111855      80.3448325       0.98597486       -8.69012331      0.98597486       -8.69012331      0.151111855      80.3448325       
844.84           0.157561119      79.993894        0.984922348      -9.06412766      0.984922348      -9.06412766      0.157561119      79.993894        
880              0.163996868      79.6418089       0.983829887      -9.43773632      0.983829887      -9.43773632      0.163996868      79.6418089       
915.16           0.170418609      79.2887486       0.982697636      -9.81093544      0.982697636      -9.81093544      0.170418609      79.2887486       
950.32           0.176825857      78.9348629       0.981525769      -10.1837112      0.981525769      -10.1837112      0.176825857      78.9348629       
985.48           0.18321813       78.5802834       0.98031447       -10.55605        0.98031447       -10.55605        0.18321813       78.5802834       
1020.64          0.18959495       78.2251268       0.979063937      -10.9279382      0.979063937      -10.9279382      0.18959495       78.2251268       
1055.8           0.195955846      77.8694966       0.977774374      -11.2993623      0.977774374      -11.2993623      0.195955846      77.8694966       
1090.96          0.202300352      77.5134859       0.976445999      -11.6703088      0.976445999      -11.6703088      0.202300352      77.5134859       
1126.12          0.208628007      77.1571782       0.975079037      -12.0407645      0.975079037      -12.0407645      0.208628007      77.1571782       
1161.28          0.214938356      76.8006491       0.973673722      -12.4107163      0.973673722      -12.4107163      0.214938356      76.8006491       
1196.44          0.221230948      76.4439673       0.972230298      -12.7801511      0.972230298      -12.7801511      0.221230948      76.4439673       
1231.6           0.227505341      76.0871956       0.970749015      -13.1490559      0.970749015      -13.1490559      0.227505341      76.0871956       
1266.76          0.233761097      75.7303913       0.969230132      -13.5174179      0.969230132      -13.5174179      0.233761097      75.7303913       
1301.92          0.239997785      75.3736074       0.967673917      -13.8852245      0.967673917      -13.8852245      0.239997785      75.3736074       
1337.08          0.246214979      75.0168927       0.966080643      -14.2524631      0.966080643      -14.2524631      0.246214979      75.0168927       
1372.24          0.25241226       74.6602925       0.964450589      -14.6191213      0.964450589      -14.6191213      0.25241226       74.6602925       
1407.4           0.258589216      74.3038489       0.962784043      -14.9851869      0.962784043      -14.9851869      0.258589216      74.3038489       
1442.56          0.264745442      73.947601        0.961081299      -15.3506477      0.961081299      -15.3506477      0.264745442      73.947601        
1477.72          0.270880538      73.5915857       0.959342656      -15.7154917      0.959342656      -15.7154917      0.270880538      73.5915857       
1512.88          0.276994113      73.2358374       0.957568419      -16.0797071      0.957568419      -16.0797071      0.276994113      73.2358374       
1548.04          0.28308578       72.8803884       0.955758899      -16.4432822      0.955758899      -16.4432822      0.28308578       72.8803884       
1583.2           0.289155161      72.5252692       0.953914412      -16.8062055      0.953914412      -16.8062055      0.289155161      72.5252692       
1618.36          0.295201886      72.1705088       0.952035279      -17.1684656      0.952035279      -17.1684656      0.295201886      72.1705088       
1653.52          0.301225588      71.8161344       0.950121827      -17.5300513      0.950121827      -17.5300513      0.301225588      71.8161344       
1688.68          0.307225912      71.4621719       0.948174386      -17.8909515      0.948174386      -17.8909515      0.307225912      71.4621719       
1723.84          0.313202508      71.1086459       0.946193292      -18.2511553      0.946193292      -18.2511553      0.313202508      71.1086459       
1759             0.319155031      70.7555798       0.944178884      -18.6106521      0.944178884      -18.6106521      0.319155031      70.7555798       
1794.16          0.325083148      70.402996        0.942131507      -18.9694311      0.942131507      -18.9694311      0.325083148      70.402996        
1829.32          0.33098653       70.0509158       0.940051507      -19.3274821      0.940051507      -19.3274821      0.33098653       70.0509158       
1864.48          0.336864856      69.6993595       0.937939236      -19.6847947      0.937939236      -19.6847947      0.336864856      69.6993595       
1899.64          0.342717813      69.3483467       0.935795049      -20.0413589      0.935795049      -20.0413589      0.342717813      69.3483467       
1934.8           0.348545095      68.997896        0.933619303      -20.3971649      0.933619303      -20.3971649      0.348545095      68.997896        
1969.96          0.354346403      68.6480254       0.93141236       -20.7522027      0.93141236       -20.7522027      0.354346403      68.6480254       
2005.12          0.360121447      68.298752        0.929174583      -21.106463       0.929174583      -21.106463       0.360121447      68.298752        
2040.28          0.365869944      67.9500925       0.92690634       -21.4599363      0.92690634       -21.4599363      0.365869944      67.9500925       
2075.44          0.371591617      67.6020627       0.924607999      -21.8126133      0.924607999      -21.8126133      0.371591617      67.6020627       
2110.6           0.377286198      67.254678        0.922279933      -22.1644851      0.922279933      -22.1644851      0.377286198      67.254678        
2145.76          0.382953426      66.907953        0.919922514      -22.5155427      0.919922514      -22.5155427      0.382953426      66.907953        
2180.92          0.388593048      66.561902        0.917536119      -22.8657775      0.917536119      -22.8657775      0.388593048      66.561902        
2216.08          0.394204818      66.2165387       0.915121126      -23.215181       0.915121126      -23.215181       0.394204818      66.2165387       
2251.24          0.399788497      65.8718762       0.912677914      -23.5637447      0.912677914      -23.5637447      0.399788497      65.8718762       
2286.4           0.405343855      65.5279273       0.910206864      -23.9114606      0.910206864      -23.9114606      0.405343855      65.5279273       
2321.56          0.410870668      65.1847043       0.907708358      -24.2583205      0.907708358      -24.2583205      0.410870668      65.1847043       
2356.72          0.41636872       64.8422191       0.905182779      -24.6043168      0.905182779      -24.6043168      0.41636872       64.8422191       
2391.88          0.421837803      64.5004831       0.902630513      -24.9494416      0.902630513      -24.9494416      0.421837803      64.5004831       
2427.04          0.427277715      64.1595074       0.900051944      -25.2936877      0.900051944      -25.2936877      0.427277715      64.1595074       
2462.2           0.432688262      63.8193026       0.897447458      -25.6370475      0.897447458      -25.6370475      0.432688262      63.8193026       
2497.36          0.438069258      63.4798791       0.894817443      -25.9795141      0.894817443      -25.9795141      0.438069258      63.4798791       
2532.52          0.443420523      63.1412468       0.892162286      -26.3210805      0.892162286      -26.3210805      0.443420523      63.1412468       
2567.68          0.448741886      62.8034154       0.889482373      -26.6617398      0.889482373      -26.6617398      0.448741886      62.8034154       
2602.84          0.45403318       62.4663942       0.886778093      -27.0014854      0.886778093      -27.0014854      0.45403318       62.4663942       
2638             0.459294249      62.130192        0.884049834      -27.340311       0.884049834      -27.340311       0.459294249      62.130192        
2673.16          0.464524941      61.7948177       0.881297982      -27.6782102      0.881297982      -27.6782102      0.464524941      61.7948177       
2708.32          0.469725112      61.4602795       0.878522925      -28.0151769      0.878522925      -28.0151769      0.469725112      61.4602795       
2743.48          0.474894626      61.1265855       0.875725051      -28.3512052      0.875725051      -28.3512052      0.474894626      61.1265855       
2778.64          0.480033353      60.7937435       0.872904744      -28.6862893      0.872904744      -28.6862893      0.480033353      60.7937435       
2813.8           0.485141169      60.461761        0.870062392      -29.0204237      0.870062392      -29.0204237      0.485141169      60.461761        
2848.96          0.490217958      60.1306452       0.867198379      -29.3536028      0.867198379      -29.3536028      0.490217958      60.1306452       
2884.12          0.49526361       59.8004031       0.86431309       -29.6858213      0.86431309       -29.6858213      0.49526361       59.8004031       
2919.28          0.500278021      59.4710415       0.861406907      -30.0170743      0.861406907      -30.0170743      0.500278021      59.4710415       
2954.44          0.505261096      59.1425668       0.858480214      -30.3473567      0.858480214      -30.3473567      0.505261096      59.1425668       
2989.6           0.510212744      58.8149852       0.855533389      -30.6766637      0.855533389      -30.6766637      0.510212744      58.8149852       
3024.76          0.515132881      58.4883027       0.852566815      -31.0049908      0.852566815      -31.0049908      0.515132881      58.4883027       
3059.92          0.52002143       58.162525        0.849580867      -31.3323333      0.849580867      -31.3323333      0.52002143       58.162525        
3095.08          0.524878319      57.8376577       0.846575925      -31.6586871      0.846575925      -31.6586871      0.524878319      57.8376577       
3130.24          0.529703483      57.513706        0.843552361      -31.9840479      0.843552361      -31.9840479      0.529703483      57.513706        
3165.4           0.534496864      57.1906751       0.840510551      -32.3084117      0.840510551      -32.3084117      0.534496864      57.1906751       
3200.56          0.539258407      56.8685698       0.837450865      -32.6317746      0.837450865      -32.6317746      0.539258407      56.8685698       
3235.72          0.543988067      56.5473948       0.834373673      -32.954133       0.834373673      -32.954133       0.543988067      56.5473948       
3270.88          0.5486858        56.2271544       0.831279343      -33.2754833      0.831279343      -33.2754833      0.5486858        56.2271544       
3306.04          0.553351573      55.9078531       0.828168241      -33.595822       0.828168241      -33.595822       0.553351573      55.9078531       
3341.2           0.557985353      55.5894947       0.825040731      -33.9151459      0.825040731      -33.9151459      0.557985353      55.5894947       
3376.36          0.562587118      55.2720832       0.821897174      -34.2334518      0.821897174      -34.2334518      0.562587118      55.2720832       
3411.52          0.567156848      54.9556222       0.818737929      -34.5507368      0.818737929      -34.5507368      0.567156848      54.9556222       
3446.68          0.571694528      54.6401153       0.815563353      -34.8669979      0.815563353      -34.8669979      0.571694528      54.6401153       
3481.84          0.576200152      54.3255656       0.8123738        -35.1822325      0.8123738        -35.1822325      0.576200152      54.3255656       
3517             0.580673714      54.0119765       0.809169623      -35.496438       0.809169623      -35.496438       0.580673714      54.0119765       
3552.16          0.585115218      53.6993507       0.805951171      -35.8096119      0.805951171      -35.8096119      0.585115218      53.6993507       
3587.32          0.589524669      53.3876911       0.802718791      -36.1217519      0.802718791      -36.1217519      0.589524669      53.3876911       
3622.48          0.593902079      53.0770003       0.799472826      -36.4328557      0.799472826      -36.4328557      0.593902079      53.0770003       
3657.64          0.598247466      52.7672807       0.796213619      -36.7429215      0.796213619      -36.7429215      0.598247466      52.7672807       
3692.8           0.602560849      52.4585347       0.792941509      -37.0519471      0.792941509      -37.0519471      0.602560849      52.4585347       
3727.96          0.606842254      52.1507643       0.78965683       -37.3599308      0.78965683       -37.3599308      0.606842254      52.1507643       
3763.12          0.611091713      51.8439716       0.786359916      -37.6668709      0.786359916      -37.6668709      0.611091713      51.8439716       
3798.28          0.615309259      51.5381583       0.783051098      -37.9727657      0.783051098      -37.9727657      0.615309259      51.5381583       
3833.44          0.619494931      51.2333262       0.779730703      -38.2776139      0.779730703      -38.2776139      0.619494931      51.2333262       
3868.6           0.623648773      50.9294767       0.776399054      -38.5814141      0.776399054      -38.5814141      0.623648773      50.9294767       
3903.76          0.627770833      50.6266112       0.773056473      -38.884165       0.773056473      -38.884165       0.627770833      50.6266112       
3938.92          0.63186116       50.324731        0.769703279      -39.1858655      0.769703279      -39.1858655      0.63186116       50.324731        
3974.08          0.635919812      50.0238373       0.766339786      -39.4865146      0.766339786      -39.4865146      0.635919812      50.0238373       
4009.24          0.639946846      49.7239309       0.762966306      -39.7861114      0.762966306      -39.7861114      0.639946846      49.7239309       
4044.4           0.643942327      49.4250128       0.759583149      -40.0846551      0.759583149      -40.0846551      0.643942327      49.4250128       
4079.56          0.64790632       49.1270835       0.756190619      -40.3821449      0.756190619      -40.3821449      0.64790632       49.1270835       
4114.72          0.651838896      48.8301438       0.75278902       -40.6785803      0.75278902       -40.6785803      0.651838896      48.8301438       
4149.88          0.655740129      48.5341941       0.74937865       -40.9739608      0.74937865       -40.9739608      0.655740129      48.5341941       
4185.04          0.659610096      48.2392348       0.745959806      -41.2682858      0.745959806      -41.2682858      0.659610096      48.2392348       
4220.2           0.663448877      47.945266        0.74253278       -41.5615552      0.74253278       -41.5615552      0.663448877      47.945266        
4255.36          0.667256557      47.6522878       0.739097863      -41.8537687      0.739097863      -41.8537687      0.667256557      47.6522878       
4290.52          0.671033221      47.3603004       0.73565534       -42.1449261      0.73565534       -42.1449261      0.671033221      47.3603004       
4325.68          0.674778961      47.0693035       0.732205493      -42.4350273      0.732205493      -42.4350273      0.674778961      47.0693035       
4360.84          0.678493868      46.779297        0.728748604      -42.7240725      0.728748604      -42.7240725      0.678493868      46.779297        
4396             0.682178039      46.4902805       0.725284948      -43.0120617      0.725284948      -43.0120617      0.682178039      46.4902805       
4431.16          0.685831572      46.2022535       0.721814798      -43.2989951      0.721814798      -43.2989951      0.685831572      46.2022535       
4466.32          0.689454569      45.9152157       0.718338424      -43.584873       0.718338424      -43.584873       0.689454569      45.9152157       
