! Coilcraft 1008HQ-7N8 Chip Inductor				
! 10 July 2002			
# MHZ S MA R 50
!Freq             MagS11           AngS11           MagS21           AngS21           MagS12           AngS12           MagS22           AngS22
1                0.000779677727   38.8891527       0.999393248      -0.0280629644    0.999393248      -0.0280629644    0.000779677727   38.8891527       
17.96            0.00884479264    83.313829        0.999008816      -0.503828513     0.999008816      -0.503828513     0.00884479264    83.313829        
34.92            0.0171300592     85.2352842       0.99872301       -0.979386594     0.99872301       -0.979386594     0.0171300592     85.2352842       
51.88            0.0254191639     85.6841215       0.99840888       -1.45475162      0.99840888       -1.45475162      0.0254191639     85.6841215       
68.84            0.033705305      85.7144978       0.998047441      -1.92990476      0.998047441      -1.92990476      0.033705305      85.7144978       
85.8             0.0419860586     85.564103        0.997631252      -2.40481864      0.997631252      -2.40481864      0.0419860586     85.564103        
102.76           0.0502598109     85.3180431       0.997156542      -2.8794621       0.997156542      -2.8794621       0.0502598109     85.3180431       
119.72           0.0585251883     85.014798        0.996621142      -3.35380197      0.996621142      -3.35380197      0.0585251883     85.014798        
136.68           0.0667809091     84.6744725       0.996023722      -3.82780385      0.996023722      -3.82780385      0.0667809091     84.6744725       
153.64           0.0750257343     84.3086694       0.99536344       -4.30143262      0.99536344       -4.30143262      0.0750257343     84.3086694       
170.6            0.0832584479     83.9245921       0.994639771      -4.77465271      0.994639771      -4.77465271      0.0832584479     83.9245921       
187.56           0.0914778495     83.5269719       0.993852403      -5.24742828      0.993852403      -5.24742828      0.0914778495     83.5269719       
204.52           0.099682751      83.1190579       0.99300118       -5.71972335      0.99300118       -5.71972335      0.099682751      83.1190579       
221.48           0.107871975      82.7031649       0.992086066      -6.19150191      0.992086066      -6.19150191      0.107871975      82.7031649       
238.44           0.116044356      82.2809935       0.991107117      -6.66272802      0.991107117      -6.66272802      0.116044356      82.2809935       
255.4            0.124198737      81.8538256       0.990064464      -7.13336581      0.990064464      -7.13336581      0.124198737      81.8538256       
272.36           0.132333977      81.4226501       0.988958302      -7.6033796       0.988958302      -7.6033796       0.132333977      81.4226501       
289.32           0.140448942      80.9882448       0.987788882      -8.0727339       0.987788882      -8.0727339       0.140448942      80.9882448       
306.28           0.148542516      80.5512325       0.9865565        -8.54139345      0.9865565        -8.54139345      0.148542516      80.5512325       
323.24           0.156613593      80.1121197       0.985261499      -9.00932329      0.985261499      -9.00932329      0.156613593      80.1121197       
340.2            0.164661084      79.6713242       0.983904254      -9.47648875      0.983904254      -9.47648875      0.164661084      79.6713242       
357.16           0.172683913      79.2291953       0.982485181      -9.94285549      0.982485181      -9.94285549      0.172683913      79.2291953       
374.12           0.180681022      78.7860283       0.981004725      -10.4083896      0.981004725      -10.4083896      0.180681022      78.7860283       
391.08           0.188651368      78.3420756       0.979463361      -10.8730573      0.979463361      -10.8730573      0.188651368      78.3420756       
408.04           0.196593925      77.8975553       0.977861593      -11.3368257      0.977861593      -11.3368257      0.196593925      77.8975553       
425              0.204507686      77.4526572       0.97619995       -11.7996618      0.97619995       -11.7996618      0.204507686      77.4526572       
441.96           0.212391661      77.0075484       0.974478984      -12.2615333      0.974478984      -12.2615333      0.212391661      77.0075484       
458.92           0.220244879      76.5623768       0.972699274      -12.7224084      0.972699274      -12.7224084      0.220244879      76.5623768       
475.88           0.22806639       76.1172744       0.970861418      -13.1822558      0.970861418      -13.1822558      0.22806639       76.1172744       
492.84           0.235855262      75.6723597       0.968966034      -13.6410444      0.968966034      -13.6410444      0.235855262      75.6723597       
509.8            0.243610582      75.2277399       0.967013761      -14.098744       0.967013761      -14.098744       0.243610582      75.2277399       
526.76           0.251331462      74.7835124       0.965005255      -14.5553247      0.965005255      -14.5553247      0.251331462      74.7835124       
543.72           0.25901703       74.3397662       0.96294119       -15.010757       0.96294119       -15.010757       0.25901703       74.3397662       
560.68           0.266666438      73.8965831       0.960822257      -15.4650123      0.960822257      -15.4650123      0.266666438      73.8965831       
577.64           0.274278861      73.4540385       0.95864916       -15.9180623      0.95864916       -15.9180623      0.274278861      73.4540385       
594.6            0.281853492      73.012202        0.95642262       -16.3698793      0.95642262       -16.3698793      0.281853492      73.012202        
611.56           0.28938955       72.5711387       0.954143369      -16.8204362      0.954143369      -16.8204362      0.28938955       72.5711387       
628.52           0.296886275      72.130909        0.951812155      -17.2697065      0.951812155      -17.2697065      0.296886275      72.130909        
645.48           0.304342928      71.6915694       0.949429734      -17.7176642      0.949429734      -17.7176642      0.304342928      71.6915694       
662.44           0.311758795      71.253173        0.946996876      -18.164284       0.946996876      -18.164284       0.311758795      71.253173        
679.4            0.319133185      70.8157696       0.94451436       -18.6095412      0.94451436       -18.6095412      0.319133185      70.8157696       
696.36           0.326465429      70.3794062       0.941982975      -19.0534116      0.941982975      -19.0534116      0.326465429      70.3794062       
713.32           0.33375488       69.944127        0.939403516      -19.4958717      0.939403516      -19.4958717      0.33375488       69.944127        
730.28           0.341000917      69.5099739       0.93677679       -19.9368986      0.93677679       -19.9368986      0.341000917      69.5099739       
747.24           0.348202939      69.0769865       0.934103609      -20.3764699      0.934103609      -20.3764699      0.348202939      69.0769865       
764.2            0.355360372      68.6452025       0.931384791      -20.8145641      0.931384791      -20.8145641      0.355360372      68.6452025       
781.16           0.362472662      68.2146575       0.928621159      -21.2511601      0.928621159      -21.2511601      0.362472662      68.2146575       
798.12           0.369539279      67.7853853       0.925813544      -21.6862373      0.925813544      -21.6862373      0.369539279      67.7853853       
815.08           0.376559716      67.3574181       0.922962779      -22.1197761      0.922962779      -22.1197761      0.376559716      67.3574181       
832.04           0.383533489      66.9307865       0.920069699      -22.5517572      0.920069699      -22.5517572      0.383533489      66.9307865       
849              0.390460138      66.5055195       0.917135147      -22.9821621      0.917135147      -22.9821621      0.390460138      66.5055195       
865.96           0.397339224      66.081645        0.914159963      -23.4109728      0.914159963      -23.4109728      0.397339224      66.081645        
882.92           0.404170331      65.6591891       0.911144991      -23.838172       0.911144991      -23.838172       0.404170331      65.6591891       
899.88           0.410953066      65.2381771       0.908091077      -24.2637431      0.908091077      -24.2637431      0.410953066      65.2381771       
916.84           0.417687057      64.8186328       0.904999066      -24.6876698      0.904999066      -24.6876698      0.417687057      64.8186328       
933.8            0.424371955      64.4005788       0.901869803      -25.1099368      0.901869803      -25.1099368      0.424371955      64.4005788       
950.76           0.431007433      63.9840369       0.898704132      -25.5305291      0.898704132      -25.5305291      0.431007433      63.9840369       
967.72           0.437593184      63.5690274       0.895502898      -25.9494326      0.895502898      -25.9494326      0.437593184      63.5690274       
984.68           0.444128924      63.15557         0.892266942      -26.3666335      0.892266942      -26.3666335      0.444128924      63.15557         
1001.64          0.450614388      62.7436832       0.888997103      -26.7821188      0.888997103      -26.7821188      0.450614388      62.7436832       
1018.6           0.457049333      62.3333845       0.885694218      -27.1958759      0.885694218      -27.1958759      0.457049333      62.3333845       
1035.56          0.463433536      61.9246906       0.88235912       -27.6078931      0.88235912       -27.6078931      0.463433536      61.9246906       
1052.52          0.469766794      61.5176173       0.878992639      -28.018159       0.878992639      -28.018159       0.469766794      61.5176173       
1069.48          0.476048924      61.1121795       0.875595601      -28.4266628      0.875595601      -28.4266628      0.476048924      61.1121795       
1086.44          0.482279762      60.7083912       0.872168826      -28.8333943      0.872168826      -28.8333943      0.482279762      60.7083912       
1103.4           0.488459163      60.3062658       0.86871313       -29.238344       0.86871313       -29.238344       0.488459163      60.3062658       
1120.36          0.494587001      59.9058157       0.865229325      -29.6415028      0.865229325      -29.6415028      0.494587001      59.9058157       
1137.32          0.500663168      59.5070527       0.861718215      -30.0428621      0.861718215      -30.0428621      0.500663168      59.5070527       
1154.28          0.506687573      59.1099877       0.858180599      -30.4424139      0.858180599      -30.4424139      0.506687573      59.1099877       
1171.24          0.512660145      58.7146312       0.854617269      -30.8401509      0.854617269      -30.8401509      0.512660145      58.7146312       
1188.2           0.518580828      58.3209926       0.851029011      -31.2360659      0.851029011      -31.2360659      0.518580828      58.3209926       
1205.16          0.524449584      57.9290809       0.847416603      -31.6301527      0.847416603      -31.6301527      0.524449584      57.9290809       
1222.12          0.530266391      57.5389044       0.843780816      -32.0224052      0.843780816      -32.0224052      0.530266391      57.5389044       
1239.08          0.536031243      57.1504707       0.840122414      -32.4128181      0.840122414      -32.4128181      0.536031243      57.1504707       
1256.04          0.541744149      56.7637868       0.836442152      -32.8013863      0.836442152      -32.8013863      0.541744149      56.7637868       
1273             0.547405134      56.378859        0.832740778      -33.1881054      0.832740778      -33.1881054      0.547405134      56.378859        
1289.96          0.553014238      55.9956933       0.82901903       -33.5729714      0.82901903       -33.5729714      0.553014238      55.9956933       
1306.92          0.558571515      55.6142949       0.82527764       -33.9559807      0.82527764       -33.9559807      0.558571515      55.6142949       
1323.88          0.564077032      55.2346684       0.821517328      -34.3371303      0.821517328      -34.3371303      0.564077032      55.2346684       
1340.84          0.569530873      54.8568181       0.817738807      -34.7164173      0.817738807      -34.7164173      0.569530873      54.8568181       
1357.8           0.574933131      54.4807475       0.813942781      -35.0938397      0.813942781      -35.0938397      0.574933131      54.4807475       
1374.76          0.580283914      54.1064598       0.810129943      -35.4693956      0.810129943      -35.4693956      0.580283914      54.1064598       
1391.72          0.585583343      53.7339575       0.806300979      -35.8430835      0.806300979      -35.8430835      0.585583343      53.7339575       
1408.68          0.59083155       53.3632429       0.802456563      -36.2149025      0.802456563      -36.2149025      0.59083155       53.3632429       
1425.64          0.596028678      52.9943176       0.798597362      -36.5848519      0.798597362      -36.5848519      0.596028678      52.9943176       
1442.6           0.601174883      52.6271829       0.794724029      -36.9529314      0.794724029      -36.9529314      0.601174883      52.6271829       
1459.56          0.606270331      52.2618394       0.790837212      -37.3191413      0.790837212      -37.3191413      0.606270331      52.2618394       
1476.52          0.611315197      51.8982876       0.786937545      -37.6834821      0.786937545      -37.6834821      0.611315197      51.8982876       
1493.48          0.616309669      51.5365274       0.783025655      -38.0459544      0.783025655      -38.0459544      0.616309669      51.5365274       
1510.44          0.621253943      51.1765583       0.779102157      -38.4065596      0.779102157      -38.4065596      0.621253943      51.1765583       
1527.4           0.626148224      50.8183795       0.775167656      -38.7652991      0.775167656      -38.7652991      0.626148224      50.8183795       
1544.36          0.630992726      50.4619897       0.771222748      -39.1221748      0.771222748      -39.1221748      0.630992726      50.4619897       
1561.32          0.635787674      50.1073873       0.767268016      -39.4771888      0.767268016      -39.4771888      0.635787674      50.1073873       
1578.28          0.640533298      49.7545703       0.763304037      -39.8303436      0.763304037      -39.8303436      0.640533298      49.7545703       
1595.24          0.645229839      49.4035365       0.759331375      -40.181642       0.759331375      -40.181642       0.645229839      49.4035365       
1612.2           0.649877541      49.0542831       0.755350583      -40.5310869      0.755350583      -40.5310869      0.649877541      49.0542831       
1629.16          0.654476661      48.7068073       0.751362206      -40.8786817      0.751362206      -40.8786817      0.654476661      48.7068073       
1646.12          0.659027459      48.3611058       0.747366777      -41.2244299      0.747366777      -41.2244299      0.659027459      48.3611058       
1663.08          0.663530203      48.0171749       0.743364821      -41.5683355      0.743364821      -41.5683355      0.663530203      48.0171749       
1680.04          0.667985166      47.6750108       0.73935685       -41.9104024      0.73935685       -41.9104024      0.667985166      47.6750108       
1697             0.672392629      47.3346093       0.735343367      -42.2506351      0.735343367      -42.2506351      0.672392629      47.3346093       
1713.96          0.676752876      46.9959661       0.731324867      -42.589038       0.731324867      -42.589038       0.676752876      46.9959661       
1730.92          0.6810662        46.6590764       0.727301831      -42.9256159      0.727301831      -42.9256159      0.6810662        46.6590764       
1747.88          0.685332895      46.3239352       0.723274734      -43.260374       0.723274734      -43.260374       0.685332895      46.3239352       
1764.84          0.689553262      45.9905375       0.719244038      -43.5933172      0.719244038      -43.5933172      0.689553262      45.9905375       
1781.8           0.693727607      45.6588778       0.715210197      -43.9244511      0.715210197      -43.9244511      0.693727607      45.6588778       
1798.76          0.697856238      45.3289505       0.711173655      -44.2537813      0.711173655      -44.2537813      0.697856238      45.3289505       
1815.72          0.701939469      45.0007496       0.707134845      -44.5813135      0.707134845      -44.5813135      0.701939469      45.0007496       
1832.68          0.705977617      44.6742692       0.703094192      -44.9070536      0.703094192      -44.9070536      0.705977617      44.6742692       
1849.64          0.709971002      44.349503        0.699052112      -45.2310079      0.699052112      -45.2310079      0.709971002      44.349503        
1866.6           0.713919947      44.0264444       0.695009008      -45.5531824      0.695009008      -45.5531824      0.713919947      44.0264444       
1883.56          0.717824779      43.705087        0.690965279      -45.8735838      0.690965279      -45.8735838      0.717824779      43.705087        
1900.52          0.721685827      43.3854238       0.68692131       -46.1922185      0.68692131       -46.1922185      0.721685827      43.3854238       
1917.48          0.725503423      43.0674479       0.682877479      -46.5090933      0.682877479      -46.5090933      0.725503423      43.0674479       
1934.44          0.729277901      42.7511522       0.678834155      -46.8242149      0.678834155      -46.8242149      0.729277901      42.7511522       
1951.4           0.733009595      42.4365293       0.674791698      -47.1375904      0.674791698      -47.1375904      0.733009595      42.4365293       
1968.36          0.736698845      42.1235718       0.670750459      -47.4492268      0.670750459      -47.4492268      0.736698845      42.1235718       
1985.32          0.740345988      41.8122721       0.666710781      -47.7591314      0.666710781      -47.7591314      0.740345988      41.8122721       
2002.28          0.743951367      41.5026226       0.662672997      -48.0673113      0.662672997      -48.0673113      0.743951367      41.5026226       
2019.24          0.747515322      41.1946153       0.658637433      -48.373774       0.658637433      -48.373774       0.747515322      41.1946153       
2036.2           0.751038198      40.8882424       0.654604405      -48.6785269      0.654604405      -48.6785269      0.751038198      40.8882424       
2053.16          0.754520337      40.5834958       0.650574223      -48.9815777      0.650574223      -48.9815777      0.754520337      40.5834958       
2070.12          0.757962085      40.2803672       0.646547188      -49.282934       0.646547188      -49.282934       0.757962085      40.2803672       
2087.08          0.761363787      39.9788485       0.642523591      -49.5826033      0.642523591      -49.5826033      0.761363787      39.9788485       
2104.04          0.764725788      39.6789312       0.638503718      -49.8805937      0.638503718      -49.8805937      0.764725788      39.6789312       
2121             0.768048433      39.3806069       0.634487847      -50.1769128      0.634487847      -50.1769128      0.768048433      39.3806069       
2137.96          0.77133207       39.083867        0.630476246      -50.4715685      0.630476246      -50.4715685      0.77133207       39.083867        
2154.92          0.774577044      38.7887029       0.626469178      -50.7645689      0.626469178      -50.7645689      0.774577044      38.7887029       
