! Coilcraft 1008HQ-82N Chip Inductor				
! 10 July 2002			
# MHZ S MA R 50
!Freq             MagS11           AngS11           MagS21           AngS21           MagS12           AngS12           MagS22           AngS22
1                0.0057296648     63.4626175       0.997453263      -0.294449619     0.997453263      -0.294449619     0.0057296648     63.4626175       
5.74             0.0296965978     80.8913018       0.995730622      -1.68748097      0.995730622      -1.68748097      0.0296965978     80.8913018       
10.48            0.0538686998     82.0085755       0.993943488      -3.07657891      0.993943488      -3.07657891      0.0538686998     82.0085755       
15.22            0.0779522776     81.6962982       0.991746339      -4.4607994       0.991746339      -4.4607994       0.0779522776     81.6962982       
19.96            0.101893267      80.933062        0.98907425       -5.83889213      0.98907425       -5.83889213      0.101893267      80.933062        
24.7             0.125650835      79.9686825       0.985908104      -7.20954347      0.985908104      -7.20954347      0.125650835      79.9686825       
29.44            0.149187839      78.8987525       0.982245776      -8.57143862      0.982245776      -8.57143862      0.149187839      78.8987525       
34.18            0.172469431      77.768745        0.978093894      -9.92329026      0.978093894      -9.92329026      0.172469431      77.768745        
38.92            0.195462875      76.60357         0.973464539      -11.2638557      0.973464539      -11.2638557      0.195462875      76.60357         
43.66            0.218137624      75.4183231       0.968373596      -12.5919487      0.968373596      -12.5919487      0.218137624      75.4183231       
48.4             0.240465445      74.2228789       0.962839781      -13.9064484      0.962839781      -13.9064484      0.240465445      74.2228789       
53.14            0.262420527      73.0240936       0.95688397       -15.2063053      0.95688397       -15.2063053      0.262420527      73.0240936       
57.88            0.283979574      71.8269572       0.950528692      -16.4905467      0.950528692      -16.4905467      0.283979574      71.8269572       
62.62            0.305121855      70.6352375       0.943797722      -17.7582798      0.943797722      -17.7582798      0.305121855      70.6352375       
67.36            0.325829224      69.4518623       0.936715719      -19.0086939      0.936715719      -19.0086939      0.325829224      69.4518623       
72.1             0.346086105      68.2791555       0.929307919      -20.2410613      0.929307919      -20.2410613      0.346086105      68.2791555       
76.84            0.365879456      67.1189901       0.921599855      -21.4547374      0.921599855      -21.4547374      0.365879456      67.1189901       
81.58            0.385198692      65.972891        0.913617112      -22.6491601      0.913617112      -22.6491601      0.385198692      65.972891        
86.32            0.404035599      64.8421052       0.905385106      -23.8238476      0.905385106      -23.8238476      0.404035599      64.8421052       
91.06            0.42238422       63.7276536       0.89692889       -24.9783968      0.89692889       -24.9783968      0.42238422       63.7276536       
95.8             0.440240731      62.6303679       0.888272986      -26.1124799      0.888272986      -26.1124799      0.440240731      62.6303679       
100.54           0.457603304      61.5509195       0.879441241      -27.2258412      0.879441241      -27.2258412      0.457603304      61.5509195       
105.28           0.474471958      60.4898422       0.870456707      -28.3182934      0.870456707      -28.3182934      0.474471958      60.4898422       
110.02           0.490848411      59.4475497       0.86134154       -29.389714       0.86134154       -29.389714       0.490848411      59.4475497       
114.76           0.506735925      58.4243513       0.852116922      -30.4400404      0.852116922      -30.4400404      0.506735925      58.4243513       
119.5            0.522139158      57.4204638       0.842803003      -31.4692662      0.842803003      -31.4692662      0.522139158      57.4204638       
124.24           0.537064006      56.4360227       0.833418855      -32.4774369      0.833418855      -32.4774369      0.537064006      56.4360227       
128.98           0.551517462      55.4710919       0.823982452      -33.4646449      0.823982452      -33.4646449      0.551517462      55.4710919       
133.72           0.565507476      54.5256713       0.81451065       -34.4310261      0.81451065       -34.4310261      0.565507476      54.5256713       
138.46           0.57904282       53.5997051       0.805019191      -35.3767552      0.805019191      -35.3767552      0.57904282       53.5997051       
143.2            0.592132961      52.693088        0.795522715      -36.3020416      0.795522715      -36.3020416      0.592132961      52.693088        
147.94           0.604787945      51.8056713       0.786034773      -37.207126       0.786034773      -37.207126       0.604787945      51.8056713       
152.68           0.61701829       50.9372686       0.776567861      -38.0922762      0.776567861      -38.0922762      0.61701829       50.9372686       
157.42           0.62883488       50.0876605       0.767133449      -38.957784       0.767133449      -38.957784       0.62883488       50.0876605       
162.16           0.640248881      49.2565995       0.757742019      -39.8039618      0.757742019      -39.8039618      0.640248881      49.2565995       
166.9            0.651271653      48.4438134       0.748403107      -40.6311393      0.748403107      -40.6311393      0.651271653      48.4438134       
171.64           0.661914676      47.6490097       0.73912535       -41.4396613      0.73912535       -41.4396613      0.661914676      47.6490097       
176.38           0.672189486      46.8718787       0.729916527      -42.2298842      0.729916527      -42.2298842      0.672189486      46.8718787       
181.12           0.682107617      46.1120965       0.720783613      -43.0021743      0.720783613      -43.0021743      0.682107617      46.1120965       
185.86           0.691680542      45.3693276       0.711732818      -43.7569055      0.711732818      -43.7569055      0.691680542      45.3693276       
190.6            0.70091964       44.6432277       0.702769643      -44.494457       0.702769643      -44.494457       0.70091964       44.6432277       
195.34           0.709836145      43.9334457       0.693898922      -45.2152116      0.693898922      -45.2152116      0.709836145      43.9334457       
200.08           0.718441122      43.2396256       0.685124867      -45.9195544      0.685124867      -45.9195544      0.718441122      43.2396256       
204.82           0.726745434      42.5614085       0.676451118      -46.6078707      0.676451118      -46.6078707      0.726745434      42.5614085       
209.56           0.734759721      41.8984338       0.667880778      -47.2805455      0.667880778      -47.2805455      0.734759721      41.8984338       
214.3            0.74249438       41.250341        0.659416461      -47.9379616      0.659416461      -47.9379616      0.74249438       41.250341        
219.04           0.749959549      40.6167705       0.651060325      -48.5804992      0.651060325      -48.5804992      0.749959549      40.6167705       
223.78           0.757165099      39.997365        0.642814117      -49.2085346      0.642814117      -49.2085346      0.757165099      39.997365        
228.52           0.764120621      39.3917701       0.634679199      -49.8224395      0.634679199      -49.8224395      0.764120621      39.3917701       
233.26           0.77083542       38.7996354       0.62665659       -50.4225807      0.62665659       -50.4225807      0.77083542       38.7996354       
238              0.777318515      38.2206149       0.61874699       -51.0093191      0.61874699       -51.0093191      0.777318515      38.2206149       
242.74           0.783578634      37.6543681       0.610950813      -51.5830092      0.610950813      -51.5830092      0.783578634      37.6543681       
247.48           0.789624215      37.1005596       0.603268214      -52.1439992      0.603268214      -52.1439992      0.789624215      37.1005596       
252.22           0.795463408      36.5588604       0.595699113      -52.6926303      0.595699113      -52.6926303      0.795463408      36.5588604       
256.96           0.801104074      36.0289477       0.588243221      -53.2292364      0.588243221      -53.2292364      0.801104074      36.0289477       
261.7            0.806553796      35.5105053       0.580900058      -53.7541441      0.580900058      -53.7541441      0.806553796      35.5105053       
266.44           0.811819879      35.0032241       0.573668977      -54.2676724      0.573668977      -54.2676724      0.811819879      35.0032241       
271.18           0.816909354      34.5068016       0.56654918       -54.7701327      0.56654918       -54.7701327      0.816909354      34.5068016       
275.92           0.821828988      34.0209427       0.559539735      -55.2618289      0.559539735      -55.2618289      0.821828988      34.0209427       
280.66           0.826585289      33.5453594       0.552639595      -55.7430569      0.552639595      -55.7430569      0.826585289      33.5453594       
285.4            0.831184514      33.0797708       0.54584761       -56.214105       0.54584761       -56.214105       0.831184514      33.0797708       
290.14           0.835632673      32.6239035       0.539162539      -56.6752538      0.539162539      -56.6752538      0.835632673      32.6239035       
294.88           0.839935541      32.1774909       0.532583065      -57.1267764      0.532583065      -57.1267764      0.839935541      32.1774909       
299.62           0.844098662      31.7402738       0.526107802      -57.5689382      0.526107802      -57.5689382      0.844098662      31.7402738       
304.36           0.848127358      31.3120001       0.519735312      -58.0019972      0.519735312      -58.0019972      0.848127358      31.3120001       
309.1            0.852026737      30.8924246       0.513464105      -58.4262041      0.513464105      -58.4262041      0.852026737      30.8924246       
313.84           0.855801701      30.481309        0.507292657      -58.8418024      0.507292657      -58.8418024      0.855801701      30.481309        
318.58           0.859456951      30.0784219       0.501219407      -59.2490284      0.501219407      -59.2490284      0.859456951      30.0784219       
323.32           0.862996998      29.6835383       0.495242775      -59.6481116      0.495242775      -59.6481116      0.862996998      29.6835383       
328.06           0.866426168      29.2964401       0.489361158      -60.0392746      0.489361158      -60.0392746      0.866426168      29.2964401       
332.8            0.869748609      28.9169154       0.483572941      -60.4227334      0.483572941      -60.4227334      0.869748609      28.9169154       
337.54           0.8729683        28.5447584       0.477876504      -60.7986976      0.477876504      -60.7986976      0.8729683        28.5447584       
342.28           0.876089055      28.1797697       0.472270219      -61.1673703      0.472270219      -61.1673703      0.876089055      28.1797697       
347.02           0.879114533      27.8217558       0.466752462      -61.5289486      0.466752462      -61.5289486      0.879114533      27.8217558       
351.76           0.882048241      27.4705288       0.461321609      -61.8836235      0.461321609      -61.8836235      0.882048241      27.4705288       
356.5            0.884893542      27.1259067       0.455976047      -62.2315803      0.455976047      -62.2315803      0.884893542      27.1259067       
361.24           0.887653663      26.787713        0.450714171      -62.5729984      0.450714171      -62.5729984      0.887653663      26.787713        
365.98           0.890331695      26.4557762       0.445534388      -62.9080519      0.445534388      -62.9080519      0.890331695      26.4557762       
370.72           0.892930606      26.1299306       0.44043512       -63.2369095      0.44043512       -63.2369095      0.892930606      26.1299306       
375.46           0.89545324       25.810015        0.435414805      -63.5597346      0.435414805      -63.5597346      0.89545324       25.810015        
380.2            0.897902324      25.4958734       0.4304719        -63.8766858      0.4304719        -63.8766858      0.897902324      25.4958734       
384.94           0.900280478      25.1873544       0.425604879      -64.1879165      0.425604879      -64.1879165      0.900280478      25.1873544       
389.68           0.902590211      24.8843115       0.42081224       -64.4935756      0.42081224       -64.4935756      0.902590211      24.8843115       
394.42           0.904833933      24.5866024       0.4160925        -64.7938074      0.4160925        -64.7938074      0.904833933      24.5866024       
399.16           0.907013956      24.2940891       0.4114442        -65.0887516      0.4114442        -65.0887516      0.907013956      24.2940891       
403.9            0.909132497      24.006638        0.406865903      -65.3785438      0.406865903      -65.3785438      0.909132497      24.006638        
408.64           0.911191686      23.7241195       0.402356198      -65.6633154      0.402356198      -65.6633154      0.911191686      23.7241195       
413.38           0.913193567      23.4464079       0.397913696      -65.9431936      0.397913696      -65.9431936      0.913193567      23.4464079       
418.12           0.915140103      23.1733814       0.393537033      -66.2183018      0.393537033      -66.2183018      0.915140103      23.1733814       
422.86           0.917033177      22.9049217       0.389224871      -66.4887598      0.389224871      -66.4887598      0.917033177      22.9049217       
427.6            0.918874598      22.6409142       0.384975898      -66.7546834      0.384975898      -66.7546834      0.918874598      22.6409142       
432.34           0.920666106      22.3812479       0.380788824      -67.0161852      0.380788824      -67.0161852      0.920666106      22.3812479       
437.08           0.92240937       22.125815        0.376662386      -67.2733742      0.376662386      -67.2733742      0.92240937       22.125815        
441.82           0.924105993      21.8745107       0.372595348      -67.5263562      0.372595348      -67.5263562      0.924105993      21.8745107       
446.56           0.925757518      21.6272338       0.368586496      -67.7752337      0.368586496      -67.7752337      0.925757518      21.6272338       
451.3            0.927365427      21.3838858       0.364634642      -68.0201061      0.364634642      -68.0201061      0.927365427      21.3838858       
456.04           0.928931144      21.1443712       0.360738624      -68.26107        0.360738624      -68.26107        0.928931144      21.1443712       
460.78           0.930456039      20.9085974       0.356897303      -68.4982189      0.356897303      -68.4982189      0.930456039      20.9085974       
465.52           0.931941429      20.6764745       0.353109564      -68.7316436      0.353109564      -68.7316436      0.931941429      20.6764745       
470.26           0.933388581      20.4479151       0.349374317      -68.9614322      0.349374317      -68.9614322      0.933388581      20.4479151       
475              0.934798714      20.2228347       0.345690496      -69.1876702      0.345690496      -69.1876702      0.934798714      20.2228347       
479.74           0.936173         20.0011509       0.342057057      -69.4104406      0.342057057      -69.4104406      0.936173         20.0011509       
484.48           0.937512569      19.782784        0.33847298       -69.6298238      0.33847298       -69.6298238      0.937512569      19.782784        
489.22           0.938818507      19.5676564       0.334937267      -69.845898       0.334937267      -69.845898       0.938818507      19.5676564       
493.96           0.940091859      19.3556928       0.331448943      -70.0587391      0.331448943      -70.0587391      0.940091859      19.3556928       
498.7            0.941333633      19.1468202       0.328007053      -70.2684207      0.328007053      -70.2684207      0.941333633      19.1468202       
503.44           0.942544798      18.9409675       0.324610666      -70.4750144      0.324610666      -70.4750144      0.942544798      18.9409675       
508.18           0.94372629       18.7380657       0.321258871      -70.6785895      0.321258871      -70.6785895      0.94372629       18.7380657       
512.92           0.944879009      18.5380479       0.317950776      -70.8792136      0.317950776      -70.8792136      0.944879009      18.5380479       
517.66           0.946003821      18.3408488       0.314685512      -71.0769522      0.314685512      -71.0769522      0.946003821      18.3408488       
522.4            0.947101564      18.1464053       0.311462227      -71.2718689      0.311462227      -71.2718689      0.947101564      18.1464053       
527.14           0.948173043      17.9546557       0.308280091      -71.4640255      0.308280091      -71.4640255      0.948173043      17.9546557       
531.88           0.949219036      17.7655403       0.305138292      -71.6534822      0.305138292      -71.6534822      0.949219036      17.7655403       
536.62           0.950240292      17.5790009       0.302036036      -71.8402972      0.302036036      -71.8402972      0.950240292      17.5790009       
541.36           0.951237535      17.3949811       0.298972547      -72.0245274      0.298972547      -72.0245274      0.951237535      17.3949811       
546.1            0.952211462      17.2134258       0.295947068      -72.2062279      0.295947068      -72.2062279      0.952211462      17.2134258       
550.84           0.953162745      17.0342816       0.292958859      -72.3854524      0.292958859      -72.3854524      0.953162745      17.0342816       
555.58           0.954092036      16.8574965       0.290007196      -72.5622528      0.290007196      -72.5622528      0.954092036      16.8574965       
560.32           0.95499996       16.6830199       0.287091373      -72.7366799      0.287091373      -72.7366799      0.95499996       16.6830199       
565.06           0.955887124      16.5108026       0.284210699      -72.908783       0.284210699      -72.908783       0.955887124      16.5108026       
569.8            0.956754112      16.3407967       0.281364499      -73.07861        0.281364499      -73.07861        0.956754112      16.3407967       
574.54           0.957601488      16.1729555       0.278552115      -73.2462076      0.278552115      -73.2462076      0.957601488      16.1729555       
579.28           0.9584298        16.0072338       0.275772902      -73.4116209      0.275772902      -73.4116209      0.9584298        16.0072338       
584.02           0.959239572      15.8435873       0.27302623       -73.5748943      0.27302623       -73.5748943      0.959239572      15.8435873       
588.76           0.960031316      15.6819731       0.270311485      -73.7360705      0.270311485      -73.7360705      0.960031316      15.6819731       
593.5            0.960805523      15.5223492       0.267628066      -73.8951913      0.267628066      -73.8951913      0.960805523      15.5223492       
598.24           0.961562669      15.364675        0.264975384      -74.0522973      0.264975384      -74.0522973      0.961562669      15.364675        
602.98           0.962303215      15.2089107       0.262352867      -74.2074282      0.262352867      -74.2074282      0.962303215      15.2089107       
