! Coilcraft 1008HQ-R10 Chip Inductor				
! 10 July 2002			
# MHZ S MA R 50
!Freq             MagS11           AngS11           MagS21           AngS21           MagS12           AngS12           MagS22           AngS22
1                0.00690412094    64.7902666       0.997078874      -0.358951027     0.997078874      -0.358951027     0.00690412094    64.7902666       
4.49             0.0284137329     79.5742018       0.995250586      -1.60896113      0.995250586      -1.60896113      0.0284137329     79.5742018       
7.98             0.05009373       81.1097437       0.993491909      -2.85543528      0.993491909      -2.85543528      0.05009373       81.1097437       
11.47            0.0717105303     81.1138118       0.991457427      -4.09786361      0.991457427      -4.09786361      0.0717105303     81.1138118       
14.96            0.0932200566     80.6071728       0.989071532      -5.33543696      0.989071532      -5.33543696      0.0932200566     80.6071728       
18.45            0.114591731      79.8648865       0.986307174      -6.56726764      0.986307174      -6.56726764      0.114591731      79.8648865       
21.94            0.135798397      78.9948264       0.983155135      -7.79244711      0.983155135      -7.79244711      0.135798397      78.9948264       
25.43            0.156814621      78.0489241       0.979615034      -9.01007152      0.979615034      -9.01007152      0.156814621      78.0489241       
28.92            0.177616344      77.0557416       0.975691742      -10.219256       0.975691742      -10.219256       0.177616344      77.0557416       
32.41            0.19818085       76.0325565       0.971393649      -11.4191443      0.971393649      -11.4191443      0.19818085       76.0325565       
35.9             0.218486819      74.9906022       0.96673169       -12.6089153      0.96673169       -12.6089153      0.218486819      74.9906022       
39.39            0.2385144        73.9376098       0.961718732      -13.7877884      0.961718732      -13.7877884      0.2385144        73.9376098       
42.88            0.258245269      72.8791484       0.956369137      -14.9550272      0.956369137      -14.9550272      0.258245269      72.8791484       
46.37            0.277662685      71.8193815       0.950698441      -16.1099427      0.950698441      -16.1099427      0.277662685      71.8193815       
49.86            0.296751521      70.7615166       0.944723078      -17.2518952      0.944723078      -17.2518952      0.296751521      70.7615166       
53.35            0.31549828       69.7080857       0.938460165      -18.3802958      0.938460165      -18.3802958      0.31549828       69.7080857       
56.84            0.333891096      68.6611256       0.931927296      -19.4946075      0.931927296      -19.4946075      0.333891096      68.6611256       
60.33            0.351919718      67.6222994       0.925142374      -20.5943453      0.925142374      -20.5943453      0.351919718      67.6222994       
63.82            0.369575477      66.5929797       0.918123453      -21.679076       0.918123453      -21.679076       0.369575477      66.5929797       
67.31            0.386851246      65.5743076       0.910888598      -22.748418       0.910888598      -22.748418       0.386851246      65.5743076       
70.8             0.403741385      64.5672357       0.903455762      -23.8020398      0.903455762      -23.8020398      0.403741385      64.5672357       
74.29            0.420241679      63.5725597       0.895842673      -24.8396589      0.895842673      -24.8396589      0.420241679      63.5725597       
77.78            0.436349263      62.5909429       0.88806674       -25.8610404      0.88806674       -25.8610404      0.436349263      62.5909429       
81.27            0.452062552      61.6229355       0.880144966      -26.8659949      0.880144966      -26.8659949      0.452062552      61.6229355       
84.76            0.467381152      60.6689892       0.872093878      -27.8543766      0.872093878      -27.8543766      0.467381152      60.6689892       
88.25            0.482305782      59.7294698       0.863929465      -28.8260813      0.863929465      -28.8260813      0.482305782      59.7294698       
91.74            0.496838186      58.8046676       0.855667124      -29.7810436      0.855667124      -29.7810436      0.496838186      58.8046676       
95.23            0.510981045      57.8948056       0.847321628      -30.7192351      0.847321628      -30.7192351      0.510981045      57.8948056       
98.72            0.524737893      57.0000473       0.838907089      -31.6406618      0.838907089      -31.6406618      0.524737893      57.0000473       
102.21           0.538113033      56.1205031       0.830436938      -32.5453615      0.830436938      -32.5453615      0.538113033      56.1205031       
105.7            0.551111455      55.2562358       0.821923911      -33.4334014      0.821923911      -33.4334014      0.551111455      55.2562358       
109.19           0.563738755      54.407266        0.813380041      -34.3048762      0.813380041      -34.3048762      0.563738755      54.407266        
112.68           0.576001064      53.5735763       0.804816658      -35.1599049      0.804816658      -35.1599049      0.576001064      53.5735763       
116.17           0.587904969      52.7551157       0.796244394      -35.9986295      0.796244394      -35.9986295      0.587904969      52.7551157       
119.66           0.599457453      51.9518031       0.78767319       -36.821212       0.78767319       -36.821212       0.599457453      51.9518031       
123.15           0.610665826      51.1635309       0.77911231       -37.6278325      0.77911231       -37.6278325      0.610665826      51.1635309       
126.64           0.621537668      50.3901677       0.77057036       -38.4186877      0.77057036       -38.4186877      0.621537668      50.3901677       
130.13           0.632080775      49.6315618       0.762055304      -39.1939884      0.762055304      -39.1939884      0.632080775      49.6315618       
133.62           0.642303109      48.8875431       0.75357449       -39.9539577      0.75357449       -39.9539577      0.642303109      48.8875431       
137.11           0.652212749      48.1579257       0.745134669      -40.6988297      0.745134669      -40.6988297      0.652212749      48.1579257       
140.6            0.661817853      47.4425103       0.736742024      -41.4288478      0.736742024      -41.4288478      0.661817853      47.4425103       
144.09           0.671126617      46.7410859       0.728402195      -42.1442629      0.728402195      -42.1442629      0.671126617      46.7410859       
147.58           0.680147245      46.0534314       0.720120301      -42.8453326      0.720120301      -42.8453326      0.680147245      46.0534314       
151.07           0.688887915      45.3793178       0.711900975      -43.5323193      0.711900975      -43.5323193      0.688887915      45.3793178       
154.56           0.697356755      44.7185092       0.703748383      -44.2054895      0.703748383      -44.2054895      0.697356755      44.7185092       
158.05           0.705561815      44.0707644       0.695666254      -44.8651126      0.695666254      -44.8651126      0.705561815      44.0707644       
161.54           0.713511054      43.4358381       0.687657907      -45.51146        0.687657907      -45.51146        0.713511054      43.4358381       
165.03           0.721212314      42.8134818       0.679726276      -46.1448039      0.679726276      -46.1448039      0.721212314      42.8134818       
168.52           0.728673311      42.2034449       0.67187393       -46.7654171      0.67187393       -46.7654171      0.728673311      42.2034449       
172.01           0.735901617      41.6054759       0.664103107      -47.3735715      0.664103107      -47.3735715      0.735901617      41.6054759       
175.5            0.742904653      41.0193225       0.656415726      -47.9695381      0.656415726      -47.9695381      0.742904653      41.0193225       
178.99           0.74968968       40.4447333       0.648813419      -48.5535864      0.648813419      -48.5535864      0.74968968       40.4447333       
182.48           0.756263787      39.8814573       0.641297543      -49.1259832      0.641297543      -49.1259832      0.756263787      39.8814573       
185.97           0.762633892      39.3292453       0.63386921       -49.6869931      0.63386921       -49.6869931      0.762633892      39.3292453       
189.46           0.768806734      38.7878502       0.626529298      -50.2368774      0.626529298      -50.2368774      0.768806734      38.7878502       
192.95           0.77478887       38.2570272       0.619278473      -50.775894       0.619278473      -50.775894       0.77478887       38.2570272       
196.44           0.780586675      37.7365344       0.612117207      -51.3042972      0.612117207      -51.3042972      0.780586675      37.7365344       
199.93           0.786206341      37.2261331       0.60504579       -51.8223372      0.60504579       -51.8223372      0.786206341      37.2261331       
203.42           0.791653875      36.7255878       0.598064352      -52.33026        0.598064352      -52.33026        0.791653875      36.7255878       
206.91           0.796935101      36.2346671       0.59117287       -52.8283076      0.59117287       -52.8283076      0.796935101      36.2346671       
210.4            0.802055663      35.753143        0.584371186      -53.316717       0.584371186      -53.316717       0.802055663      35.753143        
213.89           0.807021025      35.280792        0.577659019      -53.7957209      0.577659019      -53.7957209      0.807021025      35.280792        
217.38           0.811836474      34.8173943       0.571035976      -54.2655471      0.571035976      -54.2655471      0.811836474      34.8173943       
220.87           0.816507123      34.3627349       0.564501561      -54.7264188      0.564501561      -54.7264188      0.816507123      34.3627349       
224.36           0.821037916      33.9166027       0.558055188      -55.1785542      0.558055188      -55.1785542      0.821037916      33.9166027       
227.85           0.825433627      33.4787912       0.551696191      -55.6221667      0.551696191      -55.6221667      0.825433627      33.4787912       
231.34           0.829698868      33.0490986       0.545423829      -56.0574648      0.545423829      -56.0574648      0.829698868      33.0490986       
234.83           0.833838094      32.6273272       0.539237297      -56.4846523      0.539237297      -56.4846523      0.833838094      32.6273272       
238.32           0.837855601      32.2132841       0.533135732      -56.9039279      0.533135732      -56.9039279      0.837855601      32.2132841       
241.81           0.841755535      31.8067805       0.527118222      -57.3154856      0.527118222      -57.3154856      0.841755535      31.8067805       
245.3            0.845541897      31.4076326       0.521183809      -57.7195148      0.521183809      -57.7195148      0.845541897      31.4076326       
248.79           0.849218544      31.0156606       0.515331499      -58.1161998      0.515331499      -58.1161998      0.849218544      31.0156606       
252.28           0.852789195      30.6306893       0.509560262      -58.5057207      0.509560262      -58.5057207      0.852789195      30.6306893       
255.77           0.856257435      30.2525478       0.503869042      -58.8882525      0.503869042      -58.8882525      0.856257435      30.2525478       
259.26           0.859626718      29.8810694       0.49825676       -59.2639661      0.49825676       -59.2639661      0.859626718      29.8810694       
262.75           0.862900377      29.5160918       0.492722316      -59.6330277      0.492722316      -59.6330277      0.862900377      29.5160918       
266.24           0.866081618      29.1574566       0.487264595      -59.9955993      0.487264595      -59.9955993      0.866081618      29.1574566       
269.73           0.869173535      28.8050099       0.481882471      -60.3518384      0.481882471      -60.3518384      0.869173535      28.8050099       
273.22           0.872179106      28.4586013       0.476574808      -60.7018984      0.476574808      -60.7018984      0.872179106      28.4586013       
276.71           0.875101201      28.1180849       0.471340463      -61.0459287      0.471340463      -61.0459287      0.875101201      28.1180849       
280.2            0.877942585      27.7833181       0.466178292      -61.3840745      0.466178292      -61.3840745      0.877942585      27.7833181       
283.69           0.88070592       27.4541625       0.461087147      -61.7164772      0.461087147      -61.7164772      0.88070592       27.4541625       
287.18           0.883393773      27.1304831       0.456065883      -62.0432741      0.456065883      -62.0432741      0.883393773      27.1304831       
290.67           0.886008615      26.8121488       0.451113358      -62.3645992      0.451113358      -62.3645992      0.886008615      26.8121488       
294.16           0.888552827      26.4990318       0.446228432      -62.6805824      0.446228432      -62.6805824      0.888552827      26.4990318       
297.65           0.891028703      26.1910078       0.441409974      -62.9913502      0.441409974      -62.9913502      0.891028703      26.1910078       
301.14           0.893438451      25.8879559       0.43665686       -63.2970257      0.43665686       -63.2970257      0.893438451      25.8879559       
304.63           0.895784202      25.5897584       0.431967973      -63.5977285      0.431967973      -63.5977285      0.895784202      25.5897584       
308.12           0.898068005      25.2963008       0.427342208      -63.8935749      0.427342208      -63.8935749      0.898068005      25.2963008       
311.61           0.900291838      25.0074718       0.422778471      -64.1846781      0.422778471      -64.1846781      0.900291838      25.0074718       
315.1            0.902457604      24.723163        0.418275677      -64.471148       0.418275677      -64.471148       0.902457604      24.723163        
318.59           0.904567139      24.4432691       0.413832756      -64.7530916      0.413832756      -64.7530916      0.904567139      24.4432691       
322.08           0.906622211      24.1676875       0.40944865       -65.0306129      0.40944865       -65.0306129      0.906622211      24.1676875       
325.57           0.908624525      23.8963184       0.405122316      -65.3038131      0.405122316      -65.3038131      0.908624525      23.8963184       
329.06           0.910575724      23.6290649       0.400852724      -65.5727903      0.400852724      -65.5727903      0.910575724      23.6290649       
332.55           0.912477391      23.3658324       0.396638858      -65.8376403      0.396638858      -65.8376403      0.912477391      23.3658324       
336.04           0.914331055      23.1065293       0.392479717      -66.098456       0.392479717      -66.098456       0.914331055      23.1065293       
339.53           0.916138188      22.8510661       0.388374318      -66.3553278      0.388374318      -66.3553278      0.916138188      22.8510661       
343.02           0.917900209      22.5993559       0.384321689      -66.6083436      0.384321689      -66.6083436      0.917900209      22.5993559       
346.51           0.919618488      22.3513142       0.380320878      -66.8575888      0.380320878      -66.8575888      0.919618488      22.3513142       
350              0.921294347      22.1068585       0.376370945      -67.1031467      0.376370945      -67.1031467      0.921294347      22.1068585       
353.49           0.922929059      21.8659089       0.372470968      -67.3450981      0.372470968      -67.3450981      0.922929059      21.8659089       
356.98           0.924523854      21.6283874       0.368620039      -67.5835216      0.368620039      -67.5835216      0.924523854      21.6283874       
360.47           0.926079919      21.3942182       0.364817268      -67.8184936      0.364817268      -67.8184936      0.926079919      21.3942182       
363.96           0.927598397      21.1633274       0.361061779      -68.0500887      0.361061779      -68.0500887      0.927598397      21.1633274       
367.45           0.929080395      20.9356432       0.357352714      -68.2783791      0.357352714      -68.2783791      0.929080395      20.9356432       
370.94           0.93052698       20.7110957       0.353689228      -68.5034353      0.353689228      -68.5034353      0.93052698       20.7110957       
374.43           0.93193918       20.4896168       0.350070492      -68.7253257      0.350070492      -68.7253257      0.93193918       20.4896168       
377.92           0.93331799       20.2711403       0.346495695      -68.944117       0.346495695      -68.944117       0.93331799       20.2711403       
381.41           0.934664371      20.0556016       0.342964038      -69.159874       0.342964038      -69.159874       0.934664371      20.0556016       
384.9            0.935979251      19.8429378       0.33947474       -69.3726597      0.33947474       -69.3726597      0.935979251      19.8429378       
388.39           0.937263524      19.6330879       0.336027033      -69.5825356      0.336027033      -69.5825356      0.937263524      19.6330879       
391.88           0.938518058      19.4259922       0.332620165      -69.7895614      0.332620165      -69.7895614      0.938518058      19.4259922       
395.37           0.939743689      19.2215928       0.329253397      -69.9937951      0.329253397      -69.9937951      0.939743689      19.2215928       
398.86           0.940941224      19.0198331       0.325926008      -70.1952935      0.325926008      -70.1952935      0.940941224      19.0198331       
402.35           0.942111446      18.820658        0.322637288      -70.3941115      0.322637288      -70.3941115      0.942111446      18.820658        
405.84           0.943255109      18.624014        0.319386541      -70.5903027      0.319386541      -70.5903027      0.943255109      18.624014        
409.33           0.944372945      18.4298487       0.316173087      -70.7839193      0.316173087      -70.7839193      0.944372945      18.4298487       
412.82           0.94546566       18.2381114       0.312996258      -70.9750121      0.312996258      -70.9750121      0.94546566       18.2381114       
416.31           0.946533936      18.0487523       0.309855401      -71.1636305      0.309855401      -71.1636305      0.946533936      18.0487523       
419.8            0.947578435      17.8617231       0.306749873      -71.3498227      0.306749873      -71.3498227      0.947578435      17.8617231       
423.29           0.948599795      17.6769768       0.303679048      -71.5336356      0.303679048      -71.5336356      0.948599795      17.6769768       
426.78           0.949598635      17.4944672       0.30064231       -71.7151147      0.30064231       -71.7151147      0.949598635      17.4944672       
430.27           0.950575554      17.3141498       0.297639056      -71.8943045      0.297639056      -71.8943045      0.950575554      17.3141498       
433.76           0.951531132      17.1359808       0.294668696      -72.0712483      0.294668696      -72.0712483      0.951531132      17.1359808       
437.25           0.952465928      16.9599177       0.291730651      -72.2459883      0.291730651      -72.2459883      0.952465928      16.9599177       
440.74           0.953380487      16.7859189       0.288824354      -72.4185654      0.288824354      -72.4185654      0.953380487      16.7859189       
444.23           0.954275333      16.6139439       0.28594925       -72.5890197      0.28594925       -72.5890197      0.954275333      16.6139439       
