! Coilcraft 1008HQ-39N Chip Inductor				
! 10 July 2002			
# MHZ S MA R 50
!Freq             MagS11           AngS11           MagS21           AngS21           MagS12           AngS12           MagS22           AngS22
1                0.00280114513    60.740137        0.99863387       -0.140208375     0.99863387       -0.140208375     0.00280114513    60.740137        
6.73             0.0165884718     81.7786622       0.997762976      -0.942833294     0.997762976      -0.942833294     0.0165884718     81.7786622       
12.46            0.030547654      83.497368        0.997002601      -1.74448932      0.997002601      -1.74448932      0.030547654      83.497368        
18.19            0.0444986608     83.7537712       0.996141101      -2.54510483      0.996141101      -2.54510483      0.0444986608     83.7537712       
23.92            0.0584248477     83.5554933       0.995137254      -3.34449766      0.995137254      -3.34449766      0.0584248477     83.5554933       
29.65            0.0723170732     83.1527536       0.993974889      -4.14245495      0.993974889      -4.14245495      0.0723170732     83.1527536       
35.38            0.0861677247     82.6395374       0.992646345      -4.93875118      0.992646345      -4.93875118      0.0861677247     82.6395374       
41.11            0.0999697059     82.0597105       0.991147874      -5.73315531      0.991147874      -5.73315531      0.0999697059     82.0597105       
46.84            0.113716181      81.4367654       0.989477892      -6.52543452      0.989477892      -6.52543452      0.113716181      81.4367654       
52.57            0.127400501      80.7845554       0.987636169      -7.3153564       0.987636169      -7.3153564       0.127400501      80.7845554       
58.3             0.141016183      80.1118594       0.985623407      -8.10269045      0.985623407      -8.10269045      0.141016183      80.1118594       
64.03            0.154556917      79.4245632       0.983440998      -8.88720923      0.983440998      -8.88720923      0.154556917      79.4245632       
69.76            0.168016567      78.7267975       0.98109087       -9.66868918      0.98109087       -9.66868918      0.168016567      78.7267975       
75.49            0.181389188      78.0215731       0.978575386      -10.4469113      0.978575386      -10.4469113      0.181389188      78.0215731       
81.22            0.19466903       77.3111569       0.975897278      -11.2216619      0.975897278      -11.2216619      0.19466903       77.3111569       
86.95            0.207850557      76.5973033       0.973059587      -11.9927329      0.973059587      -11.9927329      0.207850557      76.5973033       
92.68            0.220928451      75.8814031       0.970065625      -12.7599222      0.970065625      -12.7599222      0.220928451      75.8814031       
98.41            0.233897621      75.1645823       0.966918938      -13.5230346      0.966918938      -13.5230346      0.233897621      75.1645823       
104.14           0.246753215      74.447769        0.963623281      -14.2818812      0.963623281      -14.2818812      0.246753215      74.447769        
109.87           0.25949062       73.7317408       0.960182586      -15.0362808      0.960182586      -15.0362808      0.25949062       73.7317408       
115.6            0.272105472      73.017158        0.956600943      -15.7860589      0.956600943      -15.7860589      0.272105472      73.017158        
121.33           0.28459366       72.304588        0.952882579      -16.5310491      0.952882579      -16.5310491      0.28459366       72.304588        
127.06           0.296951326      71.5945236       0.949031837      -17.2710923      0.949031837      -17.2710923      0.296951326      71.5945236       
132.79           0.309174868      70.8873962       0.945053156      -18.0060374      0.945053156      -18.0060374      0.309174868      70.8873962       
138.52           0.321260942      70.1835865       0.940951058      -18.7357412      0.940951058      -18.7357412      0.321260942      70.1835865       
144.25           0.33320646       69.4834321       0.936730127      -19.4600683      0.936730127      -19.4600683      0.33320646       69.4834321       
149.98           0.34500859       68.7872343       0.932394998      -20.1788915      0.932394998      -20.1788915      0.34500859       68.7872343       
155.71           0.356664752      68.0952624       0.927950338      -20.8920915      0.927950338      -20.8920915      0.356664752      68.0952624       
161.44           0.368172618      67.4077584       0.923400834      -21.5995568      0.923400834      -21.5995568      0.368172618      67.4077584       
167.17           0.379530104      66.7249396       0.918751182      -22.3011841      0.918751182      -22.3011841      0.379530104      66.7249396       
172.9            0.39073537       66.0470016       0.914006069      -22.9968778      0.914006069      -22.9968778      0.39073537       66.0470016       
178.63           0.401786811      65.3741203       0.909170167      -23.68655        0.909170167      -23.68655        0.401786811      65.3741203       
184.36           0.412683053      64.7064541       0.904248122      -24.3701205      0.904248122      -24.3701205      0.412683053      64.7064541       
190.09           0.423422946      64.0441451       0.899244537      -25.0475166      0.899244537      -25.0475166      0.423422946      64.0441451       
195.82           0.434005557      63.3873204       0.894163972      -25.7186729      0.894163972      -25.7186729      0.434005557      63.3873204       
201.55           0.444430164      62.7360936       0.889010928      -26.3835311      0.889010928      -26.3835311      0.444430164      62.7360936       
207.28           0.454696248      62.0905656       0.883789843      -27.0420402      0.883789843      -27.0420402      0.454696248      62.0905656       
213.01           0.464803483      61.4508256       0.878505082      -27.6941556      0.878505082      -27.6941556      0.464803483      61.4508256       
218.74           0.474751732      60.8169518       0.873160933      -28.3398397      0.873160933      -28.3398397      0.474751732      60.8169518       
224.47           0.484541034      60.189012        0.867761601      -28.9790612      0.867761601      -28.9790612      0.484541034      60.189012        
230.2            0.494171599      59.5670647       0.862311199      -29.6117949      0.862311199      -29.6117949      0.494171599      59.5670647       
235.93           0.5036438        58.9511592       0.856813747      -30.2380216      0.856813747      -30.2380216      0.5036438        58.9511592       
241.66           0.512958162      58.3413367       0.851273168      -30.8577279      0.851273168      -30.8577279      0.512958162      58.3413367       
247.39           0.522115353      57.7376301       0.845693282      -31.4709061      0.845693282      -31.4709061      0.522115353      57.7376301       
253.12           0.531116181      57.1400651       0.840077804      -32.0775534      0.840077804      -32.0775534      0.531116181      57.1400651       
258.85           0.539961578      56.5486604       0.834430344      -32.6776725      0.834430344      -32.6776725      0.539961578      56.5486604       
264.58           0.548652598      55.9634283       0.828754401      -33.2712706      0.828754401      -33.2712706      0.548652598      55.9634283       
270.31           0.557190407      55.3843746       0.823053364      -33.8583597      0.823053364      -33.8583597      0.557190407      55.3843746       
276.04           0.565576273      54.8114997       0.817330513      -34.4389561      0.817330513      -34.4389561      0.565576273      54.8114997       
281.77           0.573811562      54.2447982       0.811589014      -35.0130803      0.811589014      -35.0130803      0.573811562      54.2447982       
287.5            0.581897726      53.6842601       0.805831919      -35.5807567      0.805831919      -35.5807567      0.581897726      53.6842601       
293.23           0.589836302      53.1298703       0.800062171      -36.1420134      0.800062171      -36.1420134      0.589836302      53.1298703       
298.96           0.597628898      52.5816093       0.794282601      -36.696882       0.794282601      -36.696882       0.597628898      52.5816093       
304.69           0.605277191      52.0394536       0.788495928      -37.2453974      0.788495928      -37.2453974      0.605277191      52.0394536       
310.42           0.612782919      51.5033756       0.782704761      -37.7875976      0.782704761      -37.7875976      0.612782919      51.5033756       
316.15           0.620147873      50.9733445       0.776911602      -38.3235233      0.776911602      -38.3235233      0.620147873      50.9733445       
321.88           0.627373896      50.4493257       0.771118844      -38.8532181      0.771118844      -38.8532181      0.627373896      50.4493257       
327.61           0.63446287       49.9312818       0.765328777      -39.376728       0.765328777      -39.376728       0.63446287       49.9312818       
333.34           0.641416717      49.4191725       0.759543584      -39.8941012      0.759543584      -39.8941012      0.641416717      49.4191725       
339.07           0.648237392      48.9129546       0.753765351      -40.4053883      0.753765351      -40.4053883      0.648237392      48.9129546       
344.8            0.654926875      48.4125829       0.74799606       -40.9106415      0.74799606       -40.9106415      0.654926875      48.4125829       
350.53           0.66148717       47.9180096       0.742237599      -41.4099151      0.742237599      -41.4099151      0.66148717       47.9180096       
356.26           0.6679203        47.4291849       0.736491761      -41.9032649      0.736491761      -41.9032649      0.6679203        47.4291849       
361.99           0.674228301      46.9460574       0.730760246      -42.390748       0.730760246      -42.390748       0.674228301      46.9460574       
367.72           0.680413219      46.4685738       0.725044663      -42.8724232      0.725044663      -42.8724232      0.680413219      46.4685738       
373.45           0.686477109      45.9966792       0.719346538      -43.3483503      0.719346538      -43.3483503      0.686477109      45.9966792       
379.18           0.692422026      45.5303175       0.713667307      -43.8185901      0.713667307      -43.8185901      0.692422026      45.5303175       
384.91           0.698250028      45.0694313       0.708008329      -44.2832045      0.708008329      -44.2832045      0.698250028      45.0694313       
390.64           0.703963169      44.6139622       0.70237088       -44.7422561      0.70237088       -44.7422561      0.703963169      44.6139622       
396.37           0.709563496      44.1638506       0.69675616       -45.1958082      0.69675616       -45.1958082      0.709563496      44.1638506       
402.1            0.71505305       43.7190364       0.691165298      -45.6439247      0.691165298      -45.6439247      0.71505305       43.7190364       
407.83           0.72043386       43.2794586       0.685599347      -46.0866702      0.685599347      -46.0866702      0.72043386       43.2794586       
413.56           0.725707943      42.8450556       0.680059295      -46.5241093      0.680059295      -46.5241093      0.725707943      42.8450556       
419.29           0.730877302      42.4157653       0.674546062      -46.9563073      0.674546062      -46.9563073      0.730877302      42.4157653       
425.02           0.735943921      41.9915253       0.669060504      -47.3833295      0.669060504      -47.3833295      0.735943921      41.9915253       
430.75           0.740909768      41.5722728       0.663603416      -47.8052413      0.663603416      -47.8052413      0.740909768      41.5722728       
436.48           0.74577679       41.1579448       0.658175536      -48.2221084      0.658175536      -48.2221084      0.74577679       41.1579448       
442.21           0.750546916      40.7484781       0.652777543      -48.6339962      0.652777543      -48.6339962      0.750546916      40.7484781       
447.94           0.755222048      40.3438095       0.647410064      -49.0409702      0.647410064      -49.0409702      0.755222048      40.3438095       
453.67           0.759804069      39.9438759       0.642073673      -49.4430957      0.642073673      -49.4430957      0.759804069      39.9438759       
459.4            0.764294835      39.5486141       0.636768896      -49.8404378      0.636768896      -49.8404378      0.764294835      39.5486141       
465.13           0.768696177      39.157961        0.63149621       -50.2330614      0.63149621       -50.2330614      0.768696177      39.157961        
470.86           0.773009903      38.7718539       0.626256049      -50.6210311      0.626256049      -50.6210311      0.773009903      38.7718539       
476.59           0.77723779       38.3902302       0.621048803      -51.0044111      0.621048803      -51.0044111      0.77723779       38.3902302       
482.32           0.781381592      38.0130276       0.61587482       -51.3832651      0.61587482       -51.3832651      0.781381592      38.0130276       
488.05           0.785443033      37.6401841       0.61073441       -51.7576567      0.61073441       -51.7576567      0.785443033      37.6401841       
493.78           0.789423809      37.2716381       0.605627846      -52.1276486      0.605627846      -52.1276486      0.789423809      37.2716381       
499.51           0.79332559       36.9073286       0.600555366      -52.4933033      0.600555366      -52.4933033      0.79332559       36.9073286       
505.24           0.797150016      36.5471947       0.595517172      -52.8546828      0.595517172      -52.8546828      0.797150016      36.5471947       
510.97           0.800898698      36.1911762       0.590513437      -53.2118482      0.590513437      -53.2118482      0.800898698      36.1911762       
516.7            0.804573219      35.8392134       0.585544303      -53.5648604      0.585544303      -53.5648604      0.804573219      35.8392134       
522.43           0.808175133      35.491247        0.580609882      -53.9137794      0.580609882      -53.9137794      0.808175133      35.491247        
528.16           0.811705965      35.1472185       0.57571026       -54.2586647      0.57571026       -54.2586647      0.811705965      35.1472185       
533.89           0.815167212      34.8070698       0.570845497      -54.5995752      0.570845497      -54.5995752      0.815167212      34.8070698       
539.62           0.818560342      34.4707434       0.566015628      -54.936569       0.566015628      -54.936569       0.818560342      34.4707434       
545.35           0.821886794      34.1381826       0.561220668      -55.2697036      0.561220668      -55.2697036      0.821886794      34.1381826       
551.08           0.82514798       33.809331        0.556460606      -55.5990357      0.556460606      -55.5990357      0.82514798       33.809331        
556.81           0.828345283      33.4841332       0.551735413      -55.9246215      0.551735413      -55.9246215      0.828345283      33.4841332       
562.54           0.831480057      33.1625342       0.547045042      -56.2465163      0.547045042      -56.2465163      0.831480057      33.1625342       
568.27           0.83455363       32.8444798       0.542389424      -56.5647748      0.542389424      -56.5647748      0.83455363       32.8444798       
574              0.837567303      32.5299165       0.537768478      -56.8794507      0.537768478      -56.8794507      0.837567303      32.5299165       
579.73           0.840522349      32.2187914       0.533182103      -57.1905973      0.533182103      -57.1905973      0.840522349      32.2187914       
585.46           0.843420014      31.9110524       0.528630184      -57.4982671      0.528630184      -57.4982671      0.843420014      31.9110524       
591.19           0.846261519      31.6066479       0.524112593      -57.8025115      0.524112593      -57.8025115      0.846261519      31.6066479       
596.92           0.849048057      31.3055272       0.51962919       -58.1033817      0.51962919       -58.1033817      0.849048057      31.3055272       
602.65           0.851780798      31.0076403       0.515179818      -58.4009277      0.515179818      -58.4009277      0.851780798      31.0076403       
608.38           0.854460883      30.7129376       0.510764314      -58.695199       0.510764314      -58.695199       0.854460883      30.7129376       
614.11           0.857089433      30.4213706       0.506382501      -58.9862442      0.506382501      -58.9862442      0.857089433      30.4213706       
619.84           0.859667541      30.1328914       0.502034194      -59.2741113      0.502034194      -59.2741113      0.859667541      30.1328914       
625.57           0.862196276      29.8474526       0.497719197      -59.5588474      0.497719197      -59.5588474      0.862196276      29.8474526       
631.3            0.864676685      29.5650077       0.493437308      -59.840499       0.493437308      -59.840499       0.864676685      29.5650077       
637.03           0.867109792      29.2855108       0.489188314      -60.1191117      0.489188314      -60.1191117      0.867109792      29.2855108       
642.76           0.869496596      29.0089167       0.484971997      -60.3947306      0.484971997      -60.3947306      0.869496596      29.0089167       
648.49           0.871838075      28.7351811       0.480788133      -60.6673998      0.480788133      -60.6673998      0.871838075      28.7351811       
654.22           0.874135185      28.46426         0.476636489      -60.9371628      0.476636489      -60.9371628      0.874135185      28.46426         
659.95           0.876388861      28.1961104       0.472516829      -61.2040624      0.472516829      -61.2040624      0.876388861      28.1961104       
665.68           0.878600015      27.9306899       0.468428911      -61.4681407      0.468428911      -61.4681407      0.878600015      27.9306899       
671.41           0.880769541      27.6679566       0.464372489      -61.729439       0.464372489      -61.729439       0.880769541      27.6679566       
677.14           0.88289831       27.4078695       0.460347311      -61.987998       0.460347311      -61.987998       0.88289831       27.4078695       
682.87           0.884987175      27.1503882       0.456353124      -62.2438575      0.456353124      -62.2438575      0.884987175      27.1503882       
688.6            0.887036969      26.8954728       0.452389669      -62.4970569      0.452389669      -62.4970569      0.887036969      26.8954728       
694.33           0.889048506      26.6430842       0.448456687      -62.7476348      0.448456687      -62.7476348      0.889048506      26.6430842       
700.06           0.891022581      26.393184        0.444553913      -62.9956289      0.444553913      -62.9956289      0.891022581      26.393184        
705.79           0.892959971      26.1457342       0.440681083      -63.2410767      0.440681083      -63.2410767      0.892959971      26.1457342       
711.52           0.894861436      25.9006976       0.436837929      -63.4840145      0.436837929      -63.4840145      0.894861436      25.9006976       
717.25           0.896727716      25.6580376       0.433024182      -63.7244784      0.433024182      -63.7244784      0.896727716      25.6580376       
722.98           0.898559538      25.4177181       0.429239572      -63.9625035      0.429239572      -63.9625035      0.898559538      25.4177181       
728.71           0.900357608      25.1797037       0.425483827      -64.1981246      0.425483827      -64.1981246      0.900357608      25.1797037       
