! Coilcraft 1008HQ-4N1 Chip Inductor				
! 10 July 2002			
# MHZ S MA R 50
!Freq             MagS11           AngS11           MagS21           AngS21           MagS12           AngS12           MagS22           AngS22
1                0.000652573382   23.2215638       0.999400327      -0.0147511491    0.999400327      -0.0147511491    0.000652573382   23.2215638       
29.68            0.00770872006    81.781229        0.998927151      -0.437614603     0.998927151      -0.437614603     0.00770872006    81.781229        
58.36            0.0150669198     84.3340837       0.998625037      -0.860268499     0.998625037      -0.860268499     0.0150669198     84.3340837       
87.04            0.0224319596     85.0605398       0.998318722      -1.2827471       0.998318722      -1.2827471       0.0224319596     85.0605398       
115.72           0.0297958247     85.2690928       0.99798442       -1.70504653      0.99798442       -1.70504653      0.0297958247     85.2690928       
144.4            0.0371561254     85.2534666       0.997612848      -2.12715346      0.997612848      -2.12715346      0.0371561254     85.2534666       
173.08           0.0445115128     85.118848        0.997199268      -2.54905033      0.997199268      -2.54905033      0.0445115128     85.118848        
201.76           0.0518609475     84.9128527       0.996740913      -2.9707173       0.996740913      -2.9707173       0.0518609475     84.9128527       
230.44           0.0592035074     84.6603915       0.99623603       -3.39213311      0.99623603       -3.39213311      0.0592035074     84.6603915       
259.12           0.0665383224     84.3758583       0.995683454      -3.8132756       0.995683454      -3.8132756       0.0665383224     84.3758583       
287.8            0.0738645486     84.0681972       0.995082389      -4.23412203      0.995082389      -4.23412203      0.0738645486     84.0681972       
316.48           0.0811813576     83.7432853       0.994432289      -4.65464923      0.994432289      -4.65464923      0.0811813576     83.7432853       
345.16           0.0884879305     83.405159        0.993732782      -5.07483377      0.993732782      -5.07483377      0.0884879305     83.405159        
373.84           0.0957834563     83.0566922       0.992983627      -5.49465203      0.992983627      -5.49465203      0.0957834563     83.0566922       
402.52           0.10306713       82.6999936       0.992184681      -5.91408028      0.992184681      -5.91408028      0.10306713       82.6999936       
431.2            0.110338154      82.3366503       0.991335879      -6.33309475      0.991335879      -6.33309475      0.110338154      82.3366503       
459.88           0.117595735      81.9678834       0.990437219      -6.75167166      0.990437219      -6.75167166      0.117595735      81.9678834       
488.56           0.124839089      81.5946503       0.989488753      -7.16978727      0.989488753      -7.16978727      0.124839089      81.5946503       
517.24           0.132067435      81.2177145       0.988490576      -7.58741791      0.988490576      -7.58741791      0.132067435      81.2177145       
545.92           0.139280001      80.8376941       0.987442823      -8.00453998      0.987442823      -8.00453998      0.139280001      80.8376941       
574.6            0.146476024      80.4550964       0.986345661      -8.42113001      0.986345661      -8.42113001      0.146476024      80.4550964       
603.28           0.153654746      80.0703424       0.98519929       -8.83716467      0.98519929       -8.83716467      0.153654746      80.0703424       
631.96           0.160815419      79.6837859       0.984003935      -9.25262077      0.984003935      -9.25262077      0.160815419      79.6837859       
660.64           0.167957303      79.2957272       0.982759845      -9.66747531      0.982759845      -9.66747531      0.167957303      79.2957272       
689.32           0.175079668      78.9064233       0.981467293      -10.0817055      0.981467293      -10.0817055      0.175079668      78.9064233       
718              0.182181792      78.5160962       0.980126573      -10.4952886      0.980126573      -10.4952886      0.182181792      78.5160962       
746.68           0.189262963      78.1249394       0.978737998      -10.9082024      0.978737998      -10.9082024      0.189262963      78.1249394       
775.36           0.19632248       77.7331225       0.977301898      -11.3204245      0.977301898      -11.3204245      0.19632248       77.7331225       
804.04           0.203359653      77.3407955       0.975818621      -11.7319331      0.975818621      -11.7319331      0.203359653      77.3407955       
832.72           0.2103738        76.9480918       0.974288532      -12.1427065      0.974288532      -12.1427065      0.2103738        76.9480918       
861.4            0.217364252      76.5551305       0.97271201       -12.5527232      0.97271201       -12.5527232      0.217364252      76.5551305       
890.08           0.224330352      76.1620192       0.971089447      -12.961962       0.971089447      -12.961962       0.224330352      76.1620192       
918.76           0.231271453      75.7688548       0.969421251      -13.3704021      0.969421251      -13.3704021      0.231271453      75.7688548       
947.44           0.238186919      75.3757257       0.967707841      -13.7780229      0.967707841      -13.7780229      0.238186919      75.3757257       
976.12           0.245076129      74.9827125       0.965949649      -14.184804       0.965949649      -14.184804       0.245076129      74.9827125       
1004.8           0.251938473      74.5898892       0.964147118      -14.5907254      0.964147118      -14.5907254      0.251938473      74.5898892       
1033.48          0.258773351      74.1973238       0.962300703      -14.9957674      0.962300703      -14.9957674      0.258773351      74.1973238       
1062.16          0.26558018       73.8050794       0.960410868      -15.3999106      0.960410868      -15.3999106      0.26558018       73.8050794       
1090.84          0.272358386      73.4132142       0.958478087      -15.803136       0.958478087      -15.803136       0.272358386      73.4132142       
1119.52          0.27910741       73.0217828       0.956502843      -16.2054246      0.956502843      -16.2054246      0.27910741       73.0217828       
1148.2           0.285826706      72.6308357       0.95448563       -16.6067582      0.95448563       -16.6067582      0.285826706      72.6308357       
1176.88          0.29251574       72.2404206       0.952426948      -17.0071185      0.952426948      -17.0071185      0.29251574       72.2404206       
1205.56          0.299173994      71.8505819       0.950327306      -17.4064879      0.950327306      -17.4064879      0.299173994      71.8505819       
1234.24          0.30580096       71.4613616       0.948187219      -17.8048489      0.948187219      -17.8048489      0.30580096       71.4613616       
1262.92          0.312396146      71.0727991       0.946007211      -18.2021844      0.946007211      -18.2021844      0.312396146      71.0727991       
1291.6           0.318959074      70.6849317       0.94378781       -18.5984777      0.94378781       -18.5984777      0.318959074      70.6849317       
1320.28          0.325489277      70.2977948       0.941529552      -18.9937124      0.941529552      -18.9937124      0.325489277      70.2977948       
1348.96          0.331986304      69.9114218       0.939232978      -19.3878725      0.939232978      -19.3878725      0.331986304      69.9114218       
1377.64          0.338449718      69.5258444       0.936898634      -19.7809423      0.936898634      -19.7809423      0.338449718      69.5258444       
1406.32          0.344879094      69.1410928       0.93452707       -20.1729065      0.93452707       -20.1729065      0.344879094      69.1410928       
1435             0.351274022      68.7571956       0.932118843      -20.5637501      0.932118843      -20.5637501      0.351274022      68.7571956       
1463.68          0.357634107      68.3741803       0.929674511      -20.9534585      0.929674511      -20.9534585      0.357634107      68.3741803       
1492.36          0.363958965      67.9920727       0.927194638      -21.3420175      0.927194638      -21.3420175      0.363958965      67.9920727       
1521.04          0.370248228      67.6108979       0.924679788      -21.7294133      0.924679788      -21.7294133      0.370248228      67.6108979       
1549.72          0.376501541      67.2306795       0.922130532      -22.1156322      0.922130532      -22.1156322      0.376501541      67.2306795       
1578.4           0.382718563      66.8514402       0.919547441      -22.5006612      0.919547441      -22.5006612      0.382718563      66.8514402       
1607.08          0.388898966      66.4732016       0.916931087      -22.8844874      0.916931087      -22.8844874      0.388898966      66.4732016       
1635.76          0.395042437      66.0959844       0.914282048      -23.2670985      0.914282048      -23.2670985      0.395042437      66.0959844       
1664.44          0.401148675      65.7198085       0.911600899      -23.6484823      0.911600899      -23.6484823      0.401148675      65.7198085       
1693.12          0.407217394      65.3446928       0.908888218      -24.0286273      0.908888218      -24.0286273      0.407217394      65.3446928       
1721.8           0.41324832       64.9706554       0.906144584      -24.4075219      0.906144584      -24.4075219      0.41324832       64.9706554       
1750.48          0.419241192      64.5977137       0.903370577      -24.7851553      0.903370577      -24.7851553      0.419241192      64.5977137       
1779.16          0.425195764      64.2258842       0.900566775      -25.1615168      0.900566775      -25.1615168      0.425195764      64.2258842       
1807.84          0.431111802      63.8551828       0.897733759      -25.5365962      0.897733759      -25.5365962      0.431111802      63.8551828       
1836.52          0.436989084      63.4856247       0.894872106      -25.9103834      0.894872106      -25.9103834      0.436989084      63.4856247       
1865.2           0.442827403      63.1172244       0.891982394      -26.2828691      0.891982394      -26.2828691      0.442827403      63.1172244       
1893.88          0.448626562      62.7499958       0.889065202      -26.6540439      0.889065202      -26.6540439      0.448626562      62.7499958       
1922.56          0.454386379      62.3839521       0.886121104      -27.0238989      0.886121104      -27.0238989      0.454386379      62.3839521       
1951.24          0.460106683      62.019106        0.883150675      -27.3924257      0.883150675      -27.3924257      0.460106683      62.019106        
1979.92          0.465787315      61.6554695       0.880154488      -27.7596161      0.880154488      -27.7596161      0.465787315      61.6554695       
2008.6           0.471428129      61.2930542       0.877133112      -28.1254622      0.877133112      -28.1254622      0.471428129      61.2930542       
2037.28          0.47702899       60.9318709       0.874087116      -28.4899565      0.874087116      -28.4899565      0.47702899       60.9318709       
2065.96          0.482589776      60.5719303       0.871017067      -28.8530918      0.871017067      -28.8530918      0.482589776      60.5719303       
2094.64          0.488110374      60.2132421       0.867923525      -29.2148612      0.867923525      -29.2148612      0.488110374      60.2132421       
2123.32          0.493590686      59.8558159       0.864807053      -29.5752584      0.864807053      -29.5752584      0.493590686      59.8558159       
2152             0.499030621      59.4996606       0.861668206      -29.9342769      0.861668206      -29.9342769      0.499030621      59.4996606       
2180.68          0.504430103      59.1447846       0.858507538      -30.291911       0.858507538      -30.291911       0.504430103      59.1447846       
2209.36          0.509789064      58.7911961       0.855325599      -30.648155       0.855325599      -30.648155       0.509789064      58.7911961       
2238.04          0.515107448      58.4389025       0.852122936      -31.0030037      0.852122936      -31.0030037      0.515107448      58.4389025       
2266.72          0.520385208      58.0879111       0.84890009       -31.3564522      0.84890009       -31.3564522      0.520385208      58.0879111       
2295.4           0.525622309      57.7382286       0.8456576        -31.7084957      0.8456576        -31.7084957      0.525622309      57.7382286       
2324.08          0.530818724      57.3898612       0.842396         -32.05913        0.842396         -32.05913        0.530818724      57.3898612       
2352.76          0.535974439      57.0428151       0.83911582       -32.4083508      0.83911582       -32.4083508      0.535974439      57.0428151       
2381.44          0.541089445      56.6970956       0.835817584      -32.7561545      0.835817584      -32.7561545      0.541089445      56.6970956       
2410.12          0.546163747      56.3527079       0.832501814      -33.1025375      0.832501814      -33.1025375      0.546163747      56.3527079       
2438.8           0.551197356      56.0096568       0.829169024      -33.4474966      0.829169024      -33.4474966      0.551197356      56.0096568       
2467.48          0.556190293      55.6679469       0.825819727      -33.7910289      0.825819727      -33.7910289      0.556190293      55.6679469       
2496.16          0.561142588      55.327582        0.822454426      -34.1331316      0.822454426      -34.1331316      0.561142588      55.327582        
2524.84          0.566054279      54.988566        0.819073624      -34.4738024      0.819073624      -34.4738024      0.566054279      54.988566        
2553.52          0.570925413      54.6509023       0.815677815      -34.8130391      0.815677815      -34.8130391      0.570925413      54.6509023       
2582.2           0.575756045      54.314594        0.812267489      -35.1508397      0.812267489      -35.1508397      0.575756045      54.314594        
2610.88          0.580546238      53.9796437       0.808843131      -35.4872026      0.808843131      -35.4872026      0.580546238      53.9796437       
2639.56          0.585296061      53.6460541       0.805405219      -35.8221265      0.805405219      -35.8221265      0.585296061      53.6460541       
2668.24          0.590005593      53.3138271       0.801954228      -36.15561        0.801954228      -36.15561        0.590005593      53.3138271       
2696.92          0.594674919      52.9829647       0.798490624      -36.4876524      0.798490624      -36.4876524      0.594674919      52.9829647       
2725.6           0.599304132      52.6534684       0.79501487       -36.8182528      0.79501487       -36.8182528      0.599304132      52.6534684       
2754.28          0.603893331      52.3253396       0.791527423      -37.1474108      0.791527423      -37.1474108      0.603893331      52.3253396       
2782.96          0.608442621      51.9985792       0.788028731      -37.4751261      0.788028731      -37.4751261      0.608442621      51.9985792       
2811.64          0.612952115      51.673188        0.78451924       -37.8013987      0.78451924       -37.8013987      0.612952115      51.673188        
2840.32          0.617421932      51.3491665       0.780999389      -38.1262288      0.780999389      -38.1262288      0.617421932      51.3491665       
2869             0.621852197      51.026515        0.777469609      -38.4496166      0.777469609      -38.4496166      0.621852197      51.026515        
2897.68          0.62624304       50.7052334       0.773930327      -38.7715627      0.773930327      -38.7715627      0.62624304       50.7052334       
2926.36          0.630594598      50.3853215       0.770381964      -39.092068       0.770381964      -39.092068       0.630594598      50.3853215       
2955.04          0.634907012      50.0667788       0.766824933      -39.4111333      0.766824933      -39.4111333      0.634907012      50.0667788       
2983.72          0.63918043       49.7496047       0.763259644      -39.7287598      0.763259644      -39.7287598      0.63918043       49.7496047       
3012.4           0.643415004      49.4337982       0.759686498      -40.0449488      0.759686498      -40.0449488      0.643415004      49.4337982       
3041.08          0.647610891      49.1193582       0.756105892      -40.3597018      0.756105892      -40.3597018      0.647610891      49.1193582       
3069.76          0.651768254      48.8062834       0.752518215      -40.6730205      0.752518215      -40.6730205      0.651768254      48.8062834       
3098.44          0.655887259      48.4945723       0.748923852      -40.9849066      0.748923852      -40.9849066      0.655887259      48.4945723       
3127.12          0.659968077      48.184223        0.745323179      -41.2953621      0.745323179      -41.2953621      0.659968077      48.184223        
3155.8           0.664010883      47.8752337       0.741716569      -41.6043893      0.741716569      -41.6043893      0.664010883      47.8752337       
3184.48          0.668015857      47.5676024       0.738104387      -41.9119903      0.738104387      -41.9119903      0.668015857      47.5676024       
3213.16          0.671983182      47.2613266       0.734486993      -42.2181676      0.734486993      -42.2181676      0.671983182      47.2613266       
3241.84          0.675913045      46.956404        0.730864739      -42.5229239      0.730864739      -42.5229239      0.675913045      46.956404        
3270.52          0.679805636      46.6528319       0.727237974      -42.8262618      0.727237974      -42.8262618      0.679805636      46.6528319       
3299.2           0.683661149      46.3506076       0.723607039      -43.1281841      0.723607039      -43.1281841      0.683661149      46.3506076       
3327.88          0.687479781      46.0497281       0.719972268      -43.428694       0.719972268      -43.428694       0.687479781      46.0497281       
3356.56          0.691261733      45.7501903       0.716333992      -43.7277944      0.716333992      -43.7277944      0.691261733      45.7501903       
3385.24          0.695007208      45.451991        0.712692533      -44.0254885      0.712692533      -44.0254885      0.695007208      45.451991        
3413.92          0.698716411      45.1551268       0.70904821       -44.3217799      0.70904821       -44.3217799      0.698716411      45.1551268       
3442.6           0.702389551      44.8595942       0.705401334      -44.6166718      0.705401334      -44.6166718      0.702389551      44.8595942       
3471.28          0.706026839      44.5653895       0.70175221       -44.9101679      0.70175221       -44.9101679      0.706026839      44.5653895       
3499.96          0.709628489      44.2725089       0.698101139      -45.2022718      0.698101139      -45.2022718      0.709628489      44.2725089       
3528.64          0.713194717      43.9809485       0.694448415      -45.4929872      0.694448415      -45.4929872      0.713194717      43.9809485       
3557.32          0.716725739      43.6907044       0.690794327      -45.7823182      0.690794327      -45.7823182      0.716725739      43.6907044       
3586             0.720221776      43.4017723       0.687139157      -46.0702685      0.687139157      -46.0702685      0.720221776      43.4017723       
3614.68          0.723683049      43.114148        0.683483183      -46.3568422      0.683483183      -46.3568422      0.723683049      43.114148        
3643.36          0.727109782      42.8278271       0.679826677      -46.6420435      0.679826677      -46.6420435      0.727109782      42.8278271       
