! Coilcraft A01T_ Mini Spring Air Core Inductor				
! 30 May 2003
# MHZ S MA R 50
!Freq             MagS11           AngS11           MagS21           AngS21           MagS12           AngS12           MagS22           AngS22
50               0.00562705525    87.9009651       0.999834489      -0.575756502     0.999834489      -0.575756502     0.0056283769     87.9013229       
60               0.00675174801    88.039605        0.999827526      -0.690909873     0.999827526      -0.690909873     0.00675333416    88.0399032       
70               0.00787654129    88.105763        0.999819297      -0.806064372     0.999819297      -0.806064372     0.00787839192    88.1060186       
80               0.00900140059    88.1266064       0.999809801      -0.92122019      0.999809801      -0.92122019      0.00900351567    88.1268301       
90               0.0101263072     88.1172341       0.999799039      -1.03637751      0.999799039      -1.03637751      0.0101286867     88.1174329       
100              0.0112512502     88.0867074       0.99978701       -1.15153653      0.99978701       -1.15153653      0.0112538941     88.0868863       
110              0.012376223      88.0407936       0.999773715      -1.26669743      0.999773715      -1.26669743      0.0123791314     88.0409563       
120              0.0135012217     87.9833381       0.999759154      -1.38186039      0.999759154      -1.38186039      0.0135043945     87.9834873       
130              0.0146262437     87.9170031       0.999743325      -1.49702562      0.999743325      -1.49702562      0.0146296809     87.9171408       
140              0.0157512875     87.8436904       0.99972623       -1.61219329      0.99972623       -1.61219329      0.0157549892     87.8438183       
150              0.0168763523     87.7647946       0.999707867      -1.72736359      0.999707867      -1.72736359      0.0168803183     87.7649139       
160              0.0180014376     87.6813615       0.999688237      -1.84253672      0.999688237      -1.84253672      0.0180056681     87.6814734       
170              0.0191265435     87.5941911       0.99966734       -1.95771285      0.99966734       -1.95771285      0.0191310383     87.5942964       
180              0.0202516699     87.5039054       0.999645175      -2.07289218      0.999645175      -2.07289218      0.0202564292     87.5040048       
190              0.0213768174     87.4109954       0.999621742      -2.1880749       0.999621742      -2.1880749       0.021381841      87.4110896       
200              0.0225019862     87.3158541       0.999597041      -2.30326119      0.999597041      -2.30326119      0.0225072742     87.3159435       
210              0.023627177      87.2187992       0.999571072      -2.41845123      0.999571072      -2.41845123      0.0236327294     87.2188844       
220              0.0247523904     87.120091        0.999543835      -2.53364523      0.999543835      -2.53364523      0.0247582071     87.1201723       
230              0.0258776271     87.0199443       0.999515328      -2.64884335      0.999515328      -2.64884335      0.0258837081     87.0200221       
240              0.0270028878     86.9185381       0.999485553      -2.7640458       0.999485553      -2.7640458       0.0270092331     86.9186126       
250              0.0281281731     86.8160227       0.999454509      -2.87925276      0.999454509      -2.87925276      0.0281347828     86.8160942       
260              0.029253484      86.7125252       0.999422195      -2.99446442      0.999422195      -2.99446442      0.0292603581     86.7125941       
270              0.0303788213     86.6081541       0.999388611      -3.10968095      0.999388611      -3.10968095      0.0303859596     86.6082204       
280              0.0315041857     86.503002        0.999353757      -3.22490256      0.999353757      -3.22490256      0.0315115883     86.5030659       
290              0.0326295781     86.397149        0.999317633      -3.34012943      0.999317633      -3.34012943      0.032637245      86.3972107       
300              0.0337549993     86.2906643       0.999280237      -3.45536173      0.999280237      -3.45536173      0.0337629305     86.290724        
310              0.0348804503     86.1836083       0.999241571      -3.57059967      0.999241571      -3.57059967      0.0348886458     86.183666        
320              0.0360059318     86.0760336       0.999201634      -3.68584342      0.999201634      -3.68584342      0.0360143916     86.0760895       
330              0.0371314448     85.9679867       0.999160424      -3.80109318      0.999160424      -3.80109318      0.0371401688     85.9680409       
340              0.03825699       85.8595083       0.999117943      -3.91634913      0.999117943      -3.91634913      0.0382659783     85.8595609       
350              0.0393825685     85.7506347       0.999074189      -4.03161145      0.999074189      -4.03161145      0.039391821      85.7506858       
360              0.0405081811     85.6413979       0.999029162      -4.14688034      0.999029162      -4.14688034      0.0405176978     85.6414476       
370              0.0416338286     85.5318265       0.998982862      -4.26215597      0.998982862      -4.26215597      0.0416436095     85.5318749       
380              0.042759512      85.4219462       0.998935288      -4.37743853      0.998935288      -4.37743853      0.0427695571     85.4219933       
390              0.0438852321     85.3117799       0.99888644       -4.49272821      0.99888644       -4.49272821      0.0438955414     85.3118258       
400              0.0450109898     85.2013483       0.998836317      -4.6080252       0.998836317      -4.6080252       0.0450215633     85.201393        
410              0.046136786      85.0906698       0.998784919      -4.72332968      0.998784919      -4.72332968      0.0461476237     85.0907135       
420              0.0472626216     84.9797614       0.998732246      -4.83864183      0.998732246      -4.83864183      0.0472737234     84.979804        
430              0.0483884974     84.8686382       0.998678297      -4.95396184      0.998678297      -4.95396184      0.0483998633     84.8686798       
440              0.0495144144     84.7573141       0.998623072      -5.0692899       0.998623072      -5.0692899       0.0495260444     84.7573547       
450              0.0506403733     84.6458016       0.998566569      -5.18462619      0.998566569      -5.18462619      0.0506522675     84.6458413       
460              0.0517663752     84.5341121       0.998508789      -5.29997089      0.998508789      -5.29997089      0.0517785334     84.534151        
470              0.0528924207     84.4222563       0.998449732      -5.41532419      0.998449732      -5.41532419      0.052904843      84.4222943       
480              0.0540185109     84.3102435       0.998389396      -5.53068627      0.998389396      -5.53068627      0.0540311972     84.3102808       
490              0.0551446465     84.1980827       0.998327781      -5.64605732      0.998327781      -5.64605732      0.0551575969     84.1981192       
500              0.0562708284     84.0857818       0.998264886      -5.76143752      0.998264886      -5.76143752      0.0562840428     84.0858176       
510              0.0573970575     83.9733483       0.998200712      -5.87682706      0.998200712      -5.87682706      0.0574105359     83.9733834       
520              0.0585233347     83.860789        0.998135257      -5.99222611      0.998135257      -5.99222611      0.0585370771     83.8608234       
530              0.0596496607     83.7481102       0.99806852       -6.10763487      0.99806852       -6.10763487      0.059663667      83.748144        
540              0.0607760364     83.6353177       0.998000502      -6.22305351      0.998000502      -6.22305351      0.0607903067     83.6353508       
550              0.0619024626     83.5224169       0.997931202      -6.33848222      0.997931202      -6.33848222      0.0619169969     83.5224494       
560              0.0630289402     83.4094127       0.997860618      -6.45392117      0.997860618      -6.45392117      0.0630437384     83.4094447       
570              0.0641554701     83.2963098       0.997788751      -6.56937056      0.997788751      -6.56937056      0.0641705321     83.2963412       
580              0.0652820529     83.1831125       0.9977156        -6.68483057      0.9977156        -6.68483057      0.0652973789     83.1831433       
590              0.0664086896     83.0698247       0.997641164      -6.80030137      0.997641164      -6.80030137      0.0664242794     83.069855        
600              0.0675353809     82.95645         0.997565442      -6.91578316      0.997565442      -6.91578316      0.0675512346     82.9564799       
610              0.0686621278     82.8429921       0.997488435      -7.0312761       0.997488435      -7.0312761       0.0686782452     82.8430214       
620              0.0697889308     82.729454        0.99741014       -7.14678039      0.99741014       -7.14678039      0.0698053121     82.7294829       
630              0.0709157909     82.6158388       0.997330558      -7.2622962       0.997330558      -7.2622962       0.070932436      82.6158672       
640              0.0720427089     82.5021492       0.997249688      -7.37782372      0.997249688      -7.37782372      0.0720596177     82.5021771       
650              0.0731696855     82.3883878       0.997167529      -7.49336312      0.997167529      -7.49336312      0.0731868581     82.3884153       
660              0.0742967215     82.2745571       0.99708408       -7.60891459      0.99708408       -7.60891459      0.0743141578     82.2745842       
670              0.0754238177     82.1606594       0.996999341      -7.7244783       0.996999341      -7.7244783       0.0754415177     82.1606861       
680              0.0765509749     82.0466968       0.996913311      -7.84005444      0.996913311      -7.84005444      0.0765689385     82.0467231       
690              0.0776781937     81.9326713       0.996825989      -7.95564319      0.996825989      -7.95564319      0.077696421      81.9326972       
700              0.0788054751     81.8185847       0.996737374      -8.07124473      0.996737374      -8.07124473      0.0788239659     81.8186103       
710              0.0799328196     81.7044388       0.996647467      -8.18685923      0.996647467      -8.18685923      0.0799515741     81.704464        
720              0.0810602281     81.5902353       0.996556265      -8.30248687      0.996556265      -8.30248687      0.0810792461     81.5902602       
730              0.0821877013     81.4759757       0.996463768      -8.41812784      0.996463768      -8.41812784      0.0822069828     81.4760002       
740              0.0833152399     81.3616614       0.996369975      -8.53378231      0.996369975      -8.53378231      0.0833347849     81.3616856       
750              0.0844428446     81.2472938       0.996274887      -8.64945046      0.996274887      -8.64945046      0.0844626532     81.2473177       
760              0.0855705162     81.1328742       0.9961785        -8.76513246      0.9961785        -8.76513246      0.0855905882     81.1328978       
770              0.0866982553     81.0184039       0.996080816      -8.88082851      0.996080816      -8.88082851      0.0867185908     81.0184271       
780              0.0878260627     80.9038838       0.995981833      -8.99653876      0.995981833      -8.99653876      0.0878466616     80.9039068       
790              0.088953939      80.7893151       0.99588155       -9.11226341      0.99588155       -9.11226341      0.0889748013     80.7893378       
800              0.090081885      80.6746988       0.995779966      -9.22800263      0.995779966      -9.22800263      0.0901030107     80.6747212       
810              0.0912099013     80.5600358       0.995677081      -9.34375658      0.995677081      -9.34375658      0.0912312903     80.560058        
820              0.0923379886     80.4453271       0.995572893      -9.45952546      0.995572893      -9.45952546      0.0923596409     80.4453489       
830              0.0934661475     80.3305733       0.995467402      -9.57530944      0.995467402      -9.57530944      0.0934880631     80.3305949       
840              0.0945943787     80.2157754       0.995360607      -9.69110868      0.995360607      -9.69110868      0.0946165575     80.2157968       
850              0.0957226829     80.1009341       0.995252507      -9.80692338      0.995252507      -9.80692338      0.0957451249     80.1009552       
860              0.0968510606     79.98605         0.995143101      -9.92275369      0.995143101      -9.92275369      0.0968737659     79.9860709       
870              0.0979795126     79.8711238       0.995032388      -10.0385998      0.995032388      -10.0385998      0.098002481      79.8711445       
880              0.0991080395     79.7561562       0.994920367      -10.1544619      0.994920367      -10.1544619      0.099131271      79.7561766       
890              0.100236642      79.6411477       0.994807037      -10.2703401      0.994807037      -10.2703401      0.100260136      79.6411679       
900              0.10136532       79.5260988       0.994692398      -10.3862347      0.994692398      -10.3862347      0.101389078      79.5261188       
910              0.102494075      79.4110101       0.994576448      -10.5021457      0.994576448      -10.5021457      0.102518096      79.4110298       
920              0.103622907      79.295882        0.994459186      -10.6180734      0.994459186      -10.6180734      0.103647191      79.2959015       
930              0.104751817      79.180715        0.994340612      -10.734018       0.994340612      -10.734018       0.104776364      79.1807344       
940              0.105880806      79.0655095       0.994220724      -10.8499795      0.994220724      -10.8499795      0.105905616      79.0655287       
950              0.107009873      78.950266        0.994099521      -10.9659582      0.994099521      -10.9659582      0.107034946      78.9502849       
960              0.10813902       78.8349847       0.993977003      -11.0819543      0.993977003      -11.0819543      0.108164356      78.8350035       
970              0.109268248      78.7196661       0.993853168      -11.1979679      0.993853168      -11.1979679      0.109293846      78.7196847       
980              0.110397555      78.6043105       0.993728016      -11.3139993      0.993728016      -11.3139993      0.110423416      78.6043289       
990              0.111526944      78.4889181       0.993601544      -11.4300484      0.993601544      -11.4300484      0.111553068      78.4889363       
1000             0.112656414      78.3734893       0.993473753      -11.5461157      0.993473753      -11.5461157      0.112682801      78.3735073       
1010             0.113785967      78.2580243       0.993344641      -11.6622011      0.993344641      -11.6622011      0.113812616      78.2580422       
1020             0.114915602      78.1425234       0.993214207      -11.7783049      0.993214207      -11.7783049      0.114942514      78.1425411       
1030             0.116045321      78.0269869       0.99308245       -11.8944272      0.99308245       -11.8944272      0.116072495      78.0270044       
1040             0.117175123      77.9114148       0.99294937       -12.0105683      0.99294937       -12.0105683      0.11720256       77.9114322       
1050             0.118305009      77.7958076       0.992814964      -12.1267282      0.992814964      -12.1267282      0.118332709      77.7958248       
1060             0.11943498       77.6801652       0.992679231      -12.2429072      0.992679231      -12.2429072      0.119462942      77.6801823       
1070             0.120565036      77.5644879       0.992542172      -12.3591054      0.992542172      -12.3591054      0.12059326       77.5645049       
1080             0.121695177      77.448776        0.992403784      -12.475323       0.992403784      -12.475323       0.121723664      77.4487927       
1090             0.122825404      77.3330294       0.992264066      -12.5915602      0.992264066      -12.5915602      0.122854153      77.333046        
1100             0.123955718      77.2172483       0.992123018      -12.7078171      0.992123018      -12.7078171      0.123984729      77.2172648       
1110             0.125086118      77.101433        0.991980637      -12.8240938      0.991980637      -12.8240938      0.125115392      77.1014493       
1120             0.126216605      76.9855834       0.991836924      -12.9403906      0.991836924      -12.9403906      0.126246141      76.9855996       
1130             0.12734718       76.8696997       0.991691877      -13.0567076      0.991691877      -13.0567076      0.127376978      76.8697158       
1140             0.128477842      76.753782        0.991545494      -13.173045       0.991545494      -13.173045       0.128507903      76.7537979       
1150             0.129608593      76.6378303       0.991397775      -13.289403       0.991397775      -13.289403       0.129638916      76.6378462       
1160             0.130739433      76.5218448       0.991248717      -13.4057816      0.991248717      -13.4057816      0.130770018      76.5218605       
1170             0.131870362      76.4058255       0.991098321      -13.5221811      0.991098321      -13.5221811      0.131901208      76.4058411       
1180             0.133001379      76.2897724       0.990946585      -13.6386017      0.990946585      -13.6386017      0.133032488      76.2897879       
1190             0.134132487      76.1736857       0.990793508      -13.7550434      0.990793508      -13.7550434      0.134163858      76.173701        
1200             0.135263684      76.0575653       0.990639088      -13.8715065      0.990639088      -13.8715065      0.135295317      76.0575805       
1210             0.136394972      75.9414113       0.990483324      -13.9879912      0.990483324      -13.9879912      0.136426867      75.9414264       
1220             0.13752635       75.8252237       0.990326215      -14.1044975      0.990326215      -14.1044975      0.137558507      75.8252387       
1230             0.138657819      75.7090025       0.99016776       -14.2210256      0.99016776       -14.2210256      0.138690237      75.7090174       
1240             0.139789379      75.5927478       0.990007958      -14.3375758      0.990007958      -14.3375758      0.139822059      75.5927626       
1250             0.140921031      75.4764595       0.989846806      -14.4541481      0.989846806      -14.4541481      0.140953972      75.4764742       
1260             0.142052774      75.3601377       0.989684305      -14.5707427      0.989684305      -14.5707427      0.142085977      75.3601523       
1270             0.143184608      75.2437824       0.989520452      -14.6873598      0.989520452      -14.6873598      0.143218073      75.2437969       
1280             0.144316535      75.1273935       0.989355247      -14.8039996      0.989355247      -14.8039996      0.144350262      75.1274079       
1290             0.145448554      75.010971        0.989188688      -14.9206621      0.989188688      -14.9206621      0.145482542      75.0109854       
1300             0.146580666      74.894515        0.989020774      -15.0373476      0.989020774      -15.0373476      0.146614915      74.8945292       
1310             0.14771287       74.7780254       0.988851503      -15.1540562      0.988851503      -15.1540562      0.147747381      74.7780395       
1320             0.148845167      74.6615021       0.988680874      -15.2707881      0.988680874      -15.2707881      0.148879939      74.6615162       
