! Coilcraft A02T_ Mini Spring Air Core Inductor				
! 30 May 2003
# MHZ S MA R 50
!Freq             MagS11           AngS11           MagS21           AngS21           MagS12           AngS12           MagS22           AngS22
50               0.0128149698     87.5077452       0.999598479      -1.06438902      0.999598479      -1.06438902      0.0128186472     87.5081549       
60               0.0153762007     87.5327823       0.999562369      -1.27726215      0.999562369      -1.27726215      0.0153806139     87.5331238       
70               0.0179374552     87.4898739       0.999519695      -1.49013274      0.999519695      -1.49013274      0.0179426041     87.4901666       
80               0.0204986346     87.4044902       0.999470459      -1.70300035      0.999470459      -1.70300035      0.0205045191     87.4047463       
90               0.0230596719     87.2907864       0.999414661      -1.91586457      0.999414661      -1.91586457      0.0230662919     87.291014        
100              0.0256205158     87.1572575       0.999352303      -2.12872497      0.999352303      -2.12872497      0.0256278711     87.1574624       
110              0.0281811235     87.0093106       0.999283385      -2.34158112      0.999283385      -2.34158112      0.0281892141     87.0094969       
120              0.0307414575     86.8505508       0.99920791       -2.55443261      0.99920791       -2.55443261      0.0307502831     86.8507215       
130              0.033301483      86.6834742       0.999125879      -2.76727899      0.999125879      -2.76727899      0.0333110437     86.6836318       
140              0.0358611677     86.5098641       0.999037294      -2.98011985      0.999037294      -2.98011985      0.0358714633     86.5100105       
150              0.0384204802     86.3310283       0.998942156      -3.19295477      0.998942156      -3.19295477      0.0384315105     86.3311649       
160              0.0409793903     86.1479478       0.998840468      -3.40578331      0.998840468      -3.40578331      0.0409911551     86.1480758       
170              0.0435378682     85.9613728       0.998732231      -3.61860505      0.998732231      -3.61860505      0.0435503674     85.9614933       
180              0.0460958847     85.7718871       0.998617449      -3.83141956      0.998617449      -3.83141956      0.0461091182     85.7720009       
190              0.0486534111     85.5799514       0.998496124      -4.04422642      0.998496124      -4.04422642      0.0486673786     85.5800592       
200              0.0512104187     85.3859346       0.998368258      -4.2570252       0.998368258      -4.2570252       0.0512251201     85.386037        
210              0.0537668792     85.1901353       0.998233853      -4.46981547      0.998233853      -4.46981547      0.0537823142     85.1902328       
220              0.0563227644     84.9927977       0.998092914      -4.68259681      0.998092914      -4.68259681      0.0563389328     84.9928908       
230              0.0588780461     84.794124        0.997945442      -4.89536879      0.997945442      -4.89536879      0.0588949478     84.794213        
240              0.0614326965     84.5942823       0.997791442      -5.10813098      0.997791442      -5.10813098      0.0614503311     84.5943676       
250              0.0639866876     84.3934142       0.997630916      -5.32088294      0.997630916      -5.32088294      0.0640050549     84.393496        
260              0.0665399915     84.1916394       0.997463867      -5.53362426      0.997463867      -5.53362426      0.0665590913     84.1917181       
270              0.0690925806     83.9890599       0.9972903        -5.74635451      0.9972903        -5.74635451      0.0691124127     83.9891357       
280              0.0716444272     83.7857635       0.997110218      -5.95907324      0.997110218      -5.95907324      0.0716649912     83.7858365       
290              0.0741955036     83.5818254       0.996923625      -6.17178004      0.996923625      -6.17178004      0.0742167992     83.581896        
300              0.0767457822     83.3773113       0.996730525      -6.38447448      0.996730525      -6.38447448      0.0767678091     83.3773795       
310              0.0792952354     83.1722782       0.996530922      -6.59715611      0.996530922      -6.59715611      0.0793179934     83.1723442       
320              0.0818438357     82.9667761       0.996324821      -6.80982452      0.996324821      -6.80982452      0.0818673245     82.96684         
330              0.0843915555     82.7608491       0.996112225      -7.02247927      0.996112225      -7.02247927      0.0844157748     82.760911        
340              0.0869383676     82.5545358       0.99589314       -7.23511993      0.99589314       -7.23511993      0.0869633169     82.554596        
350              0.0894842443     82.3478709       0.99566757       -7.44774607      0.99566757       -7.44774607      0.0895099234     82.3479293       
360              0.0920291583     82.140885        0.99543552       -7.66035724      0.99543552       -7.66035724      0.0920555668     82.1409417       
370              0.0945730822     81.9336054       0.995196994      -7.87295303      0.995196994      -7.87295303      0.0946002197     81.9336606       
380              0.0971159887     81.7260566       0.994951999      -8.08553299      0.994951999      -8.08553299      0.0971438549     81.7261104       
390              0.0996578504     81.5182609       0.994700539      -8.29809669      0.994700539      -8.29809669      0.0996864448     81.5183133       
400              0.10219864       81.310238        0.99444262       -8.5106437       0.99444262       -8.5106437       0.102227962      81.3102891       
410              0.10473833       81.1020059       0.994178248      -8.72317358      0.994178248      -8.72317358      0.10476838       81.1020558       
420              0.107276894      80.893581        0.993907427      -8.93568589      0.993907427      -8.93568589      0.107307671      80.8936297       
430              0.109814304      80.6849781       0.993630164      -9.1481802       0.993630164      -9.1481802       0.109845807      80.6850256       
440              0.112350533      80.4762106       0.993346465      -9.36065607      0.993346465      -9.36065607      0.112382763      80.4762571       
450              0.114885553      80.267291        0.993056335      -9.57311306      0.993056335      -9.57311306      0.114918509      80.2673364       
460              0.117419339      80.0582305       0.992759782      -9.78555074      0.992759782      -9.78555074      0.11745302       80.0582749       
470              0.119951862      79.8490395       0.992456812      -9.99796866      0.992456812      -9.99796866      0.119986268      79.849083        
480              0.122483095      79.6397276       0.99214743       -10.2103664      0.99214743       -10.2103664      0.122518225      79.6397701       
490              0.125013012      79.4303035       0.991831644      -10.4227435      0.991831644      -10.4227435      0.125048866      79.4303451       
500              0.127541585      79.2207753       0.991509461      -10.6350995      0.991509461      -10.6350995      0.127578163      79.2208161       
510              0.130068788      79.0111506       0.991180887      -10.847434       0.991180887      -10.847434       0.130106088      79.0111906       
520              0.132594593      78.8014363       0.99084593       -11.0597465      0.99084593       -11.0597465      0.132632616      78.8014755       
530              0.135118974      78.5916389       0.990504597      -11.2720367      0.990504597      -11.2720367      0.135157719      78.5916774       
540              0.137641903      78.3817644       0.990156895      -11.484304       0.990156895      -11.484304       0.137681369      78.3818021       
550              0.140163354      78.1718183       0.989802832      -11.696548       0.989802832      -11.696548       0.140203541      78.1718554       
560              0.1426833        77.961806        0.989442415      -11.9087682      0.989442415      -11.9087682      0.142724207      77.9618425       
570              0.145201713      77.7517323       0.989075652      -12.1209643      0.989075652      -12.1209643      0.14524334       77.7517681       
580              0.147718568      77.5416018       0.988702552      -12.3331357      0.988702552      -12.3331357      0.147760914      77.541637        
590              0.150233838      77.3314188       0.988323121      -12.5452821      0.988323121      -12.5452821      0.150276902      77.3314534       
600              0.152747495      77.1211873       0.987937369      -12.757403       0.987937369      -12.757403       0.152791278      77.1212213       
610              0.155259514      76.9109111       0.987545304      -12.9694978      0.987545304      -12.9694978      0.155304013      76.9109446       
620              0.157769866      76.7005938       0.987146934      -13.1815663      0.987146934      -13.1815663      0.157815083      76.7006267       
630              0.160278527      76.4902387       0.986742267      -13.3936079      0.986742267      -13.3936079      0.16032446       76.4902711       
640              0.162785469      76.2798491       0.986331314      -13.6056221      0.986331314      -13.6056221      0.162832117      76.279881        
650              0.165290665      76.0694279       0.985914082      -13.8176086      0.985914082      -13.8176086      0.165338028      76.0694593       
660              0.16779409       75.858978        0.98549058       -14.0295669      0.98549058       -14.0295669      0.167842167      75.8590089       
670              0.170295716      75.6485021       0.985060818      -14.2414965      0.985060818      -14.2414965      0.170344507      75.6485326       
680              0.172795518      75.4380028       0.984624806      -14.4533969      0.984624806      -14.4533969      0.172845021      75.4380328       
690              0.175293468      75.2274825       0.984182552      -14.6652677      0.984182552      -14.6652677      0.175343684      75.2275121       
700              0.177789541      75.0169436       0.983734066      -14.8771085      0.983734066      -14.8771085      0.177840469      75.0169727       
710              0.18028371       74.8063882       0.983279358      -15.0889188      0.983279358      -15.0889188      0.180335349      74.8064169       
720              0.182775949      74.5958185       0.982818438      -15.3006982      0.982818438      -15.3006982      0.182828298      74.5958468       
730              0.185266232      74.3852364       0.982351315      -15.5124461      0.982351315      -15.5124461      0.18531929       74.3852644       
740              0.187754532      74.174644        0.981878001      -15.7241621      0.981878001      -15.7241621      0.187808299      74.1746716       
750              0.190240824      73.9640431       0.981398504      -15.9358458      0.981398504      -15.9358458      0.190295298      73.9640703       
760              0.19272508       73.7534354       0.980912837      -16.1474967      0.980912837      -16.1474967      0.192780262      73.7534623       
770              0.195207276      73.5428227       0.980421009      -16.3591143      0.980421009      -16.3591143      0.195263164      73.5428492       
780              0.197687385      73.3322066       0.97992303       -16.5706982      0.97992303       -16.5706982      0.197743979      73.3322328       
790              0.200165381      73.1215886       0.979418913      -16.7822479      0.979418913      -16.7822479      0.20022268       73.1216145       
800              0.202641238      72.9109703       0.978908668      -16.9937629      0.978908668      -16.9937629      0.202699242      72.9109959       
810              0.205114931      72.7003532       0.978392305      -17.2052429      0.978392305      -17.2052429      0.205173637      72.7003784       
820              0.207586433      72.4897386       0.977869837      -17.4166872      0.977869837      -17.4166872      0.207645842      72.4897636       
830              0.210055719      72.2791279       0.977341274      -17.6280955      0.977341274      -17.6280955      0.21011583       72.2791526       
840              0.212522763      72.0685225       0.976806628      -17.8394673      0.976806628      -17.8394673      0.212583574      72.0685468       
850              0.214987539      71.8579235       0.976265911      -18.050802       0.976265911      -18.050802       0.21504905       71.8579476       
860              0.217450021      71.6473323       0.975719135      -18.2620993      0.975719135      -18.2620993      0.217512232      71.6473561       
870              0.219910185      71.4367499       0.975166312      -18.4733587      0.975166312      -18.4733587      0.219973094      71.4367735       
880              0.222368004      71.2261777       0.974607453      -18.6845797      0.974607453      -18.6845797      0.222431611      71.226201        
890              0.224823453      71.0156167       0.974042571      -18.8957618      0.974042571      -18.8957618      0.224887756      71.0156397       
900              0.227276506      70.8050679       0.973471679      -19.1069045      0.973471679      -19.1069045      0.227341506      70.8050908       
910              0.229727139      70.5945326       0.972894788      -19.3180074      0.972894788      -19.3180074      0.229792833      70.5945551       
920              0.232175325      70.3840116       0.972311912      -19.52907        0.972311912      -19.52907        0.232241714      70.3840339       
930              0.23462104       70.173506        0.971723063      -19.7400918      0.971723063      -19.7400918      0.234688122      70.1735281       
940              0.237064258      69.9630169       0.971128254      -19.9510723      0.971128254      -19.9510723      0.237132032      69.9630387       
950              0.239504955      69.752545        0.970527498      -20.1620112      0.970527498      -20.1620112      0.23957342       69.7525667       
960              0.241943104      69.5420915       0.969920808      -20.3729078      0.969920808      -20.3729078      0.24201226       69.5421129       
970              0.244378681      69.3316571       0.969308198      -20.5837617      0.969308198      -20.5837617      0.244448527      69.3316784       
980              0.246811661      69.1212429       0.968689682      -20.7945724      0.968689682      -20.7945724      0.246882195      69.1212639       
990              0.24924202       68.9108496       0.968065271      -21.0053394      0.968065271      -21.0053394      0.249313241      68.9108705       
1000             0.251669731      68.7004782       0.967434982      -21.2160623      0.967434982      -21.2160623      0.251741639      68.7004988       
1010             0.254094771      68.4901294       0.966798826      -21.4267406      0.966798826      -21.4267406      0.254167364      68.4901499       
1020             0.256517114      68.2798041       0.966156819      -21.6373738      0.966156819      -21.6373738      0.256590392      68.2798244       
1030             0.258936736      68.0695031       0.965508974      -21.8479613      0.965508974      -21.8479613      0.259010698      68.0695233       
1040             0.261353612      67.8592273       0.964855306      -22.0585028      0.964855306      -22.0585028      0.261428257      67.8592472       
1050             0.263767718      67.6489773       0.964195829      -22.2689977      0.964195829      -22.2689977      0.263843044      67.648997        
1060             0.266179029      67.438754        0.963530558      -22.4794455      0.963530558      -22.4794455      0.266255036      67.4387735       
1070             0.268587521      67.228558        0.962859507      -22.6898457      0.962859507      -22.6898457      0.268664207      67.2285774       
1080             0.270993169      67.0183902       0.96218269       -22.9001979      0.96218269       -22.9001979      0.271070534      67.0184095       
1090             0.273395949      66.8082513       0.961500124      -23.1105016      0.961500124      -23.1105016      0.273473991      66.8082704       
1100             0.275795836      66.598142        0.960811823      -23.3207562      0.960811823      -23.3207562      0.275874555      66.598161        
1110             0.278192807      66.388063        0.960117802      -23.5309613      0.960117802      -23.5309613      0.278272202      66.3880818       
1120             0.280586838      66.178015        0.959418076      -23.7411163      0.959418076      -23.7411163      0.280666907      66.1780337       
1130             0.282977904      65.9679987       0.958712662      -23.9512209      0.958712662      -23.9512209      0.283058646      65.9680172       
1140             0.285365982      65.7580148       0.958001574      -24.1612744      0.958001574      -24.1612744      0.285447396      65.7580332       
1150             0.287751047      65.548064        0.957284828      -24.3712764      0.957284828      -24.3712764      0.287833132      65.5480822       
1160             0.290133075      65.3381468       0.95656244       -24.5812264      0.95656244       -24.5812264      0.29021583       65.3381649       
1170             0.292512044      65.1282641       0.955834427      -24.7911238      0.955834427      -24.7911238      0.292595468      65.1282821       
1180             0.294887929      64.9184164       0.955100804      -25.0009683      0.955100804      -25.0009683      0.29497202       64.9184342       
1190             0.297260706      64.7086043       0.954361587      -25.2107592      0.954361587      -25.2107592      0.297345464      64.7086221       
1200             0.299630352      64.4988286       0.953616793      -25.4204961      0.953616793      -25.4204961      0.299715776      64.4988462       
1210             0.301996844      64.2890898       0.952866439      -25.6301785      0.952866439      -25.6301785      0.302082933      64.2891073       
1220             0.304360159      64.0793886       0.95211054       -25.8398059      0.95211054       -25.8398059      0.30444691       64.0794059       
1230             0.306720272      63.8697255       0.951349115      -26.0493777      0.951349115      -26.0493777      0.306807685      63.8697428       
1240             0.30907716       63.6601013       0.950582178      -26.2588934      0.950582178      -26.2588934      0.309165235      63.6601184       
1250             0.311430802      63.4505164       0.949809749      -26.4683527      0.949809749      -26.4683527      0.311519536      63.4505335       
1260             0.313781172      63.2409716       0.949031843      -26.6777548      0.949031843      -26.6777548      0.313870565      63.2409886       
1270             0.316128249      63.0314674       0.948248479      -26.8870994      0.948248479      -26.8870994      0.316218299      63.0314842       
1280             0.31847201       62.8220044       0.947459673      -27.0963859      0.947459673      -27.0963859      0.318562716      62.8220211       
1290             0.320812431      62.6125831       0.946665443      -27.3056138      0.946665443      -27.3056138      0.320903792      62.6125998       
1300             0.32314949       62.4032043       0.945865807      -27.5147827      0.945865807      -27.5147827      0.323241504      62.4032208       
1310             0.325483165      62.1938683       0.945060782      -27.7238919      0.945060782      -27.7238919      0.325575831      62.1938848       
1320             0.327813431      61.9845759       0.944250386      -27.9329409      0.944250386      -27.9329409      0.327906749      61.9845923       
