! Coilcraft A03T_ Mini Spring Air Core Inductor				
! 30 May 2003
# MHZ S MA R 50
!Freq             MagS11           AngS11           MagS21           AngS21           MagS12           AngS12           MagS22           AngS22
50               0.0220562744     87.0590087       0.999244077      -1.60926634      0.999244077      -1.60926634      0.022062452      87.0593817       
60               0.0264634981     86.9590932       0.999137127      -1.93107191      0.999137127      -1.93107191      0.0264709112     86.959404        
70               0.0308699986     86.7958259       0.999010755      -2.25285147      0.999010755      -2.25285147      0.0308786468     86.7960923       
80               0.0352755021     86.592969        0.998864971      -2.5746007       0.998864971      -2.5746007       0.0352853851     86.5932021       
90               0.0396797824     86.3637294       0.998699791      -2.89631526      0.998699791      -2.89631526      0.0396908997     86.3639366       
100              0.044082637      86.1160346       0.998515229      -3.21799085      0.998515229      -3.21799085      0.0440949881     86.1162211       
110              0.0484838765     85.8549314       0.998311301      -3.53962314      0.998311301      -3.53962314      0.0484974609     85.8551009       
120              0.0528833193     85.5837862       0.998088027      -3.86120782      0.998088027      -3.86120782      0.0528981364     85.5839416       
130              0.0572807889     85.3049309       0.997845428      -4.18274059      0.997845428      -4.18274059      0.057296838      85.3050744       
140              0.0616761117     85.0200326       0.997583524      -4.50421715      0.997583524      -4.50421715      0.0616933922     85.0201658       
150              0.0660691167     84.7303148       0.997302341      -4.82563319      0.997302341      -4.82563319      0.0660876279     84.7304391       
160              0.0704596346     84.4366963       0.997001904      -5.14698444      0.997001904      -5.14698444      0.0704793757     84.4368128       
170              0.0748474973     84.1398807       0.996682241      -5.46826661      0.996682241      -5.46826661      0.0748684675     84.1399903       
180              0.079232538      83.8404162       0.99634338       -5.78947543      0.99634338       -5.78947543      0.0792547363     83.8405197       
190              0.0836145907     83.5387364       0.995985353      -6.11060663      0.995985353      -6.11060663      0.0836380163     83.5388344       
200              0.0879934903     83.235189        0.995608193      -6.43165596      0.995608193      -6.43165596      0.0880181421     83.2352821       
210              0.0923690724     82.9300563       0.995211933      -6.75261917      0.995211933      -6.75261917      0.0923949494     82.9301449       
220              0.0967411734     82.62357         0.994796611      -7.07349202      0.994796611      -7.07349202      0.0967682746     82.6236546       
230              0.10110963       82.3159222       0.994362263      -7.39427027      0.994362263      -7.39427027      0.101137955      82.3160032       
240              0.105474281      82.0072738       0.993908929      -7.71494972      0.993908929      -7.71494972      0.105503827      82.0073514       
250              0.109834964      81.6977603       0.993436651      -8.03552615      0.993436651      -8.03552615      0.109865731      81.6978348       
260              0.114191519      81.3874973       0.992945471      -8.35599537      0.992945471      -8.35599537      0.114223505      81.3875689       
270              0.118543784      81.0765836       0.992435433      -8.67635319      0.992435433      -8.67635319      0.118576988      81.0766525       
280              0.122891602      80.7651047       0.991906585      -8.99659543      0.991906585      -8.99659543      0.122926023      80.7651711       
290              0.127234812      80.4531346       0.991358973      -9.31671794      0.991358973      -9.31671794      0.127270448      80.4531987       
300              0.131573258      80.1407381       0.990792647      -9.63671656      0.990792647      -9.63671656      0.131610108      80.1408001       
310              0.135906782      79.8279722       0.990207658      -9.95658716      0.990207658      -9.95658716      0.135944844      79.8280321       
320              0.140235227      79.5148871       0.989604059      -10.2763256      0.989604059      -10.2763256      0.140274499      79.5149452       
330              0.144558437      79.2015275       0.988981904      -10.5959278      0.988981904      -10.5959278      0.144598919      79.2015838       
340              0.148876259      78.8879334       0.988341248      -10.9153897      0.988341248      -10.9153897      0.148917948      78.887988        
350              0.153188537      78.5741404       0.98768215       -11.2347072      0.98768215       -11.2347072      0.153231431      78.5741934       
360              0.157495118      78.2601807       0.987004667      -11.5538761      0.987004667      -11.5538761      0.157539217      78.2602323       
370              0.161795851      77.9460835       0.986308862      -11.8728926      0.986308862      -11.8728926      0.161841151      77.9461337       
380              0.166090583      77.6318753       0.985594794      -12.1917524      0.985594794      -12.1917524      0.166137084      77.6319241       
390              0.170379164      77.3175801       0.984862529      -12.5104517      0.984862529      -12.5104517      0.170426863      77.3176277       
400              0.174661445      77.0032201       0.984112131      -12.8289864      0.984112131      -12.8289864      0.17471034       77.0032665       
410              0.178937276      76.6888156       0.983343666      -13.1473526      0.983343666      -13.1473526      0.178987365      76.6888608       
420              0.183206509      76.3743853       0.982557203      -13.4655462      0.982557203      -13.4655462      0.183257791      76.3744294       
430              0.187468998      76.0599464       0.981752811      -13.7835634      0.981752811      -13.7835634      0.18752147       76.0599895       
440              0.191724597      75.7455152       0.980930561      -14.1014001      0.980930561      -14.1014001      0.191778258      75.7455573       
450              0.195973161      75.4311064       0.980090524      -14.4190526      0.980090524      -14.4190526      0.196028008      75.4311476       
460              0.200214546      75.1167341       0.979232776      -14.7365169      0.979232776      -14.7365169      0.200270576      75.1167744       
470              0.20444861       74.8024114       0.97835739       -15.0537891      0.97835739       -15.0537891      0.204505821      74.8024508       
480              0.20867521       74.4881505       0.977464444      -15.3708654      0.977464444      -15.3708654      0.2087336        74.4881891       
490              0.212894205      74.1739631       0.976554014      -15.6877419      0.976554014      -15.6877419      0.212953773      74.1740008       
500              0.217105457      73.8598599       0.975626181      -16.0044149      0.975626181      -16.0044149      0.217166199      73.8598969       
510              0.221308827      73.5458514       0.974681025      -16.3208805      0.974681025      -16.3208805      0.221370741      73.5458877       
520              0.225504177      73.2319474       0.973718628      -16.6371351      0.973718628      -16.6371351      0.22556726       73.231983        
530              0.229691371      72.9181571       0.972739071      -16.9531747      0.972739071      -16.9531747      0.229755621      72.918192        
540              0.233870274      72.6044894       0.971742441      -17.2689958      0.971742441      -17.2689958      0.233935689      72.6045236       
550              0.238040752      72.2909528       0.970728823      -17.5845946      0.970728823      -17.5845946      0.238107329      72.2909863       
560              0.242202673      71.9775553       0.969698303      -17.8999674      0.969698303      -17.8999674      0.242270408      71.9775883       
570              0.246355904      71.6643047       0.968650969      -18.2151106      0.968650969      -18.2151106      0.246424795      71.6643371       
580              0.250500315      71.3512084       0.967586911      -18.5300205      0.967586911      -18.5300205      0.25057036       71.3512403       
590              0.254635777      71.0382736       0.966506219      -18.8446935      0.966506219      -18.8446935      0.254706974      71.0383049       
600              0.258762163      70.7255072       0.965408985      -19.1591261      0.965408985      -19.1591261      0.258834508      70.7255379       
610              0.262879346      70.4129157       0.964295301      -19.4733146      0.964295301      -19.4733146      0.262952836      70.4129459       
620              0.266987199      70.1005056       0.963165262      -19.7872555      0.963165262      -19.7872555      0.267061832      70.1005353       
630              0.2710856        69.788283        0.962018962      -20.1009454      0.962018962      -20.1009454      0.271161372      69.7883123       
640              0.275174425      69.476254        0.960856497      -20.4143806      0.960856497      -20.4143806      0.275251334      69.4762828       
650              0.279253553      69.1644242       0.959677965      -20.7275578      0.959677965      -20.7275578      0.279331595      69.1644526       
660              0.283322864      68.8527995       0.958483463      -21.0404735      0.958483463      -21.0404735      0.283402036      68.8528274       
670              0.287382238      68.5413851       0.957273091      -21.3531243      0.957273091      -21.3531243      0.287462538      68.5414126       
680              0.291431558      68.2301865       0.956046949      -21.6655067      0.956046949      -21.6655067      0.291512982      68.2302136       
690              0.295470708      67.9192087       0.954805137      -21.9776175      0.954805137      -21.9776175      0.295553253      67.9192354       
700              0.299499572      67.6084568       0.953547759      -22.2894533      0.953547759      -22.2894533      0.299583235      67.6084831       
710              0.303518038      67.2979357       0.952274918      -22.6010107      0.952274918      -22.6010107      0.303602816      67.2979616       
720              0.307525993      66.9876502       0.950986716      -22.9122864      0.950986716      -22.9122864      0.307611883      66.9876758       
730              0.311523327      66.6776049       0.94968326       -23.2232773      0.94968326       -23.2232773      0.311610324      66.6776301       
740              0.315509929      66.3678043       0.948364655      -23.5339801      0.948364655      -23.5339801      0.315598031      66.3678292       
750              0.319485692      66.058253        0.947031007      -23.8443915      0.947031007      -23.8443915      0.319574896      66.0582776       
760              0.323450509      65.7489552       0.945682424      -24.1545084      0.945682424      -24.1545084      0.323540811      65.7489795       
770              0.327404275      65.4399153       0.944319015      -24.4643277      0.944319015      -24.4643277      0.327495672      65.4399392       
780              0.331346887      65.1311373       0.942940888      -24.7738461      0.942940888      -24.7738461      0.331439374      65.1311609       
790              0.335278241      64.8226253       0.941548154      -25.0830606      0.941548154      -25.0830606      0.335371816      64.8226486       
800              0.339198236      64.5143833       0.940140922      -25.3919681      0.940140922      -25.3919681      0.339292896      64.5144064       
810              0.343106774      64.2064153       0.938719306      -25.7005657      0.938719306      -25.7005657      0.343202514      64.2064381       
820              0.347003756      63.8987251       0.937283415      -26.0088502      0.937283415      -26.0088502      0.347100573      63.8987475       
830              0.350889085      63.5913163       0.935833364      -26.3168186      0.935833364      -26.3168186      0.350986976      63.5913385       
840              0.354762666      63.2841928       0.934369266      -26.6244681      0.934369266      -26.6244681      0.354861627      63.2842147       
850              0.358624405      62.977358        0.932891236      -26.9317956      0.932891236      -26.9317956      0.358724432      62.9773797       
860              0.36247421       62.6708156       0.931399387      -27.2387984      0.931399387      -27.2387984      0.3625753        62.6708371       
870              0.366311991      62.3645691       0.929893835      -27.5454734      0.929893835      -27.5454734      0.366414138      62.3645903       
880              0.370137656      62.0586218       0.928374696      -27.8518179      0.928374696      -27.8518179      0.370240859      62.0586428       
890              0.373951119      61.7529771       0.926842088      -28.157829       0.926842088      -28.157829       0.374055373      61.7529978       
900              0.377752294      61.4476384       0.925296126      -28.463504       0.925296126      -28.463504       0.377857595      61.4476589       
910              0.381541094      61.1426087       0.923736929      -28.76884        0.923736929      -28.76884        0.381647439      61.142629        
920              0.385317436      60.8378914       0.922164615      -29.0738344      0.922164615      -29.0738344      0.385424821      60.8379115       
930              0.389081239      60.5334896       0.920579303      -29.3784845      0.920579303      -29.3784845      0.389189659      60.5335095       
940              0.392832421      60.2294063       0.918981112      -29.6827876      0.918981112      -29.6827876      0.392941873      60.229426        
950              0.396570904      59.9256446       0.91737016       -29.986741       0.91737016       -29.986741       0.396681384      59.925664        
960              0.400296609      59.6222073       0.91574657       -30.2903421      0.91574657       -30.2903421      0.400408113      59.6222266       
970              0.40400946       59.3190975       0.91411046       -30.5935884      0.91411046       -30.5935884      0.404121984      59.3191166       
980              0.407709383      59.016318        0.912461952      -30.8964772      0.912461952      -30.8964772      0.407822923      59.0163369       
990              0.411396305      58.7138716       0.910801168      -31.1990062      0.910801168      -31.1990062      0.411510856      58.7138903       
1000             0.415070152      58.4117611       0.909128228      -31.5011727      0.909128228      -31.5011727      0.415185712      58.4117797       
1010             0.418730856      58.1099893       0.907443255      -31.8029743      0.907443255      -31.8029743      0.418847419      58.1100076       
1020             0.422378347      57.8085587       0.90574637       -32.1044085      0.90574637       -32.1044085      0.42249591       57.8085769       
1030             0.426012557      57.507472        0.904037698      -32.405473       0.904037698      -32.405473       0.426131115      57.50749         
1040             0.429633421      57.2067319       0.90231736       -32.7061655      0.90231736       -32.7061655      0.42975297       57.2067497       
1050             0.433240873      56.9063408       0.900585479      -33.0064834      0.900585479      -33.0064834      0.433361411      56.9063585       
1060             0.436834852      56.6063012       0.898842179      -33.3064245      0.898842179      -33.3064245      0.436956372      56.6063188       
1070             0.440415295      56.3066157       0.897087584      -33.6059866      0.897087584      -33.6059866      0.440537794      56.3066331       
1080             0.443982142      56.0072866       0.895321817      -33.9051674      0.895321817      -33.9051674      0.444105616      56.0073038       
1090             0.447535335      55.7083163       0.893545003      -34.2039646      0.893545003      -34.2039646      0.447659779      55.7083334       
1100             0.451074815      55.4097071       0.891757265      -34.502376       0.891757265      -34.502376       0.451200225      55.4097241       
1110             0.454600528      55.1114613       0.889958728      -34.8003995      0.889958728      -34.8003995      0.454726899      55.1114782       
1120             0.458112418      54.8135812       0.888149516      -35.0980329      0.888149516      -35.0980329      0.458239747      54.8135979       
1130             0.461610433      54.516069        0.886329754      -35.3952742      0.886329754      -35.3952742      0.461738715      54.5160856       
1140             0.465094521      54.2189269       0.884499567      -35.6921212      0.884499567      -35.6921212      0.465223752      54.2189433       
1150             0.468564632      53.9221569       0.882659079      -35.9885719      0.882659079      -35.9885719      0.468694808      53.9221732       
1160             0.472020717      53.6257612       0.880808415      -36.2846242      0.880808415      -36.2846242      0.472151833      53.6257774       
1170             0.475462729      53.3297418       0.878947701      -36.5802763      0.878947701      -36.5802763      0.475594781      53.3297579       
1180             0.478890622      53.0341008       0.87707706       -36.875526       0.87707706       -36.875526       0.479023605      53.0341168       
1190             0.482304351      52.7388401       0.875196618      -37.1703715      0.875196618      -37.1703715      0.482438261      52.738856        
1200             0.485703873      52.4439617       0.8733065        -37.4648109      0.8733065        -37.4648109      0.485838705      52.4439775       
1210             0.489089147      52.1494675       0.87140683       -37.7588423      0.87140683       -37.7588423      0.489224897      52.1494831       
1220             0.492460131      51.8553593       0.869497734      -38.0524639      0.869497734      -38.0524639      0.492596795      51.8553748       
1230             0.495816788      51.561639        0.867579337      -38.3456737      0.867579337      -38.3456737      0.495954361      51.5616544       
1240             0.499159078      51.2683084       0.865651762      -38.6384702      0.865651762      -38.6384702      0.499297556      51.2683237       
1250             0.502486967      50.9753693       0.863715136      -38.9308514      0.863715136      -38.9308514      0.502626345      50.9753845       
1260             0.505800418      50.6828233       0.861769582      -39.2228156      0.861769582      -39.2228156      0.505940692      50.6828384       
1270             0.509099399      50.3906722       0.859815225      -39.5143613      0.859815225      -39.5143613      0.509240563      50.3906872       
1280             0.512383876      50.0989176       0.857852189      -39.8054866      0.857852189      -39.8054866      0.512525928      50.0989325       
1290             0.51565382       49.8075612       0.855880599      -40.0961899      0.855880599      -40.0961899      0.515796753      49.807576        
1300             0.5189092        49.5166045       0.853900578      -40.3864697      0.853900578      -40.3864697      0.519053011      49.5166193       
1310             0.522149988      49.2260491       0.851912251      -40.6763243      0.851912251      -40.6763243      0.522294672      49.2260638       
1320             0.525376156      48.9358965       0.849915741      -40.9657521      0.849915741      -40.9657521      0.525521709      48.9359111       
