! Coilcraft A04T_ Mini Spring Air Core Inductor				
! 30 May 2003
# MHZ S MA R 50
!Freq             MagS11           AngS11           MagS21           AngS21           MagS12           AngS12           MagS22           AngS22
50               0.0360250103     86.319733        0.998544814      -2.398075        0.998544814      -2.398075        0.0360343914     86.3200668       
55               0.0396226428     86.1964891       0.998408638      -2.63780798      0.998408638      -2.63780798      0.0396329616     86.1967926       
60               0.0432195137     86.0538546       0.99825952       -2.87751968      0.99825952       -2.87751968      0.0432307698     86.0541328       
65               0.0468155099     85.8963088       0.998097469      -3.11720817      0.998097469      -3.11720817      0.0468277031     85.8965655       
70               0.0504105278     85.7270523       0.997922491      -3.35687153      0.997922491      -3.35687153      0.0504236578     85.7272907       
75               0.0540044697     85.5484333       0.997734597      -3.59650782      0.997734597      -3.59650782      0.0540185361     85.5486558       
80               0.0575972421     85.3622135       0.997533795      -3.83611511      0.997533795      -3.83611511      0.0576122446     85.3624221       
85               0.0611887546     85.1697406       0.997320095      -4.07569149      0.997320095      -4.07569149      0.0612046928     85.1699369       
90               0.0647789189     84.9720633       0.997093509      -4.31523503      0.997093509      -4.31523503      0.0647957925     84.9722488       
95               0.0683676485     84.7700102       0.996854048      -4.55474382      0.996854048      -4.55474382      0.068385457      84.7701859       
100              0.0719548582     84.5642443       0.996601723      -4.79421592      0.996601723      -4.79421592      0.071973601      84.5644112       
105              0.0755404635     84.3553029       0.996336548      -5.03364943      0.996336548      -5.03364943      0.0755601404     84.3554618       
110              0.0791243812     84.1436258       0.996058536      -5.27304243      0.996058536      -5.27304243      0.0791449916     84.1437775       
115              0.0827065284     83.9295767       0.9957677        -5.512393        0.9957677        -5.512393        0.0827280718     83.9297218       
120              0.086286823      83.7134591       0.995464055      -5.75169924      0.995464055      -5.75169924      0.0863092989     83.7135981       
125              0.0898651833     83.4955281       0.995147617      -5.99095923      0.995147617      -5.99095923      0.0898885911     83.4956615       
130              0.093441528      83.2759998       0.994818402      -6.23017108      0.994818402      -6.23017108      0.0934658672     83.2761282       
135              0.0970157763     83.0550589       0.994476425      -6.46933288      0.994476425      -6.46933288      0.0970410463     83.0551824       
140              0.100587848      82.8328635       0.994121704      -6.70844272      0.994121704      -6.70844272      0.100614048      82.8329826       
145              0.104157662      82.6095504       0.993754257      -6.94749871      0.993754257      -6.94749871      0.104184792      82.6096655       
150              0.107725139      82.3852385       0.993374102      -7.18649896      0.993374102      -7.18649896      0.107753198      82.3853497       
155              0.1112902        82.1600314       0.992981258      -7.42544157      0.992981258      -7.42544157      0.111319187      82.160139        
160              0.114852766      81.93402         0.992575745      -7.66432465      0.992575745      -7.66432465      0.11488268       81.9341242       
165              0.118412756      81.7072845       0.992157583      -7.90314631      0.992157583      -7.90314631      0.118443597      81.7073855       
170              0.121970094      81.4798958       0.991726792      -8.14190468      0.991726792      -8.14190468      0.122001861      81.4799938       
175              0.125524699      81.2519169       0.991283395      -8.38059788      0.991283395      -8.38059788      0.125557392      81.2520121       
180              0.129076495      81.023404        0.990827412      -8.61922402      0.990827412      -8.61922402      0.129110112      81.0234966       
185              0.132625403      80.7944075       0.990358868      -8.85778124      0.990358868      -8.85778124      0.132659943      80.7944976       
190              0.136171345      80.5649726       0.989877784      -9.09626766      0.989877784      -9.09626766      0.136206809      80.5650603       
195              0.139714245      80.33514         0.989384186      -9.33468142      0.989384186      -9.33468142      0.139750631      80.3352255       
200              0.143254026      80.1049467       0.988878097      -9.57302067      0.988878097      -9.57302067      0.143291333      80.10503         
205              0.14679061       79.8744259       0.988359543      -9.81128353      0.988359543      -9.81128353      0.146828837      79.8745072       
210              0.150323921      79.6436082       0.987828548      -10.0494682      0.987828548      -10.0494682      0.150363067      79.6436876       
215              0.153853883      79.4125214       0.98728514       -10.2875727      0.98728514       -10.2875727      0.153893948      79.4125988       
220              0.157380421      79.1811907       0.986729345      -10.5255953      0.986729345      -10.5255953      0.157421403      79.1812664       
225              0.160903458      78.9496395       0.98616119       -10.7635342      0.98616119       -10.7635342      0.160945357      78.9497135       
230              0.164422919      78.7178891       0.985580704      -11.0013874      0.985580704      -11.0013874      0.164465733      78.7179615       
235              0.16793873       78.4859594       0.984987915      -11.2391532      0.984987915      -11.2391532      0.167982458      78.4860302       
240              0.171450815      78.2538685       0.984382852      -11.4768298      0.984382852      -11.4768298      0.171495457      78.2539378       
245              0.174959101      78.0216333       0.983765545      -11.7144152      0.983765545      -11.7144152      0.175004655      78.0217012       
250              0.178463513      77.7892695       0.983136023      -11.9519078      0.983136023      -11.9519078      0.178509979      77.789336        
255              0.181963977      77.5567916       0.982494319      -12.1893056      0.982494319      -12.1893056      0.182011353      77.5568569       
260              0.185460421      77.3242133       0.981840462      -12.4266069      0.981840462      -12.4266069      0.185508706      77.3242772       
265              0.188952771      77.0915471       0.981174486      -12.6638098      0.981174486      -12.6638098      0.189001964      77.0916099       
270              0.192440955      76.858805        0.980496422      -12.9009126      0.980496422      -12.9009126      0.192491055      76.8588666       
275              0.1959249        76.625998        0.979806303      -13.1379135      0.979806303      -13.1379135      0.195975905      76.6260585       
280              0.199404534      76.3931367       0.979104163      -13.3748107      0.979104163      -13.3748107      0.199456444      76.3931961       
285              0.202879785      76.1602308       0.978390037      -13.6116023      0.978390037      -13.6116023      0.202932598      76.1602892       
290              0.206350583      75.9272896       0.977663958      -13.8482867      0.977663958      -13.8482867      0.206404298      75.927347        
295              0.209816855      75.6943219       0.976925961      -14.084862       0.976925961      -14.084862       0.209871471      75.6943782       
300              0.213278533      75.4613358       0.976176083      -14.3213265      0.976176083      -14.3213265      0.213334048      75.4613912       
305              0.216735545      75.2283393       0.97541436       -14.5576784      0.97541436       -14.5576784      0.216791958      75.2283938       
310              0.220187821      74.9953398       0.974640827      -14.793916       0.974640827      -14.793916       0.220245131      74.9953934       
315              0.223635293      74.7623442       0.973855523      -15.0300374      0.973855523      -15.0300374      0.223693499      74.762397        
320              0.227077891      74.5293594       0.973058485      -15.2660411      0.973058485      -15.2660411      0.227136991      74.5294113       
325              0.230515547      74.2963917       0.972249752      -15.5019251      0.972249752      -15.5019251      0.230575539      74.2964428       
330              0.233948191      74.0634472       0.971429361      -15.7376879      0.971429361      -15.7376879      0.234009075      74.0634976       
335              0.237375757      73.8305318       0.970597352      -15.9733276      0.970597352      -15.9733276      0.23743753       73.8305814       
340              0.240798177      73.5976511       0.969753765      -16.2088425      0.969753765      -16.2088425      0.240860838      73.5976999       
345              0.244215383      73.3648103       0.96889864       -16.444231       0.96889864       -16.444231       0.244278932      73.3648584       
350              0.24762731       73.1320146       0.968032017      -16.6794913      0.968032017      -16.6794913      0.247691744      73.132062        
355              0.25103389       72.899269        0.967153938      -16.9146217      0.967153938      -16.9146217      0.251099208      72.8993158       
360              0.254435059      72.6665782       0.966264443      -17.1496205      0.966264443      -17.1496205      0.254501259      72.6666242       
365              0.25783075       72.4339466       0.965363576      -17.3844861      0.965363576      -17.3844861      0.257897831      72.4339921       
370              0.261220898      72.2013788       0.964451379      -17.6192167      0.964451379      -17.6192167      0.26128886       72.2014236       
375              0.26460544       71.968879        0.963527894      -17.8538107      0.963527894      -17.8538107      0.264674279      71.9689232       
380              0.267984311      71.7364511       0.962593165      -18.0882664      0.962593165      -18.0882664      0.268054026      71.7364948       
385              0.271357447      71.5040993       0.961647236      -18.3225821      0.961647236      -18.3225821      0.271428037      71.5041424       
390              0.274724785      71.2718273       0.96069015       -18.5567562      0.96069015       -18.5567562      0.274796249      71.2718698       
395              0.278086263      71.0396389       0.959721953      -18.790787       0.959721953      -18.790787       0.278158598      71.0396808       
400              0.281441817      70.8075375       0.95874269       -19.0246729      0.95874269       -19.0246729      0.281515022      70.8075789       
405              0.284791387      70.5755267       0.957752407      -19.2584123      0.957752407      -19.2584123      0.28486546       70.5755676       
410              0.28813491       70.3436099       0.956751148      -19.4920035      0.956751148      -19.4920035      0.28820985       70.3436503       
415              0.291472326      70.1117904       0.955738961      -19.7254449      0.955738961      -19.7254449      0.291548131      70.1118303       
420              0.294803575      69.8800713       0.954715893      -19.9587349      0.954715893      -19.9587349      0.294880242      69.8801107       
425              0.298128595      69.6484558       0.95368199       -20.1918719      0.95368199       -20.1918719      0.298206124      69.6484948       
430              0.301447329      69.4169468       0.9526373        -20.4248542      0.9526373        -20.4248542      0.301525717      69.4169854       
435              0.304759715      69.1855475       0.951581872      -20.6576803      0.951581872      -20.6576803      0.304838961      69.1855855       
440              0.308065697      68.9542605       0.950515752      -20.8903487      0.950515752      -20.8903487      0.308145799      68.9542981       
445              0.311365215      68.7230888       0.949438991      -21.1228577      0.949438991      -21.1228577      0.311446172      68.723126        
450              0.314658213      68.492035        0.948351637      -21.3552057      0.948351637      -21.3552057      0.314740022      68.4920718       
455              0.317944633      68.2611019       0.94725374       -21.5873912      0.94725374       -21.5873912      0.318027292      68.2611383       
460              0.321224418      68.030292        0.946145349      -21.8194126      0.946145349      -21.8194126      0.321307926      68.030328        
465              0.324497512      67.799608        0.945026515      -22.0512685      0.945026515      -22.0512685      0.324581867      67.7996436       
470              0.32776386       67.5690523       0.943897289      -22.2829571      0.943897289      -22.2829571      0.327849059      67.5690875       
475              0.331023406      67.3386274       0.94275772       -22.5144771      0.94275772       -22.5144771      0.331109448      67.3386623       
480              0.334276095      67.1083357       0.941607861      -22.7458269      0.941607861      -22.7458269      0.334362979      67.1083702       
485              0.337521874      66.8781796       0.940447763      -22.977005       0.940447763      -22.977005       0.337609597      66.8782137       
490              0.340760688      66.6481613       0.939277478      -23.2080098      0.939277478      -23.2080098      0.340849249      66.6481951       
495              0.343992485      66.4182832       0.938097058      -23.4388399      0.938097058      -23.4388399      0.344081881      66.4183166       
500              0.347217212      66.1885474       0.936906555      -23.6694937      0.936906555      -23.6694937      0.347307441      66.1885805       
505              0.350434817      65.9589562       0.935706023      -23.8999698      0.935706023      -23.8999698      0.350525877      65.958989        
510              0.353645247      65.7295116       0.934495515      -24.1302668      0.934495515      -24.1302668      0.353737137      65.7295441       
515              0.356848452      65.5002159       0.933275083      -24.360383       0.933275083      -24.360383       0.356941169      65.500248        
520              0.360044381      65.271071        0.932044783      -24.5903171      0.932044783      -24.5903171      0.360137924      65.2711028       
525              0.363232985      65.042079        0.930804667      -24.8200677      0.930804667      -24.8200677      0.36332735       65.0421105       
530              0.366414212      64.8132419       0.929554791      -25.0496332      0.929554791      -25.0496332      0.366509399      64.8132732       
535              0.369588015      64.5845617       0.928295209      -25.2790123      0.928295209      -25.2790123      0.369684022      64.5845927       
540              0.372754345      64.3560403       0.927025976      -25.5082034      0.927025976      -25.5082034      0.372851169      64.356071        
545              0.375913154      64.1276796       0.925747146      -25.7372053      0.925747146      -25.7372053      0.376010792      64.12771         
550              0.379064394      63.8994816       0.924458776      -25.9660164      0.924458776      -25.9660164      0.379162845      63.8995116       
555              0.382208018      63.6714479       0.923160921      -26.1946354      0.923160921      -26.1946354      0.38230728       63.6714777       
560              0.38534398       63.4435805       0.921853637      -26.4230609      0.921853637      -26.4230609      0.385444051      63.4436101       
565              0.388472234      63.2158812       0.920536981      -26.6512914      0.920536981      -26.6512914      0.388573111      63.2159105       
570              0.391592735      62.9883517       0.919211008      -26.8793257      0.919211008      -26.8793257      0.391694416      62.9883807       
575              0.394705437      62.7609938       0.917875775      -27.1071623      0.917875775      -27.1071623      0.39480792       62.7610225       
580              0.397810296      62.5338091       0.91653134       -27.3347999      0.91653134       -27.3347999      0.397913579      62.5338377       
585              0.400907269      62.3067994       0.915177759      -27.5622371      0.915177759      -27.5622371      0.40101135       62.3068277       
590              0.403996312      62.0799664       0.91381509       -27.7894725      0.91381509       -27.7894725      0.404101189      62.0799945       
595              0.407077383      61.8533117       0.91244339       -28.0165049      0.91244339       -28.0165049      0.407183053      61.8533395       
600              0.410150439      61.6268369       0.911062717      -28.2433329      0.911062717      -28.2433329      0.410256899      61.6268645       
605              0.413215438      61.4005436       0.909673129      -28.4699552      0.909673129      -28.4699552      0.413322688      61.400571        
610              0.41627234       61.1744334       0.908274684      -28.6963705      0.908274684      -28.6963705      0.416380376      61.1744605       
615              0.419321104      60.9485079       0.906867441      -28.9225775      0.906867441      -28.9225775      0.419429924      60.9485348       
620              0.42236169       60.7227685       0.905451458      -29.1485748      0.905451458      -29.1485748      0.422471292      60.7227952       
625              0.425394058      60.4972169       0.904026794      -29.3743612      0.904026794      -29.3743612      0.42550444       60.4972434       
630              0.428418169      60.2718545       0.902593507      -29.5999355      0.902593507      -29.5999355      0.428529329      60.2718808       
635              0.431433985      60.0466828       0.901151657      -29.8252963      0.901151657      -29.8252963      0.43154592       60.0467089       
640              0.434441469      59.8217032       0.899701303      -30.0504424      0.899701303      -30.0504424      0.434554176      59.8217291       
645              0.437440582      59.5969173       0.898242504      -30.2753725      0.898242504      -30.2753725      0.43755406       59.596943        
650              0.440431288      59.3723264       0.89677532       -30.5000855      0.89677532       -30.5000855      0.440545534      59.3723519       
655              0.44341355       59.1479319       0.895299811      -30.72458        0.895299811      -30.72458        0.443528562      59.1479572       
660              0.446387334      58.9237352       0.893816036      -30.9488548      0.893816036      -30.9488548      0.446503109      58.9237603       
665              0.449352603      58.6997377       0.892324056      -31.1729088      0.892324056      -31.1729088      0.449469139      58.6997627       
670              0.452309323      58.4759408       0.89082393       -31.3967407      0.89082393       -31.3967407      0.452426617      58.4759656       
675              0.455257459      58.2523458       0.889315719      -31.6203493      0.889315719      -31.6203493      0.45537551       58.2523703       
680              0.458196979      58.0289539       0.887799483      -31.8437334      0.887799483      -31.8437334      0.458315784      58.0289783       
685              0.46112785       57.8057666       0.886275282      -32.0668919      0.886275282      -32.0668919      0.461247406      57.8057908       
