! Coilcraft A05T_ Mini Spring Air Core Inductor				
! 30 May 2003
# MHZ S MA R 50
!Freq             MagS11           AngS11           MagS21           AngS21           MagS12           AngS12           MagS22           AngS22
50               0.0544539038     85.2549557       0.997317102      -3.48298181      0.997317102      -3.48298181      0.0544690314     85.2553061       
55               0.0598825117     85.0217676       0.997006393      -3.83082337      0.997006393      -3.83082337      0.0598991488     85.0220862       
60               0.065307258      84.7696027       0.99666632       -4.17853478      0.99666632       -4.17853478      0.0653254033     84.7698948       
65               0.0707277328     84.5028799       0.996296945      -4.52610434      0.996296945      -4.52610434      0.070747385      84.5031495       
70               0.0761435407     84.2247594       0.995898335      -4.8735204       0.995898335      -4.8735204       0.0761646984     84.2250097       
75               0.0815542968     83.9375619       0.995470561      -5.22077135      0.995470561      -5.22077135      0.0815769585     83.9377955       
80               0.0869596237     83.6430313       0.995013701      -5.5678456       0.995013701      -5.5678456       0.0869837878     83.6432503       
85               0.0923591502     83.3425038       0.994527837      -5.91473164      0.994527837      -5.91473164      0.0923848151     83.3427099       
90               0.09775251       83.0370212       0.994013057      -6.26141798      0.994013057      -6.26141798      0.0977796739     83.0372158       
95               0.103139341      82.7274085       0.993469453      -6.60789319      0.993469453      -6.60789319      0.103168002      82.7275928       
100              0.108519285      82.4143278       0.992897122      -6.95414589      0.992897122      -6.95414589      0.108549441      82.4145029       
105              0.113891987      82.0983174       0.992296167      -7.30016477      0.992296167      -7.30016477      0.113923636      82.0984842       
110              0.119257096      81.7798196       0.991666695      -7.64593857      0.991666695      -7.64593857      0.119290236      81.7799788       
115              0.124614264      81.4592017       0.991008817      -7.99145607      0.991008817      -7.99145607      0.124648892      81.4593539       
120              0.129963145      81.1367715       0.990322651      -8.33670616      0.990322651      -8.33670616      0.12999926       81.1369174       
125              0.135303397      80.8127896       0.989608319      -8.68167777      0.989608319      -8.68167777      0.135340995      80.8129296       
130              0.140634681      80.4874777       0.988865945      -9.02635988      0.988865945      -9.02635988      0.140673761      80.4876123       
135              0.145956662      80.1610264       0.988095661      -9.37074158      0.988095661      -9.37074158      0.145997221      80.161156        
140              0.151269007      79.8336006       0.987297602      -9.71481202      0.987297602      -9.71481202      0.151311041      79.8337256       
145              0.156571386      79.5053439       0.986471908      -10.0585604      0.986471908      -10.0585604      0.156614893      79.5054645       
150              0.161863474      79.1763818       0.985618722      -10.4019761      0.985618722      -10.4019761      0.161908451      79.1764985       
155              0.167144946      78.8468254       0.984738192      -10.7450484      0.984738192      -10.7450484      0.16719139       78.8469382       
160              0.172415484      78.5167726       0.983830471      -11.0877668      0.983830471      -11.0877668      0.172463392      78.5168819       
165              0.177674771      78.186311        0.982895717      -11.4301209      0.982895717      -11.4301209      0.17772414       78.186417        
170              0.182922496      77.8555189       0.981934088      -11.7721003      0.981934088      -11.7721003      0.182973321      77.8556218       
175              0.188158348      77.5244668       0.980945751      -12.1136948      0.980945751      -12.1136948      0.188210627      77.5245667       
180              0.193382022      77.1932183       0.979930873      -12.4548941      0.979930873      -12.4548941      0.193435752      77.1933154       
185              0.198593216      76.8618311       0.978889627      -12.7956882      0.978889627      -12.7956882      0.198648394      76.8619256       
190              0.203791634      76.530358        0.97782219       -13.1360672      0.97782219       -13.1360672      0.203848254      76.53045         
195              0.208976979      76.1988471       0.97672874       -13.4760211      0.97672874       -13.4760211      0.209035039      76.1989367       
200              0.214148962      75.8673426       0.975609462      -13.8155401      0.975609462      -13.8155401      0.214208459      75.8674299       
205              0.219307297      75.5358853       0.974464542      -14.1546146      0.974464542      -14.1546146      0.219368225      75.5359705       
210              0.224451701      75.2045129       0.973294171      -14.4932349      0.973294171      -14.4932349      0.224514057      75.204596        
215              0.229581895      74.8732604       0.972098542      -14.8313917      0.972098542      -14.8313917      0.229645675      74.8733415       
220              0.234697606      74.5421602       0.970877852      -15.1690755      0.970877852      -15.1690755      0.234762806      74.5422395       
225              0.239798562      74.2112428       0.969632301      -15.5062771      0.969632301      -15.5062771      0.239865178      74.2113203       
230              0.244884499      73.8805366       0.968362093      -15.8429874      0.968362093      -15.8429874      0.244952526      73.8806124       
235              0.249955154      73.5500681       0.967067433      -16.1791972      0.967067433      -16.1791972      0.250024588      73.5501423       
240              0.25501027       73.2198626       0.96574853       -16.5148977      0.96574853       -16.5148977      0.255081106      73.2199352       
245              0.260049594      72.8899436       0.964405596      -16.8500801      0.964405596      -16.8500801      0.260121828      72.8900147       
250              0.265072876      72.5603334       0.963038845      -17.1847357      0.963038845      -17.1847357      0.265146504      72.5604031       
255              0.270079873      72.2310531       0.961648495      -17.5188558      0.961648495      -17.5188558      0.270154889      72.2311214       
260              0.275070344      71.9021229       0.960234764      -17.8524321      0.960234764      -17.8524321      0.275146745      71.9021899       
265              0.280044054      71.5735617       0.958797874      -18.1854561      0.958797874      -18.1854561      0.280121834      71.5736274       
270              0.285000771      71.2453877       0.957338051      -18.5179198      0.957338051      -18.5179198      0.285079926      71.2454521       
275              0.28994027       70.9176181       0.955855519      -18.8498149      0.955855519      -18.8498149      0.290020794      70.9176814       
280              0.294862328      70.5902694       0.954350509      -19.1811334      0.954350509      -19.1811334      0.294944217      70.5903316       
285              0.299766728      70.2633575       0.952823249      -19.5118676      0.952823249      -19.5118676      0.299849976      70.2634186       
290              0.304653256      69.9368974       0.951273974      -19.8420098      0.951273974      -19.8420098      0.304737859      69.9369574       
295              0.309521705      69.6109036       0.949702916      -20.1715521      0.949702916      -20.1715521      0.309607658      69.6109625       
300              0.314371871      69.2853899       0.948110313      -20.5004873      0.948110313      -20.5004873      0.314459168      69.2854479       
305              0.319203554      68.9603697       0.946496403      -20.828808       0.946496403      -20.828808       0.31929219       68.9604267       
310              0.324016561      68.6358559       0.944861424      -21.1565068      0.944861424      -21.1565068      0.324106531      68.6359119       
315              0.328810701      68.3118606       0.943205617      -21.4835767      0.943205617      -21.4835767      0.328901999      68.3119158       
320              0.333585789      67.9883959       0.941529225      -21.8100108      0.941529225      -21.8100108      0.33367841       67.9884502       
325              0.338341646      67.6654731       0.939832492      -22.1358021      0.939832492      -22.1358021      0.338435584      67.6655265       
330              0.343078093      67.3431033       0.938115661      -22.4609439      0.938115661      -22.4609439      0.343173343      67.3431559       
335              0.347794962      67.0212971       0.93637898       -22.7854297      0.93637898       -22.7854297      0.347891518      67.0213489       
340              0.352492084      66.7000648       0.934622694      -23.109253       0.934622694      -23.109253       0.352589941      66.7001158       
345              0.357169298      66.3794163       0.932847053      -23.4324073      0.932847053      -23.4324073      0.35726845       66.3794665       
350              0.361826447      66.0593611       0.931052304      -23.7548866      0.931052304      -23.7548866      0.361926888      66.0594106       
355              0.366463377      65.7399086       0.929238697      -24.0766846      0.929238697      -24.0766846      0.366565102      65.7399574       
360              0.371079941      65.4210677       0.927406483      -24.3977956      0.927406483      -24.3977956      0.371182944      65.4211158       
365              0.375675995      65.102847        0.925555912      -24.7182135      0.925555912      -24.7182135      0.37578027       65.1028945       
370              0.3802514        64.7852549       0.923687235      -25.0379328      0.923687235      -25.0379328      0.380356941      64.7853017       
375              0.384806022      64.4682995       0.921800705      -25.3569478      0.921800705      -25.3569478      0.384912822      64.4683457       
380              0.38933973       64.1519887       0.919896573      -25.6752531      0.919896573      -25.6752531      0.389447784      64.1520342       
385              0.393852399      63.8363299       0.917975093      -25.9928433      0.917975093      -25.9928433      0.393961701      63.8363749       
390              0.398343908      63.5213306       0.916036516      -26.3097134      0.916036516      -26.3097134      0.398454453      63.5213749       
395              0.402814141      63.2069978       0.914081096      -26.6258581      0.914081096      -26.6258581      0.402925922      63.2070415       
400              0.407262986      62.8933383       0.912109086      -26.9412726      0.912109086      -26.9412726      0.407375996      62.8933815       
405              0.411690335      62.5803589       0.910120737      -27.2559521      0.910120737      -27.2559521      0.411804569      62.5804015       
410              0.416096084      62.2680658       0.908116303      -27.5698918      0.908116303      -27.5698918      0.416211536      62.268108        
415              0.420480135      61.9564654       0.906096037      -27.8830872      0.906096037      -27.8830872      0.420596799      61.956507        
420              0.424842394      61.6455636       0.904060191      -28.1955339      0.904060191      -28.1955339      0.424960262      61.6456047       
425              0.429182769      61.3353662       0.902009017      -28.5072275      0.902009017      -28.5072275      0.429301837      61.3354068       
430              0.433501175      61.0258787       0.899942766      -28.8181639      0.899942766      -28.8181639      0.433621435      61.0259189       
435              0.43779753       60.7171067       0.89786169       -29.1283389      0.89786169       -29.1283389      0.437918977      60.7171464       
440              0.442071756      60.4090553       0.895766039      -29.4377486      0.895766039      -29.4377486      0.442194383      60.4090945       
445              0.44632378       60.1017296       0.893656064      -29.7463893      0.893656064      -29.7463893      0.446447581      60.1017683       
450              0.450553532      59.7951343       0.891532014      -30.0542571      0.891532014      -30.0542571      0.4506785        59.7951726       
455              0.454760946      59.4892743       0.889394137      -30.3613485      0.889394137      -30.3613485      0.454887075      59.4893121       
460              0.458945962      59.184154        0.887242683      -30.66766        0.887242683      -30.66766        0.459073246      59.1841914       
465              0.463108521      58.8797777       0.885077897      -30.9731884      0.885077897      -30.9731884      0.463236953      58.8798147       
470              0.467248571      58.5761497       0.882900027      -31.2779302      0.882900027      -31.2779302      0.467378145      58.5761863       
475              0.47136606       58.2732739       0.880709318      -31.5818825      0.880709318      -31.5818825      0.47149677       58.2733101       
480              0.475460945      57.9711543       0.878506014      -31.8850421      0.878506014      -31.8850421      0.475592783      57.9711901       
485              0.479533182      57.6697945       0.876290358      -32.1874063      0.876290358      -32.1874063      0.479666143      57.66983         
490              0.483582733      57.3691982       0.874062593      -32.4889723      0.874062593      -32.4889723      0.48371681       57.3692333       
495              0.487609563      57.0693687       0.871822961      -32.7897373      0.871822961      -32.7897373      0.48774475       57.0694034       
500              0.491613642      56.7703092       0.869571701      -33.0896989      0.869571701      -33.0896989      0.491749931      56.7703436       
505              0.495594942      56.472023        0.867309051      -33.3888545      0.867309051      -33.3888545      0.495732328      56.472057        
510              0.499553438      56.174513        0.86503525       -33.6872018      0.86503525       -33.6872018      0.499691915      56.1745466       
515              0.503489112      55.877782        0.862750534      -33.9847387      0.862750534      -33.9847387      0.503628671      55.8778154       
520              0.507401945      55.5818329       0.860455137      -34.281463       0.860455137      -34.281463       0.507542581      55.5818659       
525              0.511291924      55.2866681       0.858149292      -34.5773727      0.858149292      -34.5773727      0.511433631      55.2867007       
530              0.515159038      54.9922901       0.855833233      -34.8724658      0.855833233      -34.8724658      0.515301809      54.9923224       
535              0.519003282      54.6987012       0.853507188      -35.1667406      0.853507188      -35.1667406      0.51914711       54.6987332       
540              0.52282465       54.4059037       0.851171388      -35.4601953      0.851171388      -35.4601953      0.522969529      54.4059354       
545              0.526623142      54.1138996       0.84882606       -35.7528284      0.84882606       -35.7528284      0.526769066      54.113931        
550              0.530398762      53.8226908       0.846471429      -36.0446384      0.846471429      -36.0446384      0.530545723      53.822722        
555              0.534151513      53.5322793       0.84410772       -36.3356238      0.84410772       -36.3356238      0.534299506      53.5323102       
560              0.537881406      53.2426668       0.841735155      -36.6257833      0.841735155      -36.6257833      0.538030424      53.2426973       
565              0.541588452      52.9538547       0.839353955      -36.9151157      0.839353955      -36.9151157      0.541738487      52.953885        
570              0.545272664      52.6658447       0.83696434       -37.2036199      0.83696434       -37.2036199      0.545423711      52.6658747       
575              0.548934061      52.3786382       0.834566527      -37.4912949      0.834566527      -37.4912949      0.549086113      52.3786679       
580              0.552572662      52.0922363       0.832160731      -37.7781397      0.832160731      -37.7781397      0.552725713      52.0922657       
585              0.55618849       51.8066403       0.829747166      -38.0641535      0.829747166      -38.0641535      0.556342534      51.8066695       
590              0.559781571      51.5218512       0.827326045      -38.3493356      0.827326045      -38.3493356      0.5599366        51.5218802       
595              0.563351933      51.23787         0.824897578      -38.6336852      0.824897578      -38.6336852      0.563507942      51.2378987       
600              0.566899608      50.9546976       0.822461973      -38.9172018      0.822461973      -38.9172018      0.567056589      50.9547261       
605              0.570424627      50.6723347       0.820019437      -39.1998849      0.820019437      -39.1998849      0.570582574      50.6723629       
610              0.573927027      50.390782        0.817570175      -39.4817341      0.817570175      -39.4817341      0.574085934      50.39081         
615              0.577406846      50.1100401       0.815114388      -39.7627491      0.815114388      -39.7627491      0.577566706      50.1100678       
620              0.580864125      49.8301094       0.812652279      -40.0429296      0.812652279      -40.0429296      0.581024932      49.8301368       
625              0.584298907      49.5509903       0.810184045      -40.3222755      0.810184045      -40.3222755      0.584460654      49.5510175       
630              0.587711236      49.2726831       0.807709884      -40.6007866      0.807709884      -40.6007866      0.587873918      49.2727101       
635              0.591101161      48.995188        0.805229991      -40.878463       0.805229991      -40.878463       0.59126477       48.9952148       
640              0.59446873       48.7185051       0.802744559      -41.1553048      0.802744559      -41.1553048      0.59463326       48.7185317       
645              0.597813996      48.4426346       0.800253779      -41.4313121      0.800253779      -41.4313121      0.597979441      48.442661        
650              0.601137012      48.1675762       0.797757839      -41.706485       0.797757839      -41.706485       0.601303365      48.1676024       
655              0.604437834      47.89333         0.795256928      -41.980824       0.795256928      -41.980824       0.604605089      47.8933559       
660              0.60771652       47.6198956       0.792751229      -42.2543293      0.792751229      -42.2543293      0.60788467       47.6199213       
665              0.610973128      47.3472728       0.790240926      -42.5270015      0.790240926      -42.5270015      0.611142168      47.3472983       
670              0.614207722      47.0754612       0.7877262        -42.7988409      0.7877262        -42.7988409      0.614377645      47.0754865       
675              0.617420363      46.8044603       0.78520723       -43.0698482      0.78520723       -43.0698482      0.617591163      46.8044855       
680              0.620611118      46.5342698       0.782684192      -43.340024       0.782684192      -43.340024       0.620782788      46.5342948       
685              0.623780052      46.2648889       0.780157262      -43.609369       0.780157262      -43.609369       0.623952587      46.2649137       
