! Coilcraft B06T_ Mini Spring Air Core Inductor				
! 30 May 2003
# MHZ S MA R 50
!Freq             MagS11           AngS11           MagS21           AngS21           MagS12           AngS12           MagS22           AngS22
50               0.0504358515     84.930848        0.997223928      -3.36063857      0.997223928      -3.36063857      0.0504605131     84.9316831       
55               0.0554612741     84.75056         0.996957729      -3.69619702      0.996957729      -3.69619702      0.0554883971     84.7513192       
60               0.0604830846     84.5445572       0.996666401      -4.03161145      0.996666401      -4.03161145      0.0605126669     84.5452532       
65               0.0655008513     84.318815        0.996350005      -4.36686893      0.996350005      -4.36686893      0.0655328906     84.3194574       
70               0.0705141662     84.0776067       0.996008606      -4.70195658      0.996008606      -4.70195658      0.0705486601     84.0782033       
75               0.0755226379     83.8240703       0.995642275      -5.03686158      0.995642275      -5.03686158      0.0755595838     83.8246271       
80               0.0805258871     83.5605631       0.995251089      -5.37157114      0.995251089      -5.37157114      0.0805652822     83.5610851       
85               0.0855235434     83.2888908       0.994835127      -5.70607255      0.994835127      -5.70607255      0.0855653849     83.289382        
90               0.0905152438     83.0104608       0.994394475      -6.04035314      0.994394475      -6.04035314      0.0905595287     83.0109248       
95               0.0955006313     82.7263872       0.993929225      -6.3744003       0.993929225      -6.3744003       0.0955473563     82.7268267       
100              0.100479354      82.4375635       0.993439471      -6.70820149      0.993439471      -6.70820149      0.100528516      82.437981        
105              0.105451064      82.1447156       0.992925314      -7.04174425      0.992925314      -7.04174425      0.105502659      82.1451131       
110              0.110415418      81.8484395       0.992386859      -7.37501617      0.992386859      -7.37501617      0.110469443      81.8488189       
115              0.115372077      81.5492298       0.991824215      -7.70800493      0.991824215      -7.70800493      0.115428528      81.5495927       
120              0.120320705      81.2475005       0.991237497      -8.04069829      0.991237497      -8.04069829      0.120379577      81.2478482       
125              0.12526097       80.9436015       0.990626824      -8.37308407      0.990626824      -8.37308407      0.125322259      80.9439352       
130              0.130192543      80.6378303       0.989992318      -8.7051502       0.989992318      -8.7051502       0.130256245      80.6381511       
135              0.135115099      80.3304423       0.989334109      -9.03688469      0.989334109      -9.03688469      0.13518121       80.3307512       
140              0.140028316      80.0216579       0.988652326      -9.36827563      0.988652326      -9.36827563      0.140096831      80.0219558       
145              0.144931876      79.7116689       0.987947108      -9.69931121      0.987947108      -9.69931121      0.14500279       79.7119564       
150              0.149825464      79.4006426       0.987218594      -10.0299797      0.987218594      -10.0299797      0.149898773      79.4009205       
155              0.15470877       79.0887264       0.98646693       -10.3602695      0.98646693       -10.3602695      0.154784467      79.0889953       
160              0.159581486      78.7760506       0.985692263      -10.6901691      0.985692263      -10.6901691      0.159659567      78.7763111       
165              0.164443308      78.462731        0.984894747      -11.0196671      0.984894747      -11.0196671      0.164523767      78.4629835       
170              0.169293936      78.1488709       0.984074538      -11.3487522      0.984074538      -11.3487522      0.169376768      78.1491159       
175              0.174133073      77.834563        0.983231796      -11.6774131      0.983231796      -11.6774131      0.174218272      77.834801        
180              0.178960428      77.5198909       0.982366686      -12.0056389      0.982366686      -12.0056389      0.179047988      77.5201222       
185              0.183775712      77.2049303       0.981479375      -12.3334184      0.981479375      -12.3334184      0.183865627      77.2051553       
190              0.18857864       76.8897497       0.980570034      -12.660741       0.980570034      -12.660741       0.188670904      76.8899688       
195              0.193368931      76.5744119       0.979638838      -12.9875958      0.979638838      -12.9875958      0.193463539      76.5746253       
200              0.19814631       76.2589741       0.978685965      -13.3139722      0.978685965      -13.3139722      0.198243254      76.2591821       
205              0.202910503      75.943489        0.977711597      -13.6398597      0.977711597      -13.6398597      0.203009777      75.9436919       
210              0.207661243      75.6280051       0.976715917      -13.965248       0.976715917      -13.965248       0.207762839      75.6282031       
215              0.212398265      75.3125672       0.975699113      -14.2901268      0.975699113      -14.2901268      0.212502178      75.3127605       
220              0.21712131       74.9972167       0.974661376      -14.614486       0.974661376      -14.614486       0.217227532      74.9974056       
225              0.221830122      74.6819925       0.9736029        -14.9383156      0.9736029        -14.9383156      0.221938647      74.6821771       
230              0.226524451      74.3669303       0.97252388       -15.2616058      0.97252388       -15.2616058      0.22663527       74.3671109       
235              0.231204049      74.052064        0.971424516      -15.5843468      0.971424516      -15.5843468      0.231317156      74.0522407       
240              0.235868674      73.7374248       0.970305009      -15.9065291      0.970305009      -15.9065291      0.235984061      73.7375978       
245              0.240518089      73.4230425       0.969165563      -16.2281432      0.969165563      -16.2281432      0.240635749      73.4232119       
250              0.24515206       73.1089449       0.968006385      -16.5491798      0.968006385      -16.5491798      0.245271985      73.1091108       
255              0.249770359      72.7951581       0.966827683      -16.8696298      0.966827683      -16.8696298      0.249892541      72.7953207       
260              0.254372761      72.4817069       0.965629669      -17.189484       0.965629669      -17.189484       0.254497193      72.4818664       
265              0.258959048      72.1686148       0.964412556      -17.5087337      0.964412556      -17.5087337      0.259085721      72.1687712       
270              0.263529004      71.8559039       0.96317656       -17.82737        0.96317656       -17.82737        0.26365791       71.8560574       
275              0.268082418      71.5435955       0.961921896      -18.1453844      0.961921896      -18.1453844      0.268213549      71.5437461       
280              0.272619086      71.2317094       0.960648785      -18.4627684      0.960648785      -18.4627684      0.272752434      71.2318573       
285              0.277138806      70.9202648       0.959357447      -18.7795137      0.959357447      -18.7795137      0.277274362      70.92041         
290              0.281641383      70.6092799       0.958048105      -19.0956121      0.958048105      -19.0956121      0.281779139      70.6094226       
295              0.286126624      70.298772        0.956720982      -19.4110556      0.956720982      -19.4110556      0.286266571      70.2989122       
300              0.290594343      69.9887578       0.955376305      -19.7258363      0.955376305      -19.7258363      0.290736473      69.9888956       
305              0.295044358      69.679253        0.954014299      -20.0399465      0.954014299      -20.0399465      0.295188661      69.6793886       
310              0.299476492      69.370273        0.952635194      -20.3533787      0.952635194      -20.3533787      0.29962296       69.3704063       
315              0.303890572      69.0618322       0.951239218      -20.6661253      0.951239218      -20.6661253      0.304039195      69.0619634       
320              0.308286429      68.7539446       0.949826601      -20.9781792      0.949826601      -20.9781792      0.3084372        68.7540737       
325              0.312663902      68.4466236       0.948397576      -21.2895331      0.948397576      -21.2895331      0.31281681       68.4467507       
330              0.317022831      68.1398821       0.946952374      -21.6001802      0.946952374      -21.6001802      0.317177867      68.1400072       
335              0.321363063      67.8337324       0.945491228      -21.9101135      0.945491228      -21.9101135      0.321520218      67.8338555       
340              0.325684449      67.5281864       0.944014373      -22.2193265      0.944014373      -22.2193265      0.325843713      67.5283076       
345              0.329986843      67.2232555       0.942522042      -22.5278125      0.942522042      -22.5278125      0.330148208      67.2233749       
350              0.334270108      66.9189507       0.941014472      -22.8355652      0.941014472      -22.8355652      0.334433563      66.9190684       
355              0.338534107      66.6152826       0.939491896      -23.1425784      0.939491896      -23.1425784      0.338699644      66.6153986       
360              0.34277871       66.3122614       0.937954552      -23.448846       0.937954552      -23.448846       0.342946318      66.3123757       
365              0.347003792      66.0098969       0.936402675      -23.754362       0.936402675      -23.754362       0.347173462      66.0100096       
370              0.351209231      65.7081985       0.934836502      -24.0591207      0.934836502      -24.0591207      0.351380953      65.7083097       
375              0.35539491       65.4071754       0.93325627       -24.3631165      0.93325627       -24.3631165      0.355568674      65.407285        
380              0.359560718      65.1068362       0.931662214      -24.6663438      0.931662214      -24.6663438      0.359736514      65.1069444       
385              0.363706547      64.8071895       0.930054572      -24.9687973      0.930054572      -24.9687973      0.363884365      64.8072963       
390              0.367832293      64.5082435       0.92843358       -25.2704719      0.92843358       -25.2704719      0.368012124      64.5083488       
395              0.371937858      64.2100058       0.926799474      -25.5713625      0.926799474      -25.5713625      0.372119691      64.2101097       
400              0.376023148      63.9124841       0.925152491      -25.8714642      0.925152491      -25.8714642      0.376206973      63.9125867       
405              0.380088073      63.6156857       0.923492865      -26.1707722      0.923492865      -26.1707722      0.38027388       63.615787        
410              0.384132547      63.3196175       0.921820834      -26.469282       0.921820834      -26.469282       0.384320326      63.3197175       
415              0.388156489      63.0242863       0.92013663       -26.766989       0.92013663       -26.766989       0.38834623       63.0243851       
420              0.392159822      62.7296986       0.91844049       -27.0638891      0.91844049       -27.0638891      0.392351515      62.7297962       
425              0.396142474      62.4358606       0.916732646      -27.3599779      0.916732646      -27.3599779      0.396336107      62.435957        
430              0.400104375      62.1427783       0.915013332      -27.6552515      0.915013332      -27.6552515      0.400299939      62.1428735       
435              0.404045461      61.8504575       0.91328278       -27.949706       0.91328278       -27.949706       0.404242946      61.8505516       
440              0.407965672      61.5589037       0.911541222      -28.2433376      0.911541222      -28.2433376      0.408165067      61.5589966       
445              0.411864952      61.2681222       0.909788888      -28.5361427      0.909788888      -28.5361427      0.412066247      61.2682141       
450              0.415743248      60.9781182       0.908026008      -28.8281178      0.908026008      -28.8281178      0.415946432      60.978209        
455              0.419600512      60.6888965       0.906252812      -29.1192597      0.906252812      -29.1192597      0.419805575      60.6889862       
460              0.423436699      60.4004617       0.904469527      -29.409565       0.904469527      -29.409565       0.42364363       60.4005505       
465              0.427251769      60.1128185       0.90267638       -29.6990308      0.90267638       -29.6990308      0.427460558      60.1129062       
470              0.431045685      59.8259711       0.900873596      -29.987654       0.900873596      -29.987654       0.431256321      59.8260578       
475              0.434818414      59.5399235       0.899061401      -30.2754319      0.899061401      -30.2754319      0.435030887      59.5400093       
480              0.438569927      59.2546798       0.897240017      -30.5623618      0.897240017      -30.5623618      0.438784225      59.2547646       
485              0.442300197      58.9702435       0.895409666      -30.8484412      0.895409666      -30.8484412      0.442516311      58.9703275       
490              0.446009203      58.6866184       0.89357057       -31.1336676      0.89357057       -31.1336676      0.446227122      58.6867014       
495              0.449696926      58.4038077       0.891722947      -31.4180388      0.891722947      -31.4180388      0.449916639      58.4038899       
500              0.453363351      58.1218147       0.889867015      -31.7015525      0.889867015      -31.7015525      0.453584848      58.121896        
505              0.457008467      57.8406424       0.888002991      -31.9842069      0.888002991      -31.9842069      0.457231737      57.8407228       
510              0.460632264      57.5602937       0.88613109       -32.2659998      0.88613109       -32.2659998      0.460857297      57.5603733       
515              0.464234739      57.2807712       0.884251526      -32.5469295      0.884251526      -32.5469295      0.464461523      57.28085         
520              0.467815889      57.0020777       0.882364509      -32.8269945      0.882364509      -32.8269945      0.468044414      57.0021557       
525              0.471375715      56.7242154       0.880470251      -33.106193       0.880470251      -33.106193       0.471605971      56.7242926       
530              0.474914224      56.4471866       0.878568961      -33.3845236      0.878568961      -33.3845236      0.4751462        56.4472631       
535              0.478431421      56.1709935       0.876660844      -33.6619851      0.876660844      -33.6619851      0.478665107      56.1710692       
540              0.481927319      55.8956379       0.874746107      -33.9385762      0.874746107      -33.9385762      0.482162703      55.8957129       
545              0.48540193       55.6211218       0.872824952      -34.2142958      0.872824952      -34.2142958      0.485639002      55.6211961       
550              0.488855272      55.3474468       0.870897583      -34.4891429      0.870897583      -34.4891429      0.489094021      55.3475203       
555              0.492287363      55.0746144       0.868964198      -34.7631166      0.868964198      -34.7631166      0.49252778       55.0746873       
560              0.495698227      54.8026261       0.867024997      -35.0362162      0.867024997      -35.0362162      0.4959403        54.8026983       
565              0.499087889      54.5314832       0.865080175      -35.308441       0.865080175      -35.308441       0.499331608      54.5315546       
570              0.502456376      54.2611867       0.863129927      -35.5797904      0.863129927      -35.5797904      0.50270173       54.2612575       
575              0.505803718      53.9917378       0.861174446      -35.850264       0.861174446      -35.850264       0.506050697      53.9918079       
580              0.509129949      53.7231373       0.859213922      -36.1198614      0.859213922      -36.1198614      0.509378542      53.7232068       
585              0.512435104      53.4553861       0.857248545      -36.3885823      0.857248545      -36.3885823      0.512685301      53.455455        
590              0.515719222      53.1884847       0.855278501      -36.6564266      0.855278501      -36.6564266      0.515971012      53.188553        
595              0.518982342      52.9224338       0.853303976      -36.9233942      0.853303976      -36.9233942      0.519235714      52.9225015       
600              0.522224508      52.6572339       0.851325152      -37.1894852      0.851325152      -37.1894852      0.522479452      52.6573009       
605              0.525445764      52.3928851       0.84934221       -37.4546997      0.84934221       -37.4546997      0.52570227       52.3929515       
610              0.528646158      52.1293878       0.84735533       -37.7190379      0.84735533       -37.7190379      0.528904216      52.1294536       
615              0.531825739      51.866742        0.845364689      -37.9825         0.845364689      -37.9825         0.532085338      51.8668073       
620              0.53498456       51.6049478       0.843370461      -38.2450866      0.843370461      -38.2450866      0.535245689      51.6050126       
625              0.538122673      51.3440052       0.84137282       -38.506798       0.84137282       -38.506798       0.538385322      51.3440693       
630              0.541240135      51.0839138       0.839371937      -38.7676349      0.839371937      -38.7676349      0.541504294      51.0839774       
635              0.544337002      50.8246734       0.83736798       -39.0275979      0.83736798       -39.0275979      0.544602661      50.8247365       
640              0.547413336      50.5662836       0.835361118      -39.2866877      0.835361118      -39.2866877      0.547680485      50.5663462       
645              0.550469197      50.3087441       0.833351514      -39.5449051      0.833351514      -39.5449051      0.550737825      50.3088061       
650              0.553504649      50.052054        0.831339332      -39.8022511      0.831339332      -39.8022511      0.553774746      50.0521156       
655              0.556519757      49.796213        0.829324732      -40.0587266      0.829324732      -40.0587266      0.556791312      49.796274        
660              0.559514587      49.5412201       0.827307873      -40.3143327      0.827307873      -40.3143327      0.559787592      49.5412806       
665              0.562489209      49.2870745       0.825288913      -40.5690704      0.825288913      -40.5690704      0.562763652      49.2871346       
670              0.565443692      49.0337754       0.823268005      -40.8229411      0.823268005      -40.8229411      0.565719563      49.033835        
675              0.568378107      48.7813218       0.821245302      -41.0759458      0.821245302      -41.0759458      0.568655397      48.7813809       
680              0.571292529      48.5297125       0.819220955      -41.3280861      0.819220955      -41.3280861      0.571571228      48.5297711       
685              0.574187032      48.2789464       0.817195113      -41.5793633      0.817195113      -41.5793633      0.574467129      48.2790046       
