! Coilcraft B07T_ Mini Spring Air Core Inductor				
! 30 May 2003
# MHZ S MA R 50
!Freq             MagS11           AngS11           MagS21           AngS21           MagS12           AngS12           MagS22           AngS22
50               0.0642235814     84.2640828       0.996165029      -4.15577871      0.996165029      -4.15577871      0.0642528633     84.2648029       
55               0.0706124155     83.9931802       0.99573387       -4.5702952       0.99573387       -4.5702952       0.0706446145     83.9938349       
60               0.0769934206     83.6986593       0.99526224       -4.98450975      0.99526224       -4.98450975      0.0770285327     83.6992594       
65               0.0833657855     83.3860629       0.9947503        -5.39839547      0.9947503        -5.39839547      0.0834038064     83.3866169       
70               0.0897287287     83.059359        0.994198223      -5.81192567      0.994198223      -5.81192567      0.0897696539     83.0598733       
75               0.0960814904     82.7214649       0.993606195      -6.22507378      0.993606195      -6.22507378      0.096125315      82.721945        
80               0.102423328      82.3745757       0.992974416      -6.63781343      0.992974416      -6.63781343      0.102470047      82.3750257       
85               0.108753512      82.0203761       0.992303098      -7.05011844      0.992303098      -7.05011844      0.10880312       82.0207996       
90               0.115071328      81.6601822       0.991592464      -7.4619628       0.991592464      -7.4619628       0.115123818      81.6605821       
95               0.121376069      81.2950384       0.990842753      -7.87332073      0.990842753      -7.87332073      0.121431436      81.2954173       
100              0.127667041      80.9257853       0.990054213      -8.28416666      0.990054213      -8.28416666      0.127725279      80.9261452       
105              0.13394356       80.5531079       0.989227105      -8.69447526      0.989227105      -8.69447526      0.134004662      80.5534506       
110              0.140204951      80.1775712       0.988361701      -9.10422142      0.988361701      -9.10422142      0.14026891       80.1778983       
115              0.14645055       79.799646        0.987458285      -9.51338031      0.987458285      -9.51338031      0.146517358      79.7999588       
120              0.1526797        79.4197285       0.986517152      -9.92192732      0.986517152      -9.92192732      0.15274935       79.4200282       
125              0.158891758      79.0381551       0.985538609      -10.3298381      0.985538609      -10.3298381      0.158964242      79.0384428       
130              0.165086087      78.6552142       0.984522971      -10.7370887      0.984522971      -10.7370887      0.165161397      78.6554907       
135              0.171262064      78.2711544       0.983470565      -11.1436553      0.983470565      -11.1436553      0.171340191      78.2714206       
140              0.177419072      77.8861921       0.982381728      -11.5495144      0.982381728      -11.5495144      0.177500008      77.8864488       
145              0.183556509      77.5005166       0.981256807      -11.9546429      0.981256807      -11.9546429      0.183640244      77.5007644       
150              0.189673779      77.114295        0.980096158      -12.359018       0.980096158      -12.359018       0.189760305      77.1145345       
155              0.195770301      76.7276753       0.978900146      -12.762617       0.978900146      -12.762617       0.195859607      76.727907        
160              0.201845503      76.3407893       0.977669145      -13.1654179      0.977669145      -13.1654179      0.201937579      76.3410137       
165              0.207898823      75.9537555       0.976403537      -13.5673987      0.976403537      -13.5673987      0.20799366       75.9539731       
170              0.213929712      75.5666805       0.975103714      -13.9685379      0.975103714      -13.9685379      0.2140273        75.5668916       
175              0.219937634      75.1796609       0.973770074      -14.3688143      0.973770074      -14.3688143      0.220037961      75.1798659       
180              0.22592206       74.7927845       0.972403023      -14.7682072      0.972403023      -14.7682072      0.226025116      74.7929838       
185              0.231882477      74.4061316       0.971002975      -15.1666959      0.971002975      -15.1666959      0.231988251      74.4063254       
190              0.237818383      74.0197756       0.96957035       -15.5642605      0.96957035       -15.5642605      0.237926863      74.0199642       
195              0.243729287      73.6337843       0.968105576      -15.9608812      0.968105576      -15.9608812      0.243840462      73.633968        
200              0.24961471       73.2482202       0.966609085      -16.3565385      0.966609085      -16.3565385      0.249728568      73.2483993       
205              0.255474186      72.8631413       0.965081317      -16.7512136      0.965081317      -16.7512136      0.255590715      72.863316        
210              0.261307261      72.4786013       0.963522716      -17.1448878      0.963522716      -17.1448878      0.26142645       72.4787718       
215              0.267113495      72.0946505       0.961933733      -17.5375429      0.961933733      -17.5375429      0.26723533       72.094817        
220              0.272892457      71.7113358       0.960314824      -17.9291611      0.960314824      -17.9291611      0.273016927      71.7114984       
225              0.278643732      71.3287009       0.958666446      -18.3197248      0.958666446      -18.3197248      0.278770823      71.3288599       
230              0.284366916      70.9467872       0.956989066      -18.7092172      0.956989066      -18.7092172      0.284496616      70.9469426       
235              0.290061618      70.5656333       0.95528315       -19.0976214      0.95528315       -19.0976214      0.290193912      70.5657854       
240              0.295727458      70.1852757       0.95354917       -19.4849212      0.95354917       -19.4849212      0.295862334      70.1854246       
245              0.301364071      69.8057488       0.951787601      -19.8711009      0.951787601      -19.8711009      0.301501516      69.8058946       
250              0.306971103      69.4270853       0.949998921      -20.2561449      0.949998921      -20.2561449      0.307111103      69.4272281       
255              0.312548214      69.0493159       0.948183611      -20.6400381      0.948183611      -20.6400381      0.312690755      69.0494559       
260              0.318095075      68.6724697       0.946342153      -21.022766       0.946342153      -21.022766       0.318240144      68.6726069       
265              0.323611372      68.2965744       0.944475034      -21.4043143      0.944475034      -21.4043143      0.323758953      68.296709        
270              0.3290968        67.9216564       0.942582739      -21.7846692      0.942582739      -21.7846692      0.32924688       67.9217884       
275              0.334551069      67.5477405       0.940665758      -22.1638171      0.940665758      -22.1638171      0.334703634      67.5478701       
280              0.339973902      67.1748504       0.938724579      -22.5417451      0.938724579      -22.5417451      0.340128936      67.1749776       
285              0.345365031      66.8030088       0.936759693      -22.9184405      0.936759693      -22.9184405      0.345522521      66.8031337       
290              0.350724205      66.4322371       0.934771592      -23.2938912      0.934771592      -23.2938912      0.350884135      66.4323598       
295              0.356051181      66.0625557       0.932760767      -23.6680852      0.932760767      -23.6680852      0.356213537      66.0626763       
300              0.36134573       65.6939841       0.930727709      -24.0410111      0.930727709      -24.0410111      0.361510496      65.6941026       
305              0.366607635      65.3265408       0.928672909      -24.4126579      0.928672909      -24.4126579      0.366774797      65.3266573       
310              0.371836691      64.9602435       0.92659686       -24.783015       0.92659686       -24.783015       0.372006233      64.9603581       
315              0.377032703      64.595109        0.924500049      -25.1520722      0.924500049      -25.1520722      0.377204611      64.5952217       
320              0.382195491      64.2311532       0.922382968      -25.5198195      0.922382968      -25.5198195      0.382369749      64.2312642       
325              0.387324884      63.8683915       0.920246104      -25.8862474      0.920246104      -25.8862474      0.387501477      63.8685007       
330              0.392420722      63.5068383       0.918089944      -26.251347       0.918089944      -26.251347       0.392599634      63.5069458       
335              0.397482859      63.1465074       0.915914972      -26.6151096      0.915914972      -26.6151096      0.397664074      63.1466132       
340              0.402511157      62.7874118       0.913721671      -26.9775267      0.913721671      -26.9775267      0.40269466       62.787516        
345              0.40750549       62.4295641       0.911510523      -27.3385904      0.911510523      -27.3385904      0.407691266      62.4296667       
350              0.412465745      62.0729759       0.909282007      -27.6982933      0.909282007      -27.6982933      0.412653777      62.0730771       
355              0.417391816      61.7176586       0.907036598      -28.056628       0.907036598      -28.056628       0.417582089      61.7177583       
360              0.42228361       61.3636227       0.904774769      -28.4135878      0.904774769      -28.4135878      0.422476107      61.3637209       
365              0.427141043      61.0108782       0.902496993      -28.7691662      0.902496993      -28.7691662      0.42733575       61.010975        
370              0.431964042      60.6594346       0.900203736      -29.123357       0.900203736      -29.123357       0.432160942      60.6595301       
375              0.436752543      60.3093009       0.897895462      -29.4761545      0.897895462      -29.4761545      0.436951621      60.3093951       
380              0.441506494      59.9604855       0.895572633      -29.8275533      0.895572633      -29.8275533      0.441707732      59.9605784       
385              0.446225849      59.6129962       0.893235705      -30.1775484      0.893235705      -30.1775484      0.446429233      59.6130879       
390              0.450910574      59.2668406       0.890885134      -30.5261348      0.890885134      -30.5261348      0.451116088      59.266931        
395              0.455560644      58.9220256       0.888521368      -30.8733084      0.888521368      -30.8733084      0.455768271      58.9221148       
400              0.460176043      58.5785576       0.886144853      -31.219065       0.886144853      -31.219065       0.460385767      58.5786456       
405              0.464756762      58.2364427       0.883756031      -31.5634008      0.883756031      -31.5634008      0.464968568      58.2365296       
410              0.469302803      57.8956865       0.881355341      -31.9063125      0.881355341      -31.9063125      0.469516674      57.8957723       
415              0.473814176      57.5562942       0.878943214      -32.2477969      0.878943214      -32.2477969      0.474030096      57.5563789       
420              0.478290897      57.2182706       0.876520079      -32.5878512      0.876520079      -32.5878512      0.478508851      57.2183542       
425              0.482732994      56.88162         0.874086362      -32.926473       0.874086362      -32.926473       0.482952965      56.8817026       
430              0.4871405        56.5463464       0.871642481      -33.26366        0.871642481      -33.26366        0.487362472      56.546428        
435              0.491513456      56.2124534       0.86918885       -33.5994104      0.86918885       -33.5994104      0.491737414      56.212534        
440              0.495851911      55.8799442       0.866725881      -33.9337226      0.866725881      -33.9337226      0.496077838      55.8800239       
445              0.500155921      55.5488217       0.864253977      -34.2665951      0.864253977      -34.2665951      0.500383802      55.5489005       
450              0.50442555       55.2190885       0.861773539      -34.598027       0.861773539      -34.598027       0.504655369      55.2191663       
455              0.508660868      54.8907467       0.859284962      -34.9280175      0.859284962      -34.9280175      0.508892608      54.8908236       
460              0.512861951      54.5637981       0.856788634      -35.256566       0.856788634      -35.256566       0.513095597      54.5638742       
465              0.517028883      54.2382443       0.854284942      -35.5836724      0.854284942      -35.5836724      0.51726442       54.2383195       
470              0.521161753      53.9140865       0.851774264      -35.9093366      0.851774264      -35.9093366      0.521399165      53.9141608       
475              0.525260658      53.5913255       0.849256974      -36.2335589      0.849256974      -36.2335589      0.525499928      53.591399        
480              0.529325699      53.2699621       0.846733441      -36.5563398      0.846733441      -36.5563398      0.529566813      53.2700348       
485              0.533356984      52.9499964       0.844204028      -36.87768        0.844204028      -36.87768        0.533599925      52.9500683       
490              0.537354626      52.6314286       0.841669093      -37.1975806      0.841669093      -37.1975806      0.537599379      52.6314998       
495              0.541318742      52.3142585       0.839128989      -37.5160427      0.839128989      -37.5160427      0.541565292      52.3143288       
500              0.545249457      51.9984854       0.836584062      -37.8330677      0.836584062      -37.8330677      0.545497788      51.998555        
505              0.5491469        51.6841087       0.834034655      -38.1486574      0.834034655      -38.1486574      0.549396996      51.6841776       
510              0.553011204      51.3711273       0.831481103      -38.4628135      0.831481103      -38.4628135      0.55326305       51.3711955       
515              0.556842506      51.05954         0.828923737      -38.7755382      0.828923737      -38.7755382      0.557096088      51.0596075       
520              0.56064095       50.7493453       0.826362883      -39.0868337      0.826362883      -39.0868337      0.560896252      50.7494121       
525              0.564406683      50.4405414       0.823798859      -39.3967025      0.823798859      -39.3967025      0.56466369       50.4406076       
530              0.568139856      50.1331265       0.82123198       -39.7051472      0.82123198       -39.7051472      0.568398552      50.133192        
535              0.571840623      49.8270983       0.818662556      -40.0121707      0.818662556      -40.0121707      0.572100994      49.8271631       
540              0.575509144      49.5224546       0.816090888      -40.3177761      0.816090888      -40.3177761      0.575771175      49.5225187       
545              0.579145581      49.2191926       0.813517275      -40.6219665      0.813517275      -40.6219665      0.579409257      49.2192561       
550              0.582750101      48.9173096       0.810942008      -40.9247454      0.810942008      -40.9247454      0.583015407      48.9173726       
555              0.586322872      48.6168028       0.808365376      -41.2261162      0.808365376      -41.2261162      0.586589794      48.6168651       
560              0.589864068      48.3176688       0.805787659      -41.5260826      0.805787659      -41.5260826      0.59013259       48.3177305       
565              0.593373864      48.0199044       0.803209134      -41.8246486      0.803209134      -41.8246486      0.593643972      48.0199656       
570              0.596852438      47.7235062       0.800630071      -42.1218182      0.800630071      -42.1218182      0.597124119      47.7235667       
575              0.600299972      47.4284703       0.798050736      -42.4175955      0.798050736      -42.4175955      0.60057321       47.4285303       
580              0.60371665       47.134793        0.795471389      -42.7119848      0.795471389      -42.7119848      0.603991431      47.1348524       
585              0.607102657      46.8424703       0.792892284      -43.0049905      0.792892284      -43.0049905      0.607378968      46.8425291       
590              0.610458184      46.551498        0.790313672      -43.2966173      0.790313672      -43.2966173      0.610736009      46.5515563       
595              0.61378342       46.2618719       0.787735797      -43.5868699      0.787735797      -43.5868699      0.614062747      46.2619297       
600              0.617078559      45.9735875       0.785158899      -43.875753       0.785158899      -43.875753       0.617359372      45.9736448       
605              0.620343795      45.6866403       0.782583211      -44.1632717      0.782583211      -44.1632717      0.620626082      45.686697        
610              0.623579326      45.4010255       0.780008963      -44.4494309      0.780008963      -44.4494309      0.623863072      45.4010818       
615              0.62678535       45.1167383       0.777436379      -44.734236       0.777436379      -44.734236       0.627070541      45.1167941       
620              0.629962066      44.8337739       0.774865679      -45.0176921      0.774865679      -45.0176921      0.63024869       44.8338292       
625              0.633109677      44.5521271       0.772297077      -45.2998046      0.772297077      -45.2998046      0.633397719      44.5521819       
630              0.636228384      44.2717927       0.769730783      -45.5805791      0.769730783      -45.5805791      0.636517832      44.271847        
635              0.639318393      43.9927655       0.767167         -45.8600212      0.767167         -45.8600212      0.639609232      43.9928193       
640              0.642379909      43.71504         0.76460593       -46.1381364      0.76460593       -46.1381364      0.642672127      43.7150935       
645              0.645413137      43.4386109       0.762047767      -46.4149306      0.762047767      -46.4149306      0.64570672       43.4386639       
650              0.648418285      43.1634724       0.759492703      -46.6904096      0.759492703      -46.6904096      0.648713221      43.163525        
655              0.651395561      42.889619        0.756940922      -46.9645794      0.756940922      -46.9645794      0.651691837      42.8896711       
660              0.654345174      42.6170449       0.754392608      -47.2374459      0.754392608      -47.2374459      0.654642776      42.6170966       
665              0.657267333      42.3457442       0.751847937      -47.5090152      0.751847937      -47.5090152      0.65756625       42.3457954       
670              0.660162249      42.075711        0.749307081      -47.7792936      0.749307081      -47.7792936      0.660462466      42.0757618       
675              0.663030131      41.8069392       0.746770209      -48.0482871      0.746770209      -48.0482871      0.663331638      41.8069897       
680              0.665871191      41.539423        0.744237486      -48.3160021      0.744237486      -48.3160021      0.666173974      41.539473        
685              0.668685639      41.273156        0.74170907       -48.5824449      0.74170907       -48.5824449      0.668989686      41.2732056       
