! Coilcraft B08T_ Mini Spring Air Core Inductor				
! 30 May 2003
# MHZ S MA R 50
!Freq             MagS11           AngS11           MagS21           AngS21           MagS12           AngS12           MagS22           AngS22
50               0.0826568234     83.1779404       0.994288216      -5.23402073      0.994288216      -5.23402073      0.0826962459     83.1786974       
55               0.0908533765     82.801247        0.993575724      -5.75506194      0.993575724      -5.75506194      0.0908967139     82.8019352       
60               0.0990325618     82.4011814       0.992797053      -6.27543352      0.992797053      -6.27543352      0.0990798053     82.4018122       
65               0.107192718      81.9833461       0.991952651      -6.7950768       0.991952651      -6.7950768       0.107243859      81.9839284       
70               0.115332236      81.5517604       0.991043007      -7.31393368      0.991043007      -7.31393368      0.115387263      81.552301        
75               0.123449546      81.1093871       0.990068639      -7.83194666      0.990068639      -7.83194666      0.123508448      81.1098916       
80               0.131543116      80.6584625       0.989030104      -8.34905887      0.989030104      -8.34905887      0.131605882      80.6589355       
85               0.139611444      80.2007098       0.98792799       -8.86521417      0.98792799       -8.86521417      0.139678062      80.2011549       
90               0.147653062      79.7374809       0.986762919      -9.3803571       0.986762919      -9.3803571       0.147723519      79.7379012       
95               0.155666533      79.2698542       0.985535543      -9.89443298      0.985535543      -9.89443298      0.155740814      79.2702524       
100              0.163650446      78.7987028       0.984246546      -10.4073879      0.984246546      -10.4073879      0.163728539      78.7990809       
105              0.171603426      78.3247425       0.982896642      -10.9191689      0.982896642      -10.9191689      0.171685314      78.3251026       
110              0.179524123      77.8485682       0.981486571      -11.4297237      0.981486571      -11.4297237      0.179609792      77.8489118       
115              0.187411224      77.3706793       0.980017103      -11.939001       0.980017103      -11.939001       0.187500657      77.3710079       
120              0.195263442      76.8914996       0.978489033      -12.4469505      0.978489033      -12.4469505      0.195356622      76.8918144       
125              0.203079525      76.4113922       0.976903182      -12.9535227      0.976903182      -12.9535227      0.203176435      76.4116944       
130              0.210858253      75.930671        0.975260394      -13.4586692      0.975260394      -13.4586692      0.210958875      75.9309615       
135              0.218598439      75.4496096       0.973561536      -13.9623425      0.973561536      -13.9623425      0.218702756      75.4498893       
140              0.226298931      74.9684481       0.971807497      -14.4644964      0.971807497      -14.4644964      0.226406922      74.9687177       
145              0.233958609      74.487399        0.969999187      -14.9650853      0.969999187      -14.9650853      0.234070255      74.4876592       
150              0.241576389      74.0066512       0.968137533      -15.464065       0.968137533      -15.464065       0.241691669      74.0069027       
155              0.249151221      73.526374        0.966223483      -15.9613922      0.966223483      -15.9613922      0.249270116      73.5266173       
160              0.256682091      73.0467199       0.964257999      -16.457025       0.964257999      -16.457025       0.256804579      73.0469556       
165              0.264168021      72.5678268       0.96224206       -16.9509222      0.96224206       -16.9509222      0.26429408       72.5680552       
170              0.271608068      72.08982         0.960176658      -17.4430441      0.960176658      -17.4430441      0.271737676      72.0900416       
175              0.279001324      71.6128139       0.9580628        -17.9333518      0.9580628        -17.9333518      0.279134459      71.6130291       
180              0.286346921      71.1369134       0.955901503      -18.4218079      0.955901503      -18.4218079      0.286483559      71.1371225       
185              0.293644022      70.6622148       0.953693795      -18.9083759      0.953693795      -18.9083759      0.293784141      70.6624183       
190              0.300891831      70.1888072       0.951440713      -19.3930206      0.951440713      -19.3930206      0.301035407      70.1890053       
195              0.308089585      69.7167727       0.949143304      -19.8757078      0.949143304      -19.8757078      0.308236594      69.7169656       
200              0.31523656       69.2461876       0.946802621      -20.3564048      0.946802621      -20.3564048      0.315386977      69.2463756       
205              0.322332065      68.7771227       0.944419721      -20.8350797      0.944419721      -20.8350797      0.322485867      68.777306        
210              0.329375448      68.3096438       0.941995669      -21.3117021      0.941995669      -21.3117021      0.329532608      68.3098227       
215              0.336366091      67.8438124       0.939531532      -21.7862425      0.939531532      -21.7862425      0.336526585      67.843987        
220              0.343303412      67.3796858       0.937028379      -22.2586728      0.937028379      -22.2586728      0.343467213      67.3798564       
225              0.350186863      66.9173175       0.934487282      -22.7289659      0.934487282      -22.7289659      0.350353947      66.9174843       
230              0.357015933      66.4567577       0.931909313      -23.1970959      0.931909313      -23.1970959      0.357186273      66.4569208       
235              0.363790145      65.9980532       0.929295543      -23.6630382      0.929295543      -23.6630382      0.363963714      65.9982127       
240              0.370509055      65.5412477       0.926647042      -24.1267692      0.926647042      -24.1267692      0.370685827      65.5414038       
245              0.377172253      65.0863824       0.923964877      -24.5882665      0.923964877      -24.5882665      0.377352201      65.0865353       
250              0.383779362      64.6334956       0.921250113      -25.0475088      0.921250113      -25.0475088      0.38396246       64.6336453       
255              0.39033004       64.1826232       0.91850381       -25.5044759      0.91850381       -25.5044759      0.390516259      64.18277         
260              0.396823973      63.7337989       0.915727022      -25.9591489      0.915727022      -25.9591489      0.397013287      63.7339427       
265              0.403260883      63.2870539       0.912920799      -26.4115098      0.912920799      -26.4115098      0.403453264      63.2871949       
270              0.409640519      62.8424175       0.910086184      -26.8615417      0.910086184      -26.8615417      0.409835941      62.8425559       
275              0.415962663      62.3999171       0.907224211      -27.3092289      0.907224211      -27.3092289      0.416161098      62.4000529       
280              0.422227127      61.9595781       0.904335908      -27.7545566      0.904335908      -27.7545566      0.422428546      61.9597114       
285              0.428433751      61.521424        0.901422293      -28.1975112      0.901422293      -28.1975112      0.428638126      61.5215548       
290              0.434582402      61.0854767       0.898484376      -28.63808        0.898484376      -28.63808        0.434789707      61.0856052       
295              0.440672978      60.6517565       0.895523155      -29.0762513      0.895523155      -29.0762513      0.440883184      60.6518828       
300              0.446705402      60.220282        0.892539618      -29.5120146      0.892539618      -29.5120146      0.446918481      60.2204061       
305              0.452679625      59.7910704       0.889534744      -29.9453601      0.889534744      -29.9453601      0.452895549      59.7911925       
310              0.458595621      59.3641374       0.886509497      -30.3762791      0.886509497      -30.3762791      0.458814362      59.3642574       
315              0.464453392      58.9394974       0.883464833      -30.8047638      0.883464833      -30.8047638      0.464674923      58.9396154       
320              0.470252962      58.5171632       0.88040169       -31.2308074      0.88040169       -31.2308074      0.470477254      58.5172793       
325              0.47599438       58.0971467       0.877320999      -31.6544039      0.877320999      -31.6544039      0.476221406      58.0972609       
330              0.481677718      57.6794582       0.874223674      -32.0755482      0.874223674      -32.0755482      0.481907448      57.6795706       
335              0.487303067      57.2641071       0.871110616      -32.4942361      0.871110616      -32.4942361      0.487535475      57.2642178       
340              0.492870544      56.8511014       0.867982712      -32.9104641      0.867982712      -32.9104641      0.493105601      56.8512105       
345              0.498380282      56.4404483       0.864840836      -33.3242298      0.864840836      -33.3242298      0.498617962      56.4405557       
350              0.503832438      56.0321538       0.861685846      -33.7355312      0.861685846      -33.7355312      0.504072712      56.0322595       
355              0.509227185      55.6262227       0.858518586      -34.1443675      0.858518586      -34.1443675      0.509470025      55.6263269       
360              0.514564715      55.222659        0.855339884      -34.5507383      0.855339884      -34.5507383      0.514810095      55.2227617       
365              0.519845241      54.8214658       0.852150555      -34.9546442      0.852150555      -34.9546442      0.520093132      54.821567        
370              0.525068987      54.4226452       0.848951396      -35.3560864      0.848951396      -35.3560864      0.525319363      54.422745        
375              0.530236199      54.0261985       0.84574319       -35.7550667      0.84574319       -35.7550667      0.530489032      54.0262969       
380              0.535347135      53.632126        0.842526705      -36.1515877      0.842526705      -36.1515877      0.535602398      53.632223        
385              0.540402069      53.2404272       0.839302693      -36.5456527      0.839302693      -36.5456527      0.540659735      53.240523        
390              0.545401289      52.8511012       0.83607189       -36.9372654      0.83607189       -36.9372654      0.545661333      52.8511956       
395              0.550345099      52.4641457       0.832835016      -37.3264304      0.832835016      -37.3264304      0.550607492      52.4642389       
400              0.555233811      52.0795583       0.829592775      -37.7131526      0.829592775      -37.7131526      0.555498527      52.0796502       
405              0.560067754      51.6973355       0.826345857      -38.0974378      0.826345857      -38.0974378      0.560334767      51.6974262       
410              0.564847266      51.3174732       0.823094935      -38.4792921      0.823094935      -38.4792921      0.56511655       51.3175628       
415              0.569572696      50.9399669       0.819840667      -38.8587222      0.819840667      -38.8587222      0.569844225      50.9400553       
420              0.574244406      50.5648112       0.816583694      -39.2357353      0.816583694      -39.2357353      0.574518153      50.5648985       
425              0.578862764      50.1920002       0.813324642      -39.6103391      0.813324642      -39.6103391      0.579138705      50.1920864       
430              0.58342815       49.8215274       0.810064123      -39.9825418      0.810064123      -39.9825418      0.583706259      49.8216126       
435              0.587940953      49.453386        0.806802732      -40.3523521      0.806802732      -40.3523521      0.588221204      49.4534701       
440              0.592401567      49.0875683       0.803541048      -40.719779       0.803541048      -40.719779       0.592683936      49.0876514       
445              0.596810398      48.7240664       0.800279638      -41.0848321      0.800279638      -41.0848321      0.597094859      48.7241485       
450              0.601167855      48.3628718       0.79701905       -41.4475211      0.79701905       -41.4475211      0.601454384      48.3629529       
455              0.605474356      48.0039755       0.79375982       -41.8078565      0.79375982       -41.8078565      0.605762928      48.0040557       
460              0.609730324      47.6473682       0.790502468      -42.1658489      0.790502468      -42.1658489      0.610020915      47.6474475       
465              0.613936189      47.2930401       0.7872475        -42.5215092      0.7872475        -42.5215092      0.614228774      47.2931184       
470              0.618092384      46.940981        0.783995407      -42.8748489      0.783995407      -42.8748489      0.618386941      46.9410585       
475              0.622199349      46.5911804       0.780746665      -43.2258795      0.780746665      -43.2258795      0.622495852      46.591257        
480              0.626257526      46.2436274       0.777501739      -43.5746131      0.777501739      -43.5746131      0.626555953      46.2437031       
485              0.630267363      45.8983107       0.774261077      -43.9210619      0.774261077      -43.9210619      0.630567691      45.8983856       
490              0.63422931       45.5552187       0.771025114      -44.2652383      0.771025114      -44.2652383      0.634531515      45.5552928       
495              0.63814382       45.2143397       0.767794272      -44.6071553      0.767794272      -44.6071553      0.63844788       45.214413        
500              0.64201135       44.8756615       0.764568961      -44.9468258      0.764568961      -44.9468258      0.642317241      44.8757339       
505              0.645832358      44.5391715       0.761349575      -45.284263       0.761349575      -45.284263       0.646140059      44.5392432       
510              0.649607305      44.2048573       0.758136497      -45.6194806      0.758136497      -45.6194806      0.649916792      44.2049282       
515              0.653336651      43.8727057       0.754930099      -45.952492       0.754930099      -45.952492       0.653647904      43.8727759       
520              0.657020862      43.5427038       0.751730737      -46.2833112      0.751730737      -46.2833112      0.657333858      43.5427733       
525              0.6606604        43.2148381       0.748538756      -46.6119523      0.748538756      -46.6119523      0.660975118      43.2149068       
530              0.664255731      42.8890951       0.745354492      -46.9384295      0.745354492      -46.9384295      0.664572149      42.8891631       
535              0.66780732       42.565461        0.742178265      -47.2627571      0.742178265      -47.2627571      0.668125418      42.5655284       
540              0.671315632      42.243922        0.739010387      -47.5849496      0.739010387      -47.5849496      0.671635389      42.2439887       
545              0.674781133      41.9244639       0.735851156      -47.9050218      0.735851156      -47.9050218      0.675102528      41.9245299       
550              0.678204287      41.6070726       0.73270086       -48.2229883      0.73270086       -48.2229883      0.678527299      41.607138        
555              0.681585559      41.2917337       0.729559777      -48.538864       0.729559777      -48.538864       0.681910169      41.2917984       
560              0.684925412      40.9784326       0.726428174      -48.852664       0.726428174      -48.852664       0.685251599      40.9784967       
565              0.688224308      40.6671549       0.723306307      -49.1644034      0.723306307      -49.1644034      0.688552052      40.6672183       
570              0.691482708      40.3578857       0.720194422      -49.4740972      0.720194422      -49.4740972      0.69181199       40.3579485       
575              0.694701071      40.0506103       0.717092756      -49.7817606      0.717092756      -49.7817606      0.695031873      40.0506726       
580              0.697879855      39.7453139       0.714001535      -50.0874091      0.714001535      -50.0874091      0.698212157      39.7453756       
585              0.701019517      39.4419814       0.710920978      -50.391058       0.710920978      -50.391058       0.701353299      39.4420425       
590              0.704120509      39.1405978       0.707851291      -50.6927226      0.707851291      -50.6927226      0.704455753      39.1406584       
595              0.707183283      38.8411481       0.704792675      -50.9924185      0.704792675      -50.9924185      0.707519971      38.8412081       
600              0.710208289      38.5436171       0.701745319      -51.290161       0.701745319      -51.290161       0.710546402      38.5436765       
605              0.713195974      38.2479896       0.698709405      -51.5859657      0.698709405      -51.5859657      0.713535494      38.2480485       
610              0.71614678       37.9542505       0.695685106      -51.8798481      0.695685106      -51.8798481      0.71648769       37.9543089       
615              0.719061151      37.6623845       0.692672589      -52.1718237      0.692672589      -52.1718237      0.719403433      37.6624423       
620              0.721939523      37.3723762       0.689672009      -52.4619082      0.689672009      -52.4619082      0.72228316       37.3724336       
625              0.724782334      37.0842106       0.686683518      -52.7501169      0.686683518      -52.7501169      0.725127308      37.0842674       
630              0.727590015      36.7978722       0.683707256      -53.0364655      0.683707256      -53.0364655      0.727936309      36.7979285       
635              0.730362995      36.5133459       0.680743359      -53.3209695      0.680743359      -53.3209695      0.730710593      36.5134017       
640              0.7331017        36.2306163       0.677791955      -53.6036443      0.677791955      -53.6036443      0.733450585      36.2306716       
645              0.735806553      35.9496681       0.674853163      -53.8845055      0.674853163      -53.8845055      0.736156709      35.949723        
650              0.738477974      35.6704862       0.671927099      -54.1635685      0.671927099      -54.1635685      0.738829384      35.6705406       
655              0.741116377      35.3930554       0.669013869      -54.4408488      0.669013869      -54.4408488      0.741469026      35.3931093       
660              0.743722175      35.1173603       0.666113575      -54.7163616      0.666113575      -54.7163616      0.744076047      35.1174138       
665              0.746295776      34.8433859       0.663226312      -54.9901223      0.663226312      -54.9901223      0.746650855      34.843439        
670              0.748837586      34.5711171       0.660352168      -55.2621463      0.660352168      -55.2621463      0.749193856      34.5711697       
675              0.751348004      34.3005387       0.657491227      -55.5324488      0.657491227      -55.5324488      0.751705451      34.3005909       
680              0.753827428      34.0316357       0.654643567      -55.8010449      0.654643567      -55.8010449      0.754186037      34.0316875       
685              0.756276252      33.7643932       0.651809258      -56.0679498      0.651809258      -56.0679498      0.756636007      33.7644445       
