! Coilcraft B09T_ Mini Spring Air Core Inductor				
! 30 May 2003
# MHZ S MA R 50
!Freq             MagS11           AngS11           MagS21           AngS21           MagS12           AngS12           MagS22           AngS22
50               0.10524865       81.9581932       0.991668392      -6.52893747      0.991668392      -6.52893747      0.105295964      81.9588729       
55               0.115636616      81.4476891       0.990516682      -7.17695556      0.990516682      -7.17695556      0.115688606      81.448307        
60               0.125988583      80.9156557       0.989259665      -7.82359699      0.989259665      -7.82359699      0.126045233      80.916222        
65               0.136301342      80.3674928       0.987898506      -8.46874394      0.987898506      -8.46874394      0.136362632      80.3680155       
70               0.146571781      79.8070903       0.986434454      -9.11228044      0.986434454      -9.11228044      0.146637693      79.8075757       
75               0.156796878      79.2373305       0.984868846      -9.75409249      0.984868846      -9.75409249      0.156867391      79.2377834       
80               0.166973696      78.6604016       0.983203098      -10.3940682      0.983203098      -10.3940682      0.167048788      78.6608261       
85               0.177099384      78.0780012       0.981438705      -11.0320979      0.981438705      -11.0320979      0.177179031      78.0784007       
90               0.187171172      77.4914721       0.979577236      -11.6680742      0.979577236      -11.6680742      0.187255351      77.4918494       
95               0.197186379      76.9018944       0.97762033       -12.3018921      0.97762033       -12.3018921      0.197275064      76.9022517       
100              0.207142408      76.3101508       0.975569694      -12.9334493      0.975569694      -12.9334493      0.207235571      76.3104901       
105              0.21703675       75.7169726       0.973427095      -13.562646       0.973427095      -13.562646       0.217134364      75.7172958       
110              0.226866985      75.1229739       0.971194362      -14.1893849      0.971194362      -14.1893849      0.226969021      75.1232823       
115              0.236630785      74.5286759       0.968873375      -14.8135717      0.968873375      -14.8135717      0.236737213      74.5289707       
120              0.246325914      73.9345258       0.966466068      -15.435115       0.966466068      -15.435115       0.246436702      73.9348083       
125              0.255950228      73.3409111       0.963974419      -16.053926       0.963974419      -16.053926       0.256065345      73.3411822       
130              0.265501679      72.7481704       0.961400449      -16.6699191      0.961400449      -16.6699191      0.265621091      72.748431        
135              0.274978312      72.1566016       0.958746217      -17.2830114      0.958746217      -17.2830114      0.275101986      72.1568525       
140              0.284378269      71.5664691       0.956013815      -17.8931235      0.956013815      -17.8931235      0.284506171      71.566711        
145              0.293699788      70.9780086       0.953205365      -18.5001785      0.953205365      -18.5001785      0.293831881      70.978242        
150              0.302941203      70.3914314       0.950323017      -19.104103       0.950323017      -19.104103       0.303077452      70.391657        
155              0.312100945      69.8069282       0.94736894       -19.7048265      0.94736894       -19.7048265      0.312241313      69.8071464       
160              0.321177539      69.2246711       0.94434532       -20.3022816      0.94434532       -20.3022816      0.321321988      69.2248824       
165              0.330169607      68.6448169       0.941254361      -20.8964042      0.941254361      -20.8964042      0.330318099      68.6450217       
170              0.339075865      68.0675079       0.938098274      -21.487133       0.938098274      -21.487133       0.339228361      68.0677066       
175              0.347895125      67.4928742       0.934879276      -22.0744102      0.934879276      -22.0744102      0.348051586      67.4930672       
180              0.356626288      66.9210349       0.93159959       -22.6581807      0.93159959       -22.6581807      0.356786674      66.9212224       
185              0.365268351      66.3520989       0.928261437      -23.2383928      0.928261437      -23.2383928      0.365432621      66.3522812       
190              0.373820397      65.7861659       0.924867033      -23.8149977      0.924867033      -23.8149977      0.373988512      65.7863434       
195              0.382281603      65.2233278       0.921418589      -24.3879495      0.921418589      -24.3879495      0.38245352       65.2235006       
200              0.390651229      64.6636683       0.917918306      -24.9572056      0.917918306      -24.9572056      0.390826908      64.6638367       
205              0.398928621      64.1072646       0.914368371      -25.522726       0.914368371      -25.522726       0.39910802       64.1074288       
210              0.407113212      63.5541871       0.910770957      -26.084474       0.910770957      -26.084474       0.407296289      63.5543474       
215              0.415204512      63.0045005       0.907128218      -26.6424153      0.907128218      -26.6424153      0.415391225      63.0046569       
220              0.423202113      62.4582635       0.903442287      -27.1965189      0.903442287      -27.1965189      0.42339242       62.4584164       
225              0.431105685      61.91553         0.899715275      -27.7467563      0.899715275      -27.7467563      0.431299543      61.9156794       
230              0.438914972      61.3763487       0.895949267      -28.2931017      0.895949267      -28.2931017      0.439112338      61.3764947       
235              0.44662979       60.8407636       0.892146323      -28.835532       0.892146323      -28.835532       0.446830622      60.8409064       
240              0.454250028      60.3088146       0.888308471      -29.3740267      0.888308471      -29.3740267      0.454454283      60.3089544       
245              0.46177564       59.7805374       0.884437711      -29.9085678      0.884437711      -29.9085678      0.461983275      59.7806742       
250              0.469206647      59.2559636       0.880536008      -30.43914        0.880536008      -30.43914        0.46941762       59.2560976       
255              0.476543135      58.7351213       0.876605297      -30.9657299      0.876605297      -30.9657299      0.476757403      58.7352526       
260              0.483785248      58.2180352       0.872647474      -31.488327       0.872647474      -31.488327       0.484002768      58.2181639       
265              0.49093319       57.7047263       0.868664402      -32.0069227      0.868664402      -32.0069227      0.491153919      57.7048525       
270              0.49798722       57.1952129       0.864657904      -32.5215107      0.864657904      -32.5215107      0.498211116      57.1953367       
275              0.504947649      56.68951         0.860629767      -33.0320869      0.860629767      -33.0320869      0.50517467       56.6896315       
280              0.511814842      56.1876298       0.856581737      -33.5386491      0.856581737      -33.5386491      0.512044946      56.187749        
285              0.518589211      55.6895818       0.852515523      -34.0411973      0.852515523      -34.0411973      0.518822355      55.6896989       
290              0.525271213      55.195373        0.848432792      -34.5397333      0.848432792      -34.5397333      0.525507356      55.1954879       
295              0.531861348      54.7050078       0.844335169      -35.0342608      0.844335169      -35.0342608      0.532100449      54.7051207       
300              0.538360162      54.2184883       0.84022424       -35.5247851      0.84022424       -35.5247851      0.538602178      54.2185993       
305              0.544768233      53.7358146       0.836101549      -36.0113135      0.836101549      -36.0113135      0.545013125      53.7359236       
310              0.551086182      53.2569843       0.831968599      -36.4938548      0.831968599      -36.4938548      0.551333908      53.2570915       
315              0.557314661      52.7819932       0.827826849      -36.9724193      0.827826849      -36.9724193      0.557565181      52.7820987       
320              0.563454354      52.3108354       0.82367772       -37.447019       0.82367772       -37.447019       0.563707628      52.3109391       
325              0.569505979      51.8435028       0.819522587      -37.9176671      0.819522587      -37.9176671      0.569761966      51.8436048       
330              0.575470276      51.3799858       0.815362788      -38.3843783      0.815362788      -38.3843783      0.575728938      51.3800862       
335              0.581348018      50.9202732       0.811199617      -38.8471687      0.811199617      -38.8471687      0.581609315      50.9203721       
340              0.587139997      50.4643523       0.807034328      -39.3060555      0.807034328      -39.3060555      0.58740389       50.4644496       
345              0.592847029      50.0122086       0.802868133      -39.7610572      0.802868133      -39.7610572      0.593113481      50.0123044       
350              0.598469952      49.5638267       0.798702206      -40.2121933      0.798702206      -40.2121933      0.598738923      49.5639211       
355              0.60400962       49.1191897       0.79453768       -40.6594844      0.79453768       -40.6594844      0.604281073      49.1192827       
360              0.609466905      48.6782794       0.790375647      -41.1029522      0.790375647      -41.1029522      0.609740804      48.678371        
365              0.614842697      48.2410764       0.786217164      -41.5426192      0.786217164      -41.5426192      0.615119004      48.2411667       
370              0.620137895      47.8075606       0.782063247      -41.978509       0.782063247      -41.978509       0.620416574      47.8076496       
375              0.625353414      47.3777104       0.777914874      -42.4106458      0.777914874      -42.4106458      0.625634428      47.3777981       
380              0.630490179      46.9515036       0.773772987      -42.8390547      0.773772987      -42.8390547      0.630773493      46.9515901       
385              0.635549123      46.5289169       0.769638493      -43.2637616      0.769638493      -43.2637616      0.635834702      46.5290022       
390              0.640531188      46.1099264       0.765512261      -43.6847929      0.765512261      -43.6847929      0.640818997      46.1100105       
395              0.645437324      45.6945071       0.761395126      -44.1021759      0.761395126      -44.1021759      0.645727329      45.69459         
400              0.650268486      45.2826335       0.757287889      -44.5159383      0.757287889      -44.5159383      0.650560652      45.2827154       
405              0.655025631      44.8742795       0.753191316      -44.9261084      0.753191316      -44.9261084      0.655319925      44.8743603       
410              0.659709723      44.4694182       0.749106142      -45.332715       0.749106142      -45.332715       0.660006112      44.4694979       
415              0.664321725      44.0680222       0.745033069      -45.7357873      0.745033069      -45.7357873      0.664620177      44.0681009       
420              0.668862605      43.6700636       0.740972768      -46.135355       0.740972768      -46.135355       0.669163087      43.6701413       
425              0.673333327      43.2755141       0.73692588       -46.5314483      0.73692588       -46.5314483      0.673635808      43.2755907       
430              0.677734859      42.8843447       0.732893015      -46.9240974      0.732893015      -46.9240974      0.678039306      42.8844205       
435              0.682068164      42.4965264       0.728874755      -47.3133333      0.728874755      -47.3133333      0.682374548      42.4966012       
440              0.686334205      42.1120295       0.724871655      -47.6991868      0.724871655      -47.6991868      0.686642494      42.1121034       
445              0.69053394       41.7308242       0.720884239      -48.0816892      0.720884239      -48.0816892      0.690844105      41.7308971       
450              0.694668326      41.3528802       0.716913007      -48.4608719      0.716913007      -48.4608719      0.694980337      41.3529523       
455              0.698738314      40.9781673       0.712958434      -48.8367667      0.712958434      -48.8367667      0.699052142      40.9782385       
460              0.702744851      40.6066546       0.709020967      -49.2094053      0.709020967      -49.2094053      0.703060467      40.606725        
465              0.706688877      40.2383115       0.705101031      -49.5788196      0.705101031      -49.5788196      0.707006253      40.2383811       
470              0.710571329      39.873107        0.701199027      -49.9450417      0.701199027      -49.9450417      0.710890436      39.8731757       
475              0.714393134      39.5110099       0.697315332      -50.3081036      0.697315332      -50.3081036      0.714713946      39.5110779       
480              0.718155215      39.1519892       0.693450301      -50.6680375      0.693450301      -50.6680375      0.718477704      39.1520563       
485              0.721858486      38.7960134       0.689604269      -51.0248756      0.689604269      -51.0248756      0.722182625      38.7960798       
490              0.725503853      38.4430513       0.685777549      -51.3786501      0.685777549      -51.3786501      0.725829617      38.443117        
495              0.729092216      38.0930716       0.681970434      -51.729393       0.681970434      -51.729393       0.729419578      38.0931365       
500              0.732624463      37.7460428       0.678183199      -52.0771366      0.678183199      -52.0771366      0.732953399      37.746107        
505              0.736101478      37.4019337       0.674416097      -52.421913       0.674416097      -52.421913       0.736431961      37.4019972       
510              0.739524131      37.0607129       0.670669368      -52.763754       0.670669368      -52.763754       0.739856137      37.0607757       
515              0.742893286      36.7223492       0.666943229      -53.1026917      0.666943229      -53.1026917      0.743226791      36.7224114       
520              0.746209797      36.3868114       0.663237884      -53.4387579      0.663237884      -53.4387579      0.746544777      36.3868729       
525              0.749474507      36.0540684       0.65955352       -53.7719843      0.65955352       -53.7719843      0.749810939      36.0541292       
530              0.75268825       35.7240892       0.655890309      -54.1024024      0.655890309      -54.1024024      0.753026111      35.7241494       
535              0.755851851      35.3968428       0.652248405      -54.4300437      0.652248405      -54.4300437      0.756191117      35.3969024       
540              0.758966123      35.0722986       0.648627951      -54.7549395      0.648627951      -54.7549395      0.759306772      35.0723576       
545              0.76203187       34.750426        0.645029075      -55.0771208      0.645029075      -55.0771208      0.76237388       34.7504843       
550              0.765049885      34.4311944       0.641451891      -55.3966186      0.641451891      -55.3966186      0.765393235      34.4312521       
555              0.76802095       34.1145735       0.637896502      -55.7134636      0.637896502      -55.7134636      0.768365618      34.1146307       
560              0.770945838      33.8005333       0.634362996      -56.0276864      0.634362996      -56.0276864      0.771291803      33.8005899       
565              0.773825311      33.4890437       0.630851451      -56.3393174      0.630851451      -56.3393174      0.774172552      33.4890998       
570              0.776660118      33.1800751       0.627361933      -56.6483865      0.627361933      -56.6483865      0.777008616      33.1801306       
575              0.779451002      32.8735979       0.623894499      -56.9549238      0.623894499      -56.9549238      0.779800736      32.8736528       
580              0.78219869       32.5695827       0.620449192      -57.2589589      0.620449192      -57.2589589      0.782549641      32.5696371       
585              0.784903903      32.2680005       0.617026049      -57.5605212      0.617026049      -57.5605212      0.785256051      32.2680543       
590              0.787567349      31.9688222       0.613625095      -57.8596399      0.613625095      -57.8596399      0.787920675      31.9688756       
595              0.790189726      31.6720194       0.610246346      -58.1563441      0.610246346      -58.1563441      0.790544211      31.6720722       
600              0.79277172       31.3775634       0.60688981       -58.4506623      0.60688981       -58.4506623      0.793127347      31.3776158       
605              0.795314008      31.0854262       0.603555487      -58.7426231      0.603555487      -58.7426231      0.795670758      31.0854781       
610              0.797817257      30.7955797       0.600243368      -59.0322546      0.600243368      -59.0322546      0.798175112      30.7956311       
615              0.800282122      30.5079963       0.596953438      -59.3195847      0.596953438      -59.3195847      0.800641066      30.5080472       
620              0.802709249      30.2226486       0.593685673      -59.6046411      0.593685673      -59.6046411      0.803069263      30.222699        
625              0.805099273      29.9395092       0.590440043      -59.8874512      0.590440043      -59.8874512      0.805460341      29.9395592       
630              0.807452818      29.6585513       0.587216512      -60.1680421      0.587216512      -60.1680421      0.807814923      29.6586008       
635              0.8097705        29.3797482       0.584015036      -60.4464406      0.584015036      -60.4464406      0.810133626      29.3797973       
640              0.812052923      29.1030735       0.580835567      -60.7226734      0.580835567      -60.7226734      0.812417053      29.1031221       
645              0.814300681      28.828501        0.577678051      -60.9967667      0.577678051      -60.9967667      0.8146658        28.8285492       
650              0.81651436       28.5560049       0.574542428      -61.2687464      0.574542428      -61.2687464      0.816880452      28.5560527       
655              0.818694534      28.2855596       0.571428633      -61.5386385      0.571428633      -61.5386385      0.819061585      28.2856069       
660              0.82084177       28.0171396       0.568336596      -61.8064682      0.568336596      -61.8064682      0.821209763      28.0171865       
665              0.822956622      27.75072         0.565266243      -62.0722609      0.565266243      -62.0722609      0.823325543      27.7507665       
670              0.825039637      27.4862758       0.562217497      -62.3360413      0.562217497      -62.3360413      0.825409472      27.486322        
675              0.827091352      27.2237827       0.559190274      -62.5978341      0.559190274      -62.5978341      0.827462087      27.2238284       
680              0.829112296      26.9632163       0.556184488      -62.8576636      0.556184488      -62.8576636      0.829483916      26.9632616       
685              0.831102986      26.7045526       0.55320005       -63.115554       0.55320005       -63.115554       0.831475478      26.7045976       
