! Coilcraft B10T_ Mini Spring Air Core Inductor				
! 30 May 2003
# MHZ S MA R 50
!Freq             MagS11           AngS11           MagS21           AngS21           MagS12           AngS12           MagS22           AngS22
50               0.127181213      80.6046489       0.98841167       -7.83210121      0.98841167       -7.83210121      0.127244887      80.6054307       
55               0.139664851      79.9719001       0.986735703      -8.60690137      0.986735703      -8.60690137      0.139734784      79.9726109       
60               0.152086174      79.3178478       0.984909214      -9.3793392       0.984909214      -9.3793392       0.152162333      79.3184993       
65               0.164439882      78.6481454       0.98293459       -10.149218       0.98293459       -10.149218       0.164522234      78.6487467       
70               0.176720876      77.9668839       0.980814385      -10.9163455      0.980814385      -10.9163455      0.176809383      77.9674421       
75               0.188924241      77.2771103       0.978551314      -11.6805342      0.978551314      -11.6805342      0.189018864      77.2776312       
80               0.201045251      76.5811524       0.976148239      -12.4416017      0.976148239      -12.4416017      0.201145947      76.5816406       
85               0.213079364      75.8808277       0.973608164      -13.1993706      0.973608164      -13.1993706      0.21318609       75.8812871       
90               0.22502223       75.1775842       0.970934225      -13.9536693      0.970934225      -13.9536693      0.22513494       75.178018        
95               0.23686969       74.4725955       0.968129674      -14.7043316      0.968129674      -14.7043316      0.236988336      74.4730063       
100              0.248617779      73.7668276       0.965197876      -15.4511974      0.965197876      -15.4511974      0.248742311      73.7672178       
105              0.260262731      73.0610873       0.962142292      -16.1941124      0.962142292      -16.1941124      0.260393096      73.0614588       
110              0.271800977      72.3560566       0.958966474      -16.9329284      0.958966474      -16.9329284      0.271937121      72.3564111       
115              0.28322915       71.6523182       0.955674052      -17.6675037      0.955674052      -17.6675037      0.28337102       71.6526571       
120              0.294544088      70.950375        0.952268722      -18.3977027      0.952268722      -18.3977027      0.294691624      70.9506997       
125              0.305742827      70.2506648       0.948754239      -19.1233964      0.948754239      -19.1233964      0.305895973      70.2509764       
130              0.31682261       69.5535713       0.945134405      -19.844462       0.945134405      -19.844462       0.316981305      69.5538707       
135              0.327780879      68.859433        0.941413057      -20.5607834      0.941413057      -20.5607834      0.327945062      68.8597212       
140              0.338615278      68.1685502       0.937594064      -21.2722509      0.937594064      -21.2722509      0.338784886      68.168828        
145              0.34932365       67.4811903       0.933681308      -21.9787614      0.933681308      -21.9787614      0.34949862       67.4814585       
150              0.359904033      66.7975925       0.929678685      -22.6802181      0.929678685      -22.6802181      0.3600843        66.7978516       
155              0.370354659      66.1179708       0.925590088      -23.3765307      0.925590088      -23.3765307      0.370540158      66.1182214       
160              0.38067395       65.4425177       0.921419404      -24.0676152      0.921419404      -24.0676152      0.380864616      65.4427603       
165              0.390860516      64.771406        0.917170504      -24.753394       0.917170504      -24.753394       0.391056281      64.7716411       
170              0.400913145      64.1047911       0.912847234      -25.4337956      0.912847234      -25.4337956      0.401113942      64.1050193       
175              0.410830805      63.4428129       0.908453411      -26.1087546      0.908453411      -26.1087546      0.411036566      63.4430344       
180              0.420612636      62.7855968       0.903992814      -26.7782117      0.903992814      -26.7782117      0.420823293      62.785812        
185              0.430257943      62.133255        0.89946918       -27.4421133      0.89946918       -27.4421133      0.430473427      62.1334643       
190              0.439766195      61.4858881       0.894886195      -28.1004117      0.894886195      -28.1004117      0.439986437      61.4860918       
195              0.449137015      60.8435855       0.890247491      -28.7530647      0.890247491      -28.7530647      0.449361946      60.8437838       
200              0.458370177      60.2064263       0.88555664       -29.4000356      0.88555664       -29.4000356      0.458599727      60.2066195       
205              0.467465598      59.5744803       0.880817152      -30.041293       0.880817152      -30.041293       0.467699698      59.5746687       
210              0.476423332      58.9478084       0.876032468      -30.6768105      0.876032468      -30.6768105      0.476661913      58.9479922       
215              0.485243567      58.3264633       0.871205955      -31.3065668      0.871205955      -31.3065668      0.485486559      58.3266427       
220              0.493926613      57.71049         0.866340909      -31.9305455      0.866340909      -31.9305455      0.494173948      57.7106651       
225              0.502472902      57.0999262       0.861440546      -32.5487346      0.861440546      -32.5487346      0.502724511      57.1000974       
230              0.510882976      56.4948032       0.856508003      -33.1611268      0.856508003      -33.1611268      0.511138791      56.4949705       
235              0.519157487      55.8951455       0.851546334      -33.7677189      0.851546334      -33.7677189      0.519417438      55.8953091       
240              0.527297184      55.3009721       0.84655851       -34.3685119      0.84655851       -34.3685119      0.527561204      55.3011322       
245              0.535302912      54.712296        0.841547416      -34.9635107      0.841547416      -34.9635107      0.535570934      54.7124527       
250              0.543175604      54.1291254       0.836515852      -35.552724       0.836515852      -35.552724       0.54344756       54.1292789       
255              0.550916276      53.5514633       0.831466529      -36.1361641      0.831466529      -36.1361641      0.5511921        53.5516137       
260              0.558526019      52.9793082       0.826402074      -36.7138466      0.826402074      -36.7138466      0.558805645      52.9794555       
265              0.566005998      52.4126541       0.821325022      -37.2857904      0.821325022      -37.2857904      0.566289361      52.4127986       
270              0.573357443      51.8514912       0.816237825      -37.8520176      0.816237825      -37.8520176      0.573644478      51.8516328       
275              0.580581642      51.2958057       0.811142843      -38.412553       0.811142843      -38.412553       0.580872285      51.2959446       
280              0.587679941      50.7455802       0.806042352      -38.9674243      0.806042352      -38.9674243      0.587974129      50.7457166       
285              0.594653737      50.2007942       0.800938543      -39.5166617      0.800938543      -39.5166617      0.594951406      50.200928        
290              0.601504471      49.6614239       0.795833518      -40.0602978      0.795833518      -40.0602978      0.60180556       49.6615553       
295              0.608233625      49.1274425       0.790729298      -40.5983677      0.790729298      -40.5983677      0.608538072      49.1275716       
300              0.614842719      48.5988209       0.78562782       -41.1309083      0.78562782       -41.1309083      0.615150465      48.5989476       
305              0.621333307      48.0755269       0.780530937      -41.6579588      0.780530937      -41.6579588      0.621644291      48.0756515       
310              0.627706968      47.5575265       0.775440426      -42.1795601      0.775440426      -42.1795601      0.628021131      47.557649        
315              0.633965309      47.0447832       0.770357981      -42.6957547      0.770357981      -42.6957547      0.634282594      47.0449036       
320              0.640109958      46.5372587       0.765285221      -43.2065869      0.765285221      -43.2065869      0.640430306      46.5373771       
325              0.646142558      46.0349128       0.760223689      -43.7121023      0.760223689      -43.7121023      0.646465914      46.0350293       
330              0.652064771      45.5377035       0.755174854      -44.212348       0.755174854      -44.212348       0.652391079      45.5378181       
335              0.657878267      45.0455874       0.750140113      -44.7073722      0.750140113      -44.7073722      0.658207472      45.0457002       
340              0.663584726      44.5585196       0.745120793      -45.1972243      0.745120793      -45.1972243      0.663916774      44.5586306       
345              0.669185834      44.076454        0.740118152      -45.6819546      0.740118152      -45.6819546      0.669520671      44.0765632       
350              0.67468328       43.5993432       0.735133383      -46.1616143      0.735133383      -46.1616143      0.675020855      43.5994507       
355              0.680078754      43.1271388       0.730167614      -46.6362555      0.730167614      -46.6362555      0.680419015      43.1272448       
360              0.685373945      42.6597916       0.72522191       -47.105931       0.72522191       -47.105931       0.685716841      42.659896        
365              0.690570538      42.1972514       0.720297277      -47.5706943      0.720297277      -47.5706943      0.69091602       42.1973542       
370              0.695670213      41.7394673       0.71539466       -48.0305991      0.71539466       -48.0305991      0.696018232      41.7395686       
375              0.700674644      41.2863878       0.71051495       -48.4857         0.71051495       -48.4857         0.701025152      41.2864877       
380              0.705585494      40.8379609       0.705658983      -48.9360518      0.705658983      -48.9360518      0.705938443      40.8380593       
385              0.710404417      40.3941339       0.700827539      -49.3817095      0.700827539      -49.3817095      0.710759761      40.394231        
390              0.715133054      39.954854        0.696021352      -49.8227284      0.696021352      -49.8227284      0.715490749      39.9549497       
395              0.719773036      39.5200678       0.691241103      -50.2591642      0.691241103      -50.2591642      0.720133035      39.5201622       
400              0.724325975      39.089722        0.686487428      -50.6910723      0.686487428      -50.6910723      0.724688235      39.089815        
405              0.728793472      38.6637627       0.681760918      -51.1185086      0.681760918      -51.1185086      0.729157949      38.6638545       
410              0.733177109      38.2421361       0.67706212       -51.5415287      0.67706212       -51.5415287      0.733543761      38.2422267       
415              0.737478451      37.8247885       0.672391537      -51.9601883      0.672391537      -51.9601883      0.737847237      37.8248779       
420              0.741699046      37.4116658       0.667749634      -52.3745429      0.667749634      -52.3745429      0.742069925      37.4117541       
425              0.745840422      37.0027144       0.663136839      -52.784648       0.663136839      -52.784648       0.746213354      37.0028014       
430              0.749904088      36.5978803       0.65855354       -53.1905588      0.65855354       -53.1905588      0.750279034      36.5979662       
435              0.753891535      36.19711         0.654000091      -53.5923304      0.654000091      -53.5923304      0.754268456      36.1971948       
440              0.757804229      35.80035         0.649476813      -53.9900175      0.649476813      -53.9900175      0.758183087      35.8004337       
445              0.761643619      35.407547        0.644983995      -54.3836745      0.644983995      -54.3836745      0.762024378      35.4076298       
450              0.765411132      35.0186482       0.640521894      -54.7733557      0.640521894      -54.7733557      0.765793754      35.0187299       
455              0.769108171      34.6336007       0.636090737      -55.159115       0.636090737      -55.159115       0.769492622      34.6336814       
460              0.772736121      34.2523522       0.631690726      -55.5410056      0.631690726      -55.5410056      0.773122364      34.2524319       
465              0.776296341      33.8748505       0.627322034      -55.9190807      0.627322034      -55.9190807      0.776684344      33.8749293       
470              0.779790172      33.5010441       0.622984808      -56.2933928      0.622984808      -56.2933928      0.7801799        33.5011219       
475              0.783218929      33.1308815       0.618679173      -56.6639942      0.618679173      -56.6639942      0.783610349      33.1309584       
480              0.786583906      32.7643119       0.61440523       -57.0309366      0.61440523       -57.0309366      0.786976986      32.7643879       
485              0.789886375      32.4012848       0.610163058      -57.3942712      0.610163058      -57.3942712      0.790281084      32.4013599       
490              0.793127586      32.0417502       0.605952715      -57.7540486      0.605952715      -57.7540486      0.793523892      32.0418244       
495              0.796308766      31.6856584       0.60177424       -58.1103193      0.60177424       -58.1103193      0.796706639      31.6857319       
500              0.79943112       31.3329605       0.597627654      -58.4631327      0.597627654      -58.4631327      0.79983053       31.3330331       
505              0.80249583       30.9836079       0.593512959      -58.8125382      0.593512959      -58.8125382      0.802896748      30.9836796       
510              0.805504056      30.6375523       0.589430141      -59.1585844      0.589430141      -59.1585844      0.805906454      30.6376233       
515              0.808456939      30.2947464       0.585379171      -59.5013192      0.585379171      -59.5013192      0.808860787      30.2948165       
520              0.811355594      29.9551429       0.581360003      -59.8407903      0.581360003      -59.8407903      0.811760866      29.9552123       
525              0.814201118      29.6186955       0.577372579      -60.1770445      0.577372579      -60.1770445      0.814607787      29.6187641       
530              0.816994585      29.285358        0.573416826      -60.5101284      0.573416826      -60.5101284      0.817402624      29.2854259       
535              0.819737047      28.9550852       0.569492662      -60.8400875      0.569492662      -60.8400875      0.82014643       28.9551524       
540              0.822429538      28.627832        0.565599989      -61.1669672      0.565599989      -61.1669672      0.82284024       28.6278985       
545              0.825073068      28.3035543       0.5617387        -61.4908122      0.5617387        -61.4908122      0.825485065      28.30362         
550              0.82766863       27.9822081       0.557908679      -61.8116664      0.557908679      -61.8116664      0.828081896      27.9822731       
555              0.830217195      27.6637503       0.554109797      -62.1295733      0.554109797      -62.1295733      0.830631706      27.6638146       
560              0.832719713      27.3481381       0.55034192       -62.4445758      0.55034192       -62.4445758      0.833135447      27.3482019       
565              0.835177118      27.0353297       0.546604902      -62.7567163      0.546604902      -62.7567163      0.835594051      27.0353927       
570              0.837590321      26.7252833       0.542898591      -63.0660364      0.542898591      -63.0660364      0.838008431      26.7253457       
575              0.839960217      26.417958        0.539222827      -63.3725772      0.539222827      -63.3725772      0.840379482      26.4180198       
580              0.84228768       26.1133134       0.535577444      -63.6763793      0.535577444      -63.6763793      0.842708079      26.1133746       
585              0.844573568      25.8113097       0.531962269      -63.9774827      0.531962269      -63.9774827      0.844995079      25.8113702       
590              0.846818719      25.5119075       0.528377123      -64.2759267      0.528377123      -64.2759267      0.847241322      25.5119674       
595              0.849023955      25.2150681       0.524821823      -64.5717503      0.524821823      -64.5717503      0.849447628      25.2151274       
600              0.851190079      24.9207533       0.521296178      -64.8649915      0.521296178      -64.8649915      0.851614803      24.9208121       
605              0.853317877      24.6289255       0.517799996      -65.1556881      0.517799996      -65.1556881      0.853743633      24.6289837       
610              0.85540812       24.3395475       0.514333079      -65.4438773      0.514333079      -65.4438773      0.855834888      24.3396052       
615              0.857461561      24.0525829       0.510895224      -65.7295955      0.510895224      -65.7295955      0.857889322      24.05264         
620              0.859478936      23.7679955       0.507486228      -66.0128789      0.507486228      -66.0128789      0.859907673      23.7680521       
625              0.861460968      23.48575         0.504105881      -66.2937628      0.504105881      -66.2937628      0.861890662      23.485806        
630              0.863408362      23.2058112       0.500753972      -66.5722821      0.500753972      -66.5722821      0.863838995      23.2058667       
635              0.865321808      22.9281449       0.497430289      -66.8484713      0.497430289      -66.8484713      0.865753363      22.9281998       
640              0.867201982      22.652717        0.494134615      -67.1223642      0.494134615      -67.1223642      0.867634442      22.6527715       
645              0.869049545      22.3794942       0.490866732      -67.3939942      0.490866732      -67.3939942      0.869482894      22.3795481       
650              0.870865144      22.1084435       0.487626422      -67.663394       0.487626422      -67.663394       0.871299364      22.108497        
655              0.872649411      21.8395325       0.484413463      -67.9305959      0.484413463      -67.9305959      0.873084487      21.8395855       
660              0.874402964      21.5727294       0.481227634      -68.1956317      0.481227634      -68.1956317      0.87483888       21.572782        
665              0.876126409      21.3080028       0.47806871       -68.4585327      0.47806871       -68.4585327      0.876563151      21.3080548       
670              0.877820339      21.0453216       0.474936468      -68.7193297      0.474936468      -68.7193297      0.87825789       21.0453731       
675              0.879485332      20.7846554       0.471830684      -68.978053       0.471830684      -68.978053       0.879923677      20.7847065       
680              0.881121954      20.5259742       0.468751133      -69.2347323      0.468751133      -69.2347323      0.88156108       20.5260249       
685              0.882730761      20.2692486       0.465697589      -69.4893971      0.465697589      -69.4893971      0.883170652      20.2692988       
