! Coilcraft 1008PS-333 Power Chip Inductor				
! 7 October 2002			
# MHZ S MA R 50
!Freq             MagS11           AngS11           MagS21           AngS21           MagS12           AngS12           MagS22           AngS22
0.05             0.103189455      72.1327615       0.973307845      -5.79134616      0.973307845      -5.79134616      0.103189463      72.1327662       
0.072            0.146104803      73.2040699       0.967940254      -8.30860253      0.967940254      -8.30860253      0.146104816      73.2040732       
0.094            0.188500729      72.6539768       0.96079779       -10.7934726      0.96079779       -10.7934726      0.188500747      72.6539794       
0.116            0.229986741      71.4161869       0.951999986      -13.2373947      0.951999986      -13.2373947      0.229986763      71.416189        
0.138            0.27031144       69.8432121       0.941687109      -15.6326877      0.941687109      -15.6326877      0.270311466      69.8432139       
0.16             0.309289689      68.0989724       0.93001452       -17.9726556      0.93001452       -17.9726556      0.309289719      68.098974        
0.182            0.346782476      66.2709051       0.917146929      -20.2516474      0.917146929      -20.2516474      0.34678251       66.2709065       
0.204            0.382689065      64.4103032       0.903252911      -22.4650755      0.903252911      -22.4650755      0.382689103      64.4103045       
0.226            0.416942365      62.5493073       0.888500006      -24.6093957      0.888500006      -24.6093957      0.416942407      62.5493085       
0.248            0.449505047      60.7089505       0.873050556      -26.6820565      0.873050556      -26.6820565      0.449505092      60.7089516       
0.27             0.480365741      58.903338        0.857058412      -28.6814252      0.857058412      -28.6814252      0.480365789      58.903339        
0.292            0.50953521       57.1419941       0.840666506      -30.6066971      0.840666506      -30.6066971      0.509535261      57.141995        
0.314            0.537042571      55.4312733       0.824005251      -32.4577968      0.824005251      -32.4577968      0.537042624      55.4312742       
0.336            0.562931682      53.7752603       0.807191657      -34.2352749      0.807191657      -34.2352749      0.562931738      53.7752612       
0.358            0.587257801      52.1763752       0.79032907       -35.9402077      0.79032907       -35.9402077      0.58725786       52.176376        
0.38             0.610084577      50.6357987       0.773507387      -37.5741004      0.773507387      -37.5741004      0.610084638      50.6357995       
0.402            0.631481427      49.1537826       0.756803634      -39.1387993      0.756803634      -39.1387993      0.63148149       49.1537834       
0.424            0.65152131       47.7298814       0.740282797      -40.6364118      0.740282797      -40.6364118      0.651521375      47.7298822       
0.446            0.67027887       46.3631301       0.723998808      -42.0692365      0.723998808      -42.0692365      0.670278937      46.3631308       
0.468            0.687828946      45.0521813       0.707995617      -43.439703       0.707995617      -43.439703       0.687829014      45.052182        
0.49             0.704245393      43.7954132       0.692308284      -44.7503205      0.692308284      -44.7503205      0.704245464      43.7954139       
0.512            0.719600187      42.591014        0.676964046      -46.0036357      0.676964046      -46.0036357      0.719600259      42.5910147       
0.534            0.733962761      41.4370475       0.66198334       -47.2021975      0.66198334       -47.2021975      0.733962834      41.4370481       
0.556            0.747399547      40.3315056       0.647380749      -48.3485299      0.647380749      -48.3485299      0.747399622      40.3315062       
0.578            0.759973675      39.2723484       0.633165868      -49.4451097      0.633165868      -49.4451097      0.75997375       39.2723491       
0.6              0.771744798      38.2575355       0.619344083      -50.4943497      0.619344083      -50.4943497      0.771744876      38.2575362       
0.622            0.782769033      37.2850497       0.605917266      -51.4985868      0.605917266      -51.4985868      0.782769111      37.2850504       
0.644            0.79309896       36.3529148       0.592884377      -52.4600726      0.592884377      -52.4600726      0.79309904       36.3529154       
0.666            0.802783697      35.4592088       0.580242002      -53.3809683      0.580242002      -53.3809683      0.802783777      35.4592094       
0.688            0.811869005      34.6020732       0.567984806      -54.2633404      0.567984806      -54.2633404      0.811869086      34.6020738       
0.71             0.820397433      33.7797193       0.556105928      -55.10916        0.556105928      -55.10916        0.820397515      33.7797199       
0.732            0.828408472      32.9904322       0.544597314      -55.9203019      0.544597314      -55.9203019      0.828408555      32.9904328       
0.754            0.835938728      32.2325727       0.533450001      -56.6985467      0.533450001      -56.6985467      0.835938812      32.2325734       
0.776            0.843022097      31.5045783       0.522654356      -57.445582       0.522654356      -57.445582       0.843022181      31.5045789       
0.798            0.849689939      30.8049623       0.512200272      -58.1630056      0.512200272      -58.1630056      0.849690024      30.8049629       
0.82             0.855971252      30.1323127       0.502077336      -58.8523285      0.502077336      -58.8523285      0.855971338      30.1323133       
0.842            0.86189284       29.4852906       0.492274966      -59.5149784      0.492274966      -59.5149784      0.861892926      29.4852912       
0.864            0.867479472      28.8626272       0.482782518      -60.1523033      0.482782518      -60.1523033      0.867479558      28.8626279       
0.886            0.872754034      28.2631219       0.47358938       -60.7655755      0.47358938       -60.7655755      0.872754121      28.2631225       
0.908            0.877737676      27.6856388       0.464685045      -61.3559952      0.464685045      -61.3559952      0.877737764      27.6856394       
0.93             0.882449943      27.1291041       0.456059167      -61.9246944      0.456059167      -61.9246944      0.882450031      27.1291048       
0.952            0.886908901      26.5925031       0.447701606      -62.4727406      0.447701606      -62.4727406      0.886908989      26.5925038       
0.974            0.891131255      26.0748771       0.439602463      -63.0011404      0.439602463      -63.0011404      0.891131345      26.0748777       
0.996            0.89513246       25.5753203       0.431752106      -63.510843       0.431752106      -63.510843       0.895132549      25.5753209       
1.018            0.898926813      25.0929773       0.42414119       -64.0027437      0.42414119       -64.0027437      0.898926903      25.0929779       
1.04             0.902527554      24.62704         0.416760667      -64.4776868      0.416760667      -64.4776868      0.902527644      24.6270407       
1.062            0.905946945      24.176745        0.409601795      -64.9364689      0.409601795      -64.9364689      0.905947035      24.1767457       
1.084            0.909196351      23.7413711       0.402656142      -65.3798416      0.402656142      -65.3798416      0.909196442      23.7413718       
1.106            0.912286312      23.3202366       0.395915587      -65.8085145      0.395915587      -65.8085145      0.912286403      23.3202373       
1.128            0.915226606      22.9126973       0.389372316      -66.2231576      0.389372316      -66.2231576      0.915226698      22.912698        
1.15             0.918026313      22.5181441       0.38301882       -66.6244036      0.38301882       -66.6244036      0.918026405      22.5181448       
1.172            0.920693868      22.1360008       0.376847888      -67.0128504      0.376847888      -67.0128504      0.92069396       22.1360015       
1.194            0.923237113      21.7657226       0.3708526        -67.3890632      0.3708526        -67.3890632      0.923237205      21.7657233       
1.216            0.925663342      21.4067935       0.36502632       -67.7535763      0.36502632       -67.7535763      0.925663435      21.4067942       
1.238            0.927979347      21.0587252       0.359362688      -68.1068955      0.359362688      -68.1068955      0.92797944       21.0587259       
1.26             0.930191452      20.7210552       0.35385561       -68.4494991      0.35385561       -68.4494991      0.930191546      20.7210559       
1.282            0.932305554      20.3933452       0.348499246      -68.7818403      0.348499246      -68.7818403      0.932305648      20.3933459       
1.304            0.934327153      20.0751799       0.343288005      -69.1043482      0.343288005      -69.1043482      0.934327247      20.0751806       
1.326            0.936261381      19.7661653       0.338216535      -69.4174296      0.338216535      -69.4174296      0.936261475      19.766166        
1.348            0.938113034      19.4659277       0.333279711      -69.7214702      0.333279711      -69.7214702      0.938113128      19.4659284       
1.37             0.939886592      19.1741124       0.328472625      -70.0168358      0.328472625      -70.0168358      0.939886687      19.1741131       
1.392            0.941586248      18.8903825       0.323790581      -70.3038734      0.323790581      -70.3038734      0.941586342      18.8903833       
1.414            0.943215923      18.6144182       0.319229083      -70.5829129      0.319229083      -70.5829129      0.943216018      18.6144189       
1.436            0.944779292      18.3459152       0.314783827      -70.8542672      0.314783827      -70.8542672      0.944779387      18.345916        
1.458            0.946279796      18.0845846       0.31045069       -71.1182339      0.31045069       -71.1182339      0.946279891      18.0845853       
1.48             0.947720665      17.8301512       0.306225728      -71.3750961      0.306225728      -71.3750961      0.947720761      17.8301519       
1.502            0.949104928      17.5823533       0.302105162      -71.6251227      0.302105162      -71.6251227      0.949105023      17.5823541       
1.524            0.950435429      17.3409418       0.298085371      -71.8685699      0.298085371      -71.8685699      0.950435524      17.3409426       
1.546            0.95171484       17.1056792       0.294162891      -72.1056816      0.294162891      -72.1056816      0.951714936      17.10568         
1.568            0.952945675      16.8763395       0.290334398      -72.3366901      0.290334398      -72.3366901      0.95294577       16.8763403       
1.59             0.954130295      16.6527069       0.28659671       -72.5618166      0.28659671       -72.5618166      0.954130391      16.6527077       
1.612            0.955270927      16.4345758       0.282946777      -72.7812721      0.282946777      -72.7812721      0.955271023      16.4345766       
1.634            0.956369665      16.2217499       0.279381673      -72.9952581      0.279381673      -72.9952581      0.956369762      16.2217507       
1.656            0.957428485      16.014042        0.275898594      -73.2039665      0.275898594      -73.2039665      0.957428581      16.0140428       
1.678            0.958449247      15.8112731       0.272494851      -73.4075806      0.272494851      -73.4075806      0.958449343      15.8112739       
1.7              0.959433709      15.6132723       0.269167862      -73.6062756      0.269167862      -73.6062756      0.959433805      15.6132731       
1.722            0.960383529      15.4198762       0.265915153      -73.8002188      0.265915153      -73.8002188      0.960383626      15.419877        
1.744            0.961300274      15.2309286       0.262734345      -73.98957        0.262734345      -73.98957        0.961300371      15.2309295       
1.766            0.962185425      15.0462802       0.259623158      -74.1744822      0.259623158      -74.1744822      0.962185522      15.0462811       
1.788            0.963040381      14.8657879       0.256579401      -74.3551016      0.256579401      -74.3551016      0.963040478      14.8657888       
1.81             0.963866466      14.6893148       0.253600968      -74.5315681      0.253600968      -74.5315681      0.963866563      14.6893157       
1.832            0.964664936      14.5167298       0.250685838      -74.7040159      0.250685838      -74.7040159      0.964665033      14.5167307       
1.854            0.965436977      14.3479074       0.247832067      -74.8725732      0.247832067      -74.8725732      0.965437074      14.3479082       
1.876            0.966183714      14.182727        0.245037787      -75.0373631      0.245037787      -75.0373631      0.966183812      14.1827279       
1.898            0.966906215      14.0210733       0.2423012        -75.1985033      0.2423012        -75.1985033      0.966906313      14.0210742       
1.92             0.967605492      13.8628355       0.239620579      -75.3561068      0.239620579      -75.3561068      0.967605589      13.8628364       
1.942            0.968282504      13.7079074       0.236994262      -75.5102822      0.236994262      -75.5102822      0.968282602      13.7079083       
1.964            0.968938165      13.556187        0.234420648      -75.6611333      0.234420648      -75.6611333      0.968938262      13.5561879       
1.986            0.969573339      13.4075764       0.231898198      -75.80876        0.231898198      -75.80876        0.969573437      13.4075773       
2.008            0.97018885       13.2619814       0.229425427      -75.9532581      0.229425427      -75.9532581      0.970188948      13.2619824       
2.03             0.970785482      13.1193118       0.227000909      -76.0947198      0.227000909      -76.0947198      0.97078558       13.1193127       
2.052            0.971363978      12.9794805       0.224623266      -76.2332334      0.224623266      -76.2332334      0.971364076      12.9794815       
2.074            0.971925047      12.8424042       0.222291173      -76.3688841      0.222291173      -76.3688841      0.971925146      12.8424051       
2.096            0.972469364      12.7080022       0.220003351      -76.5017536      0.220003351      -76.5017536      0.972469463      12.7080032       
2.118            0.972997572      12.5761975       0.217758569      -76.6319206      0.217758569      -76.6319206      0.97299767       12.5761985       
2.14             0.973510282      12.4469155       0.215555637      -76.7594606      0.215555637      -76.7594606      0.973510381      12.4469164       
2.162            0.974008079      12.3200845       0.213393409      -76.8844465      0.213393409      -76.8844465      0.974008178      12.3200854       
2.184            0.974491519      12.1956355       0.211270779      -77.0069484      0.211270779      -77.0069484      0.974491618      12.1956365       
2.206            0.974961134      12.073502        0.209186678      -77.1270338      0.209186678      -77.1270338      0.974961233      12.073503        
2.228            0.97541743       11.9536199       0.207140077      -77.2447678      0.207140077      -77.2447678      0.975417529      11.9536209       
2.25             0.975860892      11.8359275       0.20512998       -77.3602129      0.20512998       -77.3602129      0.975860991      11.8359285       
2.272            0.976291982      11.7203651       0.203155425      -77.4734297      0.203155425      -77.4734297      0.976292081      11.7203661       
2.294            0.976711142      11.6068753       0.201215483      -77.5844763      0.201215483      -77.5844763      0.976711241      11.6068763       
2.316            0.977118794      11.4954025       0.199309258      -77.693409       0.199309258      -77.693409       0.977118893      11.4954036       
2.338            0.977515343      11.3858934       0.19743588       -77.8002818      0.19743588       -77.8002818      0.977515442      11.3858944       
2.36             0.977901175      11.2782961       0.195594512      -77.905147       0.195594512      -77.905147       0.977901274      11.2782972       
2.382            0.97827666       11.1725608       0.193784341      -78.0080552      0.193784341      -78.0080552      0.97827676       11.1725619       
2.404            0.978642153      11.0686393       0.192004584      -78.109055       0.192004584      -78.109055       0.978642252      11.0686404       
2.426            0.978997991      10.966485        0.190254481      -78.2081935      0.190254481      -78.2081935      0.97899809       10.9664861       
2.448            0.979344501      10.8660528       0.188533297      -78.3055162      0.188533297      -78.3055162      0.9793446        10.8660539       
2.47             0.979681993      10.7672994       0.186840322      -78.4010668      0.186840322      -78.4010668      0.979682093      10.7673004       
2.492            0.980010767      10.6701824       0.185174866      -78.4948879      0.185174866      -78.4948879      0.980010867      10.6701835       
2.514            0.980331108      10.5746613       0.183536263      -78.5870206      0.183536263      -78.5870206      0.980331208      10.5746624       
2.536            0.980643292      10.4806966       0.181923867      -78.6775044      0.181923867      -78.6775044      0.980643391      10.4806978       
2.558            0.980947581      10.3882503       0.180337052      -78.7663777      0.180337052      -78.7663777      0.980947681      10.3882515       
2.58             0.981244229      10.2972854       0.178775211      -78.8536776      0.178775211      -78.8536776      0.981244329      10.2972866       
2.602            0.981533479      10.2077662       0.177237758      -78.9394401      0.177237758      -78.9394401      0.981533578      10.2077674       
2.624            0.981815563      10.1196581       0.175724122      -79.0236998      0.175724122      -79.0236998      0.981815663      10.1196593       
2.646            0.982090708      10.0329276       0.174233751      -79.1064905      0.174233751      -79.1064905      0.982090807      10.0329288       
2.668            0.982359127      9.94754223       0.172766108      -79.1878447      0.172766108      -79.1878447      0.982359227      9.9475434        
2.69             0.982621028      9.86347046       0.171320675      -79.2677939      0.171320675      -79.2677939      0.982621128      9.86347164       
2.712            0.98287661       9.78068182       0.169896947      -79.3463687      0.169896947      -79.3463687      0.98287671       9.780683         
2.734            0.983126066      9.69914671       0.168494434      -79.4235986      0.168494434      -79.4235986      0.983126166      9.6991479        
2.756            0.983369579      9.61883646       0.167112661      -79.4995125      0.167112661      -79.4995125      0.983369679      9.61883766       
2.778            0.983607327      9.53972323       0.165751168      -79.574138       0.165751168      -79.574138       0.983607427      9.53972444       
2.8              0.983839481      9.46178003       0.164409506      -79.6475021      0.164409506      -79.6475021      0.983839581      9.46178125       
2.822            0.984066205      9.38498066       0.16308724       -79.719631       0.16308724       -79.719631       0.984066306      9.38498188       
2.844            0.984287659      9.30929968       0.161783947      -79.79055        0.161783947      -79.79055        0.984287759      9.30930091       
