! Coilcraft 1008PS-684 Power Chip Inductor				
! 7 October 2002			
# MHZ S MA R 50
!Freq             MagS11           AngS11           MagS21           AngS21           MagS12           AngS12           MagS22           AngS22
0.05             0.872008874      23.7960992       0.405765468      -60.1238105      0.405765468      -60.1238105      0.872008957      23.7961015       
0.05312          0.883988422      22.6723895       0.387402776      -61.5891731      0.387402776      -61.5891731      0.883988507      22.6723917       
0.05624          0.894446073      21.6385791       0.37041554       -62.9267776      0.37041554       -62.9267776      0.89444616       21.6385812       
0.05936          0.90361446       20.6858753       0.354683125      -64.151326       0.354683125      -64.151326       0.903614548      20.6858773       
0.06248          0.91168634       19.8062802       0.340093177      -65.27556        0.340093177      -65.27556        0.911686428      19.8062821       
0.0656           0.918821831      18.9925911       0.32654243       -66.310534       0.32654243       -66.310534       0.918821921      18.9925929       
0.06872          0.925154358      18.2383614       0.313936804      -67.2658535      0.313936804      -67.2658535      0.925154448      18.2383631       
0.07184          0.930795487      17.5378418       0.302191087      -68.1498832      0.302191087      -68.1498832      0.930795578      17.5378435       
0.07496          0.935838861      16.8859145       0.291228385      -68.9699244      0.291228385      -68.9699244      0.935838952      16.8859161       
0.07808          0.940363378      16.2780269       0.280979472      -69.7323669      0.280979472      -69.7323669      0.940363471      16.2780285       
0.0812           0.944435782      15.7101284       0.271382096      -70.442818       0.271382096      -70.442818       0.944435875      15.7101299       
0.08432          0.948112751      15.1786124       0.262380303      -71.106212       0.262380303      -71.106212       0.948112844      15.1786139       
0.08744          0.951442606      14.6802642       0.253923791      -71.7269029      0.253923791      -71.7269029      0.951442699      14.6802656       
0.09056          0.954466701      14.2122137       0.245967313      -72.308744       0.245967313      -72.308744       0.954466795      14.2122151       
0.09368          0.957220562      13.7718947       0.238470132      -72.8551541      0.238470132      -72.8551541      0.957220657      13.771896        
0.0968           0.959734816      13.3570083       0.231395529      -73.3691753      0.231395529      -73.3691753      0.95973491       13.3570096       
0.09992          0.962035962      12.9654915       0.224710366      -73.8535217      0.224710366      -73.8535217      0.962036057      12.9654927       
0.10304          0.964147007      12.595489        0.218384694      -74.3106205      0.218384694      -74.3106205      0.964147103      12.5954902       
0.10616          0.966087994      12.2453296       0.212391403      -74.7426484      0.212391403      -74.7426484      0.966088089      12.2453307       
0.10928          0.967876435      11.9135042       0.206705918      -75.1515619      0.206705918      -75.1515619      0.96787653       11.9135054       
0.1124           0.969527682      11.5986484       0.201305923      -75.5391237      0.201305923      -75.5391237      0.969527778      11.5986495       
0.11552          0.971055233      11.2995254       0.196171124      -75.9069256      0.196171124      -75.9069256      0.971055329      11.2995264       
0.11864          0.972470989      11.0150122       0.191283035      -76.2564083      0.191283035      -76.2564083      0.972471086      11.0150133       
0.12176          0.973785474      10.7440877       0.186624787      -76.5888787      0.186624787      -76.5888787      0.97378557       10.7440887       
0.12488          0.975008016      10.485821        0.182180969      -76.9055242      0.182180969      -76.9055242      0.975008112      10.485822        
0.128            0.976146907      10.2393626       0.177937471      -77.2074265      0.177937471      -77.2074265      0.976147004      10.2393635       
0.13112          0.977209536      10.0039352       0.173881361      -77.4955723      0.173881361      -77.4955723      0.977209633      10.0039362       
0.13424          0.978202503      9.77882739       0.170000766      -77.7708636      0.170000766      -77.7708636      0.9782026        9.77882832       
0.13736          0.979131714      9.56338593       0.166284771      -78.0341266      0.166284771      -78.0341266      0.979131811      9.56338685       
0.14048          0.980002472      9.35701075       0.162723323      -78.2861191      0.162723323      -78.2861191      0.980002569      9.35701165       
0.1436           0.980819541      9.15914948       0.159307155      -78.5275373      0.159307155      -78.5275373      0.980819638      9.15915037       
0.14672          0.981587216      8.96929297       0.156027707      -78.7590222      0.156027707      -78.7590222      0.981587314      8.96929384       
0.14984          0.982309374      8.78697119       0.152877068      -78.9811645      0.152877068      -78.9811645      0.982309472      8.78697204       
0.15296          0.982989523      8.61174963       0.149847912      -79.1945096      0.149847912      -79.1945096      0.982989621      8.61175046       
0.15608          0.98363084       8.44322605       0.146933446      -79.3995618      0.146933446      -79.3995618      0.983630937      8.44322687       
0.1592           0.98423621       8.2810276        0.144127368      -79.5967879      0.144127368      -79.5967879      0.984236308      8.28102841       
0.16232          0.984808257      8.12480822       0.14142382       -79.7866207      0.14142382       -79.7866207      0.984808355      8.12480901       
0.16544          0.985349373      7.9742463        0.138817351      -79.9694622      0.138817351      -79.9694622      0.985349471      7.97424709       
0.16856          0.985861738      7.82904262       0.136302884      -80.1456856      0.136302884      -80.1456856      0.985861836      7.82904339       
0.17168          0.986347346      7.68891841       0.133875685      -80.3156388      0.133875685      -80.3156388      0.986347444      7.68891917       
0.1748           0.98680802       7.5536137        0.131531335      -80.4796456      0.131531335      -80.4796456      0.986808119      7.55361445       
0.17792          0.987245435      7.42288576       0.129265702      -80.6380081      0.129265702      -80.6380081      0.987245533      7.4228865        
0.18104          0.987661124      7.29650772       0.127074923      -80.7910087      0.127074923      -80.7910087      0.987661222      7.29650844       
0.18416          0.9880565        7.17426728       0.124955378      -80.938911       0.124955378      -80.938911       0.988056598      7.174268         
0.18728          0.988432861      7.05596564       0.122903677      -81.0819621      0.122903677      -81.0819621      0.988432959      7.05596635       
0.1904           0.988791404      6.94141636       0.120916635      -81.2203933      0.120916635      -81.2203933      0.988791503      6.94141706       
0.19352          0.989133235      6.83044452       0.118991265      -81.3544217      0.118991265      -81.3544217      0.989133334      6.83044521       
0.19664          0.989459374      6.72288577       0.117124757      -81.484251       0.117124757      -81.484251       0.989459473      6.72288646       
0.19976          0.989770766      6.61858562       0.115314467      -81.6100724      0.115314467      -81.6100724      0.989770865      6.61858629       
0.20288          0.990068286      6.51739865       0.113557906      -81.7320662      0.113557906      -81.7320662      0.990068385      6.51739932       
0.206            0.990352744      6.41918794       0.111852728      -81.8504017      0.111852728      -81.8504017      0.990352843      6.4191886        
0.20912          0.990624893      6.32382437       0.110196721      -81.9652386      0.110196721      -81.9652386      0.990624992      6.32382502       
0.21224          0.990885433      6.23118617       0.108587797      -82.0767275      0.108587797      -82.0767275      0.990885532      6.23118681       
0.21536          0.991135015      6.14115833       0.107023981      -82.1850103      0.107023981      -82.1850103      0.991135114      6.14115897       
0.21848          0.991374243      6.0536322        0.105503409      -82.2902215      0.105503409      -82.2902215      0.991374342      6.05363283       
0.2216           0.991603683      5.96850502       0.104024316      -82.3924877      0.104024316      -82.3924877      0.991603782      5.96850564       
0.22472          0.991823862      5.88567954       0.102585032      -82.4919289      0.102585032      -82.4919289      0.991823961      5.88568016       
0.22784          0.992035271      5.80506369       0.101183973      -82.5886588      0.101183973      -82.5886588      0.99203537       5.8050643        
0.23096          0.99223837       5.72657017       0.0998196378     -82.6827848      0.0998196378     -82.6827848      0.992238469      5.72657078       
0.23408          0.992433589      5.65011623       0.0984906033     -82.7744092      0.0984906033     -82.7744092      0.992433688      5.65011683       
0.2372           0.992621331      5.57562332       0.0971955174     -82.8636284      0.0971955174     -82.8636284      0.99262143       5.57562391       
0.24032          0.992801972      5.50301685       0.0959330959     -82.9505345      0.0959330959     -82.9505345      0.992802071      5.50301744       
0.24344          0.992975867      5.43222596       0.0947021182     -83.0352146      0.0947021182     -83.0352146      0.992975966      5.43222654       
0.24656          0.993143348      5.36318324       0.0935014233     -83.1177517      0.0935014233     -83.1177517      0.993143447      5.36318382       
0.24968          0.993304727      5.2958246        0.0923299061     -83.1982247      0.0923299061     -83.1982247      0.993304826      5.29582518       
0.2528           0.993460296      5.23008901       0.0911865147     -83.2767085      0.0911865147     -83.2767085      0.993460395      5.23008958       
0.25592          0.993610332      5.16591832       0.0900702463     -83.3532746      0.0900702463     -83.3532746      0.993610432      5.16591889       
0.25904          0.993755095      5.10325714       0.0889801452     -83.4279911      0.0889801452     -83.4279911      0.993755194      5.1032577        
0.26216          0.993894828      5.04205264       0.0879152999     -83.5009229      0.0879152999     -83.5009229      0.993894927      5.0420532        
0.26528          0.994029763      4.98225441       0.0868748403     -83.5721319      0.0868748403     -83.5721319      0.994029862      4.98225496       
0.2684           0.994160117      4.92381434       0.0858579356     -83.6416772      0.0858579356     -83.6416772      0.994160216      4.92381489       
0.27152          0.994286095      4.86668646       0.0848637923     -83.7096151      0.0848637923     -83.7096151      0.994286194      4.866687         
0.27464          0.994407892      4.81082686       0.0838916516     -83.7759996      0.0838916516     -83.7759996      0.994407991      4.8108274        
0.27776          0.99452569       4.75619356       0.0829407882     -83.8408821      0.0829407882     -83.8408821      0.994525789      4.7561941        
0.28088          0.994639664      4.70274639       0.082010508      -83.9043119      0.082010508      -83.9043119      0.994639763      4.70274692       
0.284            0.994749976      4.65044692       0.0811001466     -83.9663361      0.0811001466     -83.9663361      0.994750076      4.65044745       
0.28712          0.994856783      4.59925835       0.0802090678     -84.0269998      0.0802090678     -84.0269998      0.994856883      4.59925887       
0.29024          0.994960233      4.54914543       0.0793366621     -84.0863462      0.0793366621     -84.0863462      0.994960332      4.54914595       
0.29336          0.995060463      4.50007439       0.0784823453     -84.1444166      0.0784823453     -84.1444166      0.995060562      4.50007491       
0.29648          0.995157607      4.45201284       0.077645557      -84.2012507      0.077645557      -84.2012507      0.995157707      4.45201336       
0.2996           0.995251791      4.40492972       0.0768257599     -84.2568865      0.0768257599     -84.2568865      0.995251891      4.40493024       
0.30272          0.995343134      4.35879523       0.0760224382     -84.3113605      0.0760224382     -84.3113605      0.995343233      4.35879574       
0.30584          0.995431748      4.31358076       0.0752350966     -84.3647077      0.0752350966     -84.3647077      0.995431848      4.31358126       
0.30896          0.995517743      4.26925882       0.0744632594     -84.4169617      0.0744632594     -84.4169617      0.995517842      4.26925933       
0.31208          0.99560122       4.22580304       0.0737064697     -84.4681548      0.0737064697     -84.4681548      0.995601319      4.22580354       
0.3152           0.995682277      4.18318804       0.0729642881     -84.5183179      0.0729642881     -84.5183179      0.995682376      4.18318854       
0.31832          0.995761007      4.14138942       0.0722362921     -84.5674809      0.0722362921     -84.5674809      0.995761106      4.14138992       
0.32144          0.995837497      4.10038373       0.0715220754     -84.6156725      0.0715220754     -84.6156725      0.995837597      4.10038423       
0.32456          0.995911833      4.0601484        0.0708212468     -84.6629201      0.0708212468     -84.6629201      0.995911933      4.0601489        
0.32768          0.995984095      4.02066171       0.0701334299     -84.7092505      0.0701334299     -84.7092505      0.995984195      4.0206622        
0.3308           0.99605436       3.98190272       0.0694582621     -84.754689       0.0694582621     -84.754689       0.996054459      3.98190321       
0.33392          0.996122699      3.94385131       0.0687953943     -84.7992603      0.0687953943     -84.7992603      0.996122799      3.94385179       
0.33704          0.996189184      3.90648804       0.0681444897     -84.842988       0.0681444897     -84.842988       0.996189283      3.90648852       
0.34016          0.996253881      3.86979421       0.0675052241     -84.8858951      0.0675052241     -84.8858951      0.99625398       3.86979469       
0.34328          0.996316853      3.83375177       0.0668772845     -84.9280034      0.0668772845     -84.9280034      0.996316952      3.83375225       
0.3464           0.996378161      3.79834333       0.0662603692     -84.9693342      0.0662603692     -84.9693342      0.996378261      3.79834381       
0.34952          0.996437864      3.7635521        0.065654187      -85.009908       0.065654187      -85.009908       0.996437963      3.76355258       
0.35264          0.996496017      3.72936187       0.0650584568     -85.0497446      0.0650584568     -85.0497446      0.996496116      3.72936235       
0.35576          0.996552673      3.695757         0.0644729074     -85.0888629      0.0644729074     -85.0888629      0.996552773      3.69575748       
0.35888          0.996607884      3.66272239       0.0638972765     -85.1272813      0.0638972765     -85.1272813      0.996607984      3.66272287       
0.362            0.996661698      3.63024345       0.0633313111     -85.1650177      0.0633313111     -85.1650177      0.996661798      3.63024392       
0.36512          0.996714162      3.59830608       0.0627747664     -85.2020891      0.0627747664     -85.2020891      0.996714262      3.59830654       
0.36824          0.996765321      3.56689664       0.062227406      -85.2385123      0.062227406      -85.2385123      0.996765421      3.56689711       
0.37136          0.996815218      3.53600197       0.0616890012     -85.2743031      0.0616890012     -85.2743031      0.996815317      3.53600244       
0.37448          0.996863893      3.50560933       0.0611593308     -85.3094771      0.0611593308     -85.3094771      0.996863993      3.50560979       
0.3776           0.996911387      3.47570638       0.0606381809     -85.3440493      0.0606381809     -85.3440493      0.996911487      3.47570684       
0.38072          0.996957738      3.44628121       0.0601253444     -85.3780341      0.0601253444     -85.3780341      0.996957838      3.44628167       
0.38384          0.997002981      3.41732227       0.0596206209     -85.4114457      0.0596206209     -85.4114457      0.997003081      3.41732273       
0.38696          0.997047153      3.38881839       0.0591238163     -85.4442975      0.0591238163     -85.4442975      0.997047252      3.38881885       
0.39008          0.997090286      3.36075875       0.0586347427     -85.4766027      0.0586347427     -85.4766027      0.997090385      3.36075921       
0.3932           0.997132412      3.33313286       0.0581532181     -85.508374       0.0581532181     -85.508374       0.997132512      3.33313332       
0.39632          0.997173564      3.30593057       0.0576790662     -85.5396238      0.0576790662     -85.5396238      0.997173663      3.30593103       
0.39944          0.99721377       3.27914205       0.0572121158     -85.570364       0.0572121158     -85.570364       0.997213869      3.2791425        
0.40256          0.997253059      3.25275774       0.0567522015     -85.6006061      0.0567522015     -85.6006061      0.997253159      3.25275819       
0.40568          0.99729146       3.2267684        0.0562991624     -85.6303614      0.0562991624     -85.6303614      0.997291559      3.22676886       
0.4088           0.997328998      3.20116507       0.0558528427     -85.6596407      0.0558528427     -85.6596407      0.997329097      3.20116552       
0.41192          0.997365699      3.17593904       0.0554130913     -85.6884546      0.0554130913     -85.6884546      0.997365799      3.17593949       
0.41504          0.997401588      3.15108188       0.0549797615     -85.7168133      0.0549797615     -85.7168133      0.997401688      3.15108233       
0.41816          0.997436689      3.12658538       0.0545527109     -85.7447268      0.0545527109     -85.7447268      0.997436788      3.12658583       
0.42128          0.997471024      3.1024416        0.0541318014     -85.7722045      0.0541318014     -85.7722045      0.997471124      3.10244205       
0.4244           0.997504616      3.07864283       0.0537168987     -85.799256       0.0537168987     -85.799256       0.997504715      3.07864327       
0.42752          0.997537485      3.05518155       0.0533078725     -85.8258902      0.0533078725     -85.8258902      0.997537585      3.05518199       
0.43064          0.997569653      3.0320505        0.0529045964     -85.852116       0.0529045964     -85.852116       0.997569752      3.03205094       
0.43376          0.997601138      3.00924259       0.0525069472     -85.8779418      0.0525069472     -85.8779418      0.997601238      3.00924303       
0.43688          0.997631961      2.98675096       0.0521148056     -85.9033761      0.0521148056     -85.9033761      0.997632061      2.9867514        
0.44             0.997662139      2.96456892       0.0517280554     -85.9284268      0.0517280554     -85.9284268      0.997662239      2.96456936       
0.44312          0.997691691      2.94268998       0.0513465837     -85.9531019      0.0513465837     -85.9531019      0.997691791      2.94269042       
0.44624          0.997720633      2.92110783       0.0509702807     -85.9774088      0.0509702807     -85.9774088      0.997720733      2.92110827       
