! Coilcraft 1008PS-182 Power Chip Inductor				
! 7 October 2002			
# MHZ S MA R 50
!Freq             MagS11           AngS11           MagS21           AngS21           MagS12           AngS12           MagS22           AngS22
0.05             0.00579732019    76.6272802       0.998674946      -0.323586285     0.998674946      -0.323586285     0.00579732075    76.6272894       
0.15             0.0170025313     84.2362767       0.998435668      -0.970813512     0.998435668      -0.970813512     0.017002535      84.2362845       
0.25             0.0282724245     85.2726396       0.998067594      -1.61772079      0.998067594      -1.61772079      0.0282724319     85.2726454       
0.35             0.0395390405     85.3329736       0.997561455      -2.26401779      0.997561455      -2.26401779      0.0395390515     85.3329781       
0.45             0.0507904104     85.0652799       0.996915904      -2.90950958      0.996915904      -2.90950958      0.0507904249     85.0652835       
0.55             0.0620198812     84.6482618       0.996131025      -3.55400812      0.996131025      -3.55400812      0.0620198992     84.6482648       
0.65             0.0732220377     84.1512005       0.995207512      -4.19732558      0.995207512      -4.19732558      0.0732220591     84.1512031       
0.75             0.0843919152     83.6066765       0.994146414      -4.83927513      0.994146414      -4.83927513      0.0843919401     83.6066787       
0.85             0.0955247801     83.0320856       0.992949042      -5.47967179      0.992949042      -5.47967179      0.0955248084     83.0320876       
0.95             0.106616055      82.4376023       0.991616911      -6.11833305      0.991616911      -6.11833305      0.106616087      82.4376041       
1.05             0.117661293      81.8296046       0.990151721      -6.75507925      0.990151721      -6.75507925      0.117661328      81.8296062       
1.15             0.128656165      81.2123175       0.988555331      -7.38973399      0.988555331      -7.38973399      0.128656204      81.212319        
1.25             0.139596465      80.5886696       0.986829752      -8.02212437      0.986829752      -8.02212437      0.139596507      80.588671        
1.35             0.150478104      79.9607704       0.984977134      -8.65208126      0.984977134      -8.65208126      0.150478149      79.9607717       
1.45             0.16129712       79.3301904       0.982999759      -9.27943951      0.982999759      -9.27943951      0.161297168      79.3301916       
1.55             0.172049678      78.6981327       0.980900028      -9.90403821      0.980900028      -9.90403821      0.17204973       78.6981338       
1.65             0.182732079      78.065543        0.978680458      -10.5257208      0.978680458      -10.5257208      0.182732133      78.0655441       
1.75             0.193340757      77.4331815       0.97634367       -11.1443354      0.97634367       -11.1443354      0.193340815      77.4331825       
1.85             0.203872289      76.8016716       0.973892385      -11.7597347      0.973892385      -11.7597347      0.20387235       76.8016725       
1.95             0.214323398      76.1715334       0.971329412      -12.3717765      0.971329412      -12.3717765      0.214323462      76.1715343       
2.05             0.22469095       75.5432079       0.968657641      -12.9803232      0.968657641      -12.9803232      0.224691018      75.5432088       
2.15             0.234971965      74.9170739       0.965880036      -13.5852428      0.965880036      -13.5852428      0.234972035      74.9170747       
2.25             0.245163611      74.2934607       0.962999626      -14.1864081      0.962999626      -14.1864081      0.245163685      74.2934615       
2.35             0.255263212      73.6726576       0.960019498      -14.7836973      0.960019498      -14.7836973      0.255263288      73.6726583       
2.45             0.265268243      73.0549205       0.956942789      -15.3769941      0.956942789      -15.3769941      0.265268323      73.0549212       
2.55             0.275176338      72.440478        0.953772675      -15.9661872      0.953772675      -15.9661872      0.27517642       72.4404787       
2.65             0.28498528       71.8295352       0.95051237       -16.5511712      0.95051237       -16.5511712      0.284985366      71.8295358       
2.75             0.294693012      71.2222768       0.947165111      -17.1318457      0.947165111      -17.1318457      0.2946931        71.2222774       
2.85             0.304297625      70.6188701       0.943734156      -17.7081158      0.943734156      -17.7081158      0.304297716      70.6188707       
2.95             0.313797365      70.0194669       0.940222774      -18.2798923      0.940222774      -18.2798923      0.313797459      70.0194675       
3.05             0.323190628      69.4242052       0.93663424       -18.8470911      0.93663424       -18.8470911      0.323190725      69.4242058       
3.15             0.332475957      68.8332106       0.932971829      -19.4096334      0.932971829      -19.4096334      0.332476056      68.8332111       
3.25             0.341652041      68.2465974       0.929238804      -19.967446       0.929238804      -19.967446       0.341652144      68.2465979       
3.35             0.350717713      67.6644696       0.92543842       -20.5204607      0.92543842       -20.5204607      0.350717818      67.6644701       
3.45             0.359671945      67.0869218       0.921573907      -21.0686145      0.921573907      -21.0686145      0.359672053      67.0869223       
3.55             0.368513845      66.5140397       0.917648475      -21.6118496      0.917648475      -21.6118496      0.368513956      66.5140402       
3.65             0.377242656      65.9459009       0.913665299      -22.1501131      0.913665299      -22.1501131      0.37724277       65.9459014       
3.75             0.385857749      65.3825752       0.909627524      -22.683357       0.909627524      -22.683357       0.385857865      65.3825756       
3.85             0.39435862       64.8241253       0.905538253      -23.2115382      0.905538253      -23.2115382      0.394358739      64.8241258       
3.95             0.402744888      64.2706072       0.901400545      -23.7346182      0.901400545      -23.7346182      0.402745009      64.2706077       
4.05             0.411016287      63.7220704       0.897217414      -24.2525631      0.897217414      -24.2525631      0.41101641       63.7220709       
4.15             0.419172665      63.1785584       0.892991821      -24.7653435      0.892991821      -24.7653435      0.41917279       63.1785588       
4.25             0.427213978      62.6401089       0.888726674      -25.2729342      0.888726674      -25.2729342      0.427214106      62.6401093       
4.35             0.435140286      62.1067542       0.884424825      -25.7753144      0.884424825      -25.7753144      0.435140416      62.1067546       
4.45             0.442951748      61.5785214       0.880089064      -26.2724673      0.880089064      -26.2724673      0.442951881      61.5785218       
4.55             0.450648619      61.0554327       0.875722122      -26.7643799      0.875722122      -26.7643799      0.450648754      61.0554331       
4.65             0.458231242      60.5375059       0.871326664      -27.2510431      0.871326664      -27.2510431      0.45823138       60.5375062       
4.75             0.465700048      60.0247539       0.866905292      -27.7324515      0.866905292      -27.7324515      0.465700187      60.0247542       
4.85             0.473055547      59.5171857       0.862460539      -28.2086031      0.862460539      -28.2086031      0.473055688      59.5171861       
4.95             0.480298327      59.0148063       0.857994871      -28.6794994      0.857994871      -28.6794994      0.480298471      59.0148066       
5.05             0.487429047      58.5176167       0.853510685      -29.1451451      0.853510685      -29.1451451      0.487429194      58.5176171       
5.15             0.494448437      58.0256147       0.849010306      -29.605548       0.849010306      -29.605548       0.494448585      58.025615        
5.25             0.501357287      57.5387942       0.844495993      -30.0607188      0.844495993      -30.0607188      0.501357438      57.5387945       
5.35             0.508156449      57.0571462       0.839969929      -30.5106711      0.839969929      -30.5106711      0.508156602      57.0571465       
5.45             0.514846829      56.5806586       0.835434232      -30.9554212      0.835434232      -30.9554212      0.514846983      56.5806589       
5.55             0.521429384      56.1093162       0.830890944      -31.3949878      0.830890944      -31.3949878      0.521429541      56.1093166       
5.65             0.527905121      55.6431015       0.82634204       -31.8293923      0.82634204       -31.8293923      0.527905279      55.6431018       
5.75             0.534275088      55.1819939       0.821789423      -32.2586582      0.821789423      -32.2586582      0.534275248      55.1819942       
5.85             0.540540375      54.7259709       0.817234929      -32.6828111      0.817234929      -32.6828111      0.540540537      54.7259712       
5.95             0.546702109      54.2750073       0.812680322      -33.1018789      0.812680322      -33.1018789      0.546702273      54.2750076       
6.05             0.552761448      53.8290761       0.808127299      -33.5158912      0.808127299      -33.5158912      0.552761614      53.8290764       
6.15             0.558719583      53.388148        0.803577491      -33.9248795      0.803577491      -33.9248795      0.55871975       53.3881483       
6.25             0.56457773       52.9521921       0.799032462      -34.3288769      0.799032462      -34.3288769      0.564577899      52.9521924       
6.35             0.570337129      52.5211757       0.79449371       -34.7279183      0.79449371       -34.7279183      0.5703373        52.5211759       
6.45             0.575999043      52.0950643       0.78996267       -35.1220399      0.78996267       -35.1220399      0.575999216      52.0950645       
6.55             0.581564752      51.6738221       0.785440713      -35.5112792      0.785440713      -35.5112792      0.581564926      51.6738224       
6.65             0.587035551      51.2574118       0.78092915       -35.8956751      0.78092915       -35.8956751      0.587035727      51.2574121       
6.75             0.59241275       50.845795        0.776429231      -36.2752677      0.776429231      -36.2752677      0.592412928      50.8457953       
6.85             0.59769767       50.4389319       0.771942147      -36.6500981      0.771942147      -36.6500981      0.597697849      50.4389322       
6.95             0.60289164       50.0367817       0.767469033      -37.0202083      0.767469033      -37.0202083      0.602891821      50.0367819       
7.05             0.607995995      49.6393025       0.763010966      -37.3856413      0.763010966      -37.3856413      0.607996177      49.6393028       
7.15             0.613012077      49.2464519       0.75856897       -37.746441       0.75856897       -37.746441       0.613012261      49.2464521       
7.25             0.617941229      48.8581861       0.754144015      -38.1026519      0.754144015      -38.1026519      0.617941414      48.8581864       
7.35             0.622784795      48.4744611       0.749737021      -38.4543192      0.749737021      -38.4543192      0.622784982      48.4744613       
7.45             0.62754412       48.0952319       0.745348856      -38.8014887      0.745348856      -38.8014887      0.627544308      48.0952321       
7.55             0.632220546      47.7204531       0.740980341      -39.1442067      0.740980341      -39.1442067      0.632220736      47.7204533       
7.65             0.636815411      47.3500787       0.73663225       -39.4825199      0.73663225       -39.4825199      0.636815602      47.350079        
7.75             0.64133005       46.9840625       0.732305311      -39.8164754      0.732305311      -39.8164754      0.641330242      46.9840627       
7.85             0.645765789      46.6223575       0.728000209      -40.1461208      0.728000209      -40.1461208      0.645765983      46.6223577       
7.95             0.65012395       46.2649167       0.723717584      -40.4715037      0.723717584      -40.4715037      0.650124145      46.264917        
8.05             0.654405843      45.9116929       0.719458038      -40.7926721      0.719458038      -40.7926721      0.65440604       45.9116931       
8.15             0.658612773      45.5626384       0.715222132      -41.1096741      0.715222132      -41.1096741      0.65861297       45.5626386       
8.25             0.66274603       45.2177056       0.711010388      -41.4225578      0.711010388      -41.4225578      0.662746229      45.2177059       
8.35             0.666806898      44.8768468       0.706823294      -41.7313716      0.706823294      -41.7313716      0.666807098      44.876847        
8.45             0.670796644      44.5400141       0.702661299      -42.0361638      0.702661299      -42.0361638      0.670796845      44.5400143       
8.55             0.674716527      44.2071596       0.698524821      -42.3369826      0.698524821      -42.3369826      0.674716729      44.2071598       
8.65             0.67856779       43.8782357       0.694414244      -42.6338762      0.694414244      -42.6338762      0.678567993      43.8782359       
8.75             0.682351663      43.5531944       0.69032992       -42.9268927      0.69032992       -42.9268927      0.682351868      43.5531946       
8.85             0.686069362      43.2319883       0.686272172      -43.2160802      0.686272172      -43.2160802      0.686069568      43.2319885       
8.95             0.689722088      42.9145697       0.682241294      -43.5014865      0.682241294      -43.5014865      0.689722295      42.9145699       
9.05             0.693311028      42.6008915       0.678237551      -43.7831592      0.678237551      -43.7831592      0.693311236      42.6008917       
9.15             0.696837351      42.2909064       0.674261182      -44.0611458      0.674261182      -44.0611458      0.69683756       42.2909066       
9.25             0.700302213      41.9845676       0.670312403      -44.3354933      0.670312403      -44.3354933      0.700302423      41.9845678       
9.35             0.703706752      41.6818285       0.666391401      -44.6062488      0.666391401      -44.6062488      0.703706963      41.6818287       
9.45             0.70705209       41.3826426       0.662498345      -44.8734588      0.662498345      -44.8734588      0.707052302      41.3826428       
9.55             0.710339335      41.0869639       0.658633377      -45.1371696      0.658633377      -45.1371696      0.710339548      41.0869641       
9.65             0.713569574      40.7947466       0.654796621      -45.3974272      0.654796621      -45.3974272      0.713569788      40.7947468       
9.75             0.716743881      40.5059454       0.65098818       -45.6542772      0.65098818       -45.6542772      0.716744096      40.5059456       
9.85             0.719863311      40.2205151       0.647208138      -45.9077649      0.647208138      -45.9077649      0.719863527      40.2205153       
9.95             0.722928904      39.9384112       0.643456559      -46.1579351      0.643456559      -46.1579351      0.722929121      39.9384113       
10.05            0.725941681      39.6595891       0.639733491      -46.4048323      0.639733491      -46.4048323      0.725941899      39.6595893       
10.15            0.728902648      39.3840052       0.636038967      -46.6485005      0.636038967      -46.6485005      0.728902867      39.3840054       
10.25            0.731812793      39.1116158       0.632373         -46.8889834      0.632373         -46.8889834      0.731813012      39.111616        
10.35            0.734673086      38.8423779       0.628735592      -47.1263243      0.628735592      -47.1263243      0.734673306      38.8423781       
10.45            0.737484483      38.5762489       0.625126728      -47.3605659      0.625126728      -47.3605659      0.737484704      38.5762491       
10.55            0.740247921      38.3131864       0.621546383      -47.5917504      0.621546383      -47.5917504      0.740248143      38.3131866       
10.65            0.742964322      38.0531489       0.617994515      -47.8199199      0.617994515      -47.8199199      0.742964545      38.053149        
10.75            0.74563459       37.7960948       0.614471072      -48.0451157      0.614471072      -48.0451157      0.745634814      37.796095        
10.85            0.748259613      37.5419835       0.610975992      -48.2673787      0.610975992      -48.2673787      0.748259838      37.5419837       
10.95            0.750840264      37.2907745       0.607509199      -48.4867495      0.607509199      -48.4867495      0.750840489      37.2907746       
11.05            0.753377397      37.0424278       0.60407061       -48.7032681      0.60407061       -48.7032681      0.753377623      37.042428        
11.15            0.755871854      36.7969041       0.600660129      -48.9169739      0.600660129      -48.9169739      0.75587208       36.7969043       
11.25            0.758324457      36.5541643       0.597277656      -49.127906       0.597277656      -49.127906       0.758324685      36.5541645       
11.35            0.760736017      36.31417         0.593923076      -49.3361031      0.593923076      -49.3361031      0.760736245      36.3141702       
11.45            0.763107325      36.0768832       0.590596272      -49.5416031      0.590596272      -49.5416031      0.763107553      36.0768833       
11.55            0.765439159      35.8422662       0.587297115      -49.7444436      0.587297115      -49.7444436      0.765439388      35.8422663       
11.65            0.767732282      35.610282        0.584025472      -49.9446619      0.584025472      -49.9446619      0.767732513      35.6102822       
11.75            0.769987443      35.3808942       0.580781202      -50.1422944      0.580781202      -50.1422944      0.769987674      35.3808943       
11.85            0.772205374      35.1540664       0.577564158      -50.3373775      0.577564158      -50.3373775      0.772205606      35.1540666       
11.95            0.774386795      34.9297632       0.574374188      -50.5299466      0.574374188      -50.5299466      0.774387027      34.9297634       
12.05            0.776532409      34.7079494       0.571211133      -50.720037       0.571211133      -50.720037       0.776532642      34.7079496       
12.15            0.778642908      34.4885903       0.56807483       -50.9076835      0.56807483       -50.9076835      0.778643142      34.4885905       
12.25            0.780718969      34.2716517       0.564965113      -51.0929201      0.564965113      -51.0929201      0.780719203      34.2716519       
12.35            0.782761254      34.0571          0.561881809      -51.2757808      0.561881809      -51.2757808      0.782761489      34.0571001       
12.45            0.784770415      33.8449018       0.558824743      -51.4562987      0.558824743      -51.4562987      0.78477065       33.8449019       
12.55            0.786747087      33.6350243       0.555793735      -51.6345066      0.555793735      -51.6345066      0.786747323      33.6350245       
12.65            0.788691896      33.4274353       0.552788603      -51.810437       0.552788603      -51.810437       0.788692132      33.4274354       
12.75            0.790605452      33.2221028       0.549809161      -51.9841217      0.549809161      -51.9841217      0.790605689      33.222103        
