! Coilcraft 1008PS-334 Power Chip Inductor				
! 7 October 2002			
# MHZ S MA R 50
!Freq             MagS11           AngS11           MagS21           AngS21           MagS12           AngS12           MagS22           AngS22
0.05             0.686320358      40.8778303       0.658158481      -43.0355078      0.658158481      -43.0355078      0.686320423      40.8778326       
0.05486          0.718864414      38.7467085       0.628849606      -45.6815881      0.628849606      -45.6815881      0.718864483      38.7467106       
0.05972          0.747285579      36.7621928       0.600911903      -48.0973046      0.600911903      -48.0973046      0.747285651      36.7621948       
0.06458          0.772121788      34.9217948       0.574450929      -50.3038867      0.574450929      -50.3038867      0.772121863      34.9217966       
0.06944          0.793856929      33.2188375       0.5495019        -52.3215621      0.5495019        -52.3215621      0.793857007      33.2188392       
0.0743           0.812917424      31.6445458       0.526051406      -54.1691441      0.526051406      -54.1691441      0.812917504      31.6445474       
0.07916          0.82967393       30.1893014       0.504053944      -55.8638434      0.504053944      -55.8638434      0.829674012      30.1893029       
0.08402          0.844445734      28.843386        0.483444081      -57.4212264      0.483444081      -57.4212264      0.844445817      28.8433874       
0.08888          0.857506297      27.5974061       0.464145145      -58.8552628      0.464145145      -58.8552628      0.857506381      27.5974075       
0.09374          0.869089042      26.4425218       0.446075275      -60.1784251      0.446075275      -60.1784251      0.869089128      26.4425231       
0.0986           0.879392899      25.3705536       0.429151518      -61.4018122      0.429151518      -61.4018122      0.879392986      25.3705549       
0.10346          0.888587334      24.3740169       0.413292509      -62.5352819      0.413292509      -62.5352819      0.888587422      24.3740181       
0.10832          0.896816804      23.4461119       0.398420151      -63.5875824      0.398420151      -63.5875824      0.896816893      23.446113        
0.11318          0.904204601      22.5806905       0.38446059       -64.5664768      0.38446059       -64.5664768      0.904204691      22.5806915       
0.11804          0.910856142      21.77221         0.371344718      -65.4788574      0.371344718      -65.4788574      0.910856232      21.7722111       
0.1229           0.916861751      21.0156822       0.359008345      -66.3308492      0.359008345      -66.3308492      0.916861842      21.0156832       
0.12776          0.92229901       20.306621        0.347392169      -67.1279021      0.347392169      -67.1279021      0.922299101      20.3066219       
0.13262          0.927234722      19.6409923       0.336441604      -67.874873       0.336441604      -67.874873       0.927234814      19.6409933       
0.13748          0.93172657       19.0151677       0.326106542      -68.5760972      0.326106542      -68.5760972      0.931726663      19.0151686       
0.14234          0.935824494      18.4258806       0.316341059      -69.2354513      0.316341059      -69.2354513      0.935824587      18.4258815       
0.1472           0.939571853      17.8701874       0.307103112      -69.8564085      0.307103112      -69.8564085      0.939571946      17.8701883       
0.15206          0.943006398      17.3454326       0.298354232      -70.4420865      0.298354232      -70.4420865      0.943006492      17.3454334       
0.15692          0.946161086      16.8492169       0.290059224      -70.9952891      0.290059224      -70.9952891      0.94616118       16.8492177       
0.16178          0.949064772      16.3793699       0.282185884      -71.5185428      0.282185884      -71.5185428      0.949064866      16.3793707       
0.16664          0.951742781      15.9339249       0.274704731      -72.014129       0.274704731      -72.014129       0.951742876      15.9339256       
0.1715           0.954217406      15.5110971       0.267588763      -72.4841112      0.267588763      -72.4841112      0.954217501      15.5110978       
0.17636          0.956508316      15.1092642       0.260813228      -72.9303597      0.260813228      -72.9303597      0.956508412      15.1092649       
0.18122          0.958632913      14.7269495       0.25435542       -73.3545727      0.25435542       -73.3545727      0.958633008      14.7269502       
0.18608          0.960606627      14.3628064       0.248194486      -73.7582951      0.248194486      -73.7582951      0.960606722      14.3628071       
0.19094          0.962443174      14.015605        0.242311261      -74.1429347      0.242311261      -74.1429347      0.96244327       14.0156057       
0.1958           0.964154778      13.6842204       0.236688109      -74.5097768      0.236688109      -74.5097768      0.964154874      13.6842211       
0.20066          0.965752351      13.3676222       0.231308784      -74.8599966      0.231308784      -74.8599966      0.965752447      13.3676228       
0.20552          0.96724566       13.0648648       0.226158306      -75.1946706      0.226158306      -75.1946706      0.967245757      13.0648654       
0.21038          0.968643467      12.7750794       0.221222845      -75.5147865      0.221222845      -75.5147865      0.968643564      12.77508         
0.21524          0.969953644      12.4974667       0.216489618      -75.8212519      0.216489618      -75.8212519      0.96995374       12.4974673       
0.2201           0.971183279      12.2312898       0.211946801      -76.1149019      0.211946801      -76.1149019      0.971183376      12.2312904       
0.22496          0.972338769      11.975869        0.207583437      -76.3965063      0.207583437      -76.3965063      0.972338866      11.9758696       
0.22982          0.973425896      11.7305762       0.203389369      -76.6667758      0.203389369      -76.6667758      0.973425993      11.7305767       
0.23468          0.974449896      11.49483         0.199355166      -76.9263669      0.199355166      -76.9263669      0.974449993      11.4948305       
0.23954          0.975415518      11.268092        0.195472065      -77.1758876      0.195472065      -77.1758876      0.975415615      11.2680925       
0.2444           0.976327079      11.0498626       0.191731911      -77.4159012      0.191731911      -77.4159012      0.976327176      11.0498631       
0.24926          0.977188507      10.8396779       0.188127112      -77.6469305      0.188127112      -77.6469305      0.977188604      10.8396784       
0.25412          0.978003384      10.6371064       0.184650589      -77.869461       0.184650589      -77.869461       0.978003481      10.637107        
0.25898          0.978774981      10.4417466       0.181295736      -78.0839447      0.181295736      -78.0839447      0.978775078      10.4417471       
0.26384          0.979506288      10.2532241       0.178056382      -78.2908024      0.178056382      -78.2908024      0.979506386      10.2532246       
0.2687           0.980200046      10.0711895       0.174926756      -78.4904264      0.174926756      -78.4904264      0.980200144      10.07119         
0.27356          0.980858766      9.89531665       0.171901458      -78.6831829      0.171901458      -78.6831829      0.980858863      9.89531715       
0.27842          0.981484755      9.72530051       0.168975429      -78.8694142      0.168975429      -78.8694142      0.981484853      9.725301         
0.28328          0.982080136      9.56085553       0.166143924      -79.0494405      0.166143924      -79.0494405      0.982080234      9.56085601       
0.28814          0.982646862      9.40171421       0.163402491      -79.2235614      0.163402491      -79.2235614      0.98264696       9.40171468       
0.293            0.983186735      9.24762566       0.160746947      -79.392058       0.160746947      -79.392058       0.983186833      9.24762613       
0.29786          0.983701417      9.09835438       0.158173361      -79.5551939      0.158173361      -79.5551939      0.983701516      9.09835484       
0.30272          0.984192447      8.95367912       0.155678033      -79.7132167      0.155678033      -79.7132167      0.984192546      8.95367957       
0.30758          0.984661247      8.81339178       0.153257478      -79.866359       0.153257478      -79.866359       0.984661345      8.81339224       
0.31244          0.985109133      8.67729654       0.150908412      -80.0148398      0.150908412      -80.0148398      0.985109231      8.67729699       
0.3173           0.985537328      8.54520889       0.14862774       -80.1588652      0.14862774       -80.1588652      0.985537427      8.54520934       
0.32216          0.985946967      8.41695491       0.146412536      -80.2986294      0.146412536      -80.2986294      0.985947065      8.41695535       
0.32702          0.986339103      8.29237047       0.144260039      -80.4343157      0.144260039      -80.4343157      0.986339202      8.2923709        
0.33188          0.986714719      8.1713006        0.142167638      -80.5660971      0.142167638      -80.5660971      0.986714817      8.17130103       
0.33674          0.987074726      8.05359885       0.140132864      -80.6941369      0.140132864      -80.6941369      0.987074824      8.05359927       
0.3416           0.987419976      7.93912671       0.138153378      -80.8185895      0.138153378      -80.8185895      0.987420075      7.93912713       
0.34646          0.987751264      7.8277531        0.136226966      -80.9396012      0.136226966      -80.9396012      0.987751363      7.82775352       
0.35132          0.988069332      7.71935389       0.134351527      -81.0573101      0.134351527      -81.0573101      0.988069431      7.7193543        
0.35618          0.988374873      7.6138114        0.132525071      -81.1718475      0.132525071      -81.1718475      0.988374972      7.61381181       
0.36104          0.988668536      7.51101406       0.130745706      -81.2833375      0.130745706      -81.2833375      0.988668634      7.51101446       
0.3659           0.988950927      7.41085597       0.129011637      -81.391898       0.129011637      -81.391898       0.988951026      7.41085637       
0.37076          0.989222617      7.31323656       0.127321158      -81.497641       0.127321158      -81.497641       0.989222716      7.31323697       
0.37562          0.989484138      7.2180603        0.125672646      -81.6006728      0.125672646      -81.6006728      0.989484237      7.2180607        
0.38048          0.989735993      7.12523631       0.124064557      -81.7010944      0.124064557      -81.7010944      0.989736092      7.12523671       
0.38534          0.989978651      7.03467817       0.122495421      -81.7990019      0.122495421      -81.7990019      0.98997875       7.03467857       
0.3902           0.990212555      6.94630359       0.120963838      -81.8944869      0.120963838      -81.8944869      0.990212654      6.94630398       
0.39506          0.990438121      6.8600342        0.119468473      -81.9876364      0.119468473      -81.9876364      0.990438219      6.86003458       
0.39992          0.99065574       6.77579529       0.118008054      -82.0785333      0.118008054      -82.0785333      0.990655839      6.77579568       
0.40478          0.990865783      6.69351565       0.116581366      -82.1672568      0.116581366      -82.1672568      0.990865882      6.69351604       
0.40964          0.991068596      6.61312733       0.11518725       -82.2538824      0.11518725       -82.2538824      0.991068695      6.61312771       
0.4145           0.991264508      6.53456545       0.113824599      -82.3384821      0.113824599      -82.3384821      0.991264607      6.53456583       
0.41936          0.991453829      6.45776807       0.112492356      -82.4211246      0.112492356      -82.4211246      0.991453928      6.45776845       
0.42422          0.991636851      6.38267599       0.111189507      -82.5018755      0.111189507      -82.5018755      0.99163695       6.38267636       
0.42908          0.991813851      6.30923262       0.109915088      -82.5807978      0.109915088      -82.5807978      0.99181395       6.30923298       
0.43394          0.991985091      6.23738381       0.10866817       -82.6579513      0.10866817       -82.6579513      0.99198519       6.23738418       
0.4388           0.992150817      6.16707778       0.107447869      -82.7333936      0.107447869      -82.7333936      0.992150916      6.16707814       
0.44366          0.992311266      6.09826492       0.106253335      -82.8071796      0.106253335      -82.8071796      0.992311365      6.09826528       
0.44852          0.992466657      6.03089774       0.105083755      -82.8793619      0.105083755      -82.8793619      0.992466756      6.0308981        
0.45338          0.992617203      5.96493072       0.103938348      -82.949991       0.103938348      -82.949991       0.992617302      5.96493108       
0.45824          0.992763103      5.90032023       0.102816368      -83.0191152      0.102816368      -83.0191152      0.992763202      5.90032058       
0.4631           0.992904546      5.8370244        0.101717096      -83.0867809      0.101717096      -83.0867809      0.992904645      5.83702475       
0.46796          0.993041712      5.77500309       0.100639844      -83.1530324      0.100639844      -83.1530324      0.993041811      5.77500344       
0.47282          0.993174772      5.71421775       0.09958395       -83.2179125      0.09958395       -83.2179125      0.993174871      5.7142181        
0.47768          0.993303889      5.65463136       0.0985487791     -83.2814621      0.0985487791     -83.2814621      0.993303988      5.65463171       
0.48254          0.993429217      5.59620838       0.0975337207     -83.3437205      0.0975337207     -83.3437205      0.993429316      5.59620873       
0.4874           0.993550903      5.53891463       0.0965381877     -83.4047256      0.0965381877     -83.4047256      0.993551002      5.53891498       
0.49226          0.993669087      5.48271726       0.0955616159     -83.4645136      0.0955616159     -83.4645136      0.993669187      5.48271761       
0.49712          0.993783903      5.42758468       0.0946034621     -83.5231196      0.0946034621     -83.5231196      0.993784002      5.42758502       
0.50198          0.993895477      5.37348648       0.0936632037     -83.5805769      0.0936632037     -83.5805769      0.993895576      5.37348683       
0.50684          0.994003931      5.32039342       0.0927403377     -83.6369181      0.0927403377     -83.6369181      0.99400403       5.32039376       
0.5117           0.994109379      5.26827732       0.0918343794     -83.6921742      0.0918343794     -83.6921742      0.994109479      5.26827766       
0.51656          0.994211933      5.21711106       0.090944862      -83.7463752      0.090944862      -83.7463752      0.994212032      5.2171114        
0.52142          0.994311697      5.1668685        0.0900713356     -83.7995498      0.0900713356     -83.7995498      0.994311796      5.16686883       
0.52628          0.994408771      5.11752444       0.0892133666     -83.851726       0.0892133666     -83.851726       0.99440887       5.11752478       
0.53114          0.994503252      5.06905461       0.0883705367     -83.9029306      0.0883705367     -83.9029306      0.994503352      5.06905494       
0.536            0.994595231      5.02143557       0.0875424425     -83.9531892      0.0875424425     -83.9531892      0.994595331      5.02143591       
0.54086          0.994684796      4.97464474       0.0867286945     -84.002527       0.0867286945     -84.002527       0.994684896      4.97464508       
0.54572          0.994772031      4.92866031       0.085928917      -84.0509679      0.085928917      -84.0509679      0.994772131      4.92866064       
0.55058          0.994857016      4.88346122       0.0851427473     -84.0985351      0.0851427473     -84.0985351      0.994857115      4.88346155       
0.55544          0.994939828      4.83902716       0.0843698347     -84.145251       0.0843698347     -84.145251       0.994939927      4.83902749       
0.5603           0.995020539      4.79533848       0.0836098408     -84.1911372      0.0836098408     -84.1911372      0.995020639      4.79533881       
0.56516          0.995099222      4.75237623       0.0828624384     -84.2362147      0.0828624384     -84.2362147      0.995099321      4.75237656       
0.57002          0.995175942      4.71012206       0.0821273112     -84.2805036      0.0821273112     -84.2805036      0.995176042      4.71012239       
0.57488          0.995250766      4.66855826       0.0814041533     -84.3240235      0.0814041533     -84.3240235      0.995250865      4.66855859       
0.57974          0.995323754      4.62766769       0.080692669      -84.3667931      0.080692669      -84.3667931      0.995323854      4.62766802       
0.5846           0.995394967      4.58743377       0.0799925721     -84.4088307      0.0799925721     -84.4088307      0.995395067      4.5874341        
0.58946          0.995464462      4.54784046       0.0793035856     -84.450154       0.0793035856     -84.450154       0.995464561      4.54784079       
0.59432          0.995532293      4.50887224       0.0786254416     -84.49078        0.0786254416     -84.49078        0.995532392      4.50887256       
0.59918          0.995598513      4.47051407       0.0779578804     -84.5307253      0.0779578804     -84.5307253      0.995598612      4.4705144        
0.60404          0.995663173      4.43275142       0.0773006507     -84.5700057      0.0773006507     -84.5700057      0.995663272      4.43275175       
0.6089           0.995726321      4.3955702        0.0766535091     -84.6086369      0.0766535091     -84.6086369      0.99572642       4.39557052       
0.61376          0.995788004      4.35895673       0.0760162196     -84.6466337      0.0760162196     -84.6466337      0.995788103      4.35895706       
0.61862          0.995848267      4.32289781       0.0753885535     -84.6840107      0.0753885535     -84.6840107      0.995848366      4.32289813       
0.62348          0.995907153      4.2873806        0.0747702892     -84.720782       0.0747702892     -84.720782       0.995907253      4.28738092       
0.62834          0.995964704      4.25239267       0.0741612118     -84.7569612      0.0741612118     -84.7569612      0.995964804      4.25239299       
0.6332           0.99602096       4.21792197       0.0735611128     -84.7925616      0.0735611128     -84.7925616      0.996021059      4.2179223        
0.63806          0.996075958      4.18395681       0.07296979       -84.8275958      0.07296979       -84.8275958      0.996076058      4.18395713       
0.64292          0.996129737      4.15048584       0.0723870472     -84.8620764      0.0723870472     -84.8620764      0.996129837      4.15048616       
0.64778          0.996182332      4.11749806       0.071812694      -84.8960155      0.071812694      -84.8960155      0.996182432      4.11749838       
0.65264          0.996233778      4.08498278       0.0712465455     -84.9294246      0.0712465455     -84.9294246      0.996233877      4.0849831        
0.6575           0.996284107      4.05292962       0.0706884223     -84.9623152      0.0706884223     -84.9623152      0.996284206      4.05292994       
0.66236          0.996333351      4.02132853       0.0701381501     -84.9946983      0.0701381501     -84.9946983      0.996333451      4.02132885       
0.66722          0.996381542      3.99016971       0.0695955595     -85.0265845      0.0695955595     -85.0265845      0.996381642      3.99017003       
