! Coilcraft 1008PS-102 Power Chip Inductor				
! 7 October 2002			
# MHZ S MA R 50
!Freq             MagS11           AngS11           MagS21           AngS21           MagS12           AngS12           MagS22           AngS22
0.05             0.00320389985    78.3236867       0.999356362      -0.179887333     0.999356362      -0.179887333     0.00320390012    78.3236933       
0.175            0.0110135751     85.7331591       0.999240784      -0.629773237     0.999240784      -0.629773237     0.0110135769     85.7331661       
0.3              0.0188606188     86.5478536       0.999041564      -1.07977185      0.999041564      -1.07977185      0.0188606229     86.5478602       
0.425            0.0267077654     86.57018         0.998757916      -1.52958283      0.998757916      -1.52958283      0.026707772      86.5701857       
0.55             0.034548745      86.3435376       0.998392055      -1.97904307      0.998392055      -1.97904307      0.0345487542     86.3435424       
0.675            0.0423806464     86.0085159       0.997945761      -2.4280556       0.997945761      -2.4280556       0.0423806581     86.0085201       
0.8              0.050201334      85.6173381       0.997420361      -2.87653995      0.997420361      -2.87653995      0.0502013481     85.6173417       
0.925            0.0580088981     85.1937532       0.99681694       -3.3244195       0.99681694       -3.3244195       0.0580089147     85.1937564       
1.05             0.0658015156     84.7500881       0.996136464      -3.77161871      0.996136464      -3.77161871      0.0658015347     84.7500909       
1.175            0.0735774096     84.2933715       0.995379837      -4.21806274      0.995379837      -4.21806274      0.073577431      84.2933741       
1.3              0.0813348365     83.8279054       0.994547941      -4.66367744      0.994547941      -4.66367744      0.0813348603     83.8279078       
1.425            0.0890720832     83.3564734       0.99364165       -5.10838948      0.99364165       -5.10838948      0.0890721094     83.3564755       
1.55             0.0967874655     82.8809604       0.992661846      -5.55212647      0.992661846      -5.55212647      0.096787494      82.8809623       
1.675            0.104479329      82.4026921       0.991609425      -5.99481702      0.991609425      -5.99481702      0.10447936       82.402694        
1.8              0.11214605       81.9226322       0.990485298      -6.43639082      0.990485298      -6.43639082      0.112146083      81.9226339       
1.925            0.119786036      81.4415014       0.989290402      -6.87677872      0.989290402      -6.87677872      0.119786071      81.441503        
2.05             0.127397727      80.9598526       0.988025693      -7.31591275      0.988025693      -7.31591275      0.127397765      80.9598541       
2.175            0.134979598      80.47812         0.986692154      -7.75372616      0.986692154      -7.75372616      0.134979638      80.4781214       
2.3              0.142530157      79.9966517       0.985290792      -8.19015352      0.985290792      -8.19015352      0.1425302        79.996653        
2.425            0.15004795       79.5157322       0.983822639      -8.62513069      0.983822639      -8.62513069      0.150047995      79.5157335       
2.55             0.157531557      79.0355981       0.982288751      -9.05859488      0.982288751      -9.05859488      0.157531604      79.0355993       
2.675            0.164979598      78.5564494       0.980690209      -9.49048468      0.980690209      -9.49048468      0.164979647      78.5564506       
2.8              0.17239073       78.0784575       0.979028117      -9.92074011      0.979028117      -9.92074011      0.172390782      78.0784587       
2.925            0.179763651      77.6017714       0.9773036        -10.3493026      0.9773036        -10.3493026      0.179763705      77.6017725       
3.05             0.187097096      77.126522        0.975517807      -10.7761151      0.975517807      -10.7761151      0.187097152      77.1265231       
3.175            0.194389844      76.6528257       0.973671904      -11.201122       0.973671904      -11.201122       0.194389902      76.6528267       
3.3              0.201640711      76.1807868       0.971767079      -11.6242691      0.971767079      -11.6242691      0.201640772      76.1807878       
3.425            0.208848559      75.7104997       0.969804535      -12.045504       0.969804535      -12.045504       0.208848622      75.7105006       
3.55             0.216012289      75.2420503       0.967785493      -12.4647756      0.967785493      -12.4647756      0.216012353      75.2420512       
3.675            0.223130843      74.7755174       0.965711188      -12.8820344      0.965711188      -12.8820344      0.22313091       74.7755182       
3.8              0.23020321       74.3109736       0.963582869      -13.2972325      0.963582869      -13.2972325      0.230203279      74.3109744       
3.925            0.237228418      73.848486        0.961401797      -13.7103236      0.961401797      -13.7103236      0.237228489      73.8484868       
4.05             0.244205538      73.3881171       0.959169241      -14.1212629      0.959169241      -14.1212629      0.244205611      73.3881179       
4.175            0.251133684      72.929925        0.956886483      -14.5300073      0.956886483      -14.5300073      0.251133759      72.9299258       
4.3              0.258012014      72.4739641       0.95455481       -14.9365152      0.95455481       -14.9365152      0.258012091      72.4739648       
4.425            0.264839727      72.0202851       0.952175516      -15.3407466      0.952175516      -15.3407466      0.264839807      72.0202858       
4.55             0.271616066      71.5689359       0.949749899      -15.7426632      0.949749899      -15.7426632      0.271616147      71.5689366       
4.675            0.278340314      71.119961        0.947279261      -16.1422281      0.947279261      -16.1422281      0.278340397      71.1199617       
4.8              0.285011797      70.6734025       0.944764906      -16.5394062      0.944764906      -16.5394062      0.285011882      70.6734032       
4.925            0.291629883      70.2292998       0.942208138      -16.9341637      0.942208138      -16.9341637      0.29162997       70.2293004       
5.05             0.29819398       69.7876899       0.939610261      -17.3264686      0.939610261      -17.3264686      0.298194069      69.7876905       
5.175            0.304703538      69.3486076       0.936972575      -17.7162905      0.936972575      -17.7162905      0.304703629      69.3486082       
5.3              0.311158046      68.9120853       0.934296379      -18.1036002      0.934296379      -18.1036002      0.311158139      68.9120859       
5.425            0.317557033      68.4781536       0.931582966      -18.4883703      0.931582966      -18.4883703      0.317557128      68.4781542       
5.55             0.323900067      68.046841        0.928833624      -18.870575       0.928833624      -18.870575       0.323900164      68.0468416       
5.675            0.330186755      67.6181741       0.926049633      -19.2501898      0.926049633      -19.2501898      0.330186854      67.6181746       
5.8              0.33641674       67.1921776       0.923232267      -19.6271916      0.923232267      -19.6271916      0.33641684       67.1921781       
5.925            0.342589702      66.7688746       0.92038279       -20.0015591      0.92038279       -20.0015591      0.342589805      66.7688751       
6.05             0.348705361      66.3482863       0.917502456      -20.373272       0.917502456      -20.373272       0.348705465      66.3482869       
6.175            0.354763467      65.9304325       0.914592507      -20.7423119      0.914592507      -20.7423119      0.354763573      65.930433        
6.3              0.360763808      65.5153311       0.911654174      -21.1086614      0.911654174      -21.1086614      0.360763916      65.5153316       
6.425            0.366706206      65.1029987       0.908688676      -21.4723045      0.908688676      -21.4723045      0.366706316      65.1029992       
6.55             0.372590514      64.6934503       0.905697219      -21.8332269      0.905697219      -21.8332269      0.372590626      64.6934508       
6.675            0.378416619      64.2866994       0.902680991      -22.1914153      0.902680991      -22.1914153      0.378416733      64.2866999       
6.8              0.384184438      63.8827582       0.899641171      -22.5468576      0.899641171      -22.5468576      0.384184553      63.8827587       
6.925            0.38989392       63.4816375       0.896578916      -22.8995433      0.896578916      -22.8995433      0.389894036      63.481638        
7.05             0.39554504       63.0833468       0.893495372      -23.2494629      0.893495372      -23.2494629      0.395545159      63.0833472       
7.175            0.401137806      62.6878941       0.890391664      -23.5966082      0.890391664      -23.5966082      0.401137926      62.6878945       
7.3              0.406672251      62.2952864       0.887268904      -23.9409722      0.887268904      -23.9409722      0.406672373      62.2952868       
7.425            0.412148436      61.9055294       0.884128182      -24.2825489      0.884128182      -24.2825489      0.412148559      61.9055298       
7.55             0.417566446      61.5186277       0.880970572      -24.6213337      0.880970572      -24.6213337      0.417566571      61.5186281       
7.675            0.422926393      61.1345845       0.877797129      -24.9573227      0.877797129      -24.9573227      0.42292652       61.1345849       
7.8              0.428228412      60.7534023       0.874608888      -25.2905135      0.874608888      -25.2905135      0.428228541      60.7534027       
7.925            0.433472662      60.3750822       0.871406868      -25.6209045      0.871406868      -25.6209045      0.433472792      60.3750826       
8.05             0.438659322      59.9996244       0.868192063      -25.948495       0.868192063      -25.948495       0.438659454      59.9996248       
8.175            0.443788595      59.6270281       0.864965452      -26.2732855      0.864965452      -26.2732855      0.443788728      59.6270285       
8.3              0.448860703      59.2572916       0.861727992      -26.5952774      0.861727992      -26.5952774      0.448860838      59.2572919       
8.425            0.453875887      58.890412        0.85848062       -26.9144728      0.85848062       -26.9144728      0.453876024      58.8904124       
8.55             0.458834409      58.5263858       0.855224251      -27.2308751      0.855224251      -27.2308751      0.458834546      58.5263862       
8.675            0.463736546      58.1652085       0.851959783      -27.5444881      0.851959783      -27.5444881      0.463736685      58.1652089       
8.8              0.468582593      57.8068748       0.848688092      -27.8553167      0.848688092      -27.8553167      0.468582733      57.8068752       
8.925            0.473372862      57.4513786       0.845410032      -28.1633666      0.845410032      -28.1633666      0.473373004      57.4513789       
9.05             0.478107679      57.0987129       0.842126438      -28.4686442      0.842126438      -28.4686442      0.478107822      57.0987132       
9.175            0.482787386      56.7488701       0.838838124      -28.7711565      0.838838124      -28.7711565      0.482787531      56.7488705       
9.3              0.487412337      56.4018419       0.835545885      -29.0709116      0.835545885      -29.0709116      0.487412483      56.4018423       
9.425            0.491982901      56.0576192       0.832250494      -29.3679178      0.832250494      -29.3679178      0.491983049      56.0576196       
9.55             0.496499458      55.7161924       0.828952703      -29.6621844      0.828952703      -29.6621844      0.496499606      55.7161927       
9.675            0.500962398      55.3775509       0.825653246      -29.9537213      0.825653246      -29.9537213      0.500962548      55.3775513       
9.8              0.505372125      55.041684        0.822352836      -30.2425389      0.822352836      -30.2425389      0.505372277      55.0416843       
9.925            0.509729051      54.7085801       0.819052166      -30.5286482      0.819052166      -30.5286482      0.509729204      54.7085804       
10.05            0.514033598      54.3782272       0.81575191       -30.8120608      0.81575191       -30.8120608      0.514033752      54.3782275       
10.175           0.518286196      54.0506125       0.81245272       -31.0927887      0.81245272       -31.0927887      0.518286351      54.0506128       
10.3             0.522487284      53.7257232       0.809155232      -31.3708447      0.809155232      -31.3708447      0.522487441      53.7257235       
10.425           0.526637308      53.4035455       0.805860062      -31.6462417      0.805860062      -31.6462417      0.526637466      53.4035458       
10.55            0.530736722      53.0840654       0.802567805      -31.9189933      0.802567805      -31.9189933      0.530736881      53.0840657       
10.675           0.534785985      52.7672686       0.799279041      -32.1891135      0.799279041      -32.1891135      0.534786145      52.7672689       
10.8             0.538785561      52.4531401       0.795994328      -32.4566167      0.795994328      -32.4566167      0.538785723      52.4531404       
10.925           0.542735922      52.1416647       0.792714208      -32.7215176      0.792714208      -32.7215176      0.542736085      52.141665        
11.05            0.546637542      51.8328268       0.789439204      -32.9838314      0.789439204      -32.9838314      0.546637706      51.8328271       
11.175           0.5504909        51.5266105       0.786169824      -33.2435736      0.786169824      -33.2435736      0.550491065      51.5266108       
11.3             0.55429648       51.2229995       0.782906557      -33.5007599      0.782906557      -33.5007599      0.554296646      51.2229998       
11.425           0.558054767      50.9219773       0.779649873      -33.7554066      0.779649873      -33.7554066      0.558054934      50.9219775       
11.55            0.56176625       50.6235269       0.776400228      -34.00753        0.776400228      -34.00753        0.561766418      50.6235272       
11.675           0.56543142       50.3276313       0.773158062      -34.2571468      0.773158062      -34.2571468      0.56543159       50.3276316       
11.8             0.569050771      50.0342731       0.769923798      -34.5042739      0.769923798      -34.5042739      0.569050942      50.0342734       
11.925           0.572624797      49.7434348       0.766697842      -34.7489285      0.766697842      -34.7489285      0.572624969      49.7434351       
12.05            0.576153994      49.4550985       0.763480587      -34.991128       0.763480587      -34.991128       0.576154167      49.4550988       
12.175           0.579638858      49.1692463       0.760272409      -35.23089        0.760272409      -35.23089        0.579639032      49.1692466       
12.3             0.583079886      48.88586         0.75707367       -35.4682322      0.75707367       -35.4682322      0.583080061      48.8858603       
12.425           0.586477576      48.6049213       0.753884718      -35.7031725      0.753884718      -35.7031725      0.586477752      48.6049215       
12.55            0.589832423      48.3264116       0.750705886      -35.9357291      0.750705886      -35.9357291      0.5898326        48.3264119       
12.675           0.593144925      48.0503125       0.747537494      -36.1659202      0.747537494      -36.1659202      0.593145103      48.0503127       
12.8             0.596415577      47.7766051       0.744379847      -36.3937641      0.744379847      -36.3937641      0.596415756      47.7766053       
12.925           0.599644872      47.5052706       0.74123324       -36.6192793      0.74123324       -36.6192793      0.599645052      47.5052708       
13.05            0.602833305      47.2362901       0.738097951      -36.8424844      0.738097951      -36.8424844      0.602833486      47.2362903       
13.175           0.605981366      46.9696446       0.734974249      -37.0633979      0.734974249      -37.0633979      0.605981548      46.9696448       
13.3             0.609089545      46.705315        0.731862387      -37.2820388      0.731862387      -37.2820388      0.609089728      46.7053152       
13.425           0.61215833       46.4432822       0.728762611      -37.4984256      0.728762611      -37.4984256      0.612158513      46.4432824       
13.55            0.615188205      46.1835269       0.725675152      -37.7125774      0.725675152      -37.7125774      0.615188389      46.1835272       
13.675           0.618179654      45.92603         0.722600229      -37.9245129      0.722600229      -37.9245129      0.618179839      45.9260303       
13.8             0.621133156      45.6707723       0.719538053      -38.1342511      0.719538053      -38.1342511      0.621133342      45.6707725       
13.925           0.62404919       45.4177344       0.716488821      -38.3418109      0.716488821      -38.3418109      0.624049377      45.4177346       
14.05            0.626928228      45.1668971       0.713452723      -38.5472113      0.713452723      -38.5472113      0.626928416      45.1668973       
14.175           0.629770744      44.9182411       0.710429936      -38.7504713      0.710429936      -38.7504713      0.629770933      44.9182413       
14.3             0.632577204      44.6717471       0.707420629      -38.9516097      0.707420629      -38.9516097      0.632577393      44.6717474       
14.425           0.635348072      44.427396        0.70442496       -39.1506455      0.70442496       -39.1506455      0.635348263      44.4273963       
14.55            0.638083811      44.1851686       0.701443079      -39.3475977      0.701443079      -39.3475977      0.638084002      44.1851688       
14.675           0.640784877      43.9450455       0.698475126      -39.5424851      0.698475126      -39.5424851      0.640785069      43.9450457       
14.8             0.643451724      43.7070078       0.695521233      -39.7353266      0.695521233      -39.7353266      0.643451917      43.707008        
14.925           0.646084802      43.4710363       0.692581523      -39.9261409      0.692581523      -39.9261409      0.646084996      43.4710365       
15.05            0.648684556      43.2371119       0.68965611       -40.1149468      0.68965611       -40.1149468      0.64868475       43.2371122       
15.175           0.651251428      43.0052158       0.686745102      -40.3017631      0.686745102      -40.3017631      0.651251624      43.005216        
15.3             0.653785856      42.775329        0.683848598      -40.4866084      0.683848598      -40.4866084      0.653786052      42.7753292       
15.425           0.656288274      42.5474327       0.68096669       -40.6695012      0.68096669       -40.6695012      0.656288471      42.5474329       
15.55            0.65875911       42.3215081       0.678099461      -40.85046        0.678099461      -40.85046        0.658759308      42.3215083       
15.675           0.66119879       42.0975365       0.67524699       -41.0295033      0.67524699       -41.0295033      0.661198988      42.0975367       
15.8             0.663607733      41.8754994       0.672409347      -41.2066494      0.672409347      -41.2066494      0.663607933      41.8754996       
15.925           0.665986358      41.6553782       0.669586596      -41.3819165      0.669586596      -41.3819165      0.665986558      41.6553784       
