! Coilcraft 1008PS-474 Power Chip Inductor				
! 7 October 2002			
# MHZ S MA R 50
!Freq             MagS11           AngS11           MagS21           AngS21           MagS12           AngS12           MagS22           AngS22
0.05             0.791841549      32.0204779       0.533173093      -51.9487078      0.533173093      -51.9487078      0.791841625      32.0204803       
0.05436          0.815280542      30.1939072       0.505313977      -54.2359903      0.505313977      -54.2359903      0.81528062       30.1939094       
0.05872          0.835295255      28.529091        0.479561766      -56.293057       0.479561766      -56.293057       0.835295336      28.529093        
0.06308          0.85245697       27.0116437       0.455796782      -58.1483654      0.455796782      -58.1483654      0.852457053      27.0116455       
0.06744          0.867238103      25.6271631       0.433878194      -59.8267901      0.433878194      -59.8267901      0.867238188      25.6271648       
0.0718           0.880027553      24.362006        0.41365834       -61.3499269      0.41365834       -61.3499269      0.880027639      24.3620077       
0.07616          0.891144963      23.2036392       0.394991444      -62.7364554      0.394991444      -62.7364554      0.89114505       23.2036407       
0.08052          0.900853166      22.140755        0.377738617      -64.0025074      0.377738617      -64.0025074      0.900853255      22.1407565       
0.08488          0.909368676      21.1632626       0.361770462      -65.1620133      0.361770462      -65.1620133      0.909368765      21.163264        
0.08924          0.916870336      20.2622142       0.346968164      -66.2270141      0.346968164      -66.2270141      0.916870426      20.2622156       
0.0936           0.923506373      19.4297043       0.33322367       -67.2079346      0.33322367       -67.2079346      0.923506464      19.4297055       
0.09796          0.929400101      18.6587598       0.320439326      -68.1138208      0.320439326      -68.1138208      0.929400193      18.658761        
0.10232          0.934654517      17.9432329       0.308527235      -68.9525411      0.308527235      -68.9525411      0.934654609      17.9432341       
0.10668          0.939356008      17.2777006       0.297408464      -69.7309592      0.297408464      -69.7309592      0.939356101      17.2777017       
0.11104          0.943577332      16.6573738       0.287012229      -70.4550786      0.287012229      -70.4550786      0.943577425      16.6573749       
0.1154           0.947380023      16.078017        0.277275069      -71.1301664      0.277275069      -71.1301664      0.947380117      16.0780181       
0.11976          0.95081634       15.5358774       0.268140086      -71.760857       0.268140086      -71.760857       0.950816434      15.5358784       
0.12412          0.953930843      15.0276232       0.259556229      -72.3512401      0.259556229      -72.3512401      0.953930937      15.0276242       
0.12848          0.956761677      14.5502902       0.25147765       -72.9049352      0.25147765       -72.9049352      0.956761772      14.5502912       
0.13284          0.959341625      14.1012352       0.243863122      -73.4251546      0.243863122      -73.4251546      0.95934172       14.1012361       
0.1372           0.96169896       13.678096        0.236675524      -73.9147573      0.236675524      -73.9147573      0.961699056      13.6780969       
0.14156          0.963858161      13.278757        0.22988138       -74.3762947      0.22988138       -74.3762947      0.963858257      13.2787579       
0.14592          0.965840489      12.9013189       0.223450454      -74.8120498      0.223450454      -74.8120498      0.965840585      12.9013197       
0.15028          0.967664476      12.5440729       0.217355391      -75.2240701      0.217355391      -75.2240701      0.967664572      12.5440738       
0.15464          0.969346328      12.2054786       0.2115714        -75.6141972      0.2115714        -75.6141972      0.969346424      12.2054794       
0.159            0.970900258      11.8841438       0.206075979      -75.984091       0.206075979      -75.984091       0.970900354      11.8841446       
0.16336          0.97233877       11.5788082       0.200848664      -76.3352508      0.200848664      -76.3352508      0.972338867      11.578809        
0.16772          0.973672898      11.2883283       0.195870817      -76.6690345      0.195870817      -76.6690345      0.973672994      11.2883291       
0.17208          0.974912402      11.0116645       0.191125435      -76.9866742      0.191125435      -76.9866742      0.974912499      11.0116653       
0.17644          0.976065942      10.7478701       0.186596978      -77.28929        0.186596978      -77.28929        0.97606604       10.7478708       
0.1808           0.977141221      10.4960811       0.182271223      -77.5779026      0.182271223      -77.5779026      0.977141318      10.4960818       
0.18516          0.978145104      10.2555076       0.178135131      -77.8534436      0.178135131      -77.8534436      0.978145202      10.2555083       
0.18952          0.97908373       10.0254266       0.17417673       -78.1167651      0.17417673       -78.1167651      0.979083827      10.0254273       
0.19388          0.979962595      9.80517454       0.170385011      -78.3686476      0.170385011      -78.3686476      0.979962693      9.8051752        
0.19824          0.980786636      9.59414188       0.166749835      -78.6098075      0.166749835      -78.6098075      0.980786733      9.59414253       
0.2026           0.981560292      9.39176769       0.163261852      -78.8409034      0.163261852      -78.8409034      0.98156039       9.39176832       
0.20696          0.982287569      9.19753494       0.159912427      -79.0625416      0.159912427      -79.0625416      0.982287666      9.19753556       
0.21132          0.98297208       9.01096639       0.156693574      -79.2752812      0.156693574      -79.2752812      0.982972178      9.010967         
0.21568          0.983617101      8.8316209        0.153597899      -79.4796388      0.153597899      -79.4796388      0.9836172        8.8316215        
0.22004          0.984225599      8.65909008       0.150618545      -79.6760919      0.150618545      -79.6760919      0.984225697      8.65909068       
0.2244           0.98480027       8.49299541       0.147749146      -79.865083       0.147749146      -79.865083       0.984800368      8.492996         
0.22876          0.985343567      8.33298554       0.144983785      -80.0470224      0.144983785      -80.0470224      0.985343665      8.33298612       
0.23312          0.985857726      8.17873396       0.142316956      -80.2222911      0.142316956      -80.2222911      0.985857824      8.17873453       
0.23748          0.986344789      8.02993684       0.139743528      -80.3912435      0.139743528      -80.3912435      0.986344887      8.0299374        
0.24184          0.986806621      7.88631115       0.137258717      -80.5542094      0.137258717      -80.5542094      0.98680672       7.8863117        
0.2462           0.987244933      7.74759289       0.134858054      -80.7114964      0.134858054      -80.7114964      0.987245032      7.74759343       
0.25056          0.987661292      7.61353557       0.132537361      -80.8633913      0.132537361      -80.8633913      0.987661391      7.61353611       
0.25492          0.988057138      7.48390878       0.130292732      -81.0101623      0.130292732      -81.0101623      0.988057236      7.48390931       
0.25928          0.988433794      7.35849691       0.128120504      -81.1520601      0.128120504      -81.1520601      0.988433893      7.35849743       
0.26364          0.98879248       7.23709798       0.126017245      -81.2893193      0.126017245      -81.2893193      0.988792579      7.2370985        
0.268            0.989134321      7.11952264       0.123979733      -81.4221601      0.123979733      -81.4221601      0.98913442       7.11952315       
0.27236          0.989460354      7.00559313       0.122004944      -81.5507887      0.122004944      -81.5507887      0.989460453      7.00559364       
0.27672          0.989771539      6.89514249       0.120090032      -81.675399       0.120090032      -81.675399       0.989771638      6.89514299       
0.28108          0.990068764      6.78801369       0.118232319      -81.7961731      0.118232319      -81.7961731      0.990068862      6.78801418       
0.28544          0.990352851      6.68405897       0.116429283      -81.9132823      0.116429283      -81.9132823      0.99035295       6.68405946       
0.2898           0.990624565      6.58313913       0.114678549      -82.0268881      0.114678549      -82.0268881      0.990624663      6.58313961       
0.29416          0.990884612      6.48512293       0.112977873      -82.1371424      0.112977873      -82.1371424      0.990884711      6.4851234        
0.29852          0.991133654      6.38988654       0.111325139      -82.2441887      0.111325139      -82.2441887      0.991133753      6.38988701       
0.30288          0.991372302      6.29731305       0.109718345      -82.3481623      0.109718345      -82.3481623      0.9913724        6.29731352       
0.30724          0.991601127      6.20729194       0.1081556        -82.4491912      0.1081556        -82.4491912      0.991601226      6.2072924        
0.3116           0.991820661      6.11971871       0.106635114      -82.5473962      0.106635114      -82.5473962      0.99182076       6.11971917       
0.31596          0.992031403      6.03449443       0.105155192      -82.6428918      0.105155192      -82.6428918      0.992031502      6.03449489       
0.32032          0.992233815      5.95152544       0.103714227      -82.7357862      0.103714227      -82.7357862      0.992233914      5.95152589       
0.32468          0.992428331      5.87072291       0.102310696      -82.8261821      0.102310696      -82.8261821      0.992428431      5.87072336       
0.32904          0.992615359      5.79200264       0.100943155      -82.9141767      0.100943155      -82.9141767      0.992615458      5.79200308       
0.3334           0.992795277      5.71528468       0.0996102288     -82.9998625      0.0996102288     -82.9998625      0.992795376      5.71528512       
0.33776          0.992968443      5.64049312       0.0983106151     -83.083327       0.0983106151     -83.083327       0.992968542      5.64049356       
0.34212          0.99313519       5.56755581       0.0970430736     -83.1646535      0.0970430736     -83.1646535      0.993135289      5.56755625       
0.34648          0.993295833      5.49640415       0.0958064248     -83.2439212      0.0958064248     -83.2439212      0.993295932      5.49640458       
0.35084          0.993450667      5.42697285       0.0945995459     -83.3212054      0.0945995459     -83.3212054      0.993450766      5.42697328       
0.3552           0.993599969      5.35919976       0.0934213678     -83.3965778      0.0934213678     -83.3965778      0.993600069      5.35920019       
0.35956          0.993744001      5.29302569       0.0922708713     -83.4701065      0.0922708713     -83.4701065      0.9937441        5.29302611       
0.36392          0.993883007      5.22839419       0.0911470849     -83.5418567      0.0911470849     -83.5418567      0.993883106      5.2283946        
0.36828          0.99401722       5.16525144       0.0900490817     -83.6118903      0.0900490817     -83.6118903      0.994017319      5.16525186       
0.37264          0.994146858      5.10354609       0.0889759768     -83.6802666      0.0889759768     -83.6802666      0.994146958      5.10354651       
0.377            0.994272128      5.04322912       0.0879269254     -83.7470418      0.0879269254     -83.7470418      0.994272227      5.04322953       
0.38136          0.994393223      4.98425367       0.0869011199     -83.8122701      0.0869011199     -83.8122701      0.994393322      4.98425408       
0.38572          0.994510328      4.92657501       0.0858977887     -83.8760027      0.0858977887     -83.8760027      0.994510427      4.92657541       
0.39008          0.994623616      4.87015032       0.0849161936     -83.9382891      0.0849161936     -83.9382891      0.994623716      4.87015072       
0.39444          0.994733253      4.81493866       0.083955628      -83.9991762      0.083955628      -83.9991762      0.994733352      4.81493906       
0.3988           0.994839394      4.76090085       0.0830154159     -84.0587092      0.0830154159     -84.0587092      0.994839493      4.76090125       
0.40316          0.994942185      4.70799937       0.0820949094     -84.1169311      0.0820949094     -84.1169311      0.994942285      4.70799977       
0.40752          0.995041768      4.65619828       0.0811934879     -84.1738833      0.0811934879     -84.1738833      0.995041868      4.65619867       
0.41188          0.995138275      4.60546311       0.0803105565     -84.2296053      0.0803105565     -84.2296053      0.995138374      4.60546351       
0.41624          0.995231831      4.55576085       0.0794455447     -84.2841351      0.0794455447     -84.2841351      0.99523193       4.55576124       
0.4206           0.995322555      4.5070598        0.0785979048     -84.337509       0.0785979048     -84.337509       0.995322655      4.50706019       
0.42496          0.995410562      4.45932956       0.0777671115     -84.3897619      0.0777671115     -84.3897619      0.995410662      4.45932994       
0.42932          0.995495959      4.41254093       0.0769526601     -84.4409273      0.0769526601     -84.4409273      0.995496058      4.41254132       
0.43368          0.995578848      4.36666588       0.0761540659     -84.4910374      0.0761540659     -84.4910374      0.995578947      4.36666627       
0.43804          0.995659327      4.32167748       0.0753708632     -84.540123       0.0753708632     -84.540123       0.995659426      4.32167786       
0.4424           0.995737488      4.27754982       0.0746026041     -84.5882139      0.0746026041     -84.5882139      0.995737588      4.2775502        
0.44676          0.99581342       4.23425802       0.0738488579     -84.6353385      0.0738488579     -84.6353385      0.99581352       4.2342584        
0.45112          0.995887208      4.19177812       0.0731092103     -84.6815243      0.0731092103     -84.6815243      0.995887307      4.1917785        
0.45548          0.99595893       4.15008709       0.0723832625     -84.7267977      0.0723832625     -84.7267977      0.99595903       4.15008746       
0.45984          0.996028665      4.10916272       0.0716706306     -84.771184       0.0716706306     -84.771184       0.996028764      4.1091631        
0.4642           0.996096484      4.06898368       0.0709709447     -84.8147077      0.0709709447     -84.8147077      0.996096583      4.06898405       
0.46856          0.996162457      4.02952937       0.0702838487     -84.8573924      0.0702838487     -84.8573924      0.996162556      4.02952974       
0.47292          0.996226651      3.99077997       0.0696089992     -84.8992607      0.0696089992     -84.8992607      0.99622675       3.99078034       
0.47728          0.996289129      3.95271636       0.0689460651     -84.9403344      0.0689460651     -84.9403344      0.996289229      3.95271673       
0.48164          0.996349952      3.91532012       0.0682947272     -84.9806347      0.0682947272     -84.9806347      0.996350052      3.91532049       
0.486            0.996409179      3.87857347       0.0676546777     -85.0201818      0.0676546777     -85.0201818      0.996409278      3.87857384       
0.49036          0.996466863      3.84245925       0.0670256192     -85.0589953      0.0670256192     -85.0589953      0.996466963      3.84245962       
0.49472          0.996523059      3.80696091       0.0664072649     -85.0970941      0.0664072649     -85.0970941      0.996523159      3.80696128       
0.49908          0.996577818      3.77206247       0.0657993378     -85.1344965      0.0657993378     -85.1344965      0.996577917      3.77206283       
0.50344          0.996631187      3.73774848       0.0652015703     -85.17122        0.0652015703     -85.17122        0.996631286      3.73774884       
0.5078           0.996683214      3.70400403       0.0646137038     -85.2072816      0.0646137038     -85.2072816      0.996683313      3.70400439       
0.51216          0.996733942      3.67081471       0.0640354887     -85.2426979      0.0640354887     -85.2426979      0.996734042      3.67081508       
0.51652          0.996783416      3.6381666        0.0634666832     -85.2774845      0.0634666832     -85.2774845      0.996783516      3.63816696       
0.52088          0.996831676      3.60604622       0.0629070539     -85.311657       0.0629070539     -85.311657       0.996831776      3.60604658       
0.52524          0.996878761      3.57444054       0.0623563748     -85.34523        0.0623563748     -85.34523        0.996878861      3.5744409        
0.5296           0.99692471       3.54333697       0.0618144274     -85.378218       0.0618144274     -85.378218       0.996924809      3.54333733       
0.53396          0.996969557      3.5127233        0.0612810001     -85.4106348      0.0612810001     -85.4106348      0.996969657      3.51272366       
0.53832          0.997013339      3.48258774       0.0607558882     -85.4424938      0.0607558882     -85.4424938      0.997013439      3.4825881        
0.54268          0.997056089      3.45291886       0.0602388932     -85.473808       0.0602388932     -85.473808       0.997056188      3.45291922       
0.54704          0.997097838      3.42370558       0.0597298233     -85.5045899      0.0597298233     -85.5045899      0.997097938      3.42370594       
0.5514           0.997138618      3.39493719       0.0592284924     -85.5348518      0.0592284924     -85.5348518      0.997138717      3.39493755       
0.55576          0.997178458      3.3666033        0.0587347201     -85.5646054      0.0587347201     -85.5646054      0.997178557      3.36660366       
0.56012          0.997217387      3.33869384       0.0582483317     -85.5938621      0.0582483317     -85.5938621      0.997217486      3.33869419       
0.56448          0.997255432      3.31119905       0.0577691578     -85.622633       0.0577691578     -85.622633       0.997255532      3.3111994        
0.56884          0.99729262       3.28410947       0.0572970342     -85.6509288      0.0572970342     -85.6509288      0.99729272       3.28410982       
0.5732           0.997328976      3.25741591       0.0568318014     -85.67876        0.0568318014     -85.67876        0.997329076      3.25741627       
0.57756          0.997364525      3.23110948       0.056373305      -85.7061364      0.056373305      -85.7061364      0.997364625      3.23110984       
0.58192          0.99739929       3.20518154       0.0559213948     -85.733068       0.0559213948     -85.733068       0.99739939       3.2051819        
0.58628          0.997433294      3.17962371       0.0554759254     -85.7595642      0.0554759254     -85.7595642      0.997433394      3.17962406       
0.59064          0.997466559      3.15442783       0.0550367553     -85.7856342      0.0550367553     -85.7856342      0.997466659      3.15442818       
0.595            0.997499106      3.12958602       0.0546037474     -85.8112869      0.0546037474     -85.8112869      0.997499206      3.12958637       
0.59936          0.997530955      3.1050906        0.0541767683     -85.836531       0.0541767683     -85.836531       0.997531055      3.10509095       
0.60372          0.997562127      3.08093411       0.0537556885     -85.8613749      0.0537556885     -85.8613749      0.997562227      3.08093446       
