! Coilcraft 1008PS-393 Power Chip Inductor				
! 7 October 2002			
# MHZ S MA R 50
!Freq             MagS11           AngS11           MagS21           AngS21           MagS12           AngS12           MagS22           AngS22
0.05             0.120860578      73.6809914       0.97297839       -6.8466667       0.97297839       -6.8466667       0.120860589      73.6809951       
0.07             0.166940518      73.6229147       0.966296282      -9.54102327      0.966296282      -9.54102327      0.166940533      73.6229174       
0.09             0.212130285      72.4454023       0.957619891      -12.1928108      0.957619891      -12.1928108      0.212130306      72.4454044       
0.11             0.256071891      70.7855345       0.94711321       -14.7919244      0.94711321       -14.7919244      0.256071916      70.7855363       
0.13             0.298513835      68.8974392       0.934963795      -17.329528       0.934963795      -17.329528       0.298513864      68.8974408       
0.15             0.33926957       66.9039822       0.92137445       -19.7981657      0.92137445       -19.7981657      0.339269603      66.9039836       
0.17             0.378204618      64.8725692       0.90655514       -22.1918064      0.90655514       -22.1918064      0.378204655      64.8725704       
0.19             0.415229994      62.8434498       0.890715673      -24.5058273      0.890715673      -24.5058273      0.415230035      62.8434509       
0.21             0.450296859      60.8419951       0.874059503      -26.7369476      0.874059503      -26.7369476      0.450296904      60.8419961       
0.23             0.483391206      58.8846692       0.856778861      -28.8831236      0.856778861      -28.8831236      0.483391254      58.8846702       
0.25             0.514528423      56.9822198       0.839051229      -30.943419       0.839051229      -30.943419       0.514528474      56.9822207       
0.27             0.54374791       55.1415255       0.821037103      -32.9178609      0.821037103      -32.9178609      0.543747964      55.1415264       
0.29             0.571107941      53.366745        0.802878852      -34.8072913      0.802878852      -34.8072913      0.571107998      53.3667458       
0.31             0.596680959      51.6600751       0.784700503      -36.6132233      0.784700503      -36.6132233      0.596681019      51.6600758       
0.33             0.620549408      50.0222774       0.766608225      -38.3377047      0.766608225      -38.3377047      0.62054947       50.0222781       
0.35             0.642802165      48.4530586       0.748691315      -39.9831953      0.748691315      -39.9831953      0.642802229      48.4530593       
0.37             0.663531576      46.9513531       0.731023515      -41.5524579      0.731023515      -41.5524579      0.663531642      46.9513538       
0.39             0.682831061      45.5155368       0.713664517      -43.048465       0.713664517      -43.048465       0.682831129      45.5155375       
0.41             0.70079324       44.1435915       0.696661531      -44.4743191      0.696661531      -44.4743191      0.70079331       44.1435922       
0.43             0.717508516      42.8332315       0.680050852      -45.8331882      0.680050852      -45.8331882      0.717508588      42.8332321       
0.45             0.733064043      41.5820011       0.663859358      -47.1282523      0.663859358      -47.1282523      0.733064116      41.5820017       
0.47             0.747543013      40.3873506       0.648105892      -48.3626621      0.648105892      -48.3626621      0.747543088      40.3873512       
0.49             0.761024205      39.2466931       0.632802536      -49.5395065      0.632802536      -49.5395065      0.761024281      39.2466937       
0.51             0.773581733      38.1574488       0.617955731      -50.6617884      0.617955731      -50.6617884      0.77358181       38.1574494       
0.53             0.785284958      37.1170771       0.603567276      -51.7324072      0.603567276      -51.7324072      0.785285036      37.1170777       
0.55             0.79619851       36.1231004       0.589635193      -52.7541466      0.589635193      -52.7541466      0.796198589      36.123101        
0.57             0.806382404      35.1731213       0.576154471      -53.729667       0.576154471      -53.729667       0.806382484      35.1731219       
0.59             0.815892211      34.2648337       0.563117697      -54.6615015      0.563117697      -54.6615015      0.815892292      34.2648343       
0.61             0.824779272      33.3960303       0.550515597      -55.5520541      0.550515597      -55.5520541      0.824779354      33.3960309       
0.63             0.833090934      32.5646067       0.538337485      -56.4036012      0.538337485      -56.4036012      0.833091018      32.5646073       
0.65             0.840870806      31.7685624       0.526571637      -57.2182933      0.526571637      -57.2182933      0.84087089       31.7685631       
0.67             0.848159003      31.0060014       0.515205599      -57.9981588      0.515205599      -57.9981588      0.848159088      31.006002        
0.69             0.854992408      30.2751295       0.504226448      -58.7451083      0.504226448      -58.7451083      0.854992494      30.2751301       
0.71             0.861404909      29.5742521       0.493620992      -59.4609398      0.493620992      -59.4609398      0.861404996      29.5742527       
0.73             0.867427636      28.9017708       0.483375939      -60.1473436      0.483375939      -60.1473436      0.867427722      28.9017714       
0.75             0.873089178      28.2561791       0.473478035      -60.8059079      0.473478035      -60.8059079      0.873089266      28.2561797       
0.77             0.878415798      27.6360586       0.463914165      -61.4381243      0.463914165      -61.4381243      0.878415886      27.6360592       
0.79             0.88343162       27.0400742       0.454671437      -62.0453935      0.454671437      -62.0453935      0.883431708      27.0400749       
0.81             0.888158811      26.4669702       0.445737246      -62.6290304      0.445737246      -62.6290304      0.8881589        26.4669708       
0.83             0.892617749      25.9155654       0.437099319      -63.1902692      0.437099319      -63.1902692      0.892617838      25.915566        
0.85             0.896827173      25.384749        0.428745752      -63.7302687      0.428745752      -63.7302687      0.896827263      25.3847496       
0.87             0.900804326      24.8734766       0.420665032      -64.250117       0.420665032      -64.250117       0.900804416      24.8734773       
0.89             0.904565081      24.380766        0.412846054      -64.7508357      0.412846054      -64.7508357      0.904565172      24.3807666       
0.91             0.908124061      23.9056933       0.405278126      -65.2333847      0.405278126      -65.2333847      0.908124152      23.9056939       
0.93             0.911494746      23.4473894       0.397950974      -65.6986657      0.397950974      -65.6986657      0.911494837      23.44739         
0.95             0.914689567      23.0050364       0.390854739      -66.1475265      0.390854739      -66.1475265      0.914689659      23.0050371       
0.97             0.917720003      22.5778646       0.383979972      -66.5807642      0.383979972      -66.5807642      0.917720095      22.5778652       
0.99             0.920596656      22.165149        0.377317628      -66.9991287      0.377317628      -66.9991287      0.920596748      22.1651496       
1.01             0.923329325      21.7662068       0.370859053      -67.4033257      0.370859053      -67.4033257      0.923329418      21.7662075       
1.03             0.925927079      21.3803945       0.364595974      -67.7940198      0.364595974      -67.7940198      0.925927171      21.3803952       
1.05             0.928398311      21.0071056       0.358520488      -68.1718371      0.358520488      -68.1718371      0.928398405      21.0071063       
1.07             0.930750802      20.6457677       0.352625047      -68.5373675      0.352625047      -68.5373675      0.930750896      20.6457684       
1.09             0.932991764      20.2958409       0.346902445      -68.8911677      0.346902445      -68.8911677      0.932991858      20.2958416       
1.11             0.935127891      19.9568154       0.341345803      -69.2337624      0.341345803      -69.2337624      0.935127985      19.9568161       
1.13             0.937165401      19.6282096       0.335948559      -69.5656474      0.335948559      -69.5656474      0.937165495      19.6282103       
1.15             0.939110072      19.3095685       0.33070445       -69.8872908      0.33070445       -69.8872908      0.939110166      19.3095692       
1.17             0.94096728       19.0004617       0.325607501      -70.1991348      0.325607501      -70.1991348      0.940967374      19.0004624       
1.19             0.942742029      18.7004821       0.320652012      -70.5015978      0.320652012      -70.5015978      0.942742123      18.7004828       
1.21             0.944438981      18.4092444       0.315832543      -70.7950756      0.315832543      -70.7950756      0.944439076      18.4092451       
1.23             0.946062483      18.1263837       0.311143903      -71.0799425      0.311143903      -71.0799425      0.946062578      18.1263844       
1.25             0.947616592      17.8515542       0.30658114       -71.3565533      0.30658114       -71.3565533      0.947616687      17.851555        
1.27             0.949105094      17.5844281       0.302139526      -71.6252441      0.302139526      -71.6252441      0.949105189      17.5844289       
1.29             0.950531528      17.3246946       0.297814547      -71.8863337      0.297814547      -71.8863337      0.950531623      17.3246954       
1.31             0.951899204      17.0720586       0.293601895      -72.1401241      0.293601895      -72.1401241      0.951899299      17.0720594       
1.33             0.953211218      16.8262399       0.289497455      -72.3869023      0.289497455      -72.3869023      0.953211314      16.8262407       
1.35             0.954470472      16.5869725       0.285497296      -72.6269407      0.285497296      -72.6269407      0.954470568      16.5869732       
1.37             0.955679682      16.3540033       0.281597662      -72.860498       0.281597662      -72.860498       0.955679778      16.3540041       
1.39             0.956841398      16.127092        0.277794964      -73.0878202      0.277794964      -73.0878202      0.956841495      16.1270928       
1.41             0.957958012      15.9060096       0.274085772      -73.3091412      0.274085772      -73.3091412      0.957958109      15.9060104       
1.43             0.95903177       15.6905384       0.270466804      -73.5246837      0.270466804      -73.5246837      0.959031866      15.6905392       
1.45             0.960064782      15.4804709       0.266934922      -73.7346593      0.266934922      -73.7346593      0.960064878      15.4804718       
1.47             0.961059032      15.2756096       0.263487126      -73.93927        0.263487126      -73.93927        0.961059129      15.2756105       
1.49             0.96201639       15.075766        0.260120541      -74.1387079      0.260120541      -74.1387079      0.962016487      15.0757669       
1.51             0.962938612      14.8807605       0.256832417      -74.3331564      0.256832417      -74.3331564      0.962938709      14.8807614       
1.53             0.963827354      14.6904217       0.253620121      -74.5227902      0.253620121      -74.5227902      0.963827451      14.6904226       
1.55             0.964684179      14.5045859       0.25048113       -74.7077761      0.25048113       -74.7077761      0.964684276      14.5045868       
1.57             0.965510558      14.323097        0.247413027      -74.8882734      0.247413027      -74.8882734      0.965510656      14.3230978       
1.59             0.966307882      14.1458055       0.244413494      -75.0644341      0.244413494      -75.0644341      0.96630798       14.1458064       
1.61             0.967077464      13.9725688       0.24148031       -75.2364035      0.24148031       -75.2364035      0.967077561      13.9725697       
1.63             0.967820543      13.8032505       0.238611344      -75.4043203      0.238611344      -75.4043203      0.96782064       13.8032514       
1.65             0.968538292      13.63772         0.235804554      -75.5683175      0.235804554      -75.5683175      0.96853839       13.6377209       
1.67             0.96923182       13.4758524       0.233057976      -75.728522       0.233057976      -75.728522       0.969231918      13.4758533       
1.69             0.969902177      13.3175281       0.230369728      -75.8850553      0.230369728      -75.8850553      0.969902275      13.317529        
1.71             0.970550358      13.1626325       0.227738002      -76.038034       0.227738002      -76.038034       0.970550456      13.1626334       
1.73             0.971177303      13.0110557       0.225161061      -76.1875694      0.225161061      -76.1875694      0.971177402      13.0110567       
1.75             0.971783907      12.8626927       0.222637236      -76.3337684      0.222637236      -76.3337684      0.971784005      12.8626936       
1.77             0.972371016      12.7174424       0.220164923      -76.4767334      0.220164923      -76.4767334      0.972371114      12.7174433       
1.79             0.972939433      12.575208        0.217742579      -76.6165625      0.217742579      -76.6165625      0.972939531      12.5752089       
1.81             0.973489922      12.4358966       0.215368721      -76.7533499      0.215368721      -76.7533499      0.973490021      12.4358975       
1.83             0.974023208      12.299419        0.213041922      -76.887186       0.213041922      -76.887186       0.974023306      12.2994199       
1.85             0.974539978      12.1656894       0.210760809      -77.0181575      0.210760809      -77.0181575      0.974540077      12.1656904       
1.87             0.975040889      12.0346257       0.20852406       -77.1463478      0.20852406       -77.1463478      0.975040988      12.0346267       
1.89             0.975526563      11.9061486       0.206330403      -77.2718369      0.206330403      -77.2718369      0.975526662      11.9061496       
1.91             0.975997593      11.780182        0.20417861       -77.3947016      0.20417861       -77.3947016      0.975997692      11.7801831       
1.93             0.976454543      11.6566529       0.202067502      -77.5150159      0.202067502      -77.5150159      0.976454642      11.656654        
1.95             0.976897951      11.5354908       0.19999594       -77.6328509      0.19999594       -77.6328509      0.97689805       11.5354919       
1.97             0.977328329      11.416628        0.197962826      -77.7482749      0.197962826      -77.7482749      0.977328428      11.4166291       
1.99             0.977746167      11.2999992       0.195967103      -77.8613537      0.195967103      -77.8613537      0.977746266      11.3000003       
2.01             0.978151928      11.1855417       0.19400775       -77.9721507      0.19400775       -77.9721507      0.978152027      11.1855427       
2.03             0.978546059      11.0731948       0.192083782      -78.0807267      0.192083782      -78.0807267      0.978546158      11.0731959       
2.05             0.978928983      10.9629004       0.190194249      -78.1871406      0.190194249      -78.1871406      0.978929082      10.9629015       
2.07             0.979301105      10.8546021       0.188338235      -78.2914488      0.188338235      -78.2914488      0.979301204      10.8546032       
2.09             0.979662812      10.7482458       0.186514852      -78.3937059      0.186514852      -78.3937059      0.979662912      10.7482468       
2.11             0.980014475      10.6437791       0.184723246      -78.4939644      0.184723246      -78.4939644      0.980014574      10.6437802       
2.13             0.980356446      10.5411516       0.182962591      -78.5922749      0.182962591      -78.5922749      0.980356546      10.5411527       
2.15             0.980689065      10.4403146       0.181232087      -78.6886864      0.181232087      -78.6886864      0.980689164      10.4403158       
2.17             0.981012654      10.3412212       0.179530964      -78.7832459      0.179530964      -78.7832459      0.981012753      10.3412223       
2.19             0.981327523      10.2438258       0.177858474      -78.8759988      0.177858474      -78.8759988      0.981327622      10.243827        
2.21             0.981633968      10.1480847       0.176213896      -78.9669892      0.176213896      -78.9669892      0.981634068      10.1480859       
2.23             0.981932275      10.0539555       0.174596532      -79.0562593      0.174596532      -79.0562593      0.981932374      10.0539566       
2.25             0.982222714      9.96139717       0.173005707      -79.1438502      0.173005707      -79.1438502      0.982222813      9.96139833       
2.27             0.982505546      9.87037018       0.171440766      -79.2298012      0.171440766      -79.2298012      0.982505646      9.87037135       
2.29             0.982781022      9.78083623       0.169901078      -79.3141507      0.169901078      -79.3141507      0.982781122      9.7808374        
2.31             0.983049381      9.69275828       0.16838603       -79.3969355      0.16838603       -79.3969355      0.983049481      9.69275946       
2.33             0.983310854      9.6061005        0.166895028      -79.4781913      0.166895028      -79.4781913      0.983310954      9.60610169       
2.35             0.98356566       9.52082821       0.165427498      -79.5579525      0.165427498      -79.5579525      0.98356576       9.52082941       
2.37             0.983814013      9.43690786       0.163982883      -79.6362527      0.163982883      -79.6362527      0.983814113      9.43690907       
2.39             0.984056116      9.35430693       0.162560643      -79.7131239      0.162560643      -79.7131239      0.984056216      9.35430815       
2.41             0.984292163      9.27299396       0.161160256      -79.7885975      0.161160256      -79.7885975      0.984292264      9.27299519       
2.43             0.984522345      9.19293845       0.159781214      -79.8627036      0.159781214      -79.8627036      0.984522445      9.19293968       
2.45             0.984746839      9.11411085       0.158423026      -79.9354714      0.158423026      -79.9354714      0.98474694       9.1141121        
2.47             0.984965822      9.03648254       0.157085214      -80.0069294      0.157085214      -80.0069294      0.984965922      9.03648379       
2.49             0.985179459      8.96002575       0.155767317      -80.0771048      0.155767317      -80.0771048      0.98517956       8.96002701       
2.51             0.985387911      8.88471357       0.154468885      -80.1460243      0.154468885      -80.1460243      0.985388012      8.88471484       
2.53             0.985591334      8.8105199        0.153189482      -80.2137134      0.153189482      -80.2137134      0.985591435      8.81052118       
2.55             0.985789875      8.73741942       0.151928685      -80.2801972      0.151928685      -80.2801972      0.985789976      8.73742071       
2.57             0.985983679      8.66538756       0.150686084      -80.3454998      0.150686084      -80.3454998      0.98598378       8.66538886       
2.59             0.986172883      8.59440049       0.14946128       -80.4096446      0.14946128       -80.4096446      0.986172984      8.59440179       
