! Coilcraft 1008PS-223 Power Chip Inductor				
! 7 October 2002			
# MHZ S MA R 50
!Freq             MagS11           AngS11           MagS21           AngS21           MagS12           AngS12           MagS22           AngS22
0.05             0.0699506854     71.7196257       0.980311346      -3.88502212      0.980311346      -3.88502212      0.0699506906     71.7196312       
0.072            0.0988667375     74.2698797       0.977838185      -5.58491836      0.977838185      -5.58491836      0.0988667462     74.2698837       
0.094            0.127821819      74.8873782       0.974519082      -7.27476469      0.974519082      -7.27476469      0.127821831      74.8873813       
0.116            0.156576321      74.6534998       0.970380444      -8.95172034      0.970380444      -8.95172034      0.156576335      74.6535024       
0.138            0.184999457      73.9779233       0.965454278      -10.6130791      0.965454278      -10.6130791      0.184999475      73.9779254       
0.16             0.212999308      73.0498466       0.959777554      -12.2562919      0.959777554      -12.2562919      0.212999329      73.0498485       
0.182            0.240503153      71.969058        0.953391496      -13.8789864      0.953391496      -13.8789864      0.240503177      71.9690597       
0.204            0.267450608      70.793485        0.946340822      -15.4789821      0.946340822      -15.4789821      0.267450634      70.7934865       
0.226            0.293790843      69.5592854       0.93867297       -17.0543016      0.93867297       -17.0543016      0.293790872      69.5592868       
0.248            0.319481282      68.2903394       0.930437315      -18.6031783      0.930437315      -18.6031783      0.319481314      68.2903407       
0.27             0.344486872      67.0031342       0.921684411      -20.1240597      0.921684411      -20.1240597      0.344486906      67.0031354       
0.292            0.368779564      65.709456        0.912465282      -21.6156074      0.912465282      -21.6156074      0.368779601      65.7094571       
0.314            0.392337863      64.4179594       0.902830762      -23.0766935      0.902830762      -23.0766935      0.392337902      64.4179605       
0.336            0.415146384      63.1351267       0.892830913      -24.5063949      0.892830913      -24.5063949      0.415146425      63.1351278       
0.358            0.437195392      61.8658795       0.882514514      -25.9039843      0.882514514      -25.9039843      0.437195435      61.8658805       
0.38             0.458480318      60.6139831       0.871928629      -27.26892        0.871928629      -27.26892        0.458480364      60.6139841       
0.402            0.47900127       59.3823239       0.86111826       -28.6008339      0.86111826       -28.6008339      0.479001318      59.3823249       
0.424            0.498762527      58.173105        0.85012607       -29.8995187      0.85012607       -29.8995187      0.498762577      58.1731059       
0.446            0.517772045      56.9879882       0.838992185      -31.1649139      0.838992185      -31.1649139      0.517772096      56.9879891       
0.468            0.536040967      55.8282007       0.827754058      -32.3970927      0.827754058      -32.3970927      0.536041021      55.8282016       
0.49             0.553583163      54.6946167       0.816446398      -33.5962473      0.816446398      -33.5962473      0.553583219      54.6946176       
0.512            0.570414783      53.5878208       0.805101141      -34.7626759      0.805101141      -34.7626759      0.57041484       53.5878217       
0.534            0.586553847      52.5081592       0.793747474      -35.8967694      0.793747474      -35.8967694      0.586553906      52.50816         
0.556            0.602019871      51.4557807       0.782411893      -36.9989989      0.782411893      -36.9989989      0.602019931      51.4557816       
0.578            0.61683352       50.4306715       0.771118286      -38.0699039      0.771118286      -38.0699039      0.616833582      50.4306723       
0.6              0.631016302      49.4326823       0.759888045      -39.1100816      0.759888045      -39.1100816      0.631016365      49.4326832       
0.622            0.644590294      48.4615533       0.74874019       -40.1201763      0.74874019       -40.1201763      0.644590359      48.4615541       
0.644            0.657577902      47.5169333       0.737691507      -41.100871       0.737691507      -41.100871       0.657577968      47.5169341       
0.666            0.670001656      46.5983974       0.726756693      -42.0528782      0.726756693      -42.0528782      0.670001723      46.5983982       
0.688            0.681884027      45.7054611       0.7159485        -42.9769331      0.7159485        -42.9769331      0.681884095      45.7054619       
0.71             0.693247283      44.837593        0.70527789       -43.8737866      0.70527789       -43.8737866      0.693247352      44.8375938       
0.732            0.704113359      43.9942251       0.694754174      -44.7441995      0.694754174      -44.7441995      0.70411343       43.994226        
0.754            0.714503757      43.1747623       0.68438516       -45.5889372      0.68438516       -45.5889372      0.714503829      43.1747631       
0.776            0.724439461      42.3785894       0.674177285      -46.4087658      0.674177285      -46.4087658      0.724439534      42.3785902       
0.798            0.733940873      41.6050782       0.664135747      -47.2044472      0.664135747      -47.2044472      0.733940946      41.605079        
0.82             0.743027762      40.853593        0.654264628      -47.976737       0.654264628      -47.976737       0.743027837      40.8535938       
0.842            0.751719233      40.1234948       0.644567008      -48.7263807      0.644567008      -48.7263807      0.751719308      40.1234957       
0.864            0.760033694      39.4141461       0.635045071      -49.454112       0.635045071      -49.454112       0.76003377       39.4141469       
0.886            0.767988849      38.7249131       0.625700208      -50.1606508      0.625700208      -50.1606508      0.767988926      38.7249139       
0.908            0.775601687      38.0551694       0.616533103      -50.8467014      0.616533103      -50.8467014      0.775601765      38.0551703       
0.93             0.782888484      37.4042978       0.607543821      -51.5129514      0.607543821      -51.5129514      0.782888563      37.4042986       
0.952            0.789864808      36.7716918       0.598731883      -52.1600709      0.598731883      -52.1600709      0.789864888      36.7716927       
0.974            0.796545532      36.1567579       0.590096333      -52.7887114      0.590096333      -52.7887114      0.796545612      36.1567587       
0.996            0.802944846      35.5589157       0.581635806      -53.3995059      0.581635806      -53.3995059      0.802944927      35.5589166       
1.018            0.809076275      34.9775997       0.57334858       -53.9930681      0.57334858       -53.9930681      0.809076356      34.9776006       
1.04             0.814952699      34.4122595       0.56523263       -54.5699924      0.56523263       -54.5699924      0.814952781      34.4122603       
1.062            0.820586376      33.86236         0.557285675      -55.1308539      0.557285675      -55.1308539      0.820586458      33.8623609       
1.084            0.82598896       33.3273823       0.549505214      -55.6762086      0.549505214      -55.6762086      0.825989043      33.3273832       
1.106            0.831171529      32.8068234       0.541888568      -56.2065932      0.541888568      -56.2065932      0.831171613      32.8068243       
1.128            0.836144606      32.3001963       0.534432912      -56.7225259      0.534432912      -56.7225259      0.83614469       32.3001972       
1.15             0.840918182      31.8070302       0.527135302      -57.2245064      0.527135302      -57.2245064      0.840918266      31.8070311       
1.172            0.845501742      31.3268697       0.519992701      -57.7130164      0.519992701      -57.7130164      0.845501827      31.3268707       
1.194            0.849904289      30.8592755       0.513002003      -58.1885199      0.513002003      -58.1885199      0.849904374      30.8592764       
1.216            0.854134361      30.4038233       0.506160052      -58.6514637      0.506160052      -58.6514637      0.854134447      30.4038243       
1.238            0.858200061      29.960104        0.499463659      -59.1022781      0.499463659      -59.1022781      0.858200147      29.960105        
1.26             0.862109073      29.5277231       0.492909621      -59.541377       0.492909621      -59.541377       0.86210916       29.527724        
1.282            0.865868688      29.1063003       0.486494728      -59.9691586      0.486494728      -59.9691586      0.865868775      29.1063013       
1.304            0.869485817      28.6954694       0.480215779      -60.3860062      0.480215779      -60.3860062      0.869485905      28.6954704       
1.326            0.872967019      28.2948777       0.474069592      -60.7922882      0.474069592      -60.7922882      0.872967107      28.2948786       
1.348            0.876318514      27.9041852       0.468053009      -61.1883589      0.468053009      -61.1883589      0.876318602      27.9041862       
1.37             0.8795462        27.5230651       0.462162908      -61.574559       0.462162908      -61.574559       0.879546289      27.5230661       
1.392            0.882655676      27.1512024       0.456396207      -61.9512161      0.456396207      -61.9512161      0.882655765      27.1512035       
1.414            0.885652251      26.7882942       0.450749866      -62.3186451      0.450749866      -62.3186451      0.885652341      26.7882952       
1.436            0.888540967      26.4340487       0.445220897      -62.6771487      0.445220897      -62.6771487      0.888541056      26.4340498       
1.458            0.891326604      26.0881854       0.439806366      -63.027018       0.439806366      -63.027018       0.891326694      26.0881864       
1.48             0.894013703      25.750434        0.434503392      -63.3685328      0.434503392      -63.3685328      0.894013794      25.7504351       
1.502            0.896606576      25.4205348       0.429309153      -63.7019623      0.429309153      -63.7019623      0.896606666      25.4205358       
1.524            0.899109315      25.0982374       0.424220887      -64.0275651      0.424220887      -64.0275651      0.899109406      25.0982385       
1.546            0.901525809      24.7833013       0.419235894      -64.34559        0.419235894      -64.34559        0.9015259        24.7833024       
1.568            0.903859752      24.4754947       0.414351534      -64.6562763      0.414351534      -64.6562763      0.903859843      24.4754957       
1.59             0.906114655      24.1745945       0.409565231      -64.9598541      0.409565231      -64.9598541      0.906114747      24.1745956       
1.612            0.908293855      23.8803861       0.404874471      -65.2565448      0.404874471      -65.2565448      0.908293947      23.8803872       
1.634            0.910400524      23.5926629       0.400276803      -65.5465612      0.400276803      -65.5465612      0.910400616      23.592664        
1.656            0.912437681      23.3112259       0.395769838      -65.8301084      0.395769838      -65.8301084      0.912437774      23.311227        
1.678            0.914408196      23.0358834       0.391351248      -66.1073835      0.391351248      -66.1073835      0.914408289      23.0358845       
1.7              0.916314801      22.7664509       0.387018769      -66.3785763      0.387018769      -66.3785763      0.916314894      22.766452        
1.722            0.918160096      22.5027507       0.382770194      -66.6438695      0.382770194      -66.6438695      0.918160189      22.5027519       
1.744            0.919946557      22.2446116       0.378603379      -66.903439       0.378603379      -66.903439       0.91994665       22.2446128       
1.766            0.921676541      21.9918686       0.374516235      -67.1574542      0.374516235      -67.1574542      0.921676635      21.9918698       
1.788            0.923352296      21.7443627       0.370506734      -67.4060782      0.370506734      -67.4060782      0.923352389      21.7443639       
1.81             0.924975961      21.5019408       0.366572902      -67.6494682      0.366572902      -67.6494682      0.924976055      21.501942        
1.832            0.926549578      21.2644551       0.362712821      -67.8877756      0.362712821      -67.8877756      0.926549672      21.2644563       
1.854            0.928075092      21.0317632       0.358924628      -68.1211463      0.358924628      -68.1211463      0.928075186      21.0317644       
1.876            0.92955436       20.8037278       0.355206511      -68.349721       0.355206511      -68.349721       0.929554454      20.803729        
1.898            0.930989152      20.5802165       0.351556711      -68.5736352      0.351556711      -68.5736352      0.930989247      20.5802177       
1.92             0.932381158      20.3611015       0.347973518      -68.7930197      0.347973518      -68.7930197      0.932381253      20.3611027       
1.942            0.933731993      20.1462595       0.344455272      -69.0080007      0.344455272      -69.0080007      0.933732088      20.1462607       
1.964            0.935043197      19.9355715       0.341000359      -69.2186996      0.341000359      -69.2186996      0.935043292      19.9355727       
1.986            0.936316242      19.7289227       0.337607214      -69.425234       0.337607214      -69.425234       0.936316337      19.728924        
2.008            0.937552534      19.5262022       0.334274315      -69.627717       0.334274315      -69.627717       0.93755263       19.5262035       
2.03             0.938753419      19.3273031       0.331000183      -69.826258       0.331000183      -69.826258       0.938753515      19.3273044       
2.052            0.939920182      19.1321218       0.327783385      -70.0209625      0.327783385      -70.0209625      0.939920278      19.1321231       
2.074            0.941054053      18.9405584       0.324622525      -70.2119324      0.324622525      -70.2119324      0.941054149      18.9405598       
2.096            0.942156208      18.7525166       0.321516251      -70.3992661      0.321516251      -70.3992661      0.942156304      18.7525179       
2.118            0.943227772      18.567903        0.318463248      -70.5830588      0.318463248      -70.5830588      0.943227869      18.5679043       
2.14             0.944269824      18.3866274       0.315462239      -70.7634022      0.315462239      -70.7634022      0.944269921      18.3866287       
2.162            0.945283396      18.2086027       0.312511984      -70.9403852      0.312511984      -70.9403852      0.945283492      18.2086041       
2.184            0.946269475      18.0337446       0.309611278      -71.1140935      0.309611278      -71.1140935      0.946269572      18.033746        
2.206            0.94722901       17.8619716       0.306758951      -71.2846103      0.306758951      -71.2846103      0.947229107      17.861973        
2.228            0.948162907      17.6932049       0.303953866      -71.4520156      0.303953866      -71.4520156      0.948163004      17.6932063       
2.25             0.949072037      17.5273681       0.301194919      -71.6163871      0.301194919      -71.6163871      0.949072134      17.5273695       
2.272            0.949957235      17.3643873       0.298481037      -71.7777998      0.298481037      -71.7777998      0.949957332      17.3643887       
2.294            0.9508193        17.2041912       0.295811177      -71.9363265      0.295811177      -71.9363265      0.950819397      17.2041926       
2.316            0.951659001      17.0467104       0.293184326      -72.0920374      0.293184326      -72.0920374      0.951659098      17.0467119       
2.338            0.952477075      16.8918781       0.2905995        -72.2450005      0.2905995        -72.2450005      0.952477172      16.8918795       
2.36             0.953274229      16.7396292       0.288055741      -72.3952817      0.288055741      -72.3952817      0.953274327      16.7396307       
2.382            0.954051143      16.589901        0.285552121      -72.5429448      0.285552121      -72.5429448      0.954051241      16.5899024       
2.404            0.95480847       16.4426324       0.283087734      -72.6880516      0.283087734      -72.6880516      0.954808568      16.4426339       
2.426            0.955546836      16.2977645       0.280661702      -72.830662       0.280661702      -72.830662       0.955546934      16.297766        
2.448            0.956266845      16.15524         0.278273171      -72.9708339      0.278273171      -72.9708339      0.956266943      16.1552415       
2.47             0.956969076      16.0150034       0.275921309      -73.1086236      0.275921309      -73.1086236      0.956969174      16.0150049       
2.492            0.957654085      15.877001        0.273605308      -73.2440855      0.273605308      -73.2440855      0.957654184      15.8770025       
2.514            0.958322409      15.7411805       0.271324384      -73.3772724      0.271324384      -73.3772724      0.958322508      15.7411821       
2.536            0.958974563      15.6074914       0.26907777       -73.5082356      0.26907777       -73.5082356      0.958974662      15.607493        
2.558            0.959611044      15.4758846       0.266864724      -73.6370247      0.266864724      -73.6370247      0.959611142      15.4758861       
2.58             0.960232327      15.3463123       0.264684522      -73.7636878      0.264684522      -73.7636878      0.960232426      15.3463138       
2.602            0.960838875      15.2187283       0.262536461      -73.8882718      0.262536461      -73.8882718      0.960838974      15.2187299       
2.624            0.961431128      15.0930878       0.260419855      -74.0108219      0.260419855      -74.0108219      0.961431227      15.0930894       
2.646            0.962009513      14.9693472       0.258334038      -74.1313821      0.258334038      -74.1313821      0.962009612      14.9693488       
2.668            0.962574442      14.847464        0.256278361      -74.2499953      0.256278361      -74.2499953      0.962574541      14.8474656       
2.69             0.963126309      14.7273973       0.254252191      -74.3667028      0.254252191      -74.3667028      0.963126409      14.7273989       
2.712            0.963665498      14.609107        0.252254916      -74.4815449      0.252254916      -74.4815449      0.963665598      14.6091086       
2.734            0.964192375      14.4925544       0.250285934      -74.5945607      0.250285934      -74.5945607      0.964192475      14.492556        
2.756            0.964707296      14.3777016       0.248344664      -74.7057883      0.248344664      -74.7057883      0.964707396      14.3777033       
2.778            0.965210603      14.2645122       0.246430538      -74.8152645      0.246430538      -74.8152645      0.965210703      14.2645139       
2.8              0.965702627      14.1529504       0.244543002      -74.9230252      0.244543002      -74.9230252      0.965702727      14.1529521       
2.822            0.966183685      14.0429816       0.242681517      -75.0291052      0.242681517      -75.0291052      0.966183786      14.0429833       
2.844            0.966654087      13.9345721       0.240845559      -75.1335384      0.240845559      -75.1335384      0.966654187      13.9345738       
