! Coilcraft 1008PS-683 Power Chip Inductor				
! 7 October 2002			
# MHZ S MA R 50
!Freq             MagS11           AngS11           MagS21           AngS21           MagS12           AngS12           MagS22           AngS22
0.05             0.204688002      67.2687608       0.940058695      -11.585338       0.940058695      -11.585338       0.20468802       67.2687651       
0.067            0.267726417      66.2433191       0.925185481      -15.3583693      0.925185481      -15.3583693      0.267726442      66.2433224       
0.084            0.327814171      64.2550815       0.907016887      -18.9985623      0.907016887      -18.9985623      0.327814202      64.2550842       
0.101            0.384306534      61.8685953       0.88616805       -22.4850273      0.88616805       -22.4850273      0.384306571      61.8685975       
0.118            0.436852424      59.3343117       0.863264714      -25.803127       0.863264714      -25.803127       0.436852467      59.3343136       
0.135            0.485307126      56.7794732       0.838903565      -28.9441001      0.838903565      -28.9441001      0.485307174      56.7794749       
0.152            0.529680648      54.2736351       0.81362437       -31.9043442      0.81362437       -31.9043442      0.5296807        54.2736365       
0.169            0.570096266      51.8557353       0.787893958      -34.6845178      0.787893958      -34.6845178      0.570096322      51.8557366       
0.186            0.606755135      49.5469922       0.762100274      -37.2885993      0.762100274      -37.2885993      0.606755195      49.5469934       
0.203            0.639906873      47.3577864       0.736553884      -39.7229995      0.736553884      -39.7229995      0.639906937      47.3577875       
0.22             0.669826302      45.2916702       0.711494308      -41.9957839      0.711494308      -41.9957839      0.669826369      45.2916713       
0.237            0.696796031      43.347859        0.687098914      -44.1160297      0.687098914      -44.1160297      0.6967961        43.3478599       
0.254            0.721094152      41.5228461       0.663492723      -46.0933201      0.663492723      -46.0933201      0.721094224      41.522847        
0.271            0.742986123      39.8114781       0.640758017      -47.9373623      0.640758017      -47.9373623      0.742986197      39.8114789       
0.288            0.762719881      38.2076772       0.618943101      -49.6577134      0.618943101      -49.6577134      0.762719957      38.2076781       
0.305            0.78052334       36.7049295       0.598069928      -51.2635913      0.598069928      -51.2635913      0.780523418      36.7049303       
0.322            0.796603549      35.2966095       0.578140498      -52.7637544      0.578140498      -52.7637544      0.796603628      35.2966103       
0.339            0.811146972      33.9761935       0.55914208       -54.1664312      0.55914208       -54.1664312      0.811147053      33.9761942       
0.356            0.824320461      32.7373946       0.5410514        -55.4792874      0.5410514        -55.4792874      0.824320543      32.7373953       
0.373            0.836272628      31.5742437       0.523837915      -56.7094195      0.523837915      -56.7094195      0.836272711      31.5742444       
0.39             0.847135406      30.4811327       0.50746635       -57.863366       0.50746635       -57.863366       0.84713549       30.4811333       
0.407            0.857025666      29.452833        0.491898623      -58.9471299      0.491898623      -58.9471299      0.857025752      29.4528336       
0.424            0.866046801      28.4844965       0.477095289      -59.9662096      0.477095289      -59.9662096      0.866046887      28.4844971       
0.441            0.874290213      27.5716461       0.4630166        -60.9256318      0.4630166        -60.9256318      0.874290301      27.5716467       
0.458            0.881836701      26.710159        0.449623268      -61.8299872      0.449623268      -61.8299872      0.881836789      26.7101596       
0.475            0.888757707      25.896246        0.436877006      -62.6834653      0.436877006      -62.6834653      0.888757795      25.8962465       
0.492            0.895116438      25.1264293       0.424740889      -63.4898891      0.424740889      -63.4898891      0.895116527      25.1264298       
0.509            0.900968868      24.3975195       0.413179586      -64.2527466      0.413179586      -64.2527466      0.900968958      24.39752         
0.526            0.906364619      23.7065925       0.402159503      -64.975222       0.402159503      -64.975222       0.906364709      23.706593        
0.543            0.911347736      23.0509678       0.391648838      -65.660223       0.391648838      -65.660223       0.911347827      23.0509683       
0.56             0.91595737       22.4281876       0.381617602      -66.3104067      0.381617602      -66.3104067      0.915957462      22.4281881       
0.577            0.92022837       21.8359976       0.37203759       -66.9282035      0.37203759       -66.9282035      0.920228461      21.835998        
0.594            0.924191804      21.2723285       0.362882332      -67.515838       0.362882332      -67.515838       0.924191896      21.272329        
0.611            0.927875416      20.7352802       0.354127028      -68.0753488      0.354127028      -68.0753488      0.927875508      20.7352806       
0.628            0.931304019      20.2231059       0.345748466      -68.6086054      0.345748466      -68.6086054      0.931304112      20.2231063       
0.645            0.934499843      19.7341988       0.337724943      -69.1173248      0.337724943      -69.1173248      0.934499937      19.7341993       
0.662            0.937482835      19.2670795       0.330036177      -69.6030851      0.330036177      -69.6030851      0.937482929      19.2670799       
0.679            0.940270923      18.8203842       0.322663218      -70.0673386      0.322663218      -70.0673386      0.940271017      18.8203846       
0.696            0.94288025       18.3928547       0.315588365      -70.5114234      0.315588365      -70.5114234      0.942880344      18.3928552       
0.713            0.945325369      17.9833292       0.308795086      -70.9365737      0.308795086      -70.9365737      0.945325463      17.9833297       
0.73             0.947619428      17.5907334       0.302267932      -71.343929       0.302267932      -71.343929       0.947619523      17.5907338       
0.747            0.949774321      17.2140731       0.295992471      -71.734543       0.295992471      -71.734543       0.949774415      17.2140735       
0.764            0.951800822      16.8524272       0.289955208      -72.1093908      0.289955208      -72.1093908      0.951800917      16.8524276       
0.781            0.95370871       16.5049416       0.284143527      -72.4693759      0.284143527      -72.4693759      0.953708805      16.504942        
0.798            0.955506873      16.1708231       0.278545624      -72.8153363      0.278545624      -72.8153363      0.955506969      16.1708234       
0.815            0.9572034        15.8493347       0.273150449      -73.1480503      0.273150449      -73.1480503      0.957203495      15.8493351       
0.832            0.958805662      15.5397908       0.267947653      -73.4682413      0.267947653      -73.4682413      0.958805758      15.5397912       
0.849            0.960320391      15.2415528       0.262927542      -73.7765825      0.262927542      -73.7765825      0.960320487      15.2415532       
0.866            0.961753738      14.9540257       0.258081021      -74.0737012      0.258081021      -74.0737012      0.961753834      14.954026        
0.883            0.963111333      14.6766539       0.253399562      -74.360182       0.253399562      -74.360182       0.96311143       14.6766542       
0.9              0.964398338      14.4089187       0.248875155      -74.6365709      0.248875155      -74.6365709      0.964398435      14.4089191       
0.917            0.965619489      14.1503353       0.244500278      -74.9033779      0.244500278      -74.9033779      0.965619585      14.1503357       
0.934            0.966779136      13.9004498       0.240267859      -75.1610802      0.240267859      -75.1610802      0.966779233      13.9004501       
0.951            0.967881285      13.6588372       0.236171246      -75.4101242      0.236171246      -75.4101242      0.967881382      13.6588375       
0.968            0.968929624      13.425099        0.232204177      -75.6509284      0.232204177      -75.6509284      0.968929721      13.4250994       
0.985            0.969927554      13.1988614       0.228360755      -75.8838852      0.228360755      -75.8838852      0.969927651      13.1988618       
1.002            0.970878215      12.9797734       0.224635422      -76.1093629      0.224635422      -76.1093629      0.970878312      12.9797738       
1.019            0.971784511      12.7675049       0.221022937      -76.3277078      0.221022937      -76.3277078      0.971784608      12.7675052       
1.036            0.972649127      12.5617455       0.217518352      -76.5392451      0.217518352      -76.5392451      0.972649224      12.5617459       
1.053            0.973474553      12.3622031       0.214116996      -76.7442811      0.214116996      -76.7442811      0.97347465       12.3622035       
1.07             0.974263095      12.1686023       0.210814454      -76.9431043      0.210814454      -76.9431043      0.974263193      12.1686026       
1.087            0.975016897      11.9806835       0.207606553      -77.1359863      0.207606553      -77.1359863      0.975016994      11.9806838       
1.104            0.975737948      11.7982017       0.204489344      -77.3231838      0.204489344      -77.3231838      0.975738046      11.798202        
1.121            0.9764281        11.6209256       0.201459087      -77.5049388      0.201459087      -77.5049388      0.976428198      11.620926        
1.138            0.977089077      11.4486366       0.198512242      -77.6814798      0.198512242      -77.6814798      0.977089175      11.448637        
1.155            0.977722486      11.281128        0.195645453      -77.8530233      0.195645453      -77.8530233      0.977722583      11.2811283       
1.172            0.978329823      11.118204        0.192855534      -78.0197735      0.192855534      -78.0197735      0.978329921      11.1182044       
1.189            0.978912489      10.9596795       0.190139465      -78.1819243      0.190139465      -78.1819243      0.978912587      10.9596799       
1.206            0.97947179       10.8053788       0.187494378      -78.339659       0.187494378      -78.339659       0.979471888      10.8053792       
1.223            0.980008948      10.6551355       0.184917546      -78.4931515      0.184917546      -78.4931515      0.980009046      10.6551358       
1.24             0.980525107      10.5087915       0.182406379      -78.6425668      0.182406379      -78.6425668      0.980525205      10.5087919       
1.257            0.981021339      10.3661969       0.179958412      -78.7880614      0.179958412      -78.7880614      0.981021437      10.3661973       
1.274            0.981498649      10.2272092       0.177571302      -78.929784       0.177571302      -78.929784       0.981498747      10.2272096       
1.291            0.981957978      10.0916929       0.175242814      -79.0678759      0.175242814      -79.0678759      0.981958076      10.0916933       
1.308            0.982400212      9.9595192        0.172970823      -79.2024715      0.172970823      -79.2024715      0.98240031       9.95951955       
1.325            0.982826182      9.83056541       0.1707533        -79.3336986      0.1707533        -79.3336986      0.98282628       9.83056577       
1.342            0.98323667       9.7047148        0.168588312      -79.461679       0.168588312      -79.461679       0.983236768      9.70471515       
1.359            0.983632411      9.58185609       0.166474015      -79.5865286      0.166474015      -79.5865286      0.98363251       9.58185644       
1.376            0.984014099      9.46188324       0.164408649      -79.7083578      0.164408649      -79.7083578      0.984014197      9.46188359       
1.393            0.984382385      9.34469507       0.162390531      -79.8272719      0.162390531      -79.8272719      0.984382484      9.34469543       
1.41             0.984737886      9.23019506       0.160418056      -79.9433716      0.160418056      -79.9433716      0.984737984      9.23019541       
1.427            0.985081181      9.11829101       0.158489687      -80.0567527      0.158489687      -80.0567527      0.98508128       9.11829137       
1.444            0.985412819      9.0088949        0.156603956      -80.1675069      0.156603956      -80.1675069      0.985412918      9.00889525       
1.461            0.985733318      8.90192256       0.154759457      -80.2757215      0.154759457      -80.2757215      0.985733417      8.90192291       
1.478            0.986043168      8.79729352       0.152954846      -80.3814805      0.152954846      -80.3814805      0.986043266      8.79729388       
1.495            0.98634283       8.69493082       0.151188835      -80.4848636      0.151188835      -80.4848636      0.986342929      8.69493118       
1.512            0.986632744      8.59476078       0.14946019       -80.5859476      0.14946019       -80.5859476      0.986632843      8.59476114       
1.529            0.986913325      8.49671286       0.147767728      -80.6848057      0.147767728      -80.6848057      0.986913424      8.49671322       
1.546            0.987184965      8.40071948       0.146110314      -80.781508       0.146110314      -80.781508       0.987185064      8.40071984       
1.563            0.987448037      8.30671588       0.144486863      -80.8761219      0.144486863      -80.8761219      0.987448136      8.30671624       
1.58             0.987702895      8.21463998       0.142896329      -80.9687117      0.142896329      -80.9687117      0.987702994      8.21464034       
1.597            0.987949875      8.12443221       0.141337711      -81.0593392      0.141337711      -81.0593392      0.987949974      8.12443258       
1.614            0.988189294      8.03603544       0.139810047      -81.1480637      0.139810047      -81.1480637      0.988189393      8.03603581       
1.631            0.988421456      7.94939481       0.138312413      -81.2349422      0.138312413      -81.2349422      0.988421555      7.94939517       
1.648            0.988646648      7.86445764       0.13684392       -81.3200291      0.13684392       -81.3200291      0.988646747      7.864458         
1.665            0.988865144      7.78117331       0.135403714      -81.4033769      0.135403714      -81.4033769      0.988865243      7.78117367       
1.682            0.989077205      7.69949318       0.133990974      -81.4850361      0.133990974      -81.4850361      0.989077304      7.69949355       
1.699            0.989283077      7.6193705        0.132604909      -81.565055       0.132604909      -81.565055       0.989283176      7.61937087       
1.716            0.989482997      7.54076029       0.13124476       -81.6434801      0.13124476       -81.6434801      0.989483096      7.54076066       
1.733            0.989677189      7.46361927       0.129909794      -81.7203563      0.129909794      -81.7203563      0.989677288      7.46361964       
1.75             0.989865869      7.3879058        0.128599306      -81.7957266      0.128599306      -81.7957266      0.989865968      7.38790617       
1.767            0.99004924       7.31357978       0.127312616      -81.8696325      0.127312616      -81.8696325      0.990049339      7.31358015       
1.784            0.990227497      7.24060258       0.12604907       -81.9421139      0.12604907       -81.9421139      0.990227596      7.24060295       
1.801            0.990400827      7.16893699       0.124808038      -82.0132091      0.124808038      -82.0132091      0.990400926      7.16893736       
1.818            0.990569407      7.09854715       0.123588909      -82.0829554      0.123588909      -82.0829554      0.990569506      7.09854753       
1.835            0.990733407      7.0293985        0.122391098      -82.1513882      0.122391098      -82.1513882      0.990733506      7.02939887       
1.852            0.990892989      6.96145767       0.121214038      -82.2185421      0.121214038      -82.2185421      0.990893088      6.96145805       
1.869            0.991048308      6.89469251       0.120057182      -82.2844501      0.120057182      -82.2844501      0.991048407      6.89469289       
1.886            0.991199512      6.82907198       0.118920003      -82.3491444      0.118920003      -82.3491444      0.991199612      6.82907235       
1.903            0.991346744      6.7645661        0.11780199       -82.4126557      0.11780199       -82.4126557      0.991346844      6.76456648       
1.92             0.99149014       6.70114594       0.116702651      -82.4750138      0.116702651      -82.4750138      0.991490239      6.70114632       
1.937            0.991629828      6.63878357       0.11562151       -82.5362475      0.11562151       -82.5362475      0.991629928      6.63878395       
1.954            0.991765935      6.57745197       0.114558107      -82.5963846      0.114558107      -82.5963846      0.991766034      6.57745235       
1.971            0.991898578      6.51712506       0.113511999      -82.6554519      0.113511999      -82.6554519      0.991898678      6.51712544       
1.988            0.992027874      6.4577776        0.112482753      -82.7134752      0.112482753      -82.7134752      0.992027973      6.45777799       
2.005            0.992153931      6.39938521       0.111469955      -82.7704798      0.111469955      -82.7704798      0.99215403       6.3993856        
2.022            0.992276854      6.3419243        0.110473202      -82.8264896      0.110473202      -82.8264896      0.992276953      6.34192469       
2.039            0.992396745      6.28537203       0.109492104      -82.8815283      0.109492104      -82.8815283      0.992396844      6.28537242       
2.056            0.9925137        6.22970632       0.108526285      -82.9356184      0.108526285      -82.9356184      0.992513799      6.22970672       
2.073            0.992627813      6.17490579       0.107575377      -82.9887818      0.107575377      -82.9887818      0.992627912      6.17490619       
2.09             0.992739173      6.12094973       0.106639029      -83.0410397      0.106639029      -83.0410397      0.992739272      6.12095013       
2.107            0.992847865      6.06781809       0.105716897      -83.0924126      0.105716897      -83.0924126      0.992847965      6.06781849       
2.124            0.992953973      6.01549145       0.104808649      -83.1429204      0.104808649      -83.1429204      0.992954073      6.01549185       
2.141            0.993057576      5.96395098       0.103913963      -83.1925823      0.103913963      -83.1925823      0.993057675      5.96395138       
2.158            0.993158749      5.91317845       0.103032527      -83.2414169      0.103032527      -83.2414169      0.993158849      5.91317885       
2.175            0.993257567      5.86315616       0.102164037      -83.2894423      0.102164037      -83.2894423      0.993257667      5.86315657       
2.192            0.9933541        5.81386698       0.101308202      -83.3366759      0.101308202      -83.3366759      0.9933542        5.81386738       
2.209            0.993448416      5.76529426       0.100464735      -83.3831347      0.100464735      -83.3831347      0.993448515      5.76529467       
