! Coilcraft 1008PS-154 Power Chip Inductor				
! 7 October 2002			
# MHZ S MA R 50
!Freq             MagS11           AngS11           MagS21           AngS21           MagS12           AngS12           MagS22           AngS22
0.05             0.407840734      57.9534791       0.856461915      -23.8052505      0.856461915      -23.8052505      0.407840771      57.9534823       
0.0586           0.462723075      55.5919013       0.83135911       -27.3356537      0.83135911       -27.3356537      0.462723118      55.591904        
0.0672           0.512840797      53.1467538       0.804881995      -30.6532585      0.804881995      -30.6532585      0.512840846      53.1467562       
0.0758           0.558256654      50.7190965       0.77766326       -33.7564459      0.77766326       -33.7564459      0.558256707      50.7190986       
0.0844           0.599176317      48.3648523       0.750229826      -36.6488291      0.750229826      -36.6488291      0.599176375      48.3648542       
0.093            0.635893947      46.1143604       0.723001115      -39.3378541      0.723001115      -39.3378541      0.635894009      46.1143622       
0.1016           0.668750881      43.9827065       0.696296601      -41.8335552      0.696296601      -41.8335552      0.668750947      43.9827081       
0.1102           0.698105594      41.9756386       0.670348439      -44.1475279      0.670348439      -44.1475279      0.698105662      41.9756401       
0.1188           0.724313059      40.093156        0.645315979      -46.2921293      0.645315979      -46.2921293      0.72431313       40.0931574       
0.1274           0.74771157       38.3317699       0.621300112      -48.2798879      0.621300112      -48.2798879      0.747711644      38.3317712       
0.136            0.768615131      36.6859574       0.598356252      -50.1230906      0.598356252      -50.1230906      0.768615207      36.6859586       
0.1446           0.787309808      35.1491073       0.576505446      -51.8335106      0.576505446      -51.8335106      0.787309886      35.1491085       
0.1532           0.804052748      33.7141325       0.555743515      -53.4222422      0.555743515      -53.4222422      0.804052828      33.7141336       
0.1618           0.819072892      32.3738629       0.53604833       -54.899613       0.53604833       -54.899613       0.819072973      32.3738639       
0.1704           0.832572675      31.1212911       0.517385482      -56.2751521      0.517385482      -56.2751521      0.832572758      31.1212921       
0.179            0.844730252      29.9497202       0.499712597      -57.5575946      0.499712597      -57.5575946      0.844730336      29.9497211       
0.1876           0.855701909      28.8528455       0.48298257       -58.7549103      0.48298257       -58.7549103      0.855701994      28.8528464       
0.1962           0.865624487      27.8247934       0.467145931      -59.8743463      0.467145931      -59.8743463      0.865624573      27.8247942       
0.2048           0.874617675      26.8601313       0.452152554      -60.922478       0.452152554      -60.922478       0.874617762      26.8601322       
0.2134           0.882786137      25.9538611       0.43795286       -61.9052627      0.43795286       -61.9052627      0.882786224      25.9538619       
0.222            0.890221418      25.1013999       0.424498635      -62.8280934      0.424498635      -62.8280934      0.890221507      25.1014007       
0.2306           0.897003654      24.2985564       0.411743567      -63.6958509      0.411743567      -63.6958509      0.897003743      24.2985571       
0.2392           0.903203063      23.5415031       0.399643574      -64.512953       0.399643574      -64.512953       0.903203153      23.5415038       
0.2478           0.908881257      22.826748        0.388156984      -65.2834         0.388156984      -65.2834         0.908881348      22.8267487       
0.2564           0.914092378      22.1511062       0.377244605      -66.0108168      0.377244605      -66.0108168      0.914092469      22.1511069       
0.265            0.918884085      21.5116734       0.366869721      -66.6984906      0.366869721      -66.6984906      0.918884177      21.511674        
0.2736           0.923298403      20.9057997       0.356998032      -67.3494057      0.356998032      -67.3494057      0.923298495      20.9058004       
0.2822           0.927372457      20.331067        0.347597568      -67.9662744      0.347597568      -67.9662744      0.92737255       20.3310676       
0.2908           0.931139111      19.7852663       0.338638574      -68.5515643      0.338638574      -68.5515643      0.931139204      19.7852669       
0.2994           0.934627506      19.2663783       0.330093392      -69.1075239      0.330093392      -69.1075239      0.934627599      19.266379        
0.308            0.937863538      18.7725557       0.321936323      -69.6362042      0.321936323      -69.6362042      0.937863631      18.7725562       
0.3166           0.940870261      18.3021059       0.314143507      -70.1394788      0.314143507      -70.1394788      0.940870355      18.3021065       
0.3252           0.943668241      17.8534776       0.306692789      -70.6190613      0.306692789      -70.6190613      0.943668335      17.8534781       
0.3338           0.946275858      17.4252462       0.299563599      -71.0765216      0.299563599      -71.0765216      0.946275952      17.4252467       
0.3424           0.94870957       17.0161027       0.292736838      -71.5132991      0.292736838      -71.5132991      0.948709665      17.0161032       
0.351            0.950984144      16.6248427       0.28619476       -71.9307161      0.28619476       -71.9307161      0.950984239      16.6248432       
0.3596           0.95311285       16.2503568       0.279920876      -72.3299887      0.279920876      -72.3299887      0.953112945      16.2503573       
0.3682           0.955107637      15.8916216       0.273899854      -72.7122366      0.273899854      -72.7122366      0.955107732      15.8916221       
0.3768           0.956979284      15.5476922       0.26811743       -73.0784922      0.26811743       -73.0784922      0.956979379      15.5476927       
0.3854           0.958737529      15.2176952       0.262560326      -73.4297088      0.262560326      -73.4297088      0.958737625      15.2176957       
0.394            0.960391188      14.9008222       0.257216173      -73.7667676      0.257216173      -73.7667676      0.960391284      14.9008227       
0.4026           0.961948252      14.5963239       0.252073441      -74.0904843      0.252073441      -74.0904843      0.961948348      14.5963244       
0.4112           0.963415977      14.3035055       0.247121373      -74.4016146      0.247121373      -74.4016146      0.963416073      14.303506        
0.4198           0.964800964      14.0217216       0.242349929      -74.7008599      0.242349929      -74.7008599      0.964801061      14.0217221       
0.4284           0.966109226      13.7503722       0.237749726      -74.9888714      0.237749726      -74.9888714      0.966109322      13.7503727       
0.437            0.967346246      13.4888987       0.233311993      -75.266255       0.233311993      -75.266255       0.967346343      13.4888992       
0.4456           0.968517035      13.2367809       0.229028522      -75.5335745      0.229028522      -75.5335745      0.968517132      13.2367814       
0.4542           0.969626179      12.9935335       0.224891626      -75.7913556      0.224891626      -75.7913556      0.969626276      12.993534        
0.4628           0.970677876      12.7587033       0.220894102      -76.0400884      0.220894102      -76.0400884      0.970677973      12.7587038       
0.4714           0.971675981      12.5318669       0.217029194      -76.2802311      0.217029194      -76.2802311      0.971676078      12.5318674       
0.48             0.972624032      12.3126282       0.213290559      -76.5122117      0.213290559      -76.5122117      0.972624129      12.3126286       
0.4886           0.973525287      12.1006162       0.20967224       -76.7364309      0.20967224       -76.7364309      0.973525384      12.1006166       
0.4972           0.974382743      11.8954833       0.206168637      -76.9532639      0.206168637      -76.9532639      0.97438284       11.8954837       
0.5058           0.975199166      11.6969033       0.202774482      -77.1630627      0.202774482      -77.1630627      0.975199263      11.6969037       
0.5144           0.975977107      11.50457         0.199484813      -77.3661574      0.199484813      -77.3661574      0.975977205      11.5045704       
0.523            0.976718927      11.3181957       0.196294958      -77.5628582      0.196294958      -77.5628582      0.976719025      11.3181961       
0.5316           0.977426808      11.1375096       0.19320051       -77.7534566      0.19320051       -77.7534566      0.977426906      11.13751         
0.5402           0.978102773      10.962257        0.190197312      -77.9382271      0.190197312      -77.9382271      0.97810287       10.9622574       
0.5488           0.978748695      10.7921978       0.187281438      -78.1174281      0.187281438      -78.1174281      0.978748793      10.7921982       
0.5574           0.979366317      10.6271056       0.184449178      -78.2913029      0.184449178      -78.2913029      0.979366415      10.627106        
0.566            0.979957255      10.466767        0.181697028      -78.4600814      0.181697028      -78.4600814      0.979957353      10.4667674       
0.5746           0.980523014      10.3109801       0.179021667      -78.6239802      0.179021667      -78.6239802      0.980523112      10.3109805       
0.5832           0.981064995      10.1595545       0.176419957      -78.7832042      0.176419957      -78.7832042      0.981065093      10.1595549       
0.5918           0.981584502      10.0123099       0.17388892       -78.937947       0.17388892       -78.937947       0.981584601      10.0123103       
0.6004           0.982082755      9.86907571       0.171425736      -79.0883917      0.171425736      -79.0883917      0.982082853      9.86907609       
0.609            0.982560889      9.72969037       0.16902773       -79.2347118      0.16902773       -79.2347118      0.982560987      9.72969075       
0.6176           0.983019967      9.59400081       0.166692363      -79.3770715      0.166692363      -79.3770715      0.983020065      9.59400119       
0.6262           0.983460982      9.46186184       0.164417222      -79.5156266      0.164417222      -79.5156266      0.98346108       9.46186222       
0.6348           0.983884865      9.33313572       0.162200016      -79.6505247      0.162200016      -79.6505247      0.983884963      9.3331361        
0.6434           0.984292487      9.20769163       0.160038567      -79.7819061      0.160038567      -79.7819061      0.984292585      9.20769201       
0.652            0.984684664      9.0854053        0.157930802      -79.909904       0.157930802      -79.909904       0.984684763      9.08540567       
0.6606           0.985062164      8.96615856       0.155874747      -80.0346449      0.155874747      -80.0346449      0.985062262      8.96615893       
0.6692           0.985425706      8.84983904       0.153868525      -80.1562492      0.153868525      -80.1562492      0.985425805      8.84983941       
0.6778           0.985775967      8.73633975       0.151910343      -80.2748314      0.151910343      -80.2748314      0.985776065      8.73634012       
0.6864           0.986113582      8.62555881       0.149998497      -80.3905006      0.149998497      -80.3905006      0.98611368       8.62555918       
0.695            0.98643915       8.51739916       0.148131356      -80.5033607      0.148131356      -80.5033607      0.986439248      8.51739953       
0.7036           0.986753235      8.41176823       0.146307369      -80.6135106      0.146307369      -80.6135106      0.986753334      8.4117686        
0.7122           0.987056369      8.30857774       0.14452505       -80.7210448      0.14452505       -80.7210448      0.987056467      8.30857811       
0.7208           0.987349052      8.20774343       0.142782982      -80.8260533      0.142782982      -80.8260533      0.98734915       8.20774379       
0.7294           0.987631757      8.10918484       0.141079812      -80.9286222      0.141079812      -80.9286222      0.987631855      8.1091852        
0.738            0.98790493       8.01282509       0.139414243      -81.0288336      0.139414243      -81.0288336      0.987905029      8.01282545       
0.7466           0.988168994      7.91859072       0.137785036      -81.1267659      0.137785036      -81.1267659      0.988169093      7.91859108       
0.7552           0.988424347      7.82641146       0.136191006      -81.2224942      0.136191006      -81.2224942      0.988424446      7.82641182       
0.7638           0.988671367      7.73622008       0.134631017      -81.3160903      0.134631017      -81.3160903      0.988671465      7.73622044       
0.7724           0.98891041       7.64795224       0.133103981      -81.4076228      0.133103981      -81.4076228      0.988910508      7.64795259       
0.781            0.989141814      7.56154631       0.131608856      -81.4971575      0.131608856      -81.4971575      0.989141913      7.56154666       
0.7896           0.989365902      7.47694325       0.130144643      -81.5847574      0.130144643      -81.5847574      0.989366         7.47694361       
0.7982           0.989582975      7.39408649       0.128710383      -81.6704827      0.128710383      -81.6704827      0.989583074      7.39408684       
0.8068           0.989793323      7.31292176       0.127305155      -81.7543914      0.127305155      -81.7543914      0.989793422      7.31292211       
0.8154           0.989997219      7.23339701       0.125928079      -81.8365389      0.125928079      -81.8365389      0.989997318      7.23339736       
0.824            0.990194923      7.1554623        0.124578305      -81.9169784      0.124578305      -81.9169784      0.990195022      7.15546265       
0.8326           0.990386682      7.07906966       0.123255019      -81.9957611      0.123255019      -81.9957611      0.990386781      7.07907001       
0.8412           0.990572731      7.00417303       0.121957439      -82.0729358      0.121957439      -82.0729358      0.99057283       7.00417338       
0.8498           0.990753294      6.93072817       0.120684812      -82.1485499      0.120684812      -82.1485499      0.990753393      6.93072852       
0.8584           0.990928582      6.85869253       0.119436415      -82.2226484      0.119436415      -82.2226484      0.990928681      6.85869288       
0.867            0.991098798      6.78802521       0.118211551      -82.295275       0.118211551      -82.295275       0.991098897      6.78802556       
0.8756           0.991264134      6.71868686       0.117009551      -82.3664715      0.117009551      -82.3664715      0.991264234      6.71868721       
0.8842           0.991424775      6.65063964       0.11582977       -82.4362781      0.11582977       -82.4362781      0.991424875      6.65063999       
0.8928           0.991580896      6.58384709       0.114671587      -82.5047335      0.114671587      -82.5047335      0.991580995      6.58384744       
0.9014           0.991732663      6.51827413       0.113534402      -82.5718751      0.113534402      -82.5718751      0.991732762      6.51827448       
0.91             0.991880236      6.45388695       0.11241764       -82.6377387      0.11241764       -82.6377387      0.991880335      6.4538873        
0.9186           0.992023766      6.39065299       0.111320745      -82.702359       0.111320745      -82.702359       0.992023865      6.39065334       
0.9272           0.9921634        6.32854083       0.11024318       -82.7657691      0.11024318       -82.7657691      0.992163499      6.32854118       
0.9358           0.992299275      6.26752023       0.109184429      -82.8280013      0.109184429      -82.8280013      0.992299375      6.26752058       
0.9444           0.992431526      6.20756197       0.108143992      -82.8890866      0.108143992      -82.8890866      0.992431625      6.20756231       
0.953            0.992560277      6.14863788       0.107121388      -82.9490547      0.107121388      -82.9490547      0.992560377      6.14863823       
0.9616           0.992685652      6.09072078       0.106116151      -83.0079345      0.106116151      -83.0079345      0.992685751      6.09072113       
0.9702           0.992807765      6.03378441       0.105127834      -83.0657538      0.105127834      -83.0657538      0.992807864      6.03378476       
0.9788           0.992926729      5.97780344       0.104156002      -83.1225395      0.104156002      -83.1225395      0.992926828      5.97780379       
0.9874           0.993042648      5.92275336       0.103200235      -83.1783175      0.103200235      -83.1783175      0.993042748      5.92275371       
0.996            0.993155627      5.86861053       0.102260129      -83.2331127      0.102260129      -83.2331127      0.993155726      5.86861088       
1.0046           0.993265761      5.81535207       0.101335291      -83.2869495      0.101335291      -83.2869495      0.993265861      5.81535242       
1.0132           0.993373146      5.76295587       0.100425344      -83.3398511      0.100425344      -83.3398511      0.993373245      5.76295622       
1.0218           0.99347787       5.71140055       0.0995299196     -83.3918402      0.0995299196     -83.3918402      0.993477969      5.7114009        
1.0304           0.99358002       5.66066542       0.0986486639     -83.4429386      0.0986486639     -83.4429386      0.993580119      5.66066577       
1.039            0.993679679      5.61073048       0.0977812335     -83.4931674      0.0977812335     -83.4931674      0.993679778      5.61073083       
1.0476           0.993776925      5.56157634       0.096927296      -83.5425471      0.096927296      -83.5425471      0.993777025      5.56157669       
1.0562           0.993871836      5.51318426       0.0960865294     -83.5910975      0.0960865294     -83.5910975      0.993871936      5.51318461       
1.0648           0.993964485      5.46553608       0.0952586221     -83.6388377      0.0952586221     -83.6388377      0.993964584      5.46553643       
1.0734           0.994054941      5.4186142        0.094443272      -83.6857863      0.094443272      -83.6857863      0.994055041      5.41861455       
1.082            0.994143274      5.37240158       0.0936401864     -83.7319611      0.0936401864     -83.7319611      0.994143373      5.37240194       
1.0906           0.994229546      5.32688172       0.0928490814     -83.7773797      0.0928490814     -83.7773797      0.994229646      5.32688207       
1.0992           0.994313823      5.2820386        0.0920696821     -83.8220587      0.0920696821     -83.8220587      0.994313922      5.28203895       
1.1078           0.994396162      5.2378567        0.0913017215     -83.8660146      0.0913017215     -83.8660146      0.994396262      5.23785705       
1.1164           0.994476623      5.19432097       0.090544941      -83.9092631      0.090544941      -83.9092631      0.994476722      5.19432133       
1.125            0.994555261      5.15141682       0.0897990893     -83.9518196      0.0897990893     -83.9518196      0.994555361      5.15141717       
1.1336           0.99463213       5.10913007       0.089063923      -83.993699       0.089063923      -83.993699       0.99463223       5.10913042       
1.1422           0.994707282      5.06744698       0.0883392054     -84.0349156      0.0883392054     -84.0349156      0.994707381      5.06744734       
