! Coilcraft 1008PS-105 Power Chip Inductor				
! 7 October 2002			
# MHZ S MA R 50
!Freq             MagS11           AngS11           MagS21           AngS21           MagS12           AngS12           MagS22           AngS22
0.05             0.92839259       17.0400145       0.294346467      -67.5585959      0.294346467      -67.5585959      0.92839268       17.0400166       
0.05287          0.935135977      16.2230853       0.280498317      -68.654288       0.280498317      -68.654288       0.935136068      16.2230873       
0.05574          0.940993238      15.4762527       0.267806786      -69.6511307      0.267806786      -69.6511307      0.94099333       15.4762546       
0.05861          0.946108638      14.7914584       0.256143667      -70.5613729      0.256143667      -70.5613729      0.94610873       14.7914603       
0.06148          0.950599123      14.161727        0.245397129      -71.395406       0.245397129      -71.395406       0.950599216      14.1617287       
0.06435          0.9545601        13.5810139       0.235469601      -72.1620865      0.235469601      -72.1620865      0.954560193      13.5810156       
0.06722          0.958069885      13.0440724       0.226275866      -72.8689969      0.226275866      -72.8689969      0.958069979      13.044074        
0.07009          0.961193158      12.5463372       0.217741364      -73.5226584      0.217741364      -73.5226584      0.961193253      12.5463388       
0.07296          0.963983646      12.0838254       0.209800726      -74.1287043      0.209800726      -74.1287043      0.963983741      12.0838269       
0.07583          0.966486229      11.6530525       0.202396505      -74.6920209      0.202396505      -74.6920209      0.966486324      11.653054        
0.0787           0.968738597      11.2509609       0.195478091      -75.2168646      0.195478091      -75.2168646      0.968738693      11.2509622       
0.08157          0.970772569      10.8748594       0.189000779      -75.706957       0.189000779      -75.706957       0.970772665      10.8748607       
0.08444          0.972615133      10.5223726       0.182924977      -76.165565       0.182924977      -76.165565       0.972615229      10.5223739       
0.08731          0.974289293      10.1913974       0.177215528      -76.5955662      0.177215528      -76.5955662      0.97428939       10.1913987       
0.09018          0.97581474       9.8800664        0.171841133      -76.9995044      0.171841133      -76.9995044      0.975814837      9.88006761       
0.09305          0.977208404      9.58671677       0.16677385       -77.3796354      0.16677385       -77.3796354      0.9772085        9.58671795       
0.09592          0.978484897      9.30986391       0.161988678      -77.7379664      0.161988678      -77.7379664      0.978484994      9.30986505       
0.09879          0.979656883      9.04817869       0.157463186      -78.0762882      0.157463186      -78.0762882      0.97965698       9.04817981       
0.10166          0.980735376      8.80046817       0.153177205      -78.3962036      0.153177205      -78.3962036      0.980735473      8.80046926       
0.10453          0.98172999       8.56565892       0.149112553      -78.699151       0.149112553      -78.699151       0.981730088      8.56565999       
0.1074           0.982649144      8.34278277       0.145252807      -78.9864245      0.145252807      -78.9864245      0.982649242      8.34278381       
0.11027          0.983500236      8.13096442       0.141583094      -79.2591915      0.141583094      -79.2591915      0.983500333      8.13096543       
0.11314          0.984289784      7.92941081       0.138089923      -79.5185075      0.138089923      -79.5185075      0.984289881      7.9294118        
0.11601          0.985023551      7.73740181       0.134761026      -79.7653292      0.134761026      -79.7653292      0.985023649      7.73740278       
0.11888          0.985706645      7.55428217       0.131585229      -80.0005256      0.131585229      -80.0005256      0.985706743      7.55428312       
0.12175          0.986343606      7.37945447       0.128552331      -80.2248877      0.128552331      -80.2248877      0.986343704      7.3794554        
0.12462          0.98693848       7.212373         0.125653006      -80.4391368      0.125653006      -80.4391368      0.986938578      7.21237391       
0.12749          0.987494881      7.05253831       0.122878709      -80.6439325      0.122878709      -80.6439325      0.987494979      7.05253921       
0.13036          0.988016045      6.8994925        0.120221599      -80.8398783      0.120221599      -80.8398783      0.988016143      6.89949338       
0.13323          0.988504876      6.75281504       0.117674471      -81.0275282      0.117674471      -81.0275282      0.988504975      6.7528159        
0.1361           0.988963989      6.61211906       0.115230689      -81.2073909      0.115230689      -81.2073909      0.988964088      6.61211991       
0.13897          0.989395738      6.4770481        0.112884135      -81.379935       0.112884135      -81.379935       0.989395837      6.47704893       
0.14184          0.989802251      6.3472732        0.110629159      -81.5455921      0.110629159      -81.5455921      0.989802349      6.34727402       
0.14471          0.990185452      6.22249032       0.108460537      -81.704761       0.108460537      -81.704761       0.990185551      6.22249113       
0.14758          0.990547089      6.10241808       0.106373429      -81.8578105      0.106373429      -81.8578105      0.990547187      6.10241888       
0.15045          0.990888746      5.98679566       0.104363348      -82.0050819      0.104363348      -82.0050819      0.990888845      5.98679644       
0.15332          0.991211867      5.87538098       0.102426125      -82.146892       0.102426125      -82.146892       0.991211966      5.87538175       
0.15619          0.991517769      5.7679491        0.100557887      -82.2835346      0.100557887      -82.2835346      0.991517868      5.76794986       
0.15906          0.991807652      5.66429069       0.0987550263     -82.4152834      0.0987550263     -82.4152834      0.99180775       5.66429145       
0.16193          0.992082614      5.56421076       0.0970141805     -82.5423928      0.0970141805     -82.5423928      0.992082713      5.5642115        
0.1648           0.992343662      5.4675274        0.0953322124     -82.6651         0.0953322124     -82.6651         0.992343761      5.46752814       
0.16767          0.99259172       5.37407078       0.0937061911     -82.7836265      0.0937061911     -82.7836265      0.992591819      5.3740715        
0.17054          0.992827634      5.28368209       0.0921333756     -82.8981791      0.0921333756     -82.8981791      0.992827733      5.28368281       
0.17341          0.993052185      5.19621276       0.0906111997     -83.0089514      0.0906111997     -83.0089514      0.993052284      5.19621346       
0.17628          0.993266091      5.11152356       0.0891372587     -83.1161245      0.0891372587     -83.1161245      0.99326619       5.11152425       
0.17915          0.993470015      5.02948394       0.0877092964     -83.2198681      0.0877092964     -83.2198681      0.993470114      5.02948463       
0.18202          0.993664568      4.94997137       0.0863251946     -83.3203417      0.0863251946     -83.3203417      0.993664667      4.94997205       
0.18489          0.993850317      4.87287069       0.0849829621     -83.4176947      0.0849829621     -83.4176947      0.993850416      4.87287137       
0.18776          0.994027786      4.79807362       0.0836807259     -83.5120679      0.0836807259     -83.5120679      0.994027885      4.79807429       
0.19063          0.994197458      4.72547822       0.0824167223     -83.6035936      0.0824167223     -83.6035936      0.994197558      4.72547888       
0.1935           0.994359786      4.65498844       0.0811892892     -83.6923964      0.0811892892     -83.6923964      0.994359885      4.6549891        
0.19637          0.994515188      4.58651374       0.079996859      -83.7785936      0.079996859      -83.7785936      0.994515287      4.58651439       
0.19924          0.994664051      4.51996865       0.0788379519     -83.8622962      0.0788379519     -83.8622962      0.99466415       4.51996929       
0.20211          0.994806739      4.45527244       0.0777111699     -83.9436088      0.0777111699     -83.9436088      0.994806839      4.45527308       
0.20498          0.994943589      4.39234882       0.0766151912     -84.02263        0.0766151912     -84.02263        0.994943688      4.39234945       
0.20785          0.995074916      4.33112562       0.0755487655     -84.0994535      0.0755487655     -84.0994535      0.995075015      4.33112625       
0.21072          0.995201012      4.27153451       0.0745107085     -84.1741676      0.0745107085     -84.1741676      0.995201111      4.27153512       
0.21359          0.995322153      4.21351075       0.0734998983     -84.2468562      0.0734998983     -84.2468562      0.995322252      4.21351137       
0.21646          0.995438595      4.15699299       0.072515271      -84.3175984      0.072515271      -84.3175984      0.995438695      4.1569936        
0.21933          0.995550579      4.10192302       0.0715558173     -84.3864697      0.0715558173     -84.3864697      0.995550679      4.10192363       
0.2222           0.99565833       4.04824557       0.0706205788     -84.4535414      0.0706205788     -84.4535414      0.995658429      4.04824618       
0.22507          0.995762058      3.99590815       0.0697086448     -84.5188813      0.0697086448     -84.5188813      0.995762157      3.99590875       
0.22794          0.995861962      3.94486086       0.0688191497     -84.582554       0.0688191497     -84.582554       0.995862061      3.94486145       
0.23081          0.995958228      3.89505624       0.06795127       -84.6446206      0.06795127       -84.6446206      0.995958327      3.89505683       
0.23368          0.99605103       3.84644912       0.0671042219     -84.7051394      0.0671042219     -84.7051394      0.996051129      3.84644971       
0.23655          0.996140533      3.7989965        0.0662772588     -84.764166       0.0662772588     -84.764166       0.996140632      3.79899708       
0.23942          0.996226892      3.75265738       0.0654696693     -84.8217531      0.0654696693     -84.8217531      0.996226991      3.75265795       
0.24229          0.996310252      3.70739269       0.0646807751     -84.8779512      0.0646807751     -84.8779512      0.996310351      3.70739326       
0.24516          0.996390751      3.66316517       0.063909929      -84.9328084      0.063909929      -84.9328084      0.99639085       3.66316574       
0.24803          0.996468519      3.61993925       0.0631565133     -84.9863703      0.0631565133     -84.9863703      0.996468618      3.61993981       
0.2509           0.996543677      3.57768095       0.0624199381     -85.0386808      0.0624199381     -85.0386808      0.996543777      3.57768151       
0.25377          0.996616343      3.53635783       0.0616996396     -85.0897816      0.0616996396     -85.0897816      0.996616442      3.53635838       
0.25664          0.996686623      3.49593885       0.0609950791     -85.1397127      0.0609950791     -85.1397127      0.996686723      3.49593941       
0.25951          0.996754623      3.45639436       0.0603057409     -85.1885123      0.0603057409     -85.1885123      0.996754723      3.45639492       
0.26238          0.99682044       3.41769597       0.0596311319     -85.2362168      0.0596311319     -85.2362168      0.996820539      3.41769652       
0.26525          0.996884165      3.37981649       0.0589707798     -85.2828612      0.0589707798     -85.2828612      0.996884265      3.37981704       
0.26812          0.996945888      3.34272991       0.0583242323     -85.328479       0.0583242323     -85.328479       0.996945988      3.34273046       
0.27099          0.997005691      3.30641128       0.057691056      -85.3731021      0.057691056      -85.3731021      0.99700579       3.30641183       
0.27386          0.997063652      3.27083671       0.0570708353     -85.4167613      0.0570708353     -85.4167613      0.997063752      3.27083725       
0.27673          0.997119848      3.23598325       0.0564631717     -85.459486       0.0564631717     -85.459486       0.997119947      3.23598379       
0.2796           0.997174348      3.20182892       0.0558676828     -85.5013045      0.0558676828     -85.5013045      0.997174448      3.20182946       
0.28247          0.997227221      3.16835261       0.0552840016     -85.5422438      0.0552840016     -85.5422438      0.99722732       3.16835315       
0.28534          0.997278529      3.13553404       0.0547117754     -85.5823299      0.0547117754     -85.5823299      0.997278629      3.13553457       
0.28821          0.997328336      3.10335374       0.0541506658     -85.6215879      0.0541506658     -85.6215879      0.997328436      3.10335427       
0.29108          0.997376698      3.071793         0.0536003472     -85.6600416      0.0536003472     -85.6600416      0.997376797      3.07179352       
0.29395          0.997423671      3.04083381       0.0530605067     -85.6977141      0.0530605067     -85.6977141      0.99742377       3.04083434       
0.29682          0.997469307      3.01045889       0.0525308433     -85.7346276      0.0525308433     -85.7346276      0.997469407      3.01045941       
0.29969          0.997513657      2.98065158       0.0520110676     -85.7708035      0.0520110676     -85.7708035      0.997513756      2.9806521        
0.30256          0.997556768      2.95139586       0.0515009008     -85.8062621      0.0515009008     -85.8062621      0.997556868      2.95139638       
0.30543          0.997598686      2.92267631       0.0510000745     -85.8410232      0.0510000745     -85.8410232      0.997598786      2.92267683       
0.3083           0.997639455      2.89447807       0.0505083303     -85.8751059      0.0505083303     -85.8751059      0.997639555      2.89447859       
0.31117          0.997679116      2.86678682       0.0500254191     -85.9085283      0.0500254191     -85.9085283      0.997679216      2.86678734       
0.31404          0.997717709      2.83958878       0.0495511008     -85.9413082      0.0495511008     -85.9413082      0.997717809      2.83958929       
0.31691          0.997755272      2.81287063       0.0490851442     -85.9734625      0.0490851442     -85.9734625      0.997755371      2.81287115       
0.31978          0.99779184       2.78661956       0.0486273258     -86.0050076      0.0486273258     -86.0050076      0.99779194       2.78662007       
0.32265          0.997827449      2.76082319       0.0481774305     -86.0359593      0.0481774305     -86.0359593      0.997827549      2.7608237        
0.32552          0.997862132      2.73546957       0.0477352502     -86.0663327      0.0477352502     -86.0663327      0.997862231      2.73547008       
0.32839          0.99789592       2.71054718       0.0473005844     -86.0961427      0.0473005844     -86.0961427      0.997896019      2.71054769       
0.33126          0.997928844      2.68604489       0.0468732393     -86.1254033      0.0468732393     -86.1254033      0.997928943      2.6860454        
0.33413          0.997960932      2.66195194       0.0464530278     -86.1541283      0.0464530278     -86.1541283      0.997961032      2.66195245       
0.337            0.997992214      2.63825794       0.046039769      -86.1823309      0.046039769      -86.1823309      0.997992313      2.63825845       
0.33987          0.998022714      2.61495286       0.045633288      -86.2100239      0.045633288      -86.2100239      0.998022814      2.61495336       
0.34274          0.99805246       2.59202698       0.0452334159     -86.2372195      0.0452334159     -86.2372195      0.99805256       2.59202748       
0.34561          0.998081475      2.56947092       0.0448399892     -86.2639298      0.0448399892     -86.2639298      0.998081575      2.56947142       
0.34848          0.998109784      2.54727559       0.0444528499     -86.2901663      0.0444528499     -86.2901663      0.998109883      2.54727609       
0.35135          0.998137408      2.52543221       0.0440718449     -86.3159401      0.0440718449     -86.3159401      0.998137507      2.52543271       
0.35422          0.998164369      2.50393228       0.0436968261     -86.341262       0.0436968261     -86.341262       0.998164469      2.50393278       
0.35709          0.998190688      2.48276756       0.0433276503     -86.3661424      0.0433276503     -86.3661424      0.998190788      2.48276806       
0.35996          0.998216386      2.46193008       0.0429641786     -86.3905915      0.0429641786     -86.3905915      0.998216486      2.46193058       
0.36283          0.998241481      2.44141212       0.0426062766     -86.4146191      0.0426062766     -86.4146191      0.998241581      2.44141262       
0.3657           0.998265992      2.4212062        0.0422538139     -86.4382345      0.0422538139     -86.4382345      0.998266092      2.4212067        
0.36857          0.998289937      2.40130508       0.0419066644     -86.461447       0.0419066644     -86.461447       0.998290037      2.40130557       
0.37144          0.998313333      2.38170171       0.0415647056     -86.4842655      0.0415647056     -86.4842655      0.998313433      2.38170221       
0.37431          0.998336196      2.3623893        0.041227819      -86.5066985      0.041227819      -86.5066985      0.998336296      2.3623898        
0.37718          0.998358542      2.34336124       0.0408958893     -86.5287544      0.0408958893     -86.5287544      0.998358642      2.34336173       
0.38005          0.998380386      2.32461111       0.0405688051     -86.5504412      0.0405688051     -86.5504412      0.998380486      2.3246116        
0.38292          0.998401744      2.3061327        0.040246458      -86.5717669      0.040246458      -86.5717669      0.998401844      2.30613319       
0.38579          0.998422629      2.28791997       0.0399287429     -86.5927391      0.0399287429     -86.5927391      0.998422728      2.28792046       
0.38866          0.998443054      2.26996708       0.0396155579     -86.613365       0.0396155579     -86.613365       0.998443154      2.26996757       
0.39153          0.998463034      2.25226833       0.0393068037     -86.6336518      0.0393068037     -86.6336518      0.998463134      2.25226882       
0.3944           0.99848258       2.2348182        0.0390023844     -86.6536065      0.0390023844     -86.6536065      0.99848268       2.23481869       
0.39727          0.998501705      2.21761133       0.0387022064     -86.6732359      0.0387022064     -86.6732359      0.998501805      2.21761182       
0.40014          0.998520421      2.20064252       0.0384061791     -86.6925464      0.0384061791     -86.6925464      0.998520521      2.20064301       
0.40301          0.998538739      2.18390669       0.0381142141     -86.7115444      0.0381142141     -86.7115444      0.998538839      2.18390718       
0.40588          0.998556669      2.16739893       0.0378262258     -86.7302361      0.0378262258     -86.7302361      0.998556769      2.16739942       
0.40875          0.998574224      2.15111446       0.0375421309     -86.7486274      0.0375421309     -86.7486274      0.998574324      2.15111495       
0.41162          0.998591412      2.13504862       0.0372618483     -86.7667242      0.0372618483     -86.7667242      0.998591512      2.13504911       
0.41449          0.998608244      2.1191969        0.0369852993     -86.7845321      0.0369852993     -86.7845321      0.998608344      2.11919739       
