! Coilcraft 1008PS-124 Power Chip Inductor				
! 7 October 2002			
# MHZ S MA R 50
!Freq             MagS11           AngS11           MagS21           AngS21           MagS12           AngS12           MagS22           AngS22
0.05             0.338524436      60.6176594       0.884541997      -19.4802249      0.884541997      -19.4802249      0.338524466      60.6176633       
0.06             0.394810767      58.6995083       0.86350799       -22.9962774      0.86350799       -22.9962774      0.394810804      58.6995115       
0.07             0.447134262      56.506927        0.840499329      -26.3370937      0.840499329      -26.3370937      0.447134304      56.5069298       
0.08             0.49532247       54.2135433       0.816118083      -29.4944234      0.816118083      -29.4944234      0.495322517      54.2135457       
0.09             0.539380953      51.9156624       0.790903858      -32.465341       0.790903858      -32.465341       0.539381005      51.9156646       
0.1              0.579439299      49.6684915       0.76531886       -35.2512619      0.76531886       -35.2512619      0.579439355      49.6684935       
0.11             0.61570926       47.5035773       0.739743281      -37.856935       0.739743281      -37.856935       0.61570932       47.5035791       
0.12             0.648451911      45.438097        0.7144781        -40.2895061      0.7144781        -40.2895061      0.648451974      45.4380986       
0.13             0.677952653      43.4802179       0.689752498      -42.5577112      0.689752498      -42.5577112      0.677952719      43.4802195       
0.14             0.704503021      41.6323805       0.665733577      -44.671219       0.665733577      -44.671219       0.70450309       41.632382        
0.15             0.728388169      39.8933938       0.642536712      -46.64012        0.642536712      -46.64012        0.728388241      39.8933952       
0.16             0.749878832      38.2598104       0.620235486      -48.4745478      0.620235486      -48.4745478      0.749878906      38.2598116       
0.17             0.769226662      36.7268414       0.598870604      -50.1844113      0.598870604      -50.1844113      0.769226738      36.7268426       
0.18             0.786661994      35.2889694       0.578457549      -51.7792144      0.578457549      -51.7792144      0.786662072      35.2889705       
0.19             0.80239328       33.9403566       0.558992929      -53.2679445      0.558992929      -53.2679445      0.802393359      33.9403577       
0.2              0.816607598      32.6751149       0.540459614      -54.6590116      0.540459614      -54.6590116      0.816607679      32.6751159       
0.21             0.829471838      31.4874789       0.522830803      -55.9602231      0.522830803      -55.9602231      0.82947192       31.4874799       
0.22             0.841134232      30.3719148       0.506073183      -57.1787847      0.506073183      -57.1787847      0.841134316      30.3719158       
0.23             0.851726052      29.3231827       0.490149347      -58.3213175      0.490149347      -58.3213175      0.851726136      29.3231836       
0.24             0.86136332       28.336369        0.475019618      -59.3938865      0.475019618      -59.3938865      0.861363405      28.3363699       
0.25             0.87014847       27.4068982       0.46064339       -60.4020345      0.46064339       -60.4020345      0.870148556      27.4068991       
0.26             0.878171893      26.5305308       0.446980115      -61.3508196      0.446980115      -61.3508196      0.87817198       26.5305316       
0.27             0.885513359      25.7033525       0.433989993      -62.2448531      0.433989993      -62.2448531      0.885513448      25.7033533       
0.28             0.892243295      24.921759        0.421634452      -63.0883372      0.421634452      -63.0883372      0.892243384      24.9217597       
0.29             0.898423925      24.1824364       0.409876463      -63.8851009      0.409876463      -63.8851009      0.898424014      24.1824371       
0.3              0.904110283      23.4823416       0.398680736      -64.6386336      0.398680736      -64.6386336      0.904110373      23.4823423       
0.31             0.909351102      22.818682        0.388013821      -65.3521169      0.388013821      -65.3521169      0.909351193      22.8186827       
0.32             0.914189593      22.188895        0.377844145      -66.0284532      0.377844145      -66.0284532      0.914189685      22.1888957       
0.33             0.918664129      21.5906297       0.368142008      -66.6702926      0.368142008      -66.6702926      0.918664221      21.5906303       
0.34             0.922808836      21.0217279       0.358879536      -67.2800566      0.358879536      -67.2800566      0.922808928      21.0217285       
0.35             0.926654116      20.4802081       0.350030624      -67.8599601      0.350030624      -67.8599601      0.926654208      20.4802088       
0.36             0.930227093      19.9642497       0.341570851      -68.4120312      0.341570851      -68.4120312      0.930227186      19.9642504       
0.37             0.933552014      19.4721786       0.3334774        -68.9381289      0.3334774        -68.9381289      0.933552107      19.4721792       
0.38             0.936650585      19.0024542       0.325728964      -69.4399592      0.325728964      -69.4399592      0.936650678      19.0024548       
0.39             0.939542272      18.5536576       0.318305655      -69.9190893      0.318305655      -69.9190893      0.939542366      18.5536582       
0.4              0.942244564      18.1244807       0.311188917      -70.3769609      0.311188917      -70.3769609      0.942244658      18.1244813       
0.41             0.944773195      17.7137164       0.304361431      -70.8149013      0.304361431      -70.8149013      0.94477329       17.713717        
0.42             0.947142351      17.3202497       0.297807037      -71.2341345      0.297807037      -71.2341345      0.947142445      17.3202503       
0.43             0.949364836      16.9430497       0.291510651      -71.6357903      0.291510651      -71.6357903      0.94936493       16.9430502       
0.44             0.951452229      16.5811618       0.285458189      -72.0209126      0.285458189      -72.0209126      0.951452324      16.5811624       
0.45             0.95341502       16.2337021       0.279636493      -72.3904674      0.279636493      -72.3904674      0.953415115      16.2337026       
0.46             0.955262721      15.8998501       0.274033272      -72.7453492      0.274033272      -72.7453492      0.955262816      15.8998507       
0.47             0.957003977      15.5788446       0.268637029      -73.0863879      0.268637029      -73.0863879      0.957004072      15.5788451       
0.48             0.958646652      15.2699777       0.263437013      -73.4143534      0.263437013      -73.4143534      0.958646748      15.2699782       
0.49             0.960197915      14.9725909       0.258423157      -73.7299618      0.258423157      -73.7299618      0.96019801       14.9725914       
0.5              0.961664304      14.686071        0.253586037      -74.0338788      0.253586037      -74.0338788      0.9616644        14.6860715       
0.51             0.963051797      14.4098462       0.248916816      -74.3267247      0.248916816      -74.3267247      0.963051893      14.4098467       
0.52             0.964365863      14.1433831       0.244407209      -74.6090777      0.244407209      -74.6090777      0.964365959      14.1433836       
0.53             0.965611514      13.8861834       0.240049443      -74.8814774      0.240049443      -74.8814774      0.96561161       13.8861839       
0.54             0.966793348      13.6377812       0.235836215      -75.1444281      0.235836215      -75.1444281      0.966793444      13.6377817       
0.55             0.967915589      13.3977405       0.231760666      -75.3984011      0.231760666      -75.3984011      0.967915686      13.397741        
0.56             0.968982125      13.1656529       0.227816345      -75.6438376      0.227816345      -75.6438376      0.968982222      13.1656534       
0.57             0.969996533      12.9411357       0.223997181      -75.881151       0.223997181      -75.881151       0.96999663       12.9411362       
0.58             0.970962114      12.7238296       0.220297458      -76.1107289      0.220297458      -76.1107289      0.970962211      12.7238301       
0.59             0.971881915      12.5133972       0.216711792      -76.3329352      0.216711792      -76.3329352      0.971882012      12.5133977       
0.6              0.972758751      12.3095216       0.213235105      -76.5481116      0.213235105      -76.5481116      0.972758848      12.309522        
0.61             0.973595227      12.1119043       0.209862606      -76.7565795      0.209862606      -76.7565795      0.973595325      12.1119047       
0.62             0.974393757      11.9202645       0.206589773      -76.9586411      0.206589773      -76.9586411      0.974393855      11.920265        
0.63             0.975156578      11.7343378       0.203412333      -77.1545812      0.203412333      -77.1545812      0.975156675      11.7343382       
0.64             0.975885767      11.5538745       0.200326246      -77.3446682      0.200326246      -77.3446682      0.975885864      11.5538749       
0.65             0.976583252      11.3786392       0.197327692      -77.5291551      0.197327692      -77.5291551      0.97658335       11.3786397       
0.66             0.97725083       11.2084097       0.194413054      -77.7082809      0.194413054      -77.7082809      0.977250927      11.2084101       
0.67             0.977890169      11.0429758       0.191578908      -77.8822712      0.191578908      -77.8822712      0.977890267      11.0429762       
0.68             0.978502827      10.8821387       0.188822006      -78.0513395      0.188822006      -78.0513395      0.978502925      10.8821391       
0.69             0.979090256      10.7257104       0.186139272      -78.2156875      0.186139272      -78.2156875      0.979090354      10.7257109       
0.7              0.979653811      10.5735129       0.183527784      -78.3755064      0.183527784      -78.3755064      0.979653909      10.5735133       
0.71             0.980194758      10.4253773       0.180984769      -78.530977       0.180984769      -78.530977       0.980194856      10.4253777       
0.72             0.980714281      10.2811437       0.178507594      -78.6822711      0.178507594      -78.6822711      0.980714379      10.2811441       
0.73             0.981213487      10.14066         0.176093755      -78.8295512      0.176093755      -78.8295512      0.981213585      10.1406604       
0.74             0.981693416      10.0037823       0.173740871      -78.9729719      0.173740871      -78.9729719      0.981693514      10.0037827       
0.75             0.98215504       9.87037336       0.171446677      -79.1126799      0.171446677      -79.1126799      0.982155138      9.87037378       
0.76             0.982599271      9.74030311       0.169209017      -79.2488145      0.169209017      -79.2488145      0.982599369      9.74030352       
0.77             0.983026967      9.61344763       0.167025835      -79.3815084      0.167025835      -79.3815084      0.983027065      9.61344804       
0.78             0.983438932      9.48968903       0.164895175      -79.5108876      0.164895175      -79.5108876      0.98343903       9.48968944       
0.79             0.983835924      9.36891506       0.162815169      -79.6370722      0.162815169      -79.6370722      0.983836022      9.36891547       
0.8              0.984218655      9.25101874       0.160784037      -79.7601766      0.160784037      -79.7601766      0.984218753      9.25101915       
0.81             0.984587795      9.1358981        0.158800079      -79.8803098      0.158800079      -79.8803098      0.984587893      9.13589851       
0.82             0.984943976      9.02345589       0.156861671      -79.9975756      0.156861671      -79.9975756      0.984944074      9.02345629       
0.83             0.985287794      8.91359927       0.154967263      -80.1120733      0.154967263      -80.1120733      0.985287892      8.91359968       
0.84             0.985619811      8.80623964       0.153115372      -80.2238974      0.153115372      -80.2238974      0.98561991       8.80624005       
0.85             0.985940558      8.70129233       0.151304582      -80.3331383      0.151304582      -80.3331383      0.985940656      8.70129273       
0.86             0.986250536      8.59867642       0.149533536      -80.4398824      0.149533536      -80.4398824      0.986250634      8.59867682       
0.87             0.986550218      8.49831454       0.147800936      -80.5442122      0.147800936      -80.5442122      0.986550317      8.49831495       
0.88             0.986840053      8.40013269       0.146105539      -80.6462067      0.146105539      -80.6462067      0.986840152      8.40013309       
0.89             0.987120465      8.30406001       0.144446156      -80.7459414      0.144446156      -80.7459414      0.987120564      8.30406041       
0.9              0.987391855      8.21002868       0.142821644      -80.8434886      0.142821644      -80.8434886      0.987391954      8.21002908       
0.91             0.987654605      8.11797371       0.14123091       -80.9389175      0.14123091       -80.9389175      0.987654703      8.11797411       
0.92             0.987909073      8.02783284       0.139672906      -81.0322944      0.139672906      -81.0322944      0.987909172      8.02783324       
0.93             0.988155604      7.93954636       0.138146623      -81.1236831      0.138146623      -81.1236831      0.988155703      7.93954676       
0.94             0.98839452       7.85305699       0.136651097      -81.2131443      0.136651097      -81.2131443      0.988394619      7.85305739       
0.95             0.988626132      7.76830979       0.135185398      -81.3007367      0.135185398      -81.3007367      0.988626231      7.76831019       
0.96             0.98885073       7.685252         0.133748636      -81.3865164      0.133748636      -81.3865164      0.988850829      7.6852524        
0.97             0.989068595      7.60383295       0.132339953      -81.4705371      0.132339953      -81.4705371      0.989068694      7.60383335       
0.98             0.98927999       7.52400398       0.130958527      -81.5528508      0.130958527      -81.5528508      0.989280089      7.52400439       
0.99             0.989485167      7.44571832       0.129603564      -81.6335071      0.129603564      -81.6335071      0.989485266      7.44571872       
1                0.989684366      7.36893098       0.128274304      -81.7125537      0.128274304      -81.7125537      0.989684465      7.36893138       
1.01             0.989877816      7.29359871       0.126970013      -81.7900368      0.126970013      -81.7900368      0.989877915      7.29359911       
1.02             0.990065733      7.2196799        0.125689985      -81.8660004      0.125689985      -81.8660004      0.990065832      7.2196803        
1.03             0.990248326      7.1471345        0.12443354       -81.940487       0.12443354       -81.940487       0.990248425      7.1471349        
1.04             0.990425791      7.07592392       0.123200023      -82.0135377      0.123200023      -82.0135377      0.99042589       7.07592432       
1.05             0.990598318      7.00601103       0.121988803      -82.0851918      0.121988803      -82.0851918      0.990598417      7.00601143       
1.06             0.990766086      6.93736005       0.120799272      -82.1554873      0.120799272      -82.1554873      0.990766185      6.93736045       
1.07             0.990929267      6.86993647       0.119630843      -82.2244608      0.119630843      -82.2244608      0.990929366      6.86993687       
1.08             0.991088026      6.80370705       0.118482951      -82.2921474      0.118482951      -82.2921474      0.991088125      6.80370745       
1.09             0.991242519      6.7386397        0.117355048      -82.3585812      0.117355048      -82.3585812      0.991242618      6.73864011       
1.1              0.991392897      6.6747035        0.116246609      -82.4237949      0.116246609      -82.4237949      0.991392996      6.67470391       
1.11             0.991539302      6.61186859       0.115157124      -82.4878202      0.115157124      -82.4878202      0.991539401      6.61186899       
1.12             0.991681873      6.55010614       0.114086102      -82.5506875      0.114086102      -82.5506875      0.991681972      6.55010654       
1.13             0.99182074       6.48938832       0.113033069      -82.6124264      0.113033069      -82.6124264      0.991820839      6.48938873       
1.14             0.991956029      6.42968826       0.111997565      -82.6730651      0.111997565      -82.6730651      0.991956128      6.42968866       
1.15             0.992087861      6.37097998       0.110979148      -82.7326312      0.110979148      -82.7326312      0.99208796       6.37098038       
1.16             0.992216351      6.31323838       0.109977389      -82.7911512      0.109977389      -82.7911512      0.99221645       6.31323878       
1.17             0.99234161       6.25643919       0.108991873      -82.8486508      0.108991873      -82.8486508      0.992341709      6.2564396        
1.18             0.992463743      6.20055897       0.1080222        -82.9051546      0.1080222        -82.9051546      0.992463843      6.20055937       
1.19             0.992582854      6.145575         0.107067981      -82.9606866      0.107067981      -82.9606866      0.992582953      6.14557541       
1.2              0.992699038      6.09146533       0.106128841      -83.0152701      0.106128841      -83.0152701      0.992699138      6.09146574       
1.21             0.992812391      6.03820872       0.105204416      -83.0689273      0.105204416      -83.0689273      0.99281249       6.03820913       
1.22             0.992923002      5.9857846        0.104294356      -83.1216801      0.104294356      -83.1216801      0.992923101      5.98578501       
1.23             0.993030957      5.93417304       0.103398317      -83.1735493      0.103398317      -83.1735493      0.993031056      5.93417345       
1.24             0.993136339      5.88335477       0.102515971      -83.2245552      0.102515971      -83.2245552      0.993136439      5.88335518       
1.25             0.993239229      5.83331109       0.101646997      -83.2747176      0.101646997      -83.2747176      0.993239328      5.8333115        
1.26             0.993339703      5.78402389       0.100791086      -83.3240554      0.100791086      -83.3240554      0.993339802      5.78402431       
1.27             0.993437834      5.73547564       0.099947935      -83.3725872      0.099947935      -83.3725872      0.993437933      5.73547605       
1.28             0.993533694      5.68764932       0.0991172539     -83.4203307      0.0991172539     -83.4203307      0.993533794      5.68764973       
1.29             0.993627351      5.64052842       0.0982987594     -83.4673034      0.0982987594     -83.4673034      0.993627451      5.64052884       
1.3              0.993718871      5.59409696       0.0974921771     -83.5135219      0.0974921771     -83.5135219      0.993718971      5.59409738       
1.31             0.993808317      5.54833941       0.0966972407     -83.5590027      0.0966972407     -83.5590027      0.993808417      5.54833983       
1.32             0.99389575       5.50324071       0.0959136916     -83.6037614      0.0959136916     -83.6037614      0.993895849      5.50324113       
