! Coilcraft 1008PS-823 Power Chip Inductor				
! 7 October 2002			
# MHZ S MA R 50
!Freq             MagS11           AngS11           MagS21           AngS21           MagS12           AngS12           MagS22           AngS22
0.05             0.243140446      66.7455261       0.931195863      -13.880254       0.931195863      -13.880254       0.243140468      66.7455298       
0.065            0.308279438      64.9219316       0.913074904      -17.8062994      0.913074904      -17.8062994      0.308279467      64.9219344       
0.08             0.369555759      62.4843764       0.891688703      -21.5655144      0.891688703      -21.5655144      0.369555794      62.4843787       
0.095            0.426452279      59.8177133       0.867791004      -25.138053       0.867791004      -25.138053       0.42645232       59.8177152       
0.11             0.478740776      57.1026878       0.842110869      -28.5117615      0.842110869      -28.5117615      0.478740823      57.1026895       
0.125            0.526403799      54.4330908       0.815310846      -31.6812956      0.815310846      -31.6812956      0.526403851      54.4330923       
0.14             0.569576178      51.8594586       0.78796246       -34.6469314      0.78796246       -34.6469314      0.569576234      51.8594599       
0.155            0.608495887      49.4084237       0.760536694      -37.4132868      0.760536694      -37.4132868      0.608495947      49.408425        
0.17             0.643463593      47.0925055       0.733405575      -39.9881097      0.733405575      -39.9881097      0.643463656      47.0925067       
0.185            0.674811103      44.915596        0.706850798      -42.3812233      0.706850798      -42.3812233      0.67481117       44.915597        
0.2              0.702878239      42.8762667       0.681075957      -44.6036663      0.681075957      -44.6036663      0.702878308      42.8762677       
0.215            0.727996951      40.9698597       0.656219891      -46.6670303      0.656219891      -46.6670303      0.727997024      40.9698606       
0.23             0.750481264      39.1898453       0.632369555      -48.5829716      0.632369555      -48.5829716      0.750481338      39.1898461       
0.245            0.77062158       37.528714        0.609571538      -50.3628718      0.609571538      -50.3628718      0.770621657      37.5287148       
0.26             0.788682113      35.9785614       0.587841883      -52.0176143      0.587841883      -52.0176143      0.788682192      35.9785621       
0.275            0.804900413      34.5314657       0.567174138      -53.5574494      0.567174138      -53.5574494      0.804900493      34.5314665       
0.29             0.81948823       33.1797268       0.547545794      -54.991924       0.547545794      -54.991924       0.819488311      33.1797275       
0.305            0.83263316       31.9160085       0.528923305      -56.3298571      0.528923305      -56.3298571      0.832633243      31.9160092       
0.32             0.844500688      30.733418        0.511265934      -57.5793463      0.511265934      -57.5793463      0.844500772      30.7334186       
0.335            0.855236374      29.6255413       0.49452864       -58.7477939      0.49452864       -58.7477939      0.855236459      29.6255419       
0.35             0.864968026      28.5864514       0.478664222      -59.8419454      0.478664222      -59.8419454      0.864968112      28.586452        
0.365            0.873807763      27.610698        0.46362486       -60.8679352      0.46362486       -60.8679352      0.87380785       27.6106985       
0.38             0.88185392       26.693286        0.449363218      -61.8313334      0.449363218      -61.8313334      0.881854008      26.6932865       
0.395            0.889192763      25.8296488       0.435833202      -62.7371946      0.435833202      -62.7371946      0.889192851      25.8296493       
0.41             0.895900025      25.0156174       0.422990461      -63.5901039      0.422990461      -63.5901039      0.895900114      25.0156179       
0.425            0.902042259      24.2473895       0.410792698      -64.3942207      0.410792698      -64.3942207      0.902042349      24.24739         
0.44             0.907678027      23.5214982       0.399199849      -65.1533201      0.399199849      -65.1533201      0.907678117      23.5214987       
0.455            0.912858927      22.834783        0.388174155      -65.87083        0.388174155      -65.87083        0.912859018      22.8347835       
0.47             0.917630502      22.1843614       0.377680168      -66.549866       0.377680168      -66.549866       0.917630593      22.1843619       
0.485            0.92203301       21.5676034       0.367684706      -67.1932619      0.367684706      -67.1932619      0.922033102      21.5676039       
0.5              0.926102106      20.9821077       0.358156776      -67.8035986      0.358156776      -67.8035986      0.926102198      20.9821082       
0.515            0.929869424      20.42568         0.349067478      -68.3832288      0.349067478      -68.3832288      0.929869517      20.4256805       
0.53             0.933363082      19.8963133       0.340389891      -68.9342998      0.340389891      -68.9342998      0.933363175      19.8963137       
0.545            0.936608118      19.3921697       0.332098959      -69.458774       0.332098959      -69.458774       0.936608212      19.3921701       
0.56             0.939626872      18.911565        0.324171373      -69.958447       0.324171373      -69.958447       0.939626966      18.9115654       
0.575            0.942439311      18.4529535       0.316585453      -70.4349641      0.316585453      -70.4349641      0.942439405      18.4529539       
0.59             0.945063314      18.0149154       0.309321036      -70.8898343      0.309321036      -70.8898343      0.945063409      18.0149158       
0.605            0.947514924      17.5961448       0.302359367      -71.3244439      0.302359367      -71.3244439      0.947515019      17.5961452       
0.62             0.949808557      17.1954391       0.295682995      -71.740068       0.295682995      -71.740068       0.949808652      17.1954395       
0.635            0.951957192      16.8116897       0.28927568       -72.1378808      0.28927568       -72.1378808      0.951957287      16.8116901       
0.65             0.953972535      16.4438732       0.283122298      -72.518965       0.283122298      -72.518965       0.953972631      16.4438736       
0.665            0.955865163      16.0910442       0.277208759      -72.8843201      0.277208759      -72.8843201      0.955865259      16.0910446       
0.68             0.957644646      15.7523276       0.271521931      -73.2348704      0.271521931      -73.2348704      0.957644742      15.752328        
0.695            0.95931966       15.4269132       0.266049562      -73.5714709      0.266049562      -73.5714709      0.959319756      15.4269136       
0.71             0.96089808       15.1140495       0.260780218      -73.8949141      0.260780218      -73.8949141      0.960898176      15.1140499       
0.725            0.962387068      14.8130389       0.255703218      -74.2059351      0.255703218      -74.2059351      0.962387164      14.8130392       
0.74             0.963793146      14.523233        0.250808582      -74.5052168      0.250808582      -74.5052168      0.963793242      14.5232334       
0.755            0.965122263      14.2440286       0.246086972      -74.7933941      0.246086972      -74.7933941      0.965122359      14.244029        
0.77             0.966379853      13.974864        0.24152965       -75.0710578      0.24152965       -75.0710578      0.966379949      13.9748644       
0.785            0.967570884      13.7152153       0.237128429      -75.3387586      0.237128429      -75.3387586      0.967570981      13.7152156       
0.8              0.96869991       13.4645936       0.232875636      -75.5970103      0.232875636      -75.5970103      0.968700007      13.4645939       
0.815            0.969771105      13.2225421       0.228764071      -75.8462925      0.228764071      -75.8462925      0.969771201      13.2225425       
0.83             0.970788303      12.9886339       0.224786977      -76.0870536      0.224786977      -76.0870536      0.9707884        12.9886342       
0.845            0.97175503       12.762469        0.220938004      -76.3197129      0.220938004      -76.3197129      0.971755127      12.7624693       
0.86             0.972674534      12.5436728       0.217211183      -76.5446635      0.217211183      -76.5446635      0.972674631      12.5436731       
0.875            0.973549805      12.3318941       0.213600897      -76.7622735      0.213600897      -76.7622735      0.973549903      12.3318944       
0.89             0.974383607      12.1268031       0.210101858      -76.9728886      0.210101858      -76.9728886      0.974383705      12.1268034       
0.905            0.975178492      11.92809         0.206709082      -77.1768332      0.206709082      -77.1768332      0.975178589      11.9280903       
0.92             0.97593682       11.7354635       0.203417871      -77.3744122      0.203417871      -77.3744122      0.975936917      11.7354638       
0.935            0.976660777      11.5486495       0.200223792      -77.5659127      0.200223792      -77.5659127      0.976660875      11.5486499       
0.95             0.977352391      11.3673899       0.197122659      -77.7516048      0.197122659      -77.7516048      0.977352489      11.3673902       
0.965            0.978013543      11.1914412       0.194110518      -77.931743       0.194110518      -77.931743       0.978013641      11.1914415       
0.98             0.978645979      11.0205739       0.191183628      -78.1065672      0.191183628      -78.1065672      0.978646077      11.0205743       
0.995            0.979251325      10.8545714       0.188338452      -78.2763042      0.188338452      -78.2763042      0.979251423      10.8545717       
1.01             0.979831094      10.6932287       0.18557164       -78.4411677      0.18557164       -78.4411677      0.979831192      10.6932291       
1.025            0.980386694      10.5363525       0.18288002       -78.60136        0.18288002       -78.60136        0.980386792      10.5363528       
1.04             0.98091944       10.3837594       0.180260585      -78.7570724      0.180260585      -78.7570724      0.980919539      10.3837597       
1.055            0.981430559      10.2352761       0.17771048       -78.9084858      0.17771048       -78.9084858      0.981430657      10.2352765       
1.07             0.981921196      10.0907384       0.175227         -79.0557717      0.175227         -79.0557717      0.981921294      10.0907387       
1.085            0.982392424      9.94999037       0.172807573      -79.1990927      0.172807573      -79.1990927      0.982392522      9.94999071       
1.1              0.982845244      9.81288435       0.170449756      -79.3386027      0.170449756      -79.3386027      0.982845342      9.81288469       
1.115            0.983280596      9.67928005       0.168151227      -79.474448       0.168151227      -79.474448       0.983280695      9.67928039       
1.13             0.983699362      9.54904422       0.165909775      -79.6067676      0.165909775      -79.6067676      0.98369946       9.54904456       
1.145            0.984102366      9.42205022       0.163723299      -79.7356934      0.163723299      -79.7356934      0.984102464      9.42205056       
1.16             0.984490384      9.2981776        0.161589796      -79.8613508      0.161589796      -79.8613508      0.984490482      9.29817795       
1.175            0.984864144      9.17731176       0.159507358      -79.9838591      0.159507358      -79.9838591      0.984864242      9.1773121        
1.19             0.985224332      9.05934356       0.157474165      -80.1033321      0.157474165      -80.1033321      0.98522443       9.05934391       
1.205            0.985571592      8.94416905       0.155488483      -80.2198777      0.155488483      -80.2198777      0.98557169       8.9441694        
1.22             0.98590653       8.83168913       0.153548656      -80.3335993      0.153548656      -80.3335993      0.985906629      8.83168948       
1.235            0.986229719      8.72180929       0.151653104      -80.4445949      0.151653104      -80.4445949      0.986229818      8.72180963       
1.25             0.986541698      8.61443935       0.149800316      -80.5529584      0.149800316      -80.5529584      0.986541797      8.61443969       
1.265            0.986842975      8.50949321       0.14798885       -80.6587793      0.14798885       -80.6587793      0.986843073      8.50949356       
1.28             0.98713403       8.40688864       0.146217326      -80.762143       0.146217326      -80.762143       0.987134128      8.40688899       
1.295            0.987415316      8.30654705       0.144484424      -80.8631312      0.144484424      -80.8631312      0.987415415      8.3065474        
1.31             0.987687264      8.20839329       0.142788881      -80.9618217      0.142788881      -80.9618217      0.987687363      8.20839364       
1.325            0.987950277      8.11235549       0.141129488      -81.0582893      0.141129488      -81.0582893      0.987950376      8.11235583       
1.34             0.988204741      8.01836485       0.139505087      -81.1526053      0.139505087      -81.1526053      0.98820484       8.0183652        
1.355            0.988451017      7.92635551       0.137914568      -81.2448381      0.137914568      -81.2448381      0.988451116      7.92635586       
1.37             0.988689452      7.83626439       0.136356867      -81.3350529      0.136356867      -81.3350529      0.98868955       7.83626474       
1.385            0.98892037       7.74803102       0.134830963      -81.4233126      0.134830963      -81.4233126      0.988920469      7.74803138       
1.4              0.989144082      7.66159745       0.133335878      -81.509677       0.133335878      -81.509677       0.989144181      7.6615978        
1.415            0.989360881      7.57690807       0.131870672      -81.5942039      0.131870672      -81.5942039      0.98936098       7.57690843       
1.43             0.989571048      7.49390955       0.130434443      -81.6769484      0.130434443      -81.6769484      0.989571147      7.4939099        
1.445            0.989774845      7.41255067       0.129026324      -81.7579635      0.129026324      -81.7579635      0.989774944      7.41255103       
1.46             0.989972527      7.33278228       0.127645483      -81.8373         0.127645483      -81.8373         0.989972626      7.33278263       
1.475            0.990164331      7.25455712       0.126291119      -81.9150069      0.126291119      -81.9150069      0.99016443       7.25455748       
1.49             0.990350487      7.1778298        0.124962461      -81.9911309      0.124962461      -81.9911309      0.990350586      7.17783016       
1.505            0.990531211      7.10255668       0.12365877       -82.0657172      0.12365877       -82.0657172      0.99053131       7.10255704       
1.52             0.99070671       7.02869578       0.122379333      -82.1388092      0.122379333      -82.1388092      0.990706809      7.02869614       
1.535            0.990877181      6.95620671       0.121123464      -82.2104484      0.121123464      -82.2104484      0.99087728       6.95620707       
1.55             0.991042811      6.8850506        0.119890503      -82.280675       0.119890503      -82.280675       0.99104291       6.88505096       
1.565            0.99120378       6.81519004       0.118679812      -82.3495276      0.118679812      -82.3495276      0.991203879      6.8151904        
1.58             0.991360259      6.74658897       0.117490779      -82.4170433      0.117490779      -82.4170433      0.991360358      6.74658933       
1.595            0.991512409      6.67921267       0.116322813      -82.4832579      0.116322813      -82.4832579      0.991512509      6.67921303       
1.61             0.991660388      6.61302767       0.115175344      -82.5482057      0.115175344      -82.5482057      0.991660487      6.61302804       
1.625            0.991804344      6.54800171       0.114047821      -82.6119201      0.114047821      -82.6119201      0.991804443      6.54800208       
1.64             0.991944419      6.48410367       0.112939715      -82.6744329      0.112939715      -82.6744329      0.991944518      6.48410404       
1.655            0.992080748      6.42130353       0.111850514      -82.7357751      0.111850514      -82.7357751      0.992080847      6.4213039        
1.67             0.992213462      6.35957232       0.110779724      -82.7959763      0.110779724      -82.7959763      0.992213561      6.35957269       
1.685            0.992342685      6.29888208       0.109726867      -82.8550653      0.109726867      -82.8550653      0.992342785      6.29888245       
1.7              0.992468537      6.2392058        0.108691482      -82.9130698      0.108691482      -82.9130698      0.992468636      6.23920618       
1.715            0.99259113       6.18051742       0.107673124      -82.9700164      0.107673124      -82.9700164      0.992591229      6.1805178        
1.73             0.992710575      6.12279172       0.106671362      -83.0259311      0.106671362      -83.0259311      0.992710674      6.1227921        
1.745            0.992826975      6.06600437       0.10568578       -83.0808386      0.10568578       -83.0808386      0.992827075      6.06600475       
1.76             0.992940432      6.01013181       0.104715976      -83.1347631      0.104715976      -83.1347631      0.992940531      6.01013219       
1.775            0.993051041      5.95515129       0.10376156       -83.1877279      0.10376156       -83.1877279      0.99305114       5.95515167       
1.79             0.993158894      5.90104079       0.102822155      -83.2397553      0.102822155      -83.2397553      0.993158993      5.90104117       
1.805            0.99326408       5.847779         0.101897396      -83.2908672      0.101897396      -83.2908672      0.99326418       5.84777939       
1.82             0.993366685      5.79534532       0.100986932      -83.3410846      0.100986932      -83.3410846      0.993366784      5.79534571       
1.835            0.993466788      5.74371978       0.100090419      -83.3904277      0.100090419      -83.3904277      0.993466888      5.74372017       
1.85             0.99356447       5.69288308       0.0992075273     -83.4389163      0.0992075273     -83.4389163      0.99356457       5.69288347       
1.865            0.993659805      5.64281648       0.0983379356     -83.4865694      0.0983379356     -83.4865694      0.993659904      5.64281687       
1.88             0.993752865      5.59350187       0.0974813331     -83.5334053      0.0974813331     -83.5334053      0.993752965      5.59350226       
1.895            0.99384372       5.54492168       0.0966374188     -83.5794419      0.0966374188     -83.5794419      0.99384382       5.54492207       
1.91             0.993932438      5.49705888       0.0958059004     -83.6246965      0.0958059004     -83.6246965      0.993932537      5.49705928       
1.925            0.994019081      5.44989698       0.0949864949     -83.6691857      0.0949864949     -83.6691857      0.994019181      5.44989737       
1.94             0.994103713      5.40341996       0.0941789275     -83.7129259      0.0941789275     -83.7129259      0.994103813      5.40342036       
1.955            0.994186393      5.3576123        0.0933829317     -83.7559325      0.0933829317     -83.7559325      0.994186492      5.3576127        
