! Coilcraft 1008PS-682 Power Chip Inductor				
! 7 October 2002			
# MHZ S MA R 50
!Freq             MagS11           AngS11           MagS21           AngS21           MagS12           AngS12           MagS22           AngS22
0.05             0.0217777435     76.2246312       0.995039053      -1.21801663      0.995039053      -1.21801663      0.0217777453     76.2246361       
0.09             0.0385394142     80.6741574       0.994482001      -2.19158481      0.994482001      -2.19158481      0.0385394178     80.6741603       
0.13             0.0554026313     81.8180327       0.993629527      -3.1637778       0.993629527      -3.1637778       0.0554026367     81.8180349       
0.17             0.07225704       81.9672551       0.992485027      -4.13402944      0.992485027      -4.13402944      0.0722570471     81.9672569       
0.21             0.0890649415     81.6891323       0.991052311      -5.10178322      0.991052311      -5.10178322      0.0890649503     81.6891339       
0.25             0.105803799      81.1901127       0.989335686      -6.06649314      0.989335686      -6.06649314      0.105803809      81.1901141       
0.29             0.122456078      80.5633796       0.987339993      -7.02762491      0.987339993      -7.02762491      0.12245609       80.5633809       
0.33             0.139006486      79.8572598       0.985070622      -7.98465727      0.985070622      -7.98465727      0.1390065        79.8572611       
0.37             0.155441022      79.0994071       0.982533504      -8.93708326      0.982533504      -8.93708326      0.155441038      79.0994084       
0.41             0.171746611      78.3068637       0.979735089      -9.88441152      0.979735089      -9.88441152      0.171746628      78.3068649       
0.45             0.187910944      77.490764        0.976682317      -10.8261675      0.976682317      -10.8261675      0.187910963      77.4907653       
0.49             0.203922421      76.6587374       0.973382586      -11.7618943      0.973382586      -11.7618943      0.203922441      76.6587387       
0.53             0.219770118      75.8162233       0.969843707      -12.6911543      0.969843707      -12.6911543      0.219770141      75.8162246       
0.57             0.235443791      74.9672322       0.966073869      -13.613529       0.966073869      -13.613529       0.235443815      74.9672336       
0.61             0.250933869      74.1148077       0.96208159       -14.5286208      0.96208159       -14.5286208      0.250933895      74.1148092       
0.65             0.266231462      73.2613175       0.957875675      -15.4360528      0.957875675      -15.4360528      0.266231489      73.261319        
0.69             0.281328362      72.4086428       0.95346517       -16.3354699      0.95346517       -16.3354699      0.281328391      72.4086443       
0.73             0.296217046      71.5583058       0.948859314      -17.2265386      0.948859314      -17.2265386      0.296217076      71.5583074       
0.77             0.310890673      70.7115574       0.944067499      -18.1089475      0.944067499      -18.1089475      0.310890704      70.711559        
0.81             0.325343078      69.8694385       0.939099223      -18.9824076      0.939099223      -18.9824076      0.325343111      69.8694402       
0.85             0.339568768      69.0328247       0.933964048      -19.846652       0.933964048      -19.846652       0.339568803      69.0328264       
0.89             0.353562907      68.2024584       0.92867156       -20.7014355      0.92867156       -20.7014355      0.353562943      68.2024602       
0.93             0.367321301      67.3789733       0.923231332      -21.5465353      0.923231332      -21.5465353      0.367321339      67.3789751       
0.97             0.380840387      66.5629123       0.917652886      -22.3817497      0.917652886      -22.3817497      0.380840427      66.5629142       
1.01             0.394117208      65.7547424       0.911945659      -23.2068983      0.911945659      -23.2068983      0.394117249      65.7547443       
1.05             0.407149393      64.9548649       0.906118973      -24.0218212      0.906118973      -24.0218212      0.407149435      64.9548669       
1.09             0.419935135      64.1636249       0.900182006      -24.8263788      0.900182006      -24.8263788      0.419935178      64.1636269       
1.13             0.432473164      63.3813179       0.894143766      -25.6204509      0.894143766      -25.6204509      0.43247321       63.3813199       
1.17             0.444762725      62.6081958       0.888013067      -26.403936       0.888013067      -26.403936       0.444762772      62.6081979       
1.21             0.456803547      61.844472        0.881798511      -27.1767509      0.881798511      -27.1767509      0.456803595      61.8444742       
1.25             0.468595814      61.090325        0.875508468      -27.9388297      0.875508468      -27.9388297      0.468595863      61.0903273       
1.29             0.480140143      60.3459022       0.869151059      -28.6901233      0.869151059      -28.6901233      0.480140194      60.3459045       
1.33             0.49143755       59.6113227       0.862734148      -29.4305981      0.862734148      -29.4305981      0.491437602      59.611325        
1.37             0.502489425      58.8866801       0.856265325      -30.160236       0.856265325      -30.160236       0.502489479      58.8866825       
1.41             0.513297504      58.1720447       0.849751906      -30.8790329      0.849751906      -30.8790329      0.513297559      58.1720472       
1.45             0.523863838      57.4674658       0.843200917      -31.586998       0.843200917      -31.586998       0.523863895      57.4674683       
1.49             0.534190771      56.7729732       0.836619096      -32.2841534      0.836619096      -32.2841534      0.534190829      56.7729757       
1.53             0.544280912      56.0885791       0.830012892      -32.970533       0.830012892      -32.970533       0.544280971      56.0885817       
1.57             0.554137107      55.4142797       0.823388455      -33.6461815      0.823388455      -33.6461815      0.554137168      55.4142824       
1.61             0.563762419      54.7500565       0.816751648      -34.3111542      0.816751648      -34.3111542      0.563762481      54.7500592       
1.65             0.573160102      54.0958777       0.810108041      -34.9655157      0.810108041      -34.9655157      0.573160165      54.0958804       
1.69             0.582333579      53.4516992       0.803462917      -35.6093396      0.803462917      -35.6093396      0.582333644      53.451702        
1.73             0.591286421      52.8174659       0.796821275      -36.2427074      0.796821275      -36.2427074      0.591286487      52.8174688       
1.77             0.600022329      52.1931128       0.790187837      -36.8657081      0.790187837      -36.8657081      0.600022396      52.1931157       
1.81             0.60854511       51.5785656       0.783567053      -37.4784374      0.783567053      -37.4784374      0.608545178      51.5785686       
1.85             0.616858664      50.9737421       0.776963105      -38.0809972      0.776963105      -38.0809972      0.616858734      50.9737451       
1.89             0.624966967      50.3785526       0.770379922      -38.6734949      0.770379922      -38.6734949      0.624967038      50.3785557       
1.93             0.632874051      49.7929008       0.763821176      -39.2560427      0.763821176      -39.2560427      0.632874123      49.792904        
1.97             0.640583997      49.2166847       0.757290301      -39.8287576      0.757290301      -39.8287576      0.64058407       49.2166879       
2.01             0.648100913      48.649797        0.750790495      -40.3917599      0.750790495      -40.3917599      0.648100988      48.6498002       
2.05             0.655428931      48.0921259       0.744324732      -40.9451739      0.744324732      -40.9451739      0.655429007      48.0921291       
2.09             0.662572187      47.5435555       0.737895767      -41.4891264      0.737895767      -41.4891264      0.662572264      47.5435588       
2.13             0.669534816      47.0039667       0.731506148      -42.0237471      0.731506148      -42.0237471      0.669534894      47.00397         
2.17             0.676320942      46.4732371       0.725158224      -42.5491674      0.725158224      -42.5491674      0.676321022      46.4732405       
2.21             0.682934668      45.9512422       0.718854155      -43.0655207      0.718854155      -43.0655207      0.682934749      45.9512457       
2.25             0.68938007       45.4378552       0.712595917      -43.5729419      0.712595917      -43.5729419      0.689380152      45.4378587       
2.29             0.695661188      44.9329477       0.706385314      -44.0715666      0.706385314      -44.0715666      0.695661271      44.9329512       
2.33             0.70178202       44.4363899       0.700223986      -44.5615314      0.700223986      -44.5615314      0.701782105      44.4363935       
2.37             0.70774652       43.9480512       0.694113418      -45.0429735      0.694113418      -45.0429735      0.707746606      43.9480549       
2.41             0.71355859       43.4678003       0.688054944      -45.51603        0.688054944      -45.51603        0.713558676      43.467804        
2.45             0.719222073      42.9955054       0.68204976       -45.9808382      0.68204976       -45.9808382      0.719222161      42.9955091       
2.49             0.724740758      42.5310346       0.676098929      -46.437535       0.676098929      -46.437535       0.724740847      42.5310384       
2.53             0.730118367      42.0742562       0.670203391      -46.8862571      0.670203391      -46.8862571      0.730118457      42.07426         
2.57             0.735358559      41.6250389       0.664363964      -47.3271404      0.664363964      -47.3271404      0.735358651      41.6250427       
2.61             0.740464926      41.1832515       0.65858136       -47.76032        0.65858136       -47.76032        0.740465018      41.1832554       
2.65             0.745440988      40.7487641       0.652856183      -48.1859301      0.652856183      -48.1859301      0.745441081      40.748768        
2.69             0.750290197      40.3214472       0.647188941      -48.604104       0.647188941      -48.604104       0.750290291      40.3214512       
2.73             0.755015931      39.9011724       0.64158005       -49.0149735      0.64158005       -49.0149735      0.755016026      39.9011764       
2.77             0.759621496      39.4878126       0.63602984       -49.4186692      0.63602984       -49.4186692      0.759621593      39.4878166       
2.81             0.764110126      39.0812416       0.630538561      -49.8153205      0.630538561      -49.8153205      0.764110224      39.0812457       
2.85             0.768484979      38.681335        0.625106387      -50.2050551      0.625106387      -50.2050551      0.768485078      38.6813391       
2.89             0.772749141      38.2879694       0.619733425      -50.5879991      0.619733425      -50.5879991      0.772749241      38.2879736       
2.93             0.776905622      37.9010232       0.614419714      -50.9642771      0.614419714      -50.9642771      0.776905724      37.9010274       
2.97             0.780957362      37.5203762       0.609165234      -51.334012       0.609165234      -51.334012       0.780957464      37.5203805       
3.01             0.784907226      37.1459099       0.603969909      -51.697325       0.603969909      -51.697325       0.784907329      37.1459142       
3.05             0.788758007      36.7775076       0.598833609      -52.0543352      0.598833609      -52.0543352      0.788758111      36.7775119       
3.09             0.792512426      36.4150542       0.593756159      -52.4051604      0.593756159      -52.4051604      0.792512532      36.4150585       
3.13             0.796173136      36.0584363       0.588737339      -52.7499162      0.588737339      -52.7499162      0.796173242      36.0584407       
3.17             0.799742717      35.7075425       0.583776886      -53.0887164      0.583776886      -53.0887164      0.799742824      35.707547        
3.21             0.803223682      35.3622632       0.578874501      -53.421673       0.578874501      -53.421673       0.80322379       35.3622677       
3.25             0.806618477      35.0224904       0.57402985       -53.7488961      0.57402985       -53.7488961      0.806618586      35.0224949       
3.29             0.80992948       34.6881182       0.569242569      -54.0704938      0.569242569      -54.0704938      0.809929591      34.6881228       
3.33             0.813159007      34.3590425       0.564512263      -54.3865724      0.564512263      -54.3865724      0.813159118      34.3590471       
3.37             0.816309306      34.035161        0.559838512      -54.6972363      0.559838512      -54.6972363      0.816309418      34.0351656       
3.41             0.819382565      33.7163734       0.555220872      -55.002588       0.555220872      -55.002588       0.819382679      33.716378        
3.45             0.822380912      33.4025809       0.550658876      -55.302728       0.550658876      -55.302728       0.822381026      33.4025856       
3.49             0.825306411      33.0936871       0.54615204       -55.5977551      0.54615204       -55.5977551      0.825306527      33.0936918       
3.53             0.828161073      32.789597        0.541699861      -55.8877661      0.541699861      -55.8877661      0.82816119       32.7896017       
3.57             0.830946846      32.4902175       0.537301821      -56.1728561      0.537301821      -56.1728561      0.830946964      32.4902223       
3.61             0.833665628      32.1954576       0.532957388      -56.4531181      0.532957388      -56.4531181      0.833665747      32.1954624       
3.65             0.836319258      31.9052277       0.528666018      -56.7286437      0.528666018      -56.7286437      0.836319378      31.9052325       
3.69             0.838909525      31.6194402       0.524427155      -56.9995222      0.524427155      -56.9995222      0.838909646      31.6194451       
3.73             0.841438165      31.3380093       0.520240237      -57.2658417      0.520240237      -57.2658417      0.841438287      31.3380142       
3.77             0.843906863      31.0608508       0.51610469       -57.527688       0.51610469       -57.527688       0.843906986      31.0608557       
3.81             0.846317258      30.7878823       0.512019937      -57.7851457      0.512019937      -57.7851457      0.846317382      30.7878872       
3.85             0.848670938      30.5190229       0.507985392      -58.0382972      0.507985392      -58.0382972      0.848671063      30.5190279       
3.89             0.850969447      30.2541938       0.504000469      -58.2872235      0.504000469      -58.2872235      0.850969573      30.2541988       
3.93             0.853214283      29.9933173       0.500064574      -58.5320041      0.500064574      -58.5320041      0.85321441       29.9933223       
3.97             0.8554069        29.7363178       0.496177112      -58.7727166      0.496177112      -58.7727166      0.855407027      29.7363228       
4.01             0.857548709      29.4831208       0.492337489      -59.009437       0.492337489      -59.009437       0.857548838      29.4831259       
4.05             0.859641083      29.2336539       0.488545105      -59.2422401      0.488545105      -59.2422401      0.859641212      29.233659        
4.09             0.86168535       28.9878458       0.484799364      -59.4711987      0.484799364      -59.4711987      0.86168548       28.9878509       
4.13             0.863682802      28.7456268       0.48109967       -59.6963844      0.48109967       -59.6963844      0.863682933      28.7456319       
4.17             0.865634693      28.5069289       0.477445425      -59.9178673      0.477445425      -59.9178673      0.865634825      28.506934        
4.21             0.867542239      28.2716852       0.473836036      -60.1357158      0.473836036      -60.1357158      0.867542373      28.2716904       
4.25             0.869406622      28.0398306       0.470270911      -60.3499972      0.470270911      -60.3499972      0.869406757      28.0398358       
4.29             0.871228989      27.811301        0.466749461      -60.5607772      0.466749461      -60.5607772      0.871229124      27.8113062       
4.33             0.873010451      27.586034        0.463271099      -60.7681203      0.463271099      -60.7681203      0.873010588      27.5860392       
4.37             0.874752091      27.3639684       0.459835242      -60.9720894      0.459835242      -60.9720894      0.874752228      27.3639736       
4.41             0.876454956      27.1450442       0.456441313      -61.1727463      0.456441313      -61.1727463      0.876455095      27.1450495       
4.45             0.878120066      26.9292029       0.453088735      -61.3701514      0.453088735      -61.3701514      0.878120205      26.9292082       
4.49             0.879748408      26.7163872       0.44977694       -61.564364       0.44977694       -61.564364       0.879748548      26.7163925       
4.53             0.881340943      26.5065408       0.446505361      -61.7554421      0.446505361      -61.7554421      0.881341084      26.5065462       
4.57             0.882898602      26.299609        0.443273439      -61.9434422      0.443273439      -61.9434422      0.882898744      26.2996143       
4.61             0.884422291      26.0955379       0.440080619      -62.1284201      0.440080619      -62.1284201      0.884422434      26.0955433       
4.65             0.885912888      25.894275        0.43692635       -62.3104302      0.43692635       -62.3104302      0.885913032      25.8942804       
4.69             0.887371246      25.6957689       0.433810089      -62.4895257      0.433810089      -62.4895257      0.887371391      25.6957742       
4.73             0.888798194      25.4999691       0.430731297      -62.6657588      0.430731297      -62.6657588      0.88879834       25.4999745       
4.77             0.890194537      25.3068264       0.427689442      -62.8391806      0.427689442      -62.8391806      0.890194684      25.3068318       
4.81             0.891561056      25.1162927       0.424683999      -63.0098412      0.424683999      -63.0098412      0.891561203      25.1162981       
4.85             0.892898511      24.9283206       0.421714445      -63.1777895      0.421714445      -63.1777895      0.892898659      24.9283261       
4.89             0.894207638      24.7428641       0.418780269      -63.3430736      0.418780269      -63.3430736      0.894207787      24.7428696       
4.93             0.895489153      24.5598779       0.415880961      -63.5057404      0.415880961      -63.5057404      0.895489303      24.5598834       
4.97             0.896743754      24.3793179       0.41301602       -63.6658359      0.41301602       -63.6658359      0.896743905      24.3793234       
5.01             0.897972115      24.2011406       0.410184952      -63.8234054      0.410184952      -63.8234054      0.897972267      24.2011462       
5.05             0.899174894      24.0253039       0.407387268      -63.9784928      0.407387268      -63.9784928      0.899175047      24.0253094       
5.09             0.900352729      23.8517661       0.404622485      -64.1311415      0.404622485      -64.1311415      0.900352882      23.8517716       
5.13             0.901506239      23.6804866       0.401890128      -64.2813939      0.401890128      -64.2813939      0.901506393      23.6804922       
