! Coilcraft 1008PS-473 Power Chip Inductor				
! 7 October 2002			
# MHZ S MA R 50
!Freq             MagS11           AngS11           MagS21           AngS21           MagS12           AngS12           MagS22           AngS22
0.05             0.144813414      70.2981511       0.960900629      -8.15685405      0.960900629      -8.15685405      0.144813426      70.2981555       
0.07             0.198824701      70.318107        0.951632062      -11.3454474      0.951632062      -11.3454474      0.19882472       70.3181103       
0.09             0.251397784      69.0035502       0.939704129      -14.4636345      0.939704129      -14.4636345      0.251397807      69.0035528       
0.11             0.301967685      67.1236705       0.925423345      -17.4958838      0.925423345      -17.4958838      0.301967714      67.1236726       
0.13             0.35017246       64.9886397       0.909129312      -20.429429       0.909129312      -20.429429       0.350172494      64.9886415       
0.15             0.395776613      62.748876        0.891175353      -23.2543849      0.891175353      -23.2543849      0.395776652      62.7488776       
0.17             0.43864306       60.486363        0.871911366      -25.9636908      0.871911366      -25.9636908      0.438643103      60.4863644       
0.19             0.478715619      58.2490925       0.851670055      -28.5529177      0.851670055      -28.5529177      0.478715666      58.2490938       
0.21             0.516003987      56.066191        0.83075698       -31.0199803      0.83075698       -31.0199803      0.516004038      56.0661922       
0.23             0.5505697        53.9554069       0.80944435       -33.3647985      0.80944435       -33.3647985      0.550569755      53.955408        
0.25             0.582513172      51.9272013       0.787968079      -35.5889397      0.787968079      -35.5889397      0.58251323       51.9272023       
0.27             0.611962183      49.9871773       0.766527436      -37.6952725      0.766527436      -37.6952725      0.611962244      49.9871782       
0.29             0.639062081      48.1376219       0.745286588      -39.6876473      0.745286588      -39.6876473      0.639062145      48.1376228       
0.31             0.663967782      46.3785383       0.724377382      -41.570616       0.724377382      -41.570616       0.663967848      46.3785391       
0.33             0.686837494      44.7083623       0.703902812      -43.3491938      0.703902812      -43.3491938      0.686837562      44.7083631       
0.35             0.707827997      43.1244728       0.683940772      -45.0286642      0.683940772      -45.0286642      0.707828068      43.1244735       
0.37             0.727091257      41.6235601       0.664547779      -46.614423       0.664547779      -46.614423       0.72709133       41.6235608       
0.39             0.744772125      40.2018941       0.64576249       -48.1118585      0.64576249       -48.1118585      0.744772199      40.2018947       
0.41             0.761006902      38.8555185       0.627608891      -49.5262609      0.627608891      -49.5262609      0.761006977      38.8555192       
0.43             0.775922567      37.5803919       0.610099112      -50.8627572      0.610099112      -50.8627572      0.775922644      37.5803926       
0.45             0.789636493      36.3724873       0.593235858      -52.1262664      0.593235858      -52.1262664      0.789636572      36.3724879       
0.47             0.802256509      35.2278622       0.57701447       -53.3214709      0.57701447       -53.3214709      0.802256589      35.2278629       
0.49             0.813881208      34.1427067       0.561424641      -54.4527995      0.561424641      -54.4527995      0.813881289      34.1427073       
0.51             0.824600406      33.1133733       0.546451832      -55.5244208      0.546451832      -55.5244208      0.824600488      33.1133739       
0.53             0.834495698      32.1363961       0.532078433      -56.5402433      0.532078433      -56.5402433      0.834495781      32.1363966       
0.55             0.843641052      31.2084996       0.518284686      -57.50392        0.518284686      -57.50392        0.843641136      31.2085002       
0.57             0.852103428      30.3266021       0.50504943       -58.4188575      0.50504943       -58.4188575      0.852103513      30.3266026       
0.59             0.859943377      29.4878131       0.492350688      -59.2882264      0.492350688      -59.2882264      0.859943463      29.4878136       
0.61             0.867215622      28.6894288       0.480166124      -60.1149736      0.480166124      -60.1149736      0.867215709      28.6894294       
0.63             0.873969607      27.928925        0.46847339       -60.9018359      0.46847339       -60.9018359      0.873969694      27.9289256       
0.65             0.880250003      27.2039482       0.457250403      -61.6513526      0.457250403      -61.6513526      0.880250091      27.2039487       
0.67             0.886097181      26.5123063       0.446475534      -62.3658793      0.446475534      -62.3658793      0.88609727       26.5123068       
0.69             0.89154764       25.8519593       0.43612776       -63.0476004      0.43612776       -63.0476004      0.891547729      25.8519598       
0.71             0.896634393      25.2210094       0.426186761      -63.698542       0.426186761      -63.698542       0.896634483      25.2210099       
0.73             0.901387327      24.6176913       0.41663299       -64.320583       0.41663299       -64.320583       0.901387417      24.6176918       
0.75             0.905833515      24.0403634       0.407447714      -64.9154667      0.407447714      -64.9154667      0.905833605      24.0403639       
0.77             0.909997502      23.4874987       0.398613031      -65.4848112      0.398613031      -65.4848112      0.909997593      23.4874992       
0.79             0.913901568      22.9576764       0.390111878      -66.0301187      0.390111878      -66.0301187      0.913901659      22.9576769       
0.81             0.917565948      22.4495743       0.381928026      -66.5527849      0.381928026      -66.5527849      0.91756604       22.4495748       
0.83             0.921009047      21.9619614       0.374046056      -67.0541072      0.374046056      -67.0541072      0.921009139      21.9619619       
0.85             0.924247618      21.4936909       0.366451344      -67.5352922      0.366451344      -67.5352922      0.924247711      21.4936914       
0.87             0.927296929      21.0436939       0.359130033      -67.9974632      0.359130033      -67.9974632      0.927297021      21.0436944       
0.89             0.930170907      20.6109737       0.352068999      -68.4416664      0.352068999      -68.4416664      0.930171         20.6109742       
0.91             0.932882276      20.1946002       0.345255823      -68.8688766      0.345255823      -68.8688766      0.932882369      20.1946007       
0.93             0.935442667      19.793705        0.338678756      -69.2800036      0.338678756      -69.2800036      0.93544276       19.7937054       
0.95             0.937862728      19.4074763       0.332326688      -69.6758963      0.332326688      -69.6758963      0.937862822      19.4074768       
0.97             0.940152217      19.0351555       0.326189114      -70.0573478      0.326189114      -70.0573478      0.940152311      19.035156        
0.99             0.942320086      18.6760325       0.3202561        -70.4250998      0.3202561        -70.4250998      0.94232018       18.676033        
1.01             0.944374556      18.3294425       0.314518255      -70.779846       0.314518255      -70.779846       0.94437465       18.329443        
1.03             0.946323185      17.9947623       0.308966701      -71.122236       0.308966701      -71.122236       0.94632328       17.9947628       
1.05             0.948172932      17.6714079       0.303593039      -71.4528786      0.303593039      -71.4528786      0.948173027      17.6714084       
1.07             0.949930207      17.358831        0.298389325      -71.7723447      0.298389325      -71.7723447      0.949930302      17.3588315       
1.09             0.951600922      17.0565167       0.293348047      -72.08117        0.293348047      -72.08117        0.951601017      17.0565172       
1.11             0.953190537      16.7639812       0.28846209       -72.3798578      0.28846209       -72.3798578      0.953190632      16.7639817       
1.13             0.954704098      16.4807695       0.283724723      -72.6688811      0.283724723      -72.6688811      0.954704194      16.48077         
1.15             0.956146274      16.2064533       0.279129571      -72.9486846      0.279129571      -72.9486846      0.95614637       16.2064538       
1.17             0.957521388      15.9406293       0.274670593      -73.2196873      0.274670593      -73.2196873      0.957521484      15.9406298       
1.19             0.958833448      15.6829174       0.270342067      -73.4822836      0.270342067      -73.4822836      0.958833544      15.6829179       
1.21             0.960086174      15.4329591       0.266138567      -73.7368453      0.266138567      -73.7368453      0.96008627       15.4329596       
1.23             0.961283019      15.1904162       0.262054945      -73.9837233      0.262054945      -73.9837233      0.961283115      15.1904167       
1.25             0.962427195      14.9549692       0.258086321      -74.2232485      0.258086321      -74.2232485      0.962427291      14.9549697       
1.27             0.963521689      14.7263161       0.254228059      -74.4557338      0.254228059      -74.4557338      0.963521785      14.7263166       
1.29             0.964569285      14.5041715       0.250475757      -74.6814748      0.250475757      -74.6814748      0.964569381      14.504172        
1.31             0.965572575      14.2882652       0.246825235      -74.9007512      0.246825235      -74.9007512      0.965572672      14.2882657       
1.33             0.96653398       14.0783414       0.243272517      -75.1138275      0.243272517      -75.1138275      0.966534077      14.0783419       
1.35             0.96745576       13.8741578       0.239813826      -75.3209545      0.239813826      -75.3209545      0.967455856      13.8741583       
1.37             0.968340024      13.6754847       0.236445565      -75.5223696      0.236445565      -75.5223696      0.968340121      13.6754852       
1.39             0.969188748      13.4821041       0.233164314      -75.7182981      0.233164314      -75.7182981      0.969188845      13.4821046       
1.41             0.970003779      13.2938091       0.229966815      -75.9089536      0.229966815      -75.9089536      0.970003876      13.2938097       
1.43             0.970786849      13.1104035       0.226849964      -76.094539       0.226849964      -76.094539       0.970786946      13.110404        
1.45             0.97153958       12.9317004       0.223810804      -76.2752471      0.223810804      -76.2752471      0.971539678      12.9317009       
1.47             0.972263495      12.7575224       0.220846515      -76.451261       0.220846515      -76.451261       0.972263592      12.7575229       
1.49             0.972960022      12.5877007       0.217954408      -76.6227548      0.217954408      -76.6227548      0.972960119      12.5877012       
1.51             0.973630504      12.4220746       0.215131917      -76.7898942      0.215131917      -76.7898942      0.973630601      12.4220751       
1.53             0.974276203      12.260491        0.212376592      -76.9528372      0.212376592      -76.9528372      0.9742763        12.2604915       
1.55             0.974898306      12.1028041       0.209686092      -77.1117338      0.209686092      -77.1117338      0.974898403      12.1028046       
1.57             0.975497931      11.9488749       0.207058182      -77.2667274      0.207058182      -77.2667274      0.975498029      11.9488754       
1.59             0.976076131      11.7985707       0.204490726      -77.4179545      0.204490726      -77.4179545      0.976076229      11.7985713       
1.61             0.976633899      11.6517652       0.201981678      -77.5655453      0.201981678      -77.5655453      0.976633997      11.6517657       
1.63             0.97717217       11.5083373       0.199529085      -77.7096241      0.199529085      -77.7096241      0.977172268      11.5083379       
1.65             0.977691829      11.3681718       0.197131075      -77.8503098      0.197131075      -77.8503098      0.977691927      11.3681723       
1.67             0.97819371       11.2311583       0.194785858      -77.9877156      0.194785858      -77.9877156      0.978193808      11.2311589       
1.69             0.978678602      11.0971914       0.192491717      -78.1219501      0.192491717      -78.1219501      0.9786787        11.097192        
1.71             0.979147249      10.9661703       0.190247008      -78.2531167      0.190247008      -78.2531167      0.979147348      10.9661708       
1.73             0.979600359      10.8379983       0.188050155      -78.3813147      0.188050155      -78.3813147      0.979600457      10.8379989       
1.75             0.980038598      10.7125832       0.185899648      -78.506639       0.185899648      -78.506639       0.980038696      10.7125838       
1.77             0.980462599      10.5898363       0.183794036      -78.6291804      0.183794036      -78.6291804      0.980462697      10.5898369       
1.79             0.980872961      10.4696729       0.181731929      -78.7490259      0.181731929      -78.7490259      0.98087306       10.4696735       
1.81             0.981270254      10.3520117       0.179711992      -78.8662589      0.179711992      -78.8662589      0.981270352      10.3520122       
1.83             0.981655015      10.2367746       0.177732941      -78.9809593      0.177732941      -78.9809593      0.981655114      10.2367752       
1.85             0.982027758      10.1238869       0.175793546      -79.0932039      0.175793546      -79.0932039      0.982027856      10.1238875       
1.87             0.982388967      10.0132768       0.173892621      -79.203066       0.173892621      -79.203066       0.982389065      10.0132774       
1.89             0.982739105      9.90487538       0.172029029      -79.3106164      0.172029029      -79.3106164      0.982739203      9.90487598       
1.91             0.98307861       9.79861637       0.170201675      -79.4159227      0.170201675      -79.4159227      0.983078709      9.79861697       
1.93             0.983407901      9.69443617       0.168409507      -79.51905        0.168409507      -79.51905        0.983408         9.69443677       
1.95             0.983727374      9.59227362       0.166651511      -79.6200609      0.166651511      -79.6200609      0.983727473      9.59227422       
1.97             0.984037408      9.49206991       0.164926711      -79.7190155      0.164926711      -79.7190155      0.984037507      9.49207052       
1.99             0.984338363      9.39376848       0.163234168      -79.8159716      0.163234168      -79.8159716      0.984338462      9.3937691        
2.01             0.984630582      9.2973149        0.161572979      -79.9109846      0.161572979      -79.9109846      0.984630681      9.29731552       
2.03             0.984914393      9.20265676       0.15994227       -80.0041082      0.15994227       -80.0041082      0.984914492      9.20265739       
2.05             0.985190106      9.10974362       0.158341201      -80.0953936      0.158341201      -80.0953936      0.985190205      9.10974425       
2.07             0.985458021      9.01852687       0.156768964      -80.1848906      0.156768964      -80.1848906      0.98545812       9.0185275        
2.09             0.98571842       8.92895968       0.155224775      -80.2726467      0.155224775      -80.2726467      0.985718519      8.92896032       
2.11             0.985971576      8.84099692       0.153707882      -80.358708       0.153707882      -80.358708       0.985971675      8.84099756       
2.13             0.986217747      8.75459507       0.152217557      -80.4431187      0.152217557      -80.4431187      0.986217846      8.75459572       
2.15             0.986457182      8.66971215       0.150753097      -80.5259216      0.150753097      -80.5259216      0.986457281      8.6697128        
2.17             0.986690116      8.58630767       0.149313826      -80.6071577      0.149313826      -80.6071577      0.986690215      8.58630832       
2.19             0.986916777      8.50434255       0.147899089      -80.6868667      0.147899089      -80.6868667      0.986916876      8.5043432        
2.21             0.98713738       8.42377905       0.146508252      -80.7650871      0.146508252      -80.7650871      0.987137479      8.42377971       
2.23             0.987352134      8.34458076       0.145140704      -80.8418556      0.145140704      -80.8418556      0.987352233      8.34458142       
2.25             0.987561237      8.26671247       0.143795855      -80.917208       0.143795855      -80.917208       0.987561336      8.26671314       
2.27             0.987764879      8.19014019       0.142473133      -80.9911788      0.142473133      -80.9911788      0.987764978      8.19014087       
2.29             0.987963242      8.11483107       0.141171986      -81.0638011      0.141171986      -81.0638011      0.987963341      8.11483174       
2.31             0.988156501      8.04075333       0.13989188       -81.1351072      0.13989188       -81.1351072      0.9881566        8.04075401       
2.33             0.988344823      7.96787625       0.138632296      -81.205128       0.138632296      -81.205128       0.988344923      7.96787694       
2.35             0.988528369      7.89617013       0.137392735      -81.2738936      0.137392735      -81.2738936      0.988528469      7.89617082       
2.37             0.988707293      7.82560622       0.136172712      -81.3414329      0.136172712      -81.3414329      0.988707393      7.82560691       
2.39             0.988881743      7.7561567        0.134971758      -81.4077741      0.134971758      -81.4077741      0.988881843      7.7561574        
2.41             0.989051861      7.68779464       0.133789418      -81.4729443      0.133789418      -81.4729443      0.989051961      7.68779534       
2.43             0.989217783      7.62049396       0.132625252      -81.5369696      0.132625252      -81.5369696      0.989217883      7.62049467       
2.45             0.989379641      7.55422942       0.131478833      -81.5998755      0.131478833      -81.5998755      0.98937974       7.55423013       
2.47             0.989537559      7.48897654       0.130349748      -81.6616866      0.130349748      -81.6616866      0.989537659      7.48897726       
2.49             0.98969166       7.42471164       0.129237596      -81.7224266      0.129237596      -81.7224266      0.989691759      7.42471235       
2.51             0.989842059      7.36141172       0.128141988      -81.7821186      0.128141988      -81.7821186      0.989842159      7.36141244       
2.53             0.989988869      7.29905452       0.127062546      -81.8407849      0.127062546      -81.8407849      0.989988968      7.29905525       
2.55             0.990132197      7.23761845       0.125998906      -81.8984471      0.125998906      -81.8984471      0.990132296      7.23761918       
2.57             0.990272147      7.17708256       0.124950712      -81.9551262      0.124950712      -81.9551262      0.990272246      7.1770833        
2.59             0.990408818      7.11742654       0.123917619      -82.0108423      0.123917619      -82.0108423      0.990408918      7.11742728       
