! Coilcraft 1008PS-472 Power Chip Inductor				
! 7 October 2002			
# MHZ S MA R 50
!Freq             MagS11           AngS11           MagS21           AngS21           MagS12           AngS12           MagS22           AngS22
0.05             0.0150371866     77.3865872       0.996824171      -0.843483178     0.996824171      -0.843483178     0.0150371886     77.3865978       
0.112            0.0331102084     82.757625        0.996367294      -1.8891438       0.996367294      -1.8891438       0.0331102161     82.7576329       
0.174            0.0512719948     83.5681677       0.995560867      -2.93347698      0.995560867      -2.93347698      0.0512720085     83.5681735       
0.236            0.0694061979     83.3946534       0.99440905       -3.97568533      0.99440905       -3.97568533      0.0694062174     83.3946579       
0.298            0.0874778146     82.8521186       0.99291602       -5.01503998      0.99291602       -5.01503998      0.0874778398     82.8521223       
0.36             0.105463554      82.13324         0.991086627      -6.05082466      0.991086627      -6.05082466      0.105463585      82.1332431       
0.422            0.12334357       81.3179911       0.988926599      -7.08233583      0.988926599      -7.08233583      0.123343607      81.3179937       
0.484            0.141099627      80.4457369       0.986442562      -8.10888612      0.986442562      -8.10888612      0.141099669      80.4457392       
0.546            0.158714572      79.5382617       0.983642009      -9.12980744      0.983642009      -9.12980744      0.158714619      79.5382638       
0.608            0.17617217       78.6087161       0.980533246      -10.1444535      0.980533246      -10.1444535      0.176172222      78.6087179       
0.67             0.193457065      77.665598        0.977125335      -11.1522023      0.977125335      -11.1522023      0.193457122      77.6655997       
0.732            0.210554783      76.7147109       0.973428023      -12.1524576      0.973428023      -12.1524576      0.210554845      76.7147125       
0.794            0.227451749      75.7602034       0.969451672      -13.1446513      0.969451672      -13.1446513      0.227451817      75.7602048       
0.856            0.244135314      74.8051572       0.965207186      -14.1282443      0.965207186      -14.1282443      0.244135387      74.8051585       
0.918            0.260593769      73.8519363       0.960705932      -15.102728       0.960705932      -15.102728       0.260593847      73.8519375       
0.98             0.276816364      72.9024038       0.955959665      -16.0676251      0.955959665      -16.0676251      0.276816447      72.902405        
1.042            0.292793316      71.9580605       0.950980454      -17.0224902      0.950980454      -17.0224902      0.292793404      71.9580616       
1.104            0.30851581       71.0201376       0.945780607      -17.9669106      0.945780607      -17.9669106      0.308515903      71.0201386       
1.166            0.323975996      70.0896592       0.940372595      -18.9005061      0.940372595      -18.9005061      0.323976093      70.0896602       
1.228            0.339166974      69.1674866       0.934768989      -19.8229292      0.934768989      -19.8229292      0.339167075      69.1674876       
1.29             0.354082782      68.2543499       0.928982389      -20.733865       0.928982389      -20.733865       0.354082888      68.2543507       
1.352            0.368718372      67.3508704       0.923025363      -21.6330307      0.923025363      -21.6330307      0.368718482      67.3508712       
1.414            0.383069578      66.4575788       0.916910391      -22.520175       0.916910391      -22.520175       0.383069693      66.4575796       
1.476            0.39713309       65.5749275       0.910649808      -23.3950775      0.910649808      -23.3950775      0.397133209      65.5749283       
1.538            0.410906417      64.7033018       0.90425576       -24.257548       0.90425576       -24.257548       0.410906541      64.7033025       
1.6              0.424387847      63.8430273       0.897740156      -25.1074251      0.897740156      -25.1074251      0.424387974      63.843028        
1.662            0.437576405      62.9943771       0.891114632      -25.9445757      0.891114632      -25.9445757      0.437576536      62.9943778       
1.724            0.450471814      62.1575772       0.884390515      -26.7688935      0.884390515      -26.7688935      0.450471949      62.1575778       
1.786            0.463074452      61.3328112       0.877578793      -27.580298       0.877578793      -27.580298       0.46307459       61.3328119       
1.848            0.4753853        60.5202246       0.870690094      -28.378733       0.870690094      -28.378733       0.475385442      60.5202252       
1.91             0.487405905      59.7199277       0.863734661      -29.1641655      0.863734661      -29.1641655      0.487406051      59.7199283       
1.972            0.499138333      58.9319996       0.856722339      -29.9365845      0.856722339      -29.9365845      0.499138483      58.9320002       
2.034            0.510585123      58.1564904       0.84966256       -30.6959993      0.84966256       -30.6959993      0.510585276      58.1564909       
2.096            0.521749245      57.3934237       0.842564337      -31.4424387      0.842564337      -31.4424387      0.521749401      57.3934243       
2.158            0.53263406       56.6427996       0.835436258      -32.1759492      0.835436258      -32.1759492      0.53263422       56.6428001       
2.22             0.543243277      55.9045961       0.82828648       -32.8965938      0.82828648       -32.8965938      0.54324344       55.9045966       
2.282            0.553580914      55.1787715       0.821122735      -33.604451       0.821122735      -33.604451       0.55358108       55.178772        
2.344            0.563651263      54.4652661       0.813952329      -34.2996133      0.813952329      -34.2996133      0.563651432      54.4652666       
2.406            0.573458853      53.7640039       0.806782151      -34.982186       0.806782151      -34.982186       0.573459025      53.7640044       
2.468            0.583008415      53.0748943       0.799618672      -35.6522864      0.799618672      -35.6522864      0.58300859       53.0748948       
2.53             0.592304856      52.3978335       0.792467965      -36.310042       0.792467965      -36.310042       0.592305033      52.3978339       
2.592            0.601353223      51.7327057       0.785335705      -36.9555901      0.785335705      -36.9555901      0.601353403      51.7327061       
2.654            0.610158681      51.0793847       0.778227185      -37.5890765      0.778227185      -37.5890765      0.610158864      51.0793852       
2.716            0.618726484      50.4377351       0.771147328      -38.2106545      0.771147328      -38.2106545      0.618726669      50.4377355       
2.778            0.627061955      49.8076128       0.7641007        -38.8204841      0.7641007        -38.8204841      0.627062143      49.8076132       
2.84             0.63517046       49.188867        0.757091519      -39.4187309      0.757091519      -39.4187309      0.63517065       49.1888674       
2.902            0.643057394      48.5813404       0.750123677      -40.0055657      0.750123677      -40.0055657      0.643057587      48.5813408       
2.964            0.650728158      47.9848704       0.743200747      -40.5811635      0.743200747      -40.5811635      0.650728353      47.9848708       
3.026            0.658188146      47.3992899       0.736326001      -41.1457027      0.736326001      -41.1457027      0.658188343      47.3992902       
3.088            0.665442729      46.8244278       0.729502423      -41.6993646      0.729502423      -41.6993646      0.665442929      46.8244282       
3.15             0.672497243      46.2601104       0.722732725      -42.2423328      0.722732725      -42.2423328      0.672497444      46.2601107       
3.212            0.679356975      45.7061611       0.716019358      -42.7747925      0.716019358      -42.7747925      0.679357179      45.7061614       
3.274            0.686027157      45.1624016       0.709364528      -43.2969302      0.709364528      -43.2969302      0.686027363      45.162402        
3.336            0.692512952      44.6286525       0.702770211      -43.808933       0.702770211      -43.808933       0.69251316       44.6286528       
3.398            0.698819451      44.1047333       0.696238162      -44.3109882      0.696238162      -44.3109882      0.69881966       44.1047336       
3.46             0.70495166       43.5904633       0.689769934      -44.8032832      0.689769934      -44.8032832      0.704951872      43.5904636       
3.522            0.710914502      43.0856618       0.683366883      -45.2860046      0.683366883      -45.2860046      0.710914715      43.0856621       
3.584            0.716712805      42.5901485       0.677030187      -45.7593383      0.677030187      -45.7593383      0.71671302       42.5901488       
3.646            0.722351302      42.1037438       0.670760854      -46.2234692      0.670760854      -46.2234692      0.722351519      42.1037441       
3.708            0.727834626      41.6262693       0.664559733      -46.6785805      0.664559733      -46.6785805      0.727834844      41.6262696       
3.77             0.733167309      41.1575478       0.658427526      -47.1248541      0.658427526      -47.1248541      0.733167528      41.1575481       
3.832            0.738353776      40.6974036       0.652364798      -47.5624698      0.652364798      -47.5624698      0.738353998      40.6974039       
3.894            0.743398351      40.2456629       0.646371984      -47.9916056      0.646371984      -47.9916056      0.743398574      40.2456632       
3.956            0.748305247      39.8021536       0.640449404      -48.412437       0.640449404      -48.412437       0.748305471      39.8021539       
4.018            0.753078572      39.366706        0.634597265      -48.8251374      0.634597265      -48.8251374      0.753078797      39.3667063       
4.08             0.757722326      38.9391526       0.628815675      -49.2298777      0.628815675      -49.2298777      0.757722554      38.9391529       
4.142            0.762240404      38.519328        0.623104646      -49.6268261      0.623104646      -49.6268261      0.762240633      38.5193283       
4.204            0.766636594      38.1070697       0.617464106      -50.0161483      0.617464106      -50.0161483      0.766636823      38.10707         
4.266            0.770914576      37.7022174       0.611893901      -50.3980071      0.611893901      -50.3980071      0.770914807      37.7022177       
4.328            0.775077929      37.3046137       0.606393807      -50.7725626      0.606393807      -50.7725626      0.775078161      37.304614        
4.39             0.779130128      36.9141039       0.600963532      -51.139972       0.600963532      -51.139972       0.779130362      36.9141041       
4.452            0.783074546      36.5305357       0.595602722      -51.5003896      0.595602722      -51.5003896      0.783074781      36.530536        
4.514            0.786914458      36.1537602       0.59031097       -51.8539669      0.59031097       -51.8539669      0.786914694      36.1537604       
4.576            0.790653038      35.7836307       0.585087817      -52.2008522      0.585087817      -52.2008522      0.790653275      35.783631        
4.638            0.794293368      35.4200038       0.579932759      -52.5411912      0.579932759      -52.5411912      0.794293606      35.4200041       
4.7              0.797838432      35.0627387       0.574845252      -52.8751263      0.574845252      -52.8751263      0.797838671      35.062739        
4.762            0.801291124      34.7116976       0.569824712      -53.2027972      0.569824712      -53.2027972      0.801291365      34.7116979       
4.824            0.80465425       34.3667454       0.564870525      -53.5243406      0.564870525      -53.5243406      0.804654491      34.3667456       
4.886            0.807930524      34.0277499       0.559982047      -53.8398902      0.559982047      -53.8398902      0.807930766      34.0277501       
4.948            0.811122579      33.6945817       0.555158607      -54.149577       0.555158607      -54.149577       0.811122822      33.694582        
5.01             0.814232962      33.3671143       0.55039951       -54.4535288      0.55039951       -54.4535288      0.814233206      33.3671145       
5.072            0.817264139      33.0452238       0.545704043      -54.7518709      0.545704043      -54.7518709      0.817264384      33.045224        
5.134            0.8202185        32.7287891       0.541071476      -55.0447256      0.541071476      -55.0447256      0.820218746      32.7287893       
5.196            0.823098355      32.4176918       0.536501061      -55.3322126      0.536501061      -55.3322126      0.823098602      32.417692        
5.258            0.825905942      32.1118163       0.53199204       -55.6144486      0.53199204       -55.6144486      0.825906189      32.1118165       
5.32             0.828643425      31.8110495       0.527543643      -55.8915479      0.527543643      -55.8915479      0.828643674      31.8110497       
5.382            0.831312901      31.5152809       0.523155093      -56.1636219      0.523155093      -56.1636219      0.831313151      31.5152811       
5.444            0.833916396      31.2244026       0.518825605      -56.4307797      0.518825605      -56.4307797      0.833916646      31.2244028       
5.506            0.836455871      30.9383092       0.514554389      -56.6931275      0.514554389      -56.6931275      0.836456122      30.9383094       
5.568            0.838933225      30.6568977       0.510340652      -56.9507692      0.510340652      -56.9507692      0.838933477      30.6568979       
5.63             0.841350293      30.3800677       0.506183599      -57.2038063      0.506183599      -57.2038063      0.841350545      30.3800679       
5.692            0.843708851      30.1077209       0.502082432      -57.4523377      0.502082432      -57.4523377      0.843709104      30.1077211       
5.754            0.846010618      29.8397615       0.498036357      -57.69646        0.498036357      -57.69646        0.846010871      29.8397617       
5.816            0.848257255      29.576096        0.494044577      -57.9362676      0.494044577      -57.9362676      0.84825751       29.5760962       
5.878            0.850450372      29.3166331       0.490106302      -58.1718525      0.490106302      -58.1718525      0.850450627      29.3166333       
5.94             0.852591524      29.0612836       0.486220741      -58.4033045      0.486220741      -58.4033045      0.852591779      29.0612838       
6.002            0.854682215      28.8099606       0.48238711       -58.6307113      0.48238711       -58.6307113      0.854682472      28.8099608       
6.064            0.856723903      28.5625792       0.478604629      -58.8541584      0.478604629      -58.8541584      0.85672416       28.5625794       
6.126            0.858717997      28.3190565       0.474872522      -59.0737294      0.474872522      -59.0737294      0.858718254      28.3190566       
6.188            0.860665859      28.0793116       0.471190022      -59.2895056      0.471190022      -59.2895056      0.860666117      28.0793117       
6.25             0.862568808      27.8432656       0.467556365      -59.5015666      0.467556365      -59.5015666      0.862569067      27.8432658       
6.312            0.864428121      27.6108416       0.463970797      -59.7099898      0.463970797      -59.7099898      0.86442838       27.6108418       
6.374            0.866245033      27.3819644       0.460432571      -59.914851       0.460432571      -59.914851       0.866245293      27.3819645       
6.436            0.868020739      27.1565606       0.456940946      -60.116224       0.456940946      -60.116224       0.868020999      27.1565608       
6.498            0.869756396      26.9345588       0.453495191      -60.3141809      0.453495191      -60.3141809      0.869756657      26.9345589       
6.56             0.871453124      26.715889        0.450094582      -60.5087919      0.450094582      -60.5087919      0.871453385      26.7158892       
6.622            0.873112006      26.5004832       0.446738407      -60.7001256      0.446738407      -60.7001256      0.873112268      26.5004833       
6.684            0.874734092      26.2882748       0.443425958      -60.888249       0.443425958      -60.888249       0.874734354      26.2882749       
6.746            0.876320397      26.0791989       0.440156541      -61.0732273      0.440156541      -61.0732273      0.87632066       26.0791991       
6.808            0.877871905      25.8731923       0.436929468      -61.2551244      0.436929468      -61.2551244      0.877872168      25.8731925       
6.87             0.879389567      25.6701931       0.433744062      -61.4340024      0.433744062      -61.4340024      0.879389831      25.6701933       
6.932            0.880874306      25.4701409       0.430599654      -61.6099219      0.430599654      -61.6099219      0.88087457       25.4701411       
6.994            0.882327015      25.272977        0.427495587      -61.7829423      0.427495587      -61.7829423      0.882327279      25.2729772       
7.056            0.883748558      25.0786438       0.424431211      -61.9531214      0.424431211      -61.9531214      0.883748823      25.078644        
7.118            0.885139773      24.8870853       0.421405889      -62.1205156      0.421405889      -62.1205156      0.885140038      24.8870854       
7.18             0.886501472      24.6982466       0.41841899       -62.2851799      0.41841899       -62.2851799      0.886501738      24.6982468       
7.242            0.887834441      24.5120744       0.415469895      -62.4471682      0.415469895      -62.4471682      0.887834707      24.5120745       
7.304            0.889139441      24.3285164       0.412557995      -62.6065329      0.412557995      -62.6065329      0.889139708      24.3285166       
7.366            0.890417212      24.1475217       0.409682688      -62.7633252      0.409682688      -62.7633252      0.890417479      24.1475219       
7.428            0.891668468      23.9690407       0.406843386      -62.9175953      0.406843386      -62.9175953      0.891668735      23.9690408       
7.49             0.892893902      23.7930246       0.404039506      -63.0693918      0.404039506      -63.0693918      0.89289417       23.7930247       
7.552            0.894094187      23.6194261       0.401270478      -63.2187625      0.401270478      -63.2187625      0.894094455      23.6194263       
7.614            0.895269974      23.4481989       0.398535739      -63.365754       0.398535739      -63.365754       0.895270243      23.4481991       
7.676            0.896421896      23.2792978       0.395834739      -63.5104117      0.395834739      -63.5104117      0.896422165      23.2792979       
7.738            0.897550564      23.1126786       0.393166932      -63.6527801      0.393166932      -63.6527801      0.897550833      23.1126787       
7.8              0.898656573      22.9482981       0.390531786      -63.7929025      0.390531786      -63.7929025      0.898656843      22.9482982       
7.862            0.899740499      22.7861142       0.387928776      -63.9308212      0.387928776      -63.9308212      0.899740769      22.7861144       
7.924            0.900802901      22.6260858       0.385357385      -64.0665777      0.385357385      -64.0665777      0.900803171      22.626086        
