! Coilcraft 1008PS-564 Power Chip Inductor				
! 7 October 2002			
# MHZ S MA R 50
!Freq             MagS11           AngS11           MagS21           AngS21           MagS12           AngS12           MagS22           AngS22
0.05             0.837479721      28.1460128       0.473792713      -56.4927835      0.473792713      -56.4927835      0.837479802      28.1460149       
0.05362          0.854084548      26.6835802       0.450789382      -58.3002785      0.450789382      -58.3002785      0.854084631      26.6835822       
0.05724          0.868429728      25.3463105       0.429541932      -59.9388464      0.429541932      -59.9388464      0.868429813      25.3463123       
0.06086          0.880877741      24.1217068       0.409911677      -61.4287393      0.409911677      -61.4287393      0.880877827      24.1217085       
0.06448          0.891727626      22.9982365       0.39176198       -62.7875196      0.39176198       -62.7875196      0.891727713      22.9982381       
0.0681           0.901226194      21.9654497       0.374962662      -64.0303947      0.374962662      -64.0303947      0.901226283      21.9654512       
0.07172          0.90957751       21.0139825       0.359392314      -65.1705324      0.359392314      -65.1705324      0.9095776        21.013984        
0.07534          0.916950736      20.1354998       0.344939275      -66.2193449      0.344939275      -66.2193449      0.916950826      20.1355012       
0.07896          0.923486553      19.3226109       0.331501805      -67.1867389      0.331501805      -67.1867389      0.923486644      19.3226123       
0.08258          0.92930238       18.5687752       0.318987765      -68.0813318      0.318987765      -68.0813318      0.929302472      18.5687765       
0.0862           0.934496597      17.8682078       0.307314045      -68.9106381      0.307314045      -68.9106381      0.934496689      17.868209        
0.08982          0.939151959      17.2157908       0.296405854      -69.6812274      0.296405854      -69.6812274      0.939152051      17.215792        
0.09344          0.943338358      16.6069925       0.286195981      -70.3988588      0.286195981      -70.3988588      0.943338451      16.6069936       
0.09706          0.947115062      16.0377946       0.276624048      -71.0685955      0.276624048      -71.0685955      0.947115156      16.0377957       
0.10068          0.950532528      15.5046284       0.267635814      -71.6949013      0.267635814      -71.6949013      0.950532623      15.5046294       
0.1043           0.953633881      15.0043182       0.25918252       -72.2817226      0.25918252       -72.2817226      0.953633976      15.0043192       
0.10792          0.95645612       14.534033        0.2512203        -72.8325584      0.2512203        -72.8325584      0.956456214      14.534034        
0.11154          0.959031105      14.0912432       0.243709638      -73.3505193      0.243709638      -73.3505193      0.9590312        14.0912441       
0.11516          0.961386374      13.6736841       0.236614899      -73.8383783      0.236614899      -73.8383783      0.961386469      13.673685        
0.11878          0.963545807      13.2793237       0.229903894      -74.2986134      0.229903894      -74.2986134      0.963545903      13.2793246       
0.1224           0.965530187      12.906335        0.223547508      -74.7334455      0.223547508      -74.7334455      0.965530283      12.9063359       
0.12602          0.967357657      12.5530716       0.217519361      -75.144869       0.217519361      -75.144869       0.967357754      12.5530724       
0.12964          0.969044108      12.2180469       0.211795516      -75.5346799      0.211795516      -75.5346799      0.969044204      12.2180477       
0.13326          0.970603496      11.8999159       0.206354215      -75.9044992      0.206354215      -75.9044992      0.970603592      11.8999167       
0.13688          0.97204812       11.5974591       0.20117565       -76.2557927      0.20117565       -76.2557927      0.972048217      11.59746         
0.1405           0.973388845      11.3095689       0.196241756      -76.5898894      0.196241756      -76.5898894      0.973388942      11.3095697       
0.14412          0.974635295      11.035237        0.191536035      -76.9079964      0.191536035      -76.9079964      0.974635392      11.0352378       
0.14774          0.97579602       10.7735441       0.187043395      -77.2112124      0.187043395      -77.2112124      0.975796117      10.7735449       
0.15136          0.976878631      10.5236506       0.182750007      -77.5005394      0.182750007      -77.5005394      0.976878728      10.5236513       
0.15498          0.977889923      10.2847878       0.178643181      -77.7768927      0.178643181      -77.7768927      0.977890021      10.2847886       
0.1586           0.978835976      10.0562516       0.174711254      -78.0411104      0.174711254      -78.0411104      0.978836074      10.0562523       
0.16222          0.97972224       9.83739513       0.170943493      -78.2939608      0.170943493      -78.2939608      0.979722338      9.83739583       
0.16584          0.980553614      9.62762375       0.167330006      -78.5361495      0.167330006      -78.5361495      0.980553712      9.62762443       
0.16946          0.98133451       9.42638967       0.163861659      -78.7683259      0.163861659      -78.7683259      0.981334607      9.42639034       
0.17308          0.982068906      9.23318764       0.160530015      -78.9910881      0.160530015      -78.9910881      0.982069004      9.23318829       
0.1767           0.982760404      9.0475509        0.157327261      -79.2049883      0.157327261      -79.2049883      0.982760502      9.04755154       
0.18032          0.983412261      8.86904768       0.154246161      -79.4105365      0.154246161      -79.4105365      0.983412359      8.86904832       
0.18394          0.984027436      8.69727801       0.151279997      -79.6082052      0.151279997      -79.6082052      0.984027534      8.69727864       
0.18756          0.984608619      8.5318709        0.148422532      -79.7984319      0.148422532      -79.7984319      0.984608717      8.53187151       
0.19118          0.985158257      8.37248175       0.145667962      -79.9816227      0.145667962      -79.9816227      0.985158355      8.37248236       
0.1948           0.985678585      8.21879016       0.143010883      -80.1581551      0.143010883      -80.1581551      0.985678683      8.21879076       
0.19842          0.986171641      8.07049779       0.140446258      -80.3283802      0.140446258      -80.3283802      0.98617174       8.07049838       
0.20204          0.986639294      7.92732655       0.137969386      -80.4926251      0.137969386      -80.4926251      0.986639393      7.92732713       
0.20566          0.987083254      7.78901692       0.135575873      -80.6511949      0.135575873      -80.6511949      0.987083353      7.78901749       
0.20928          0.98750509       7.65532647       0.133261612      -80.8043744      0.133261612      -80.8043744      0.987505189      7.65532703       
0.2129           0.987906245      7.52602844       0.131022756      -80.9524297      0.131022756      -80.9524297      0.987906344      7.526029         
0.21652          0.988288046      7.40091055       0.128855703      -81.09561        0.128855703      -81.09561        0.988288144      7.4009111        
0.22014          0.988651715      7.27977386       0.126757069      -81.2341485      0.126757069      -81.2341485      0.988651814      7.27977441       
0.22376          0.988998382      7.16243174       0.124723682      -81.3682642      0.124723682      -81.3682642      0.988998481      7.16243228       
0.22738          0.989329087      7.04870895       0.122752557      -81.4981622      0.122752557      -81.4981622      0.989329186      7.04870948       
0.231            0.989644796      6.93844078       0.120840889      -81.6240354      0.120840889      -81.6240354      0.989644895      6.9384413        
0.23462          0.9899464        6.83147229       0.118986036      -81.7460653      0.118986036      -81.7460653      0.989946498      6.83147281       
0.23824          0.990234726      6.72765761       0.117185508      -81.8644224      0.117185508      -81.8644224      0.990234825      6.72765813       
0.24186          0.990510542      6.62685927       0.115436959      -81.9792676      0.115436959      -81.9792676      0.990510641      6.62685978       
0.24548          0.990774561      6.52894762       0.113738173      -82.0907525      0.113738173      -82.0907525      0.990774659      6.52894812       
0.2491           0.991027445      6.43380028       0.112087059      -82.1990199      0.112087059      -82.1990199      0.991027544      6.43380077       
0.25272          0.991269814      6.34130163       0.110481637      -82.3042051      0.110481637      -82.3042051      0.991269912      6.34130213       
0.25634          0.99150224       6.25134241       0.108920038      -82.4064356      0.108920038      -82.4064356      0.991502339      6.2513429        
0.25996          0.991725262      6.1638192        0.107400491      -82.505832       0.107400491      -82.505832       0.991725361      6.16381969       
0.26358          0.991939379      6.07863412       0.105921319      -82.6025087      0.105921319      -82.6025087      0.991939478      6.0786346        
0.2672           0.99214506       5.99569442       0.10448093       -82.6965738      0.10448093       -82.6965738      0.992145159      5.9956949        
0.27082          0.992342742      5.91491217       0.103077817      -82.7881298      0.103077817      -82.7881298      0.992342841      5.91491264       
0.27444          0.992532835      5.83620392       0.101710548      -82.877274       0.101710548      -82.877274       0.992532934      5.83620439       
0.27806          0.992715723      5.75949048       0.100377763      -82.9640988      0.100377763      -82.9640988      0.992715822      5.75949095       
0.28168          0.992891766      5.68469661       0.0990781701     -83.0486916      0.0990781701     -83.0486916      0.992891865      5.68469707       
0.2853           0.993061301      5.61175077       0.0978105397     -83.131136       0.0978105397     -83.131136       0.9930614        5.61175122       
0.28892          0.993224646      5.54058492       0.0965737023     -83.211511       0.0965737023     -83.211511       0.993224745      5.54058538       
0.29254          0.993382099      5.47113433       0.0953665443     -83.2898921      0.0953665443     -83.2898921      0.993382198      5.47113477       
0.29616          0.99353394       5.40333731       0.0941880051     -83.3663509      0.0941880051     -83.3663509      0.993534039      5.40333775       
0.29978          0.993680432      5.33713511       0.0930370732     -83.4409559      0.0930370732     -83.4409559      0.993680532      5.33713555       
0.3034           0.993821826      5.27247171       0.0919127844     -83.5137721      0.0919127844     -83.5137721      0.993821925      5.27247215       
0.30702          0.993958354      5.20929368       0.0908142184     -83.5848618      0.0908142184     -83.5848618      0.993958454      5.20929411       
0.31064          0.994090239      5.14755          0.0897404964     -83.6542841      0.0897404964     -83.6542841      0.994090338      5.14755043       
0.31426          0.994217687      5.08719198       0.0886907793     -83.7220957      0.0886907793     -83.7220957      0.994217786      5.08719241       
0.31788          0.994340897      5.02817308       0.087664265      -83.7883506      0.087664265      -83.7883506      0.994340997      5.0281735        
0.3215           0.994460055      4.97044881       0.0866601864     -83.8531004      0.0866601864     -83.8531004      0.994460154      4.97044924       
0.32512          0.994575337      4.91397665       0.0856778099     -83.9163947      0.0856778099     -83.9163947      0.994575436      4.91397707       
0.32874          0.994686908      4.85871588       0.0847164333     -83.9782805      0.0847164333     -83.9782805      0.994687008      4.8587163        
0.33236          0.994794928      4.80462754       0.0837753841     -84.0388031      0.0837753841     -84.0388031      0.994795028      4.80462795       
0.33598          0.994899546      4.7516743        0.0828540183     -84.0980058      0.0828540183     -84.0980058      0.994899645      4.75167472       
0.3396           0.995000902      4.69982042       0.0819517184     -84.1559301      0.0819517184     -84.1559301      0.995001001      4.69982083       
0.34322          0.995099132      4.64903161       0.0810678926     -84.2126157      0.0810678926     -84.2126157      0.995099231      4.64903202       
0.34684          0.995194363      4.59927501       0.080201973      -84.2681007      0.080201973      -84.2681007      0.995194462      4.59927542       
0.35046          0.995286716      4.55051907       0.079353415      -84.3224216      0.079353415      -84.3224216      0.995286815      4.55051948       
0.35408          0.995376305      4.50273353       0.0785216953     -84.3756135      0.0785216953     -84.3756135      0.995376405      4.50273394       
0.3577           0.995463242      4.45588932       0.0777063116     -84.4277101      0.0777063116     -84.4277101      0.995463341      4.45588973       
0.36132          0.995547628      4.40995853       0.0769067814     -84.4787437      0.0769067814     -84.4787437      0.995547727      4.40995893       
0.36494          0.995629563      4.36491432       0.0761226406     -84.5287453      0.0761226406     -84.5287453      0.995629663      4.36491472       
0.36856          0.995709142      4.3207309        0.0753534433     -84.5777447      0.0753534433     -84.5777447      0.995709242      4.3207313        
0.37218          0.995786454      4.27738347       0.0745987603     -84.6257708      0.0745987603     -84.6257708      0.995786553      4.27738386       
0.3758           0.995861584      4.23484816       0.0738581789     -84.672851       0.0738581789     -84.672851       0.995861683      4.23484855       
0.37942          0.995934613      4.19310201       0.0731313017     -84.7190119      0.0731313017     -84.7190119      0.995934713      4.1931024        
0.38304          0.99600562       4.15212291       0.072417746      -84.7642791      0.072417746      -84.7642791      0.99600572       4.1521233        
0.38666          0.996074678      4.11188955       0.0717171432     -84.8086771      0.0717171432     -84.8086771      0.996074778      4.11188994       
0.39028          0.996141859      4.07238144       0.0710291382     -84.8522298      0.0710291382     -84.8522298      0.996141958      4.07238183       
0.3939           0.996207229      4.03357879       0.0703533886     -84.8949598      0.0703533886     -84.8949598      0.996207329      4.03357917       
0.39752          0.996270853      3.99546254       0.0696895643     -84.9368892      0.0696895643     -84.9368892      0.996270953      3.99546292       
0.40114          0.996332794      3.9580143        0.0690373469     -84.9780393      0.0690373469     -84.9780393      0.996332893      3.95801469       
0.40476          0.996393108      3.92121636       0.0683964293     -85.0184304      0.0683964293     -85.0184304      0.996393208      3.92121674       
0.40838          0.996451854      3.88505158       0.0677665149     -85.0580823      0.0677665149     -85.0580823      0.996451954      3.88505196       
0.412            0.996509085      3.84950346       0.0671473176     -85.0970141      0.0671473176     -85.0970141      0.996509185      3.84950384       
0.41562          0.996564853      3.81455603       0.0665385609     -85.1352441      0.0665385609     -85.1352441      0.996564953      3.81455641       
0.41924          0.996619207      3.7801939        0.0659399778     -85.1727902      0.0659399778     -85.1727902      0.996619307      3.78019428       
0.42286          0.996672194      3.74640218       0.0653513102     -85.2096693      0.0653513102     -85.2096693      0.996672294      3.74640256       
0.42648          0.996723861      3.71316648       0.0647723088     -85.2458982      0.0647723088     -85.2458982      0.99672396       3.71316685       
0.4301           0.996774249      3.68047289       0.0642027325     -85.2814928      0.0642027325     -85.2814928      0.996774349      3.68047326       
0.43372          0.996823402      3.64830796       0.063642348      -85.3164685      0.063642348      -85.3164685      0.996823502      3.64830834       
0.43734          0.996871359      3.61665869       0.0630909297     -85.3508404      0.0630909297     -85.3508404      0.996871459      3.61665907       
0.44096          0.996918159      3.58551249       0.0625482595     -85.3846229      0.0625482595     -85.3846229      0.996918259      3.58551286       
0.44458          0.996963838      3.55485718       0.0620141259     -85.41783        0.0620141259     -85.41783        0.996963938      3.55485755       
0.4482           0.997008432      3.52468096       0.0614883245     -85.4504753      0.0614883245     -85.4504753      0.997008532      3.52468133       
0.45182          0.997051975      3.49497242       0.0609706571     -85.4825718      0.0609706571     -85.4825718      0.997052075      3.49497279       
0.45544          0.997094499      3.4657205        0.0604609319     -85.5141323      0.0604609319     -85.5141323      0.997094599      3.46572087       
0.45906          0.997136037      3.4369145        0.0599589631     -85.5451691      0.0599589631     -85.5451691      0.997136136      3.43691487       
0.46268          0.997176617      3.40854401       0.0594645704     -85.575694       0.0594645704     -85.575694       0.997176717      3.40854438       
0.4663           0.99721627       3.38059899       0.0589775792     -85.6057186      0.0589775792     -85.6057186      0.99721637       3.38059936       
0.46992          0.997255024      3.35306968       0.0584978202     -85.6352541      0.0584978202     -85.6352541      0.997255123      3.35307005       
0.47354          0.997292904      3.32594663       0.0580251292     -85.6643113      0.0580251292     -85.6643113      0.997293004      3.32594699       
0.47716          0.997329937      3.29922064       0.0575593469     -85.6929007      0.0575593469     -85.6929007      0.997330037      3.29922101       
0.48078          0.997366148      3.27288283       0.0571003188     -85.7210325      0.0571003188     -85.7210325      0.997366248      3.27288319       
0.4844           0.997401562      3.24692455       0.0566478949     -85.7487166      0.0566478949     -85.7487166      0.997401661      3.24692491       
0.48802          0.9974362        3.22133742       0.0562019296     -85.7759626      0.0562019296     -85.7759626      0.9974363        3.22133779       
0.49164          0.997470086      3.19611331       0.0557622815     -85.8027798      0.0557622815     -85.8027798      0.997470186      3.19611367       
0.49526          0.997503241      3.1712443        0.0553288135     -85.8291772      0.0553288135     -85.8291772      0.99750334       3.17124466       
0.49888          0.997535685      3.14672272       0.0549013921     -85.8551635      0.0549013921     -85.8551635      0.997535785      3.14672309       
0.5025           0.997567439      3.12254112       0.0544798879     -85.8807473      0.0544798879     -85.8807473      0.997567539      3.12254148       
0.50612          0.997598522      3.09869225       0.0540641751     -85.9059369      0.0540641751     -85.9059369      0.997598622      3.09869261       
0.50974          0.997628953      3.07516907       0.0536541312     -85.9307402      0.0536541312     -85.9307402      0.997629052      3.07516943       
