! Coilcraft 1008PS-153 Power Chip Inductor				
! 7 October 2002			
# MHZ S MA R 50
!Freq             MagS11           AngS11           MagS21           AngS21           MagS12           AngS12           MagS22           AngS22
0.05             0.0481187814     72.3743826       0.98649621       -2.66450501      0.98649621       -2.66450501      0.0481187849     72.3743883       
0.075            0.0707397086     75.8641561       0.985114953      -3.99297606      0.985114953      -3.99297606      0.0707397148     75.8641601       
0.1              0.0935045017     77.0052818       0.983204825      -5.31701475      0.983204825      -5.31701475      0.0935045104     77.0052848       
0.125            0.1162248        77.1776786       0.980775587      -6.63522485      0.980775587      -6.63522485      0.116224811      77.1776811       
0.15             0.138813298      76.8629482       0.977839233      -7.94624934      0.977839233      -7.94624934      0.138813312      76.8629503       
0.175            0.161213823      76.272218        0.974409853      -9.24877777      0.974409853      -9.24877777      0.161213839      76.2722198       
0.2              0.183383209      75.5127264       0.970503485      -10.541553       0.970503485      -10.541553       0.183383227      75.5127281       
0.225            0.205285252      74.6449047       0.966137932      -11.8233774      0.966137932      -11.8233774      0.205285272      74.6449062       
0.25             0.226888343      73.7055608       0.961332567      -13.0931183      0.961332567      -13.0931183      0.226888365      73.7055621       
0.275            0.248164442      72.718517        0.956108118      -14.3497124      0.956108118      -14.3497124      0.248164467      72.7185183       
0.3              0.269088595      71.6999618       0.950486446      -15.5921694      0.950486446      -15.5921694      0.269088621      71.6999631       
0.325            0.289638682      70.6613435       0.944490324      -16.8195748      0.944490324      -16.8195748      0.28963871       70.6613447       
0.35             0.309795274      69.6110285       0.938143213      -18.031092       0.938143213      -18.031092       0.309795305      69.6110296       
0.375            0.32954153       68.5552991       0.931469042      -19.2259626      0.931469042      -19.2259626      0.329541563      68.5553002       
0.4              0.348863101      67.498979        0.924492003      -20.4035076      0.924492003      -20.4035076      0.348863136      67.49898         
0.425            0.367748044      66.4458385       0.917236352      -21.5631261      0.917236352      -21.5631261      0.367748081      66.4458395       
0.45             0.386186719      65.3988662       0.909726229      -22.7042942      0.909726229      -22.7042942      0.386186758      65.3988672       
0.475            0.404171684      64.3604567       0.901985488      -23.8265633      0.901985488      -23.8265633      0.404171724      64.3604576       
0.5              0.421697574      63.3325416       0.894037549      -24.9295578      0.894037549      -24.9295578      0.421697616      63.3325425       
0.525            0.438760978      62.3166859       0.885905269      -26.0129721      0.885905269      -26.0129721      0.438761022      62.3166869       
0.55             0.455360305      61.3141584       0.877610823      -27.0765674      0.877610823      -27.0765674      0.45536035       61.3141594       
0.575            0.471495647      60.3259849       0.869175611      -28.1201683      0.869175611      -28.1201683      0.471495694      60.3259858       
0.6              0.487168638      59.3529894       0.860620181      -29.143659       0.860620181      -29.143659       0.487168687      59.3529903       
0.625            0.502382318      58.3958264       0.851964162      -30.1469797      0.851964162      -30.1469797      0.502382368      58.3958273       
0.65             0.517140989      57.4550067       0.843226219      -31.1301222      0.843226219      -31.1301222      0.51714104       57.4550076       
0.675            0.531450082      56.5309186       0.834424024      -32.0931263      0.834424024      -32.0931263      0.531450135      56.5309195       
0.7              0.545316027      55.6238448       0.825574229      -33.0360758      0.825574229      -33.0360758      0.545316081      55.6238457       
0.725            0.558746122      54.7339773       0.816692463      -33.9590945      0.816692463      -33.9590945      0.558746178      54.7339782       
0.75             0.571748419      53.8614296       0.807793333      -34.8623422      0.807793333      -34.8623422      0.571748476      53.8614305       
0.775            0.584331607      53.0062469       0.798890433      -35.7460116      0.798890433      -35.7460116      0.584331665      53.0062478       
0.8              0.596504906      52.1684158       0.789996367      -36.6103242      0.789996367      -36.6103242      0.596504966      52.1684167       
0.825            0.608277974      51.3478716       0.781122767      -37.455527       0.781122767      -37.455527       0.608278035      51.3478725       
0.85             0.619660811      50.5445055       0.772280329      -38.2818898      0.772280329      -38.2818898      0.619660873      50.5445064       
0.875            0.630663682      49.7581708       0.763478845      -39.0897015      0.763478845      -39.0897015      0.630663745      49.7581718       
0.9              0.641297038      48.9886881       0.754727241      -39.879268       0.754727241      -39.879268       0.641297102      48.9886891       
0.925            0.651571449      48.2358502       0.746033614      -40.650909       0.746033614      -40.650909       0.651571515      48.2358512       
0.95             0.66149755       47.4994262       0.73740528       -41.4049559      0.73740528       -41.4049559      0.661497616      47.4994271       
0.975            0.671085977      46.7791652       0.728848809      -42.1417497      0.728848809      -42.1417497      0.671086044      46.7791662       
1                0.680347329      46.0748001       0.720370073      -42.8616386      0.720370073      -42.8616386      0.680347398      46.0748011       
1.025            0.689292123      45.3860499       0.711974285      -43.5649763      0.711974285      -43.5649763      0.689292192      45.3860509       
1.05             0.697930756      44.7126229       0.703666045      -44.2521206      0.703666045      -44.2521206      0.697930826      44.7126239       
1.075            0.70627348       44.0542188       0.695449378      -44.9234314      0.695449378      -44.9234314      0.706273551      44.0542198       
1.1              0.714330369      43.4105306       0.687327772      -45.5792697      0.687327772      -45.5792697      0.714330441      43.4105317       
1.125            0.722111305      42.781247        0.679304225      -46.2199962      0.679304225      -46.2199962      0.722111378      42.781248        
1.15             0.729625952      42.1660532       0.671381273      -46.8459704      0.671381273      -46.8459704      0.729626026      42.1660542       
1.175            0.736883748      41.5646331       0.663561031      -47.4575495      0.663561031      -47.4575495      0.736883822      41.5646342       
1.2              0.743893888      40.9766702       0.655845224      -48.0550873      0.655845224      -48.0550873      0.743893963      40.9766713       
1.225            0.75066532       40.4018486       0.648235222      -48.638934       0.648235222      -48.638934       0.750665396      40.4018497       
1.25             0.757206735      39.8398541       0.640732066      -49.2094353      0.640732066      -49.2094353      0.757206812      39.8398552       
1.275            0.763526567      39.290375        0.633336502      -49.7669319      0.633336502      -49.7669319      0.763526644      39.2903762       
1.3              0.769632985      38.753103        0.626049004      -50.3117588      0.626049004      -50.3117588      0.769633063      38.7531041       
1.325            0.775533897      38.2277332       0.618869797      -50.8442452      0.618869797      -50.8442452      0.775533975      38.2277343       
1.35             0.781236949      37.7139655       0.611798888      -51.3647142      0.611798888      -51.3647142      0.781237028      37.7139666       
1.375            0.786749526      37.2115041       0.604836078      -51.8734822      0.604836078      -51.8734822      0.786749606      37.2115053       
1.4              0.792078759      36.7200588       0.597980991      -52.3708592      0.597980991      -52.3708592      0.792078839      36.7200599       
1.425            0.797231522      36.2393444       0.591233087      -52.857148       0.591233087      -52.857148       0.797231602      36.2393455       
1.45             0.802214442      35.7690816       0.584591681      -53.3326447      0.584591681      -53.3326447      0.802214523      35.7690828       
1.475            0.807033904      35.308997        0.57805596       -53.7976383      0.57805596       -53.7976383      0.807033986      35.3089982       
1.5              0.811696053      34.8588229       0.571624996      -54.2524107      0.571624996      -54.2524107      0.811696135      34.8588242       
1.525            0.816206803      34.4182981       0.565297762      -54.6972367      0.565297762      -54.6972367      0.816206886      34.4182994       
1.55             0.820571843      33.9871673       0.55907314       -55.132384       0.55907314       -55.132384       0.820571926      33.9871685       
1.575            0.824796642      33.5651813       0.552949937      -55.5581134      0.552949937      -55.5581134      0.824796726      33.5651826       
1.6              0.828886457      33.1520974       0.546926894      -55.9746785      0.546926894      -55.9746785      0.828886542      33.1520987       
1.625            0.832846341      32.7476789       0.541002694      -56.3823262      0.541002694      -56.3823262      0.832846426      32.7476802       
1.65             0.836681145      32.3516953       0.535175973      -56.7812964      0.535175973      -56.7812964      0.83668123       32.3516966       
1.675            0.840395531      31.9639222       0.529445325      -57.1718224      0.529445325      -57.1718224      0.840395616      31.9639235       
1.7              0.843993973      31.5841413       0.523809313      -57.5541308      0.523809313      -57.5541308      0.843994059      31.5841426       
1.725            0.84748077       31.2121402       0.518266472      -57.9284417      0.518266472      -57.9284417      0.847480856      31.2121416       
1.75             0.850860045      30.8477124       0.512815316      -58.2949691      0.512815316      -58.2949691      0.850860131      30.8477138       
1.775            0.854135757      30.4906571       0.507454345      -58.6539205      0.507454345      -58.6539205      0.854135845      30.4906585       
1.8              0.857311708      30.1407793       0.502182047      -59.0054973      0.502182047      -59.0054973      0.857311796      30.1407807       
1.825            0.860391544      29.7978893       0.496996905      -59.3498953      0.496996905      -59.3498953      0.860391632      29.7978907       
1.85             0.863378765      29.4618032       0.491897399      -59.687304       0.491897399      -59.687304       0.863378854      29.4618046       
1.875            0.86627673       29.1323421       0.48688201       -60.0179076      0.48688201       -60.0179076      0.866276819      29.1323436       
1.9              0.869088663      28.8093325       0.481949224      -60.3418848      0.481949224      -60.3418848      0.869088752      28.8093339       
1.925            0.871817656      28.4926057       0.477097531      -60.6594087      0.477097531      -60.6594087      0.871817745      28.4926071       
1.95             0.874466679      28.1819981       0.472325435      -60.9706476      0.472325435      -60.9706476      0.874466769      28.1819996       
1.975            0.877038581      27.877351        0.467631449      -61.2757642      0.467631449      -61.2757642      0.877038671      27.8773525       
2                0.879536096      27.5785102       0.463014099      -61.5749167      0.463014099      -61.5749167      0.879536186      27.5785117       
2.025            0.881961849      27.2853262       0.458471927      -61.8682583      0.458471927      -61.8682583      0.88196194       27.2853277       
2.05             0.884318361      26.9976537       0.454003493      -62.1559378      0.454003493      -62.1559378      0.884318452      26.9976552       
2.075            0.88660805       26.7153519       0.449607372      -62.4380993      0.449607372      -62.4380993      0.886608141      26.7153534       
2.1              0.888833238      26.4382841       0.445282159      -62.7148825      0.445282159      -62.7148825      0.888833329      26.4382856       
2.125            0.890996156      26.1663176       0.441026472      -62.986423       0.441026472      -62.986423       0.890996247      26.1663192       
2.15             0.893098944      25.8993239       0.436838944      -63.2528524      0.436838944      -63.2528524      0.893099036      25.8993254       
2.175            0.895143661      25.6371778       0.432718234      -63.514298       0.432718234      -63.514298       0.895143753      25.6371794       
2.2              0.897132281      25.3797584       0.428663022      -63.7708835      0.428663022      -63.7708835      0.897132374      25.37976         
2.225            0.899066703      25.1269479       0.424672007      -64.0227289      0.424672007      -64.0227289      0.899066796      25.1269495       
2.25             0.90094875       24.8786322       0.420743916      -64.2699505      0.420743916      -64.2699505      0.900948843      24.8786338       
2.275            0.902780173      24.6347005       0.416877494      -64.512661       0.416877494      -64.512661       0.902780267      24.6347022       
2.3              0.904562659      24.3950454       0.413071512      -64.75097        0.413071512      -64.75097        0.904562752      24.3950471       
2.325            0.906297825      24.1595625       0.409324762      -64.9849836      0.409324762      -64.9849836      0.906297918      24.1595642       
2.35             0.907987227      23.9281506       0.405636061      -65.2148048      0.405636061      -65.2148048      0.907987321      23.9281523       
2.375            0.909632363      23.7007112       0.402004248      -65.4405336      0.402004248      -65.4405336      0.909632457      23.7007129       
2.4              0.911234671      23.477149        0.398428186      -65.6622669      0.398428186      -65.6622669      0.911234765      23.4771507       
2.425            0.912795535      23.2573712       0.394906759      -65.8800988      0.394906759      -65.8800988      0.91279563       23.257373        
2.45             0.914316288      23.041288        0.391438875      -66.0941206      0.391438875      -66.0941206      0.914316384      23.0412898       
2.475            0.915798211      22.828812        0.388023465      -66.3044211      0.388023465      -66.3044211      0.915798306      22.8288138       
2.5              0.917242537      22.6198583       0.384659482      -66.5110862      0.384659482      -66.5110862      0.917242632      22.6198601       
2.525            0.918650452      22.4143445       0.381345899      -66.7141996      0.381345899      -66.7141996      0.918650548      22.4143463       
2.55             0.920023099      22.2121907       0.378081715      -66.9138421      0.378081715      -66.9138421      0.920023195      22.2121925       
2.575            0.921361579      22.0133189       0.374865945      -67.1100928      0.374865945      -67.1100928      0.921361675      22.0133207       
2.6              0.922666951      21.8176538       0.371697631      -67.3030279      0.371697631      -67.3030279      0.922667047      21.8176556       
2.625            0.923940235      21.6251219       0.368575831      -67.4927217      0.368575831      -67.4927217      0.923940332      21.6251237       
2.65             0.925182415      21.4356519       0.365499627      -67.6792465      0.365499627      -67.6792465      0.925182512      21.4356537       
2.675            0.926394438      21.2491745       0.362468118      -67.8626723      0.362468118      -67.8626723      0.926394535      21.2491764       
2.7              0.927577216      21.0656223       0.359480426      -68.0430671      0.359480426      -68.0430671      0.927577313      21.0656242       
2.725            0.928731631      20.88493         0.35653569       -68.2204971      0.35653569       -68.2204971      0.928731728      20.8849319       
2.75             0.929858529      20.7070338       0.353633069      -68.3950265      0.353633069      -68.3950265      0.929858627      20.7070357       
2.775            0.93095873       20.5318718       0.350771741      -68.566718       0.350771741      -68.566718       0.930958828      20.5318738       
2.8              0.932033023      20.3593839       0.347950902      -68.7356321      0.347950902      -68.7356321      0.932033121      20.3593859       
2.825            0.933082168      20.1895116       0.345169766      -68.9018279      0.345169766      -68.9018279      0.933082266      20.1895136       
2.85             0.9341069        20.0221979       0.342427565      -69.0653627      0.342427565      -69.0653627      0.934106998      20.0221999       
2.875            0.935107927      19.8573875       0.339723547      -69.2262925      0.339723547      -69.2262925      0.935108026      19.8573895       
2.9              0.936085934      19.6950265       0.337056978      -69.3846714      0.337056978      -69.3846714      0.936086032      19.6950285       
2.925            0.93704158       19.5350624       0.334427141      -69.5405522      0.334427141      -69.5405522      0.937041679      19.5350645       
2.95             0.937975503      19.3774444       0.331833334      -69.6939862      0.331833334      -69.6939862      0.937975602      19.3774465       
2.975            0.938888319      19.2221228       0.32927487       -69.8450234      0.32927487       -69.8450234      0.938888418      19.2221249       
3                0.939780622      19.0690493       0.326751081      -69.9937124      0.326751081      -69.9937124      0.939780721      19.0690514       
3.025            0.940652986      18.9181768       0.32426131       -70.1401004      0.32426131       -70.1401004      0.940653086      18.9181789       
3.05             0.941505967      18.7694596       0.321804916      -70.2842334      0.321804916      -70.2842334      0.941506067      18.7694617       
3.075            0.942340101      18.6228531       0.319381274      -70.4261562      0.319381274      -70.4261562      0.942340201      18.6228552       
3.1              0.943155906      18.4783139       0.316989772      -70.5659124      0.316989772      -70.5659124      0.943156006      18.478316        
3.125            0.943953883      18.3357997       0.31462981       -70.7035444      0.31462981       -70.7035444      0.943953983      18.3358018       
3.15             0.944734517      18.1952693       0.312300805      -70.8390936      0.312300805      -70.8390936      0.944734617      18.1952715       
3.175            0.945498276      18.0566827       0.310002185      -70.9726001      0.310002185      -70.9726001      0.945498377      18.0566849       
3.2              0.946245614      17.9200007       0.307733389      -71.1041031      0.307733389      -71.1041031      0.946245715      17.9200029       
3.225            0.94697697       17.7851853       0.305493872      -71.2336407      0.305493872      -71.2336407      0.946977071      17.7851875       
