! Coilcraft 1008PS-562 Power Chip Inductor				
! 7 October 2002			
# MHZ S MA R 50
!Freq             MagS11           AngS11           MagS21           AngS21           MagS12           AngS12           MagS22           AngS22
0.05             0.0179113609     77.1251928       0.996161859      -1.00435099      0.996161859      -1.00435099      0.0179113635     77.1252039       
0.1              0.0352388921     81.962311        0.99568417       -2.00828245      0.99568417       -2.00828245      0.0352389005     81.9623191       
0.15             0.0526584535     82.9267043       0.994888941      -3.01091316      0.994888941      -3.01091316      0.0526584677     82.9267103       
0.2              0.0700594874     82.9033397       0.993779267      -4.01157324      0.993779267      -4.01157324      0.0700595071     82.9033443       
0.25             0.0874066861     82.4846575       0.992358556      -5.00962783      0.992358556      -5.00962783      0.0874067113     82.4846613       
0.3              0.10467773       81.8698356       0.990630899      -6.00445128      0.990630899      -6.00445128      0.10467776       81.8698389       
0.35             0.121854301      81.144815        0.988601167      -6.99542856      0.988601167      -6.99542856      0.121854337      81.1448178       
0.4              0.138919886      80.3529212       0.986274999      -7.98195801      0.986274999      -7.98195801      0.138919927      80.3529237       
0.45             0.155859089      79.5184962       0.983658777      -8.96345375      0.983658777      -8.96345375      0.155859136      79.5184984       
0.5              0.172657386      78.6563695       0.980759579      -9.93934776      0.980759579      -9.93934776      0.172657437      78.6563715       
0.55             0.189301038      77.7761683       0.977585127      -10.9090917      0.977585127      -10.9090917      0.189301094      77.7761701       
0.6              0.205777072      76.884474        0.974143737      -11.8721587      0.974143737      -11.8721587      0.205777133      76.8844757       
0.65             0.222073281      75.9859831       0.970444259      -12.8280444      0.970444259      -12.8280444      0.222073347      75.9859846       
0.7              0.238178237      75.0841709       0.966496017      -13.7762685      0.966496017      -13.7762685      0.238178308      75.0841723       
0.75             0.254081303      74.1816892       0.962308753      -14.7163758      0.962308753      -14.7163758      0.254081379      74.1816905       
0.8              0.269772644      73.2806152       0.95789256       -15.6479365      0.95789256       -15.6479365      0.269772724      73.2806165       
0.85             0.285243236      72.382612        0.953257826      -16.5705476      0.953257826      -16.5705476      0.285243322      72.3826131       
0.9              0.300484871      71.4890357       0.948415171      -17.4838329      0.948415171      -17.4838329      0.300484961      71.4890368       
0.95             0.315490151      70.6010093       0.943375388      -18.3874434      0.943375388      -18.3874434      0.315490245      70.6010104       
1                0.330252486      69.7194735       0.938149391      -19.2810571      0.938149391      -19.2810571      0.330252585      69.7194745       
1.05             0.34476608       68.845224        0.932748153      -20.1643796      0.932748153      -20.1643796      0.344766183      68.8452249       
1.1              0.359025919      67.9789382       0.92718266       -21.0371433      0.92718266       -21.0371433      0.359026027      67.9789391       
1.15             0.373027748      67.1211958       0.921463861      -21.8991075      0.921463861      -21.8991075      0.373027859      67.1211966       
1.2              0.386768049      66.2724935       0.915602619      -22.7500574      0.915602619      -22.7500574      0.386768165      66.2724943       
1.25             0.400244019      65.4332574       0.909609675      -23.5898042      0.909609675      -23.5898042      0.400244138      65.4332582       
1.3              0.413453532      64.6038521       0.903495605      -24.4181838      0.903495605      -24.4181838      0.413453656      64.6038528       
1.35             0.42639512       63.7845881       0.897270788      -25.2350565      0.897270788      -25.2350565      0.426395248      63.7845889       
1.4              0.439067929      62.9757284       0.890945373      -26.040306       0.890945373      -26.040306       0.439068061      62.9757291       
1.45             0.451471692      62.1774931       0.884529254      -26.8338384      0.884529254      -26.8338384      0.451471827      62.1774938       
1.5              0.46360669       61.390064        0.878032044      -27.6155811      0.878032044      -27.6155811      0.463606828      61.3900647       
1.55             0.475473719      60.6135883       0.871463056      -28.3854825      0.871463056      -28.3854825      0.475473861      60.6135889       
1.6              0.487074052      59.8481817       0.864831289      -29.14351        0.864831289      -29.14351        0.487074198      59.8481823       
1.65             0.498409406      59.0939314       0.858145409      -29.8896498      0.858145409      -29.8896498      0.498409555      59.093932        
1.7              0.509481901      58.3508986       0.851413741      -30.6239055      0.851413741      -30.6239055      0.509482054      58.3508992       
1.75             0.520294033      57.6191207       0.844644265      -31.3462967      0.844644265      -31.3462967      0.520294189      57.6191213       
1.8              0.530848633      56.8986134       0.837844602      -32.0568587      0.837844602      -32.0568587      0.530848792      56.898614        
1.85             0.541148839      56.1893729       0.831022022      -32.7556407      0.831022022      -32.7556407      0.541149001      56.1893734       
1.9              0.551198059      55.491377        0.824183436      -33.4427055      0.824183436      -33.4427055      0.551198225      55.4913776       
1.95             0.560999948      54.8045875       0.817335397      -34.1181278      0.817335397      -34.1181278      0.561000117      54.804588        
2                0.570558373      54.128951        0.810484111      -34.7819938      0.810484111      -34.7819938      0.570558544      54.1289515       
2.05             0.579877385      53.4644007       0.803635433      -35.4343997      0.803635433      -35.4343997      0.579877559      53.4644012       
2.1              0.588961199      52.8108576       0.796794876      -36.0754515      0.796794876      -36.0754515      0.588961375      52.8108581       
2.15             0.597814162      52.1682317       0.789967623      -36.7052634      0.789967623      -36.7052634      0.597814341      52.1682321       
2.2              0.606440737      51.536423        0.783158527      -37.3239575      0.783158527      -37.3239575      0.606440919      51.5364234       
2.25             0.614845476      50.9153227       0.776372127      -37.9316626      0.776372127      -37.9316626      0.61484566       50.9153232       
2.3              0.623033002      50.3048142       0.769612655      -38.5285138      0.769612655      -38.5285138      0.623033189      50.3048147       
2.35             0.631007992      49.7047738       0.762884045      -39.1146515      0.762884045      -39.1146515      0.631008182      49.7047742       
2.4              0.63877516       49.1150717       0.756189948      -39.690221       0.756189948      -39.690221       0.638775351      49.1150721       
2.45             0.646339236      48.5355728       0.749533738      -40.2553715      0.749533738      -40.2553715      0.64633943       48.5355732       
2.5              0.653704962      47.9661373       0.742918527      -40.8102558      0.742918527      -40.8102558      0.653705158      47.9661377       
2.55             0.660877068      47.4066214       0.736347177      -41.3550296      0.736347177      -41.3550296      0.660877266      47.4066218       
2.6              0.667860268      46.8568781       0.729822306      -41.889851       0.729822306      -41.889851       0.667860468      46.8568785       
2.65             0.674659248      46.3167576       0.723346306      -42.4148802      0.723346306      -42.4148802      0.67465945       46.316758        
2.7              0.681278652      45.7861078       0.71692135       -42.9302786      0.71692135       -42.9302786      0.681278856      45.7861082       
2.75             0.68772308       45.264775        0.710549405      -43.4362087      0.710549405      -43.4362087      0.687723286      45.2647753       
2.8              0.693997078      44.752604        0.704232243      -43.9328339      0.704232243      -43.9328339      0.693997286      44.7526043       
2.85             0.700105128      44.2494388       0.697971449      -44.4203177      0.697971449      -44.4203177      0.700105338      44.2494392       
2.9              0.706051649      43.7551231       0.691768435      -44.8988235      0.691768435      -44.8988235      0.70605186       43.7551235       
2.95             0.711840986      43.2695002       0.685624448      -45.3685147      0.685624448      -45.3685147      0.711841199      43.2695005       
3                0.71747741       42.7924135       0.67954058       -45.8295539      0.67954058       -45.8295539      0.717477625      42.7924138       
3.05             0.722965111      42.323707        0.673517778      -46.2821028      0.673517778      -46.2821028      0.722965328      42.3237073       
3.1              0.728308199      41.8632254       0.667556852      -46.7263221      0.667556852      -46.7263221      0.728308417      41.8632257       
3.15             0.733510697      41.4108142       0.661658484      -47.1623715      0.661658484      -47.1623715      0.733510917      41.4108145       
3.2              0.738576543      40.96632         0.655823239      -47.5904088      0.655823239      -47.5904088      0.738576765      40.9663203       
3.25             0.743509588      40.5295909       0.650051567      -48.0105906      0.650051567      -48.0105906      0.743509811      40.5295912       
3.3              0.748313592      40.1004763       0.644343817      -48.4230715      0.644343817      -48.4230715      0.748313817      40.1004766       
3.35             0.752992227      39.6788273       0.638700239      -48.8280044      0.638700239      -48.8280044      0.752992453      39.6788276       
3.4              0.757549074      39.2644967       0.633120995      -49.2255401      0.633120995      -49.2255401      0.757549301      39.264497        
3.45             0.761987626      38.8573392       0.627606162      -49.6158274      0.627606162      -49.6158274      0.761987854      38.8573395       
3.5              0.766311284      38.4572115       0.622155742      -49.9990128      0.622155742      -49.9990128      0.766311513      38.4572118       
3.55             0.770523361      38.0639723       0.616769664      -50.3752408      0.616769664      -50.3752408      0.770523592      38.0639726       
3.6              0.774627084      37.6774824       0.611447792      -50.7446534      0.611447792      -50.7446534      0.774627316      37.6774827       
3.65             0.778625589      37.2976049       0.606189928      -51.1073903      0.606189928      -51.1073903      0.778625822      37.2976051       
3.7              0.782521927      36.9242049       0.600995822      -51.463589       0.600995822      -51.463589       0.782522162      36.9242051       
3.75             0.786319065      36.55715         0.595865168      -51.8133843      0.595865168      -51.8133843      0.786319301      36.5571502       
3.8              0.790019885      36.19631         0.590797618      -52.1569088      0.590797618      -52.1569088      0.790020122      36.1963102       
3.85             0.793627188      35.8415571       0.585792778      -52.4942925      0.585792778      -52.4942925      0.793627426      35.8415573       
3.9              0.797143691      35.4927657       0.580850217      -52.825663       0.580850217      -52.825663       0.79714393       35.492766        
3.95             0.800572036      35.1498127       0.575969468      -53.1511456      0.575969468      -53.1511456      0.800572276      35.149813        
4                0.803914785      34.8125774       0.571150033      -53.4708627      0.571150033      -53.4708627      0.803915026      34.8125777       
4.05             0.807174424      34.4809413       0.566391386      -53.7849348      0.566391386      -53.7849348      0.807174666      34.4809415       
4.1              0.810353365      34.1547882       0.561692973      -54.0934795      0.561692973      -54.0934795      0.810353609      34.1547884       
4.15             0.813453949      33.8340045       0.55705422       -54.3966123      0.55705422       -54.3966123      0.813454193      33.8340048       
4.2              0.816478445      33.5184788       0.552474529      -54.6944461      0.552474529      -54.6944461      0.81647869       33.518479        
4.25             0.819429054      33.2081019       0.547953288      -54.9870914      0.547953288      -54.9870914      0.819429299      33.2081022       
4.3              0.822307908      32.9027671       0.543489867      -55.2746566      0.543489867      -55.2746566      0.822308155      32.9027673       
4.35             0.825117076      32.6023697       0.539083622      -55.5572475      0.539083622      -55.5572475      0.825117324      32.6023699       
4.4              0.827858563      32.3068075       0.534733899      -55.8349677      0.534733899      -55.8349677      0.827858812      32.3068077       
4.45             0.830534312      32.0159804       0.530440033      -56.1079186      0.530440033      -56.1079186      0.830534561      32.0159806       
4.5              0.833146206      31.7297903       0.526201349      -56.3761992      0.526201349      -56.3761992      0.833146456      31.7297906       
4.55             0.835696069      31.4481417       0.522017169      -56.6399064      0.522017169      -56.6399064      0.83569632       31.4481419       
4.6              0.83818567       31.1709407       0.517886807      -56.899135       0.517886807      -56.899135       0.838185921      31.1709409       
4.65             0.840616722      30.8980958       0.513809573      -57.1539776      0.513809573      -57.1539776      0.840616974      30.8980961       
4.7              0.842990884      30.6295175       0.509784775      -57.4045246      0.509784775      -57.4045246      0.842991137      30.6295178       
4.75             0.845309766      30.3651183       0.505811719      -57.6508647      0.505811719      -57.6508647      0.84531002       30.3651185       
4.8              0.847574925      30.1048125       0.50188971       -57.8930842      0.50188971       -57.8930842      0.847575179      30.1048127       
4.85             0.849787871      29.8485166       0.498018053      -58.1312675      0.498018053      -58.1312675      0.849788126      29.8485168       
4.9              0.851950067      29.5961488       0.494196055      -58.3654974      0.494196055      -58.3654974      0.851950323      29.596149        
4.95             0.854062929      29.3476293       0.490423025      -58.5958544      0.490423025      -58.5958544      0.854063186      29.3476295       
5                0.856127831      29.10288         0.486698272      -58.8224172      0.486698272      -58.8224172      0.856128088      29.1028802       
5.05             0.858146103      28.8618248       0.483021111      -59.045263       0.483021111      -59.045263       0.85814636       28.861825        
5.1              0.860119033      28.624389        0.479390861      -59.2644669      0.479390861      -59.2644669      0.860119291      28.6243892       
5.15             0.86204787       28.3904999       0.475806844      -59.4801023      0.475806844      -59.4801023      0.862048128      28.3905001       
5.2              0.863933824      28.1600865       0.472268386      -59.6922411      0.472268386      -59.6922411      0.863934083      28.1600867       
5.25             0.865778067      27.9330792       0.468774821      -59.9009532      0.468774821      -59.9009532      0.865778327      27.9330794       
5.3              0.867581736      27.7094101       0.465325487      -60.1063073      0.465325487      -60.1063073      0.867581996      27.7094103       
5.35             0.869345931      27.489013        0.461919728      -60.3083702      0.461919728      -60.3083702      0.869346191      27.4890132       
5.4              0.871071719      27.2718231       0.458556895      -60.5072072      0.458556895      -60.5072072      0.87107198       27.2718232       
5.45             0.872760134      27.057777        0.455236346      -60.7028821      0.455236346      -60.7028821      0.872760396      27.0577772       
5.5              0.874412179      26.846813        0.451957444      -60.8954573      0.451957444      -60.8954573      0.874412441      26.8468132       
5.55             0.876028824      26.6388707       0.448719562      -61.0849937      0.448719562      -61.0849937      0.876029087      26.6388709       
5.6              0.877611012      26.4338911       0.445522078      -61.2715508      0.445522078      -61.2715508      0.877611276      26.4338913       
5.65             0.879159656      26.2318165       0.44236438       -61.4551866      0.44236438       -61.4551866      0.87915992       26.2318167       
5.7              0.88067564       26.0325907       0.43924586       -61.6359579      0.43924586       -61.6359579      0.880675904      26.0325908       
5.75             0.882159823      25.8361585       0.43616592       -61.8139203      0.43616592       -61.8139203      0.882160087      25.8361587       
5.8              0.883613036      25.6424663       0.433123971      -61.9891278      0.433123971      -61.9891278      0.883613301      25.6424665       
5.85             0.885036087      25.4514615       0.430119431      -62.1616333      0.430119431      -62.1616333      0.885036353      25.4514617       
5.9              0.886429759      25.2630928       0.427151724      -62.3314887      0.427151724      -62.3314887      0.886430025      25.263093        
5.95             0.887794809      25.0773101       0.424220285      -62.4987444      0.424220285      -62.4987444      0.887795075      25.0773103       
6                0.889131975      24.8940644       0.421324555      -62.6634497      0.421324555      -62.6634497      0.889132242      24.8940646       
6.05             0.890441971      24.7133078       0.418463985      -62.8256529      0.418463985      -62.8256529      0.890442238      24.7133079       
6.1              0.891725489      24.5349934       0.415638032      -62.9854012      0.415638032      -62.9854012      0.891725756      24.5349936       
6.15             0.892983202      24.3590757       0.412846162      -63.1427406      0.412846162      -63.1427406      0.892983469      24.3590758       
6.2              0.894215762      24.1855098       0.410087851      -63.2977161      0.410087851      -63.2977161      0.89421603       24.18551         
6.25             0.895423802      24.0142522       0.40736258       -63.4503716      0.40736258       -63.4503716      0.89542407       24.0142523       
6.3              0.896607936      23.84526         0.404669839      -63.6007503      0.404669839      -63.6007503      0.896608205      23.8452602       
6.35             0.897768762      23.6784917       0.402009128      -63.748894       0.402009128      -63.748894       0.897769031      23.6784918       
6.4              0.898906857      23.5139063       0.399379951      -63.8948439      0.399379951      -63.8948439      0.898907127      23.5139065       
