! Coilcraft 1008PS-104 Power Chip Inductor				
! 7 October 2002			
# MHZ S MA R 50
!Freq             MagS11           AngS11           MagS21           AngS21           MagS12           AngS12           MagS22           AngS22
0.05             0.289782649      63.5466173       0.908732666      -16.5886334      0.908732666      -16.5886334      0.289782675      63.5466212       
0.06             0.340109847      62.061396        0.892734242      -19.668211       0.892734242      -19.668211       0.340109878      62.0613992       
0.07             0.387821516      60.2422417       0.874886989      -22.6330009      0.874886989      -22.6330009      0.387821552      60.2422445       
0.08             0.432688588      58.2629041       0.855576659      -25.4743127      0.855576659      -25.4743127      0.432688629      58.2629065       
0.09             0.474602379      56.2221309       0.83517272       -28.1865863      0.83517272       -28.1865863      0.474602424      56.222133        
0.1              0.513545331      54.1791808       0.814015594      -30.7670644      0.814015594      -30.7670644      0.513545381      54.1791828       
0.11             0.549568844      52.1706267       0.792408564      -33.2153892      0.792408564      -33.2153892      0.549568898      52.1706285       
0.12             0.582774857      50.2191262       0.770613809      -35.5331708      0.770613809      -35.5331708      0.582774914      50.2191278       
0.13             0.613300349      48.338388        0.748851732      -37.7235646      0.748851732      -37.7235646      0.613300409      48.3383895       
0.14             0.641304565      46.53618         0.727302682      -39.7908834      0.727302682      -39.7908834      0.641304628      46.5361814       
0.15             0.66695882       44.8162519       0.70611022       -41.7402556      0.70611022       -41.7402556      0.666958886      44.8162533       
0.16             0.690438643      43.1796162       0.68538524       -43.5773391      0.68538524       -43.5773391      0.690438711      43.1796175       
0.17             0.711917979      41.6254269       0.665210409      -45.3080871      0.665210409      -45.3080871      0.71191805       41.6254281       
0.18             0.731565105      40.1515956       0.64564456       -46.9385647      0.64564456       -46.9385647      0.731565177      40.1515967       
0.19             0.749539917      38.7552279       0.626726805      -48.4748085      0.626726805      -48.4748085      0.749539991      38.755229        
0.2              0.765992298      37.4329345       0.608480229      -49.9227229      0.608480229      -49.9227229      0.765992374      37.4329355       
0.21             0.781061276      36.1810531       0.590915128      -51.2880077      0.590915128      -51.2880077      0.781061353      36.1810541       
0.22             0.794874777      34.9958054       0.574031761      -52.5761084      0.574031761      -52.5761084      0.794874856      34.9958063       
0.23             0.807549779      33.8734075       0.557822669      -53.7921869      0.557822669      -53.7921869      0.807549859      33.8734084       
0.24             0.819192732      32.8101457       0.54227458       -54.9411055      0.54227458       -54.9411055      0.819192814      32.8101466       
0.25             0.829900162      31.8024272       0.527369966      -56.0274216      0.527369966      -56.0274216      0.829900244      31.802428        
0.26             0.83975935       30.8468124       0.51308829       -57.0553915      0.51308829       -57.0553915      0.839759434      30.8468132       
0.27             0.848849068      29.9400344       0.499407003      -58.0289775      0.499407003      -58.0289775      0.848849153      29.9400352       
0.28             0.857240309      29.0790085       0.486302325      -58.9518605      0.486302325      -58.9518605      0.857240395      29.0790093       
0.29             0.864997001      28.260835        0.473749856      -59.8274542      0.473749856      -59.8274542      0.864997087      28.2608357       
0.3              0.872176683      27.4827974       0.461725036      -60.6589202      0.461725036      -60.6589202      0.87217677       27.4827981       
0.31             0.878831136      26.7423575       0.450203505      -61.4491847      0.450203505      -61.4491847      0.878831224      26.7423582       
0.32             0.88500697       26.0371482       0.439161358      -62.200954       0.439161358      -62.200954       0.885007059      26.0371489       
0.33             0.890746152      25.3649649       0.428575341      -62.9167309      0.428575341      -62.9167309      0.890746241      25.3649656       
0.34             0.89608649       24.7237565       0.418422977      -63.5988293      0.418422977      -63.5988293      0.896086579      24.7237571       
0.35             0.90106207       24.1116158       0.408682659      -64.2493892      0.408682659      -64.2493892      0.90106216       24.1116165       
0.36             0.905703649      23.5267705       0.399333699      -64.8703901      0.399333699      -64.8703901      0.90570374       23.5267711       
0.37             0.910039004      22.9675733       0.39035636       -65.4636635      0.39035636       -65.4636635      0.910039095      22.9675739       
0.38             0.914093244      22.4324936       0.381731862      -66.0309053      0.381731862      -66.0309053      0.914093335      22.4324941       
0.39             0.917889095      21.9201085       0.373442371      -66.5736862      0.373442371      -66.5736862      0.917889187      21.920109        
0.4              0.921447145      21.4290953       0.365470985      -67.0934621      0.365470985      -67.0934621      0.921447237      21.4290958       
0.41             0.924786068      20.9582237       0.357801702      -67.5915836      0.357801702      -67.5915836      0.92478616       20.9582242       
0.42             0.927922821      20.5063488       0.350419395      -68.0693041      0.350419395      -68.0693041      0.927922914      20.5063494       
0.43             0.930872821      20.0724048       0.343309768      -68.527788       0.343309768      -68.527788       0.930872914      20.0724054       
0.44             0.933650102      19.6553988       0.336459325      -68.9681179      0.336459325      -68.9681179      0.933650195      19.6553993       
0.45             0.936267452      19.254405        0.329855324      -69.3913007      0.329855324      -69.3913007      0.936267546      19.2544056       
0.46             0.938736542      18.8685602       0.323485747      -69.7982743      0.323485747      -69.7982743      0.938736635      18.8685608       
0.47             0.94106803       18.4970585       0.317339252      -70.1899125      0.317339252      -70.1899125      0.941068124      18.497059        
0.48             0.943271667      18.139147        0.311405141      -70.5670306      0.311405141      -70.5670306      0.943271761      18.1391475       
0.49             0.945356382      17.7941221       0.305673322      -70.9303894      0.305673322      -70.9303894      0.945356476      17.7941226       
0.5              0.94733036       17.4613254       0.300134271      -71.2806998      0.300134271      -71.2806998      0.947330454      17.4613259       
0.51             0.949201113      17.1401409       0.294779001      -71.6186264      0.294779001      -71.6186264      0.949201208      17.1401414       
0.52             0.950975546      16.829991        0.289599031      -71.9447912      0.289599031      -71.9447912      0.950975641      16.8299915       
0.53             0.952660009      16.5303347       0.284586351      -72.2597769      0.284586351      -72.2597769      0.952660104      16.5303351       
0.54             0.95426035       16.2406639       0.279733397      -72.5641296      0.279733397      -72.5641296      0.954260446      16.2406643       
0.55             0.955781964      15.9605018       0.275033023      -72.8583614      0.275033023      -72.8583614      0.955782059      15.9605023       
0.56             0.957229825      15.6894004       0.270478474      -73.1429533      0.270478474      -73.1429533      0.957229921      15.6894009       
0.57             0.958608533      15.4269383       0.266063363      -73.4183572      0.266063363      -73.4183572      0.958608629      15.4269387       
0.58             0.959922342      15.1727189       0.261781649      -73.6849979      0.261781649      -73.6849979      0.959922437      15.1727194       
0.59             0.961175187      14.926369        0.257627616      -73.9432755      0.257627616      -73.9432755      0.961175283      14.9263694       
0.6              0.96237072       14.6875365       0.25359585       -74.1935663      0.25359585       -74.1935663      0.962370816      14.687537        
0.61             0.963512325      14.4558898       0.249681225      -74.4362253      0.249681225      -74.4362253      0.963512421      14.4558902       
0.62             0.964603145      14.2311155       0.245878882      -74.6715871      0.245878882      -74.6715871      0.964603241      14.231116        
0.63             0.965646103      14.0129181       0.242184215      -74.8999677      0.242184215      -74.8999677      0.965646199      14.0129185       
0.64             0.966643916      13.801018        0.238592854      -75.1216653      0.238592854      -75.1216653      0.966644013      13.8010184       
0.65             0.967599116      13.5951509       0.235100655      -75.3369618      0.235100655      -75.3369618      0.967599213      13.5951514       
0.66             0.968514062      13.395067        0.23170368       -75.546124       0.23170368       -75.546124       0.968514158      13.3950674       
0.67             0.969390952      13.2005293       0.228398189      -75.7494041      0.228398189      -75.7494041      0.969391049      13.2005297       
0.68             0.970231843      13.0113136       0.22518063       -75.9470412      0.22518063       -75.9470412      0.97023194       13.011314        
0.69             0.971038653      12.8272073       0.222047623      -76.1392617      0.222047623      -76.1392617      0.97103875       12.8272077       
0.7              0.971813176      12.6480086       0.218995955      -76.3262802      0.218995955      -76.3262802      0.971813273      12.648009        
0.71             0.972557093      12.4735261       0.216022565      -76.5083005      0.216022565      -76.5083005      0.97255719       12.4735265       
0.72             0.973271977      12.3035779       0.213124542      -76.685516       0.213124542      -76.685516       0.973272074      12.3035783       
0.73             0.973959302      12.1379913       0.210299111      -76.8581104      0.210299111      -76.8581104      0.9739594        12.1379917       
0.74             0.974620452      11.976602        0.207543627      -77.0262582      0.207543627      -77.0262582      0.97462055       11.9766024       
0.75             0.975256726      11.8192536       0.204855569      -77.1901256      0.204855569      -77.1901256      0.975256824      11.819254        
0.76             0.975869343      11.6657975       0.202232532      -77.3498705      0.202232532      -77.3498705      0.975869441      11.6657979       
0.77             0.97645945       11.5160918       0.19967222       -77.5056433      0.19967222       -77.5056433      0.976459548      11.5160922       
0.78             0.977028127      11.3700016       0.197172442      -77.6575874      0.197172442      -77.6575874      0.977028224      11.370002        
0.79             0.977576388      11.2273982       0.194731105      -77.8058393      0.194731105      -77.8058393      0.977576485      11.2273986       
0.8              0.97810519       11.0881588       0.192346207      -77.9505291      0.192346207      -77.9505291      0.978105288      11.0881592       
0.81             0.978615436      10.9521662       0.190015837      -78.0917812      0.190015837      -78.0917812      0.978615534      10.9521665       
0.82             0.979107976      10.8193085       0.187738165      -78.2297142      0.187738165      -78.2297142      0.979108074      10.8193088       
0.83             0.979583613      10.6894788       0.185511441      -78.3644412      0.185511441      -78.3644412      0.979583711      10.6894792       
0.84             0.980043105      10.5625751       0.183333989      -78.4960706      0.183333989      -78.4960706      0.980043203      10.5625754       
0.85             0.980487169      10.4384995       0.181204205      -78.6247056      0.181204205      -78.6247056      0.980487267      10.4384999       
0.86             0.980916482      10.3171588       0.179120553      -78.7504453      0.179120553      -78.7504453      0.98091658       10.3171592       
0.87             0.981331686      10.1984635       0.177081558      -78.8733842      0.177081558      -78.8733842      0.981331784      10.1984639       
0.88             0.981733387      10.082328        0.175085809      -78.9936131      0.175085809      -78.9936131      0.981733485      10.0823283       
0.89             0.98212216       9.96867018       0.173131952      -79.1112185      0.173131952      -79.1112185      0.982122258      9.96867056       
0.9              0.982498549      9.85741158       0.171218686      -79.2262837      0.171218686      -79.2262837      0.982498648      9.85741196       
0.91             0.982863073      9.74847684       0.169344764      -79.3388883      0.169344764      -79.3388883      0.982863171      9.74847721       
0.92             0.983216219      9.64179368       0.167508988      -79.4491086      0.167508988      -79.4491086      0.983216317      9.64179406       
0.93             0.983558454      9.53729279       0.165710207      -79.5570179      0.165710207      -79.5570179      0.983558552      9.53729317       
0.94             0.983890219      9.43490763       0.163947317      -79.6626866      0.163947317      -79.6626866      0.983890317      9.43490801       
0.95             0.984211934      9.33457431       0.162219253      -79.7661821      0.162219253      -79.7661821      0.984212032      9.33457468       
0.96             0.984523998      9.23623144       0.160524995      -79.8675692      0.160524995      -79.8675692      0.984524097      9.23623181       
0.97             0.984826791      9.13982005       0.158863559      -79.9669102      0.158863559      -79.9669102      0.984826889      9.13982042       
0.98             0.985120673      9.04528344       0.157233999      -80.0642649      0.157233999      -80.0642649      0.985120771      9.04528382       
0.99             0.985405989      8.9525671        0.155635404      -80.1596908      0.155635404      -80.1596908      0.985406087      8.95256747       
1                0.985683065      8.86161857       0.154066899      -80.2532434      0.154066899      -80.2532434      0.985683164      8.86161894       
1.01             0.985952215      8.77238738       0.152527639      -80.3449757      0.152527639      -80.3449757      0.985952313      8.77238775       
1.02             0.986213734      8.68482494       0.151016809      -80.4349391      0.151016809      -80.4349391      0.986213833      8.68482531       
1.03             0.986467908      8.59888446       0.149533627      -80.5231829      0.149533627      -80.5231829      0.986468007      8.59888483       
1.04             0.986715007      8.51452087       0.148077336      -80.6097546      0.148077336      -80.6097546      0.986715105      8.51452124       
1.05             0.986955288      8.43169073       0.146647207      -80.6946998      0.146647207      -80.6946998      0.986955387      8.4316911        
1.06             0.987188999      8.35035217       0.145242538      -80.7780629      0.145242538      -80.7780629      0.987189098      8.35035255       
1.07             0.987416376      8.27046483       0.143862648      -80.8598862      0.143862648      -80.8598862      0.987416474      8.2704652        
1.08             0.987637643      8.19198976       0.142506884      -80.9402107      0.142506884      -80.9402107      0.987637741      8.19199013       
1.09             0.987853016      8.11488939       0.141174612      -81.0190761      0.141174612      -81.0190761      0.987853115      8.11488977       
1.1              0.988062701      8.03912747       0.139865223      -81.0965204      0.139865223      -81.0965204      0.988062799      8.03912784       
1.11             0.988266894      7.96466897       0.138578126      -81.1725804      0.138578126      -81.1725804      0.988266993      7.96466935       
1.12             0.988465786      7.89148011       0.13731275       -81.2472919      0.13731275       -81.2472919      0.988465885      7.89148048       
1.13             0.988659555      7.81952821       0.136068545      -81.320689       0.136068545      -81.320689       0.988659654      7.81952859       
1.14             0.988848376      7.74878173       0.134844978      -81.3928049      0.134844978      -81.3928049      0.988848475      7.74878211       
1.15             0.989032413      7.67921017       0.133641534      -81.4636718      0.133641534      -81.4636718      0.989032512      7.67921054       
1.16             0.989211826      7.61078403       0.132457713      -81.5333205      0.132457713      -81.5333205      0.989211925      7.61078441       
1.17             0.989386767      7.54347481       0.131293035      -81.6017811      0.131293035      -81.6017811      0.989386866      7.54347519       
1.18             0.989557383      7.47725492       0.130147031      -81.6690824      0.130147031      -81.6690824      0.989557482      7.4772553        
1.19             0.989723813      7.41209767       0.129019249      -81.7352526      0.129019249      -81.7352526      0.989723912      7.41209805       
1.2              0.989886191      7.34797724       0.127909253      -81.8003187      0.127909253      -81.8003187      0.98988629       7.34797761       
1.21             0.990044648      7.28486861       0.126816619      -81.8643069      0.126816619      -81.8643069      0.990044747      7.28486899       
1.22             0.990199308      7.22274757       0.125740934      -81.9272427      0.125740934      -81.9272427      0.990199407      7.22274795       
1.23             0.990350289      7.16159068       0.124681803      -81.9891506      0.124681803      -81.9891506      0.990350388      7.16159106       
1.24             0.990497706      7.10137521       0.123638839      -82.0500545      0.123638839      -82.0500545      0.990497805      7.10137559       
1.25             0.990641669      7.04207914       0.122611668      -82.1099774      0.122611668      -82.1099774      0.990641768      7.04207952       
1.26             0.990782284      6.98368114       0.121599927      -82.1689417      0.121599927      -82.1689417      0.990782383      6.98368152       
1.27             0.990919654      6.92616052       0.120603266      -82.226969       0.120603266      -82.226969       0.990919753      6.9261609        
1.28             0.991053876      6.86949722       0.119621342      -82.2840803      0.119621342      -82.2840803      0.991053975      6.8694976        
1.29             0.991185044      6.81367178       0.118653825      -82.340296       0.118653825      -82.340296       0.991185143      6.81367216       
1.3              0.991313249      6.75866532       0.117700393      -82.3956359      0.117700393      -82.3956359      0.991313349      6.7586657        
1.31             0.99143858       6.70445952       0.116760735      -82.4501191      0.116760735      -82.4501191      0.991438679      6.70445991       
1.32             0.99156112       6.65103662       0.115834547      -82.5037642      0.115834547      -82.5037642      0.991561219      6.651037         
