! Coilcraft 1008PS-224 Power Chip Inductor				
! 7 October 2002			
# MHZ S MA R 50
!Freq             MagS11           AngS11           MagS21           AngS21           MagS12           AngS12           MagS22           AngS22
0.05             0.538756266      49.9022231       0.772165029      -32.2571265      0.772165029      -32.2571265      0.538756316      49.9022262       
0.06             0.607587462      46.2933184       0.727679145      -37.1271506      0.727679145      -37.1271506      0.60758752       46.2933209       
0.07             0.665084498      42.8846835       0.683878189      -41.4390937      0.683878189      -41.4390937      0.665084562      42.8846857       
0.08             0.712802961      39.7594159       0.642006458      -45.2424585      0.642006458      -45.2424585      0.71280303       39.7594179       
0.09             0.752330425      36.9352134       0.602745574      -48.5939598      0.602745574      -48.5939598      0.752330499      36.9352151       
0.1              0.785113618      34.4003672       0.56638617       -51.5502465      0.56638617       -51.5502465      0.785113695      34.4003687       
0.11             0.812393888      32.1309276       0.532969662      -54.1639944      0.532969662      -54.1639944      0.812393968      32.130929        
0.12             0.835200543      30.0990994       0.502391114      -56.4822102      0.502391114      -56.4822102      0.835200625      30.0991007       
0.13             0.854370644      28.2772792       0.474468118      -58.5458282      0.474468118      -58.5458282      0.854370728      28.2772804       
0.14             0.870577878      26.6398686       0.448984242      -60.3899849      0.448984242      -60.3899849      0.870577964      26.6398697       
0.15             0.884361942      25.1639539       0.42571505       -62.0445976      0.42571505       -62.0445976      0.88436203       25.163955        
0.16             0.896154813      23.8294188       0.404442785      -63.5350402      0.404442785      -63.5350402      0.896154902      23.8294198       
0.17             0.906302788      22.6187918       0.384963976      -64.8828078      0.384963976      -64.8828078      0.906302878      22.6187927       
0.18             0.915084355      21.5169831       0.367092782      -66.1061209      0.367092782      -66.1061209      0.915084446      21.5169839       
0.19             0.922724412      20.5109914       0.35066184       -67.2204537      0.35066184       -67.2204537      0.922724504      20.5109922       
0.2              0.929405449      19.589619        0.335521756      -68.2389823      0.335521756      -68.2389823      0.929405541      19.5896198       
0.21             0.935276311      18.7432124       0.321539877      -69.1729623      0.321539877      -69.1729623      0.935276404      18.7432132       
0.22             0.940459054      17.963434        0.30859877       -70.0320421      0.30859877       -70.0320421      0.940459148      17.9634347       
0.23             0.945054303      17.2430654       0.296594619      -70.8245228      0.296594619      -70.8245228      0.945054397      17.2430661       
0.24             0.949145461      16.5758402       0.285435669      -71.5575729      0.285435669      -71.5575729      0.949145555      16.5758409       
0.25             0.95280202       15.9563023       0.275040781      -72.2374066      0.275040781      -72.2374066      0.952802115      15.9563029       
0.26             0.956082181      15.379686        0.265338131      -72.8694303      0.265338131      -72.8694303      0.956082276      15.3796866       
0.27             0.959034926      14.8418161       0.25626404       -73.4583653      0.25626404       -73.4583653      0.959035022      14.8418167       
0.28             0.961701682      14.339023        0.247761958      -74.008349       0.247761958      -74.008349       0.961701778      14.3390236       
0.29             0.964117644      13.8680715       0.239781566      -74.5230198      0.239781566      -74.5230198      0.96411774       13.8680721       
0.3              0.966312846      13.4261007       0.232278         -75.0055879      0.232278         -75.0055879      0.966312943      13.4261012       
0.31             0.968313031      13.010573        0.225211174      -75.4588948      0.225211174      -75.4588948      0.968313128      13.0105736       
0.32             0.970140348      12.6192314       0.218545191      -75.8854636      0.218545191      -75.8854636      0.970140445      12.619232        
0.33             0.971813933      12.2500626       0.212247843      -76.2875413      0.212247843      -76.2875413      0.97181403       12.2500631       
0.34             0.973350379      11.9012656       0.206290163      -76.6671348      0.206290163      -76.6671348      0.973350476      11.9012661       
0.35             0.974764126      11.5712254       0.200646046      -77.0260414      0.200646046      -77.0260414      0.974764223      11.5712259       
0.36             0.976067783      11.2584903       0.195291916      -77.3658751      0.195291916      -77.3658751      0.97606788       11.2584908       
0.37             0.977272397      10.9617515       0.19020644       -77.6880889      0.19020644       -77.6880889      0.977272494      10.961752        
0.38             0.978387678      10.679827        0.185370271      -77.993994       0.185370271      -77.993994       0.978387775      10.6798275       
0.39             0.979422183      10.4116465       0.180765832      -78.2847766      0.180765832      -78.2847766      0.979422281      10.4116469       
0.4              0.980383481      10.1562387       0.176377125      -78.5615121      0.176377125      -78.5615121      0.980383579      10.1562391       
0.41             0.981278278      9.91272048       0.172189556      -78.8251776      0.172189556      -78.8251776      0.981278376      9.91272091       
0.42             0.982112538      9.68028722       0.168189795      -79.0766626      0.168189795      -79.0766626      0.982112636      9.68028765       
0.43             0.982891575      9.45820431       0.16436564       -79.3167787      0.16436564       -79.3167787      0.982891673      9.45820473       
0.44             0.983620135      9.24579986       0.160705904      -79.5462677      0.160705904      -79.5462677      0.983620234      9.24580027       
0.45             0.984302471      9.04245819       0.157200317      -79.765809       0.157200317      -79.765809       0.984302569      9.04245859       
0.46             0.984942398      8.84761421       0.153839429      -79.9760257      0.153839429      -79.9760257      0.984942496      8.8476146        
0.47             0.985543347      8.66074831       0.150614537      -80.1774905      0.150614537      -80.1774905      0.985543445      8.6607487        
0.48             0.986108412      8.48138199       0.147517612      -80.3707305      0.147517612      -80.3707305      0.986108511      8.48138237       
0.49             0.986640388      8.30907387       0.144541235      -80.5562317      0.144541235      -80.5562317      0.986640486      8.30907425       
0.5              0.987141802      8.14341623       0.141678541      -80.7344429      0.141678541      -80.7344429      0.987141901      8.1434166        
0.51             0.987614949      7.98403186       0.138923172      -80.9057788      0.138923172      -80.9057788      0.987615047      7.98403223       
0.52             0.988061909      7.83057131       0.136269227      -81.0706239      0.136269227      -81.0706239      0.988062008      7.83057168       
0.53             0.988484578      7.68271039       0.133711227      -81.2293343      0.133711227      -81.2293343      0.988484677      7.68271075       
0.54             0.988884684      7.54014796       0.131244075      -81.3822411      0.131244075      -81.3822411      0.988884783      7.54014832       
0.55             0.989263802      7.40260392       0.128863024      -81.5296518      0.128863024      -81.5296518      0.989263901      7.40260427       
0.56             0.989623375      7.26981741       0.12656365       -81.6718527      0.12656365       -81.6718527      0.989623474      7.26981776       
0.57             0.989964723      7.14154525       0.124341823      -81.8091109      0.124341823      -81.8091109      0.989964822      7.14154559       
0.58             0.990289058      7.0175604        0.122193683      -81.9416753      0.122193683      -81.9416753      0.990289157      7.01756074       
0.59             0.990597491      6.89765072       0.120115623      -82.0697787      0.120115623      -82.0697787      0.99059759       6.89765106       
0.6              0.990891046      6.78161774       0.118104262      -82.1936386      0.118104262      -82.1936386      0.990891145      6.78161807       
0.61             0.991170665      6.66927558       0.116156433      -82.3134588      0.116156433      -82.3134588      0.991170764      6.66927592       
0.62             0.991437217      6.56045002       0.114269164      -82.4294301      0.114269164      -82.4294301      0.991437316      6.56045034       
0.63             0.991691505      6.45497752       0.112439664      -82.5417317      0.112439664      -82.5417317      0.991691604      6.45497785       
0.64             0.991934269      6.35270451       0.110665309      -82.6505318      0.110665309      -82.6505318      0.991934368      6.35270484       
0.65             0.992166198      6.2534866        0.108943632      -82.7559883      0.108943632      -82.7559883      0.992166297      6.25348692       
0.66             0.992387926      6.15718789       0.107272308      -82.8582501      0.107272308      -82.8582501      0.992388025      6.15718821       
0.67             0.992600044      6.06368041       0.105649147      -82.9574571      0.105649147      -82.9574571      0.992600144      6.06368073       
0.68             0.992803101      5.9728435        0.104072084      -83.0537413      0.104072084      -83.0537413      0.992803201      5.97284382       
0.69             0.992997607      5.88456335       0.102539167      -83.1472272      0.102539167      -83.1472272      0.992997706      5.88456366       
0.7              0.993184035      5.79873247       0.101048555      -83.2380321      0.101048555      -83.2380321      0.993184134      5.79873278       
0.71             0.993362827      5.71524929       0.0995985043     -83.3262672      0.0995985043     -83.3262672      0.993362926      5.7152496        
0.72             0.993534395      5.63401778       0.0981873678     -83.4120373      0.0981873678     -83.4120373      0.993534495      5.63401808       
0.73             0.993699125      5.55494701       0.0968135843     -83.4954417      0.0968135843     -83.4954417      0.993699225      5.55494731       
0.74             0.993857376      5.4779509        0.0954756749     -83.5765744      0.0954756749     -83.5765744      0.993857475      5.4779512        
0.75             0.994009483      5.40294784       0.0941722376     -83.6555245      0.0941722376     -83.6555245      0.994009582      5.40294815       
0.76             0.994155761      5.32986045       0.0929019416     -83.7323764      0.0929019416     -83.7323764      0.99415586       5.32986075       
0.77             0.994296504      5.25861526       0.0916635238     -83.8072103      0.0916635238     -83.8072103      0.994296604      5.25861556       
0.78             0.99443199       5.18914253       0.0904557838     -83.8801022      0.0904557838     -83.8801022      0.994432089      5.18914282       
0.79             0.994562477      5.12137594       0.0892775807     -83.9511244      0.0892775807     -83.9511244      0.994562576      5.12137624       
0.8              0.994688208      5.05525247       0.0881278291     -84.0203456      0.0881278291     -84.0203456      0.994688307      5.05525277       
0.81             0.994809413      4.99071214       0.0870054957     -84.0878311      0.0870054957     -84.0878311      0.994809512      4.99071243       
0.82             0.994926305      4.92769782       0.0859095967     -84.1536432      0.0859095967     -84.1536432      0.994926405      4.92769811       
0.83             0.995039089      4.86615513       0.0848391944     -84.217841       0.0848391944     -84.217841       0.995039188      4.86615542       
0.84             0.995147954      4.80603219       0.0837933947     -84.2804811      0.0837933947     -84.2804811      0.995148053      4.80603248       
0.85             0.99525308       4.74727956       0.0827713448     -84.3416172      0.0827713448     -84.3416172      0.99525318       4.74727985       
0.86             0.995354637      4.68985005       0.0817722307     -84.4013007      0.0817722307     -84.4013007      0.995354736      4.68985034       
0.87             0.995452784      4.6336986        0.0807952748     -84.4595805      0.0807952748     -84.4595805      0.995452884      4.63369889       
0.88             0.995547674      4.57878217       0.0798397342     -84.5165034      0.0798397342     -84.5165034      0.995547773      4.57878245       
0.89             0.995639447      4.52505962       0.0789048989     -84.5721142      0.0789048989     -84.5721142      0.995639547      4.5250599        
0.9              0.995728241      4.47249162       0.0779900897     -84.6264556      0.0779900897     -84.6264556      0.99572834       4.47249191       
0.91             0.995814181      4.42104055       0.0770946566     -84.6795683      0.0770946566     -84.6795683      0.995814281      4.42104084       
0.92             0.99589739       4.37067039       0.0762179773     -84.7314915      0.0762179773     -84.7314915      0.99589749       4.37067067       
0.93             0.995977982      4.32134665       0.0753594559     -84.7822627      0.0753594559     -84.7822627      0.995978082      4.32134694       
0.94             0.996056065      4.2730363        0.0745185214     -84.8319176      0.0745185214     -84.8319176      0.996056165      4.27303658       
0.95             0.996131743      4.22570766       0.0736946263     -84.8804905      0.0736946263     -84.8804905      0.996131843      4.22570795       
0.96             0.996205113      4.17933038       0.0728872456     -84.9280144      0.0728872456     -84.9280144      0.996205213      4.17933066       
0.97             0.996276268      4.13387533       0.0720958755     -84.9745209      0.0720958755     -84.9745209      0.996276368      4.13387561       
0.98             0.996345297      4.08931455       0.0713200324     -85.0200401      0.0713200324     -85.0200401      0.996345396      4.08931483       
0.99             0.996412282      4.0456212        0.0705592521     -85.0646011      0.0705592521     -85.0646011      0.996412382      4.04562148       
1                0.996477305      4.00276952       0.0698130885     -85.1082319      0.0698130885     -85.1082319      0.996477404      4.0027698        
1.01             0.99654044       3.96073473       0.0690811129     -85.1509591      0.0690811129     -85.1509591      0.996540539      3.96073501       
1.02             0.99660176       3.91949302       0.0683629133     -85.1928085      0.0683629133     -85.1928085      0.996601859      3.9194933        
1.03             0.996661333      3.87902151       0.0676580932     -85.2338048      0.0676580932     -85.2338048      0.996661433      3.87902179       
1.04             0.996719225      3.83929817       0.0669662713     -85.2739719      0.0669662713     -85.2739719      0.996719325      3.83929845       
1.05             0.996775499      3.80030181       0.0662870806     -85.3133325      0.0662870806     -85.3133325      0.996775599      3.80030209       
1.06             0.996830215      3.76201202       0.0656201677     -85.3519086      0.0656201677     -85.3519086      0.996830314      3.7620123        
1.07             0.996883427      3.72440917       0.0649651923     -85.3897215      0.0649651923     -85.3897215      0.996883527      3.72440945       
1.08             0.996935193      3.68747432       0.0643218265     -85.4267916      0.0643218265     -85.4267916      0.996935292      3.6874746        
1.09             0.996985562      3.65118924       0.0636897542     -85.4631383      0.0636897542     -85.4631383      0.996985661      3.65118952       
1.1              0.997034584      3.61553635       0.0630686706     -85.4987808      0.0630686706     -85.4987808      0.997034684      3.61553663       
1.11             0.997082307      3.58049869       0.062458282      -85.5337371      0.062458282      -85.5337371      0.997082407      3.58049897       
1.12             0.997128776      3.54605991       0.0618583048     -85.5680249      0.0618583048     -85.5680249      0.997128876      3.54606019       
1.13             0.997174034      3.51220423       0.0612684655     -85.6016611      0.0612684655     -85.6016611      0.997174134      3.5122045        
1.14             0.997218123      3.47891641       0.0606884998     -85.634662       0.0606884998     -85.634662       0.997218223      3.47891669       
1.15             0.997261082      3.44618175       0.0601181527     -85.6670435      0.0601181527     -85.6670435      0.997261182      3.44618203       
1.16             0.997302949      3.41398605       0.059557178      -85.6988206      0.059557178      -85.6988206      0.997303049      3.41398632       
1.17             0.99734376       3.38231557       0.0590053375     -85.7300082      0.0590053375     -85.7300082      0.99734386       3.38231585       
1.18             0.997383551      3.35115707       0.0584624012     -85.7606205      0.0584624012     -85.7606205      0.997383651      3.35115735       
1.19             0.997422354      3.32049772       0.0579281467     -85.790671       0.0579281467     -85.790671       0.997422454      3.320498         
1.2              0.997460202      3.29032513       0.0574023589     -85.8201731      0.0574023589     -85.8201731      0.997460302      3.2903254        
1.21             0.997497126      3.2606273        0.0568848297     -85.8491395      0.0568848297     -85.8491395      0.997497226      3.26062757       
1.22             0.997533154      3.23139263       0.0563753579     -85.8775826      0.0563753579     -85.8775826      0.997533254      3.23139291       
1.23             0.997568316      3.20260991       0.0558737486     -85.9055145      0.0558737486     -85.9055145      0.997568416      3.20261019       
1.24             0.997602638      3.17426826       0.0553798132     -85.9329465      0.0553798132     -85.9329465      0.997602738      3.17426854       
1.25             0.997636146      3.14635717       0.0548933691     -85.9598899      0.0548933691     -85.9598899      0.997636246      3.14635745       
1.26             0.997668866      3.11886645       0.0544142394     -85.9863556      0.0544142394     -85.9863556      0.997668966      3.11886673       
1.27             0.997700822      3.09178622       0.0539422526     -86.012354       0.0539422526     -86.012354       0.997700922      3.0917865        
1.28             0.997732037      3.06510692       0.0534772428     -86.0378953      0.0534772428     -86.0378953      0.997732137      3.0651072        
1.29             0.997762533      3.03881928       0.0530190489     -86.0629892      0.0530190489     -86.0629892      0.997762633      3.03881956       
1.3              0.997792332      3.01291431       0.0525675149     -86.0876453      0.0525675149     -86.0876453      0.997792432      3.01291459       
1.31             0.997821454      2.98738331       0.0521224894     -86.1118727      0.0521224894     -86.1118727      0.997821554      2.98738359       
1.32             0.99784992       2.96221781       0.0516838256     -86.1356805      0.0516838256     -86.1356805      0.997850019      2.96221809       
