! Coilcraft 1008PS-103 Power Chip Inductor				
! 7 October 2002			
# MHZ S MA R 50
!Freq             MagS11           AngS11           MagS21           AngS21           MagS12           AngS12           MagS22           AngS22
0.05             0.0323392817     72.4649281       0.990736373      -1.78361311      0.990736373      -1.78361311      0.032339284      72.4649341       
0.08             0.0505349127     77.1030464       0.989946903      -2.85223419      0.989946903      -2.85223419      0.0505349171     77.1030505       
0.11             0.0689131133     78.7008434       0.988809484      -3.91877396      0.988809484      -3.91877396      0.0689131197     78.7008464       
0.14             0.0873053921     79.1712866       0.987328309      -4.98249158      0.987328309      -4.98249158      0.0873054004     79.1712891       
0.17             0.105647413      79.1057275       0.985508466      -6.04265971      0.985508466      -6.04265971      0.105647424      79.1057297       
0.2              0.123902403      78.7456835       0.983355931      -7.09856691      0.983355931      -7.09856691      0.123902415      78.7456855       
0.23             0.14204374       78.2081167       0.980877547      -8.14952003      0.980877547      -8.14952003      0.142043754      78.2081185       
0.26             0.160049543      77.5566434       0.978080996      -9.1948465       0.978080996      -9.1948465       0.160049559      77.5566451       
0.29             0.177900633      76.8289319       0.974974744      -10.2338965      0.974974744      -10.2338965      0.177900651      76.8289336       
0.32             0.195579672      76.0487913       0.971567988      -11.2660451      0.971567988      -11.2660451      0.195579692      76.0487928       
0.35             0.213070763      75.2320747       0.967870594      -12.2906937      0.967870594      -12.2906937      0.213070784      75.2320762       
0.38             0.230359259      74.3897983       0.963893024      -13.3072721      0.963893024      -13.3072721      0.230359282      74.3897998       
0.41             0.247431666      73.5298945       0.959646269      -14.3152395      0.959646269      -14.3152395      0.24743169       73.529896        
0.44             0.264275594      72.6582501       0.95514177       -15.3140859      0.95514177       -15.3140859      0.26427562       72.6582516       
0.47             0.280879727      71.7793475       0.950391348      -16.3033324      0.950391348      -16.3033324      0.280879756      71.779349        
0.5              0.297233807      70.8966756       0.945407127      -17.2825328      0.945407127      -17.2825328      0.297233837      70.8966771       
0.53             0.313328611      70.0130008       0.940201461      -18.2512731      0.940201461      -18.2512731      0.313328642      70.0130024       
0.56             0.329155939      69.1305521       0.934786865      -19.2091721      0.934786865      -19.2091721      0.329155973      69.1305536       
0.59             0.344708595      68.2511488       0.929175943      -20.1558816      0.929175943      -20.1558816      0.34470863       68.2511503       
0.62             0.359980357      67.3762923       0.923381324      -21.0910856      0.923381324      -21.0910856      0.359980394      67.3762939       
0.65             0.374965954      66.5072324       0.917415601      -22.0145005      0.917415601      -22.0145005      0.374965992      66.507234        
0.68             0.389661034      65.6450159       0.911291274      -22.9258741      0.911291274      -22.9258741      0.389661074      65.6450176       
0.71             0.404062127      64.7905241       0.905020698      -23.8249853      0.905020698      -23.8249853      0.404062168      64.7905258       
0.74             0.418166609      63.9445005       0.898616032      -24.7116427      0.898616032      -24.7116427      0.418166652      63.9445022       
0.77             0.431972661      63.107573        0.892089198      -25.5856842      0.892089198      -25.5856842      0.431972705      63.1075747       
0.8              0.445479223      62.2802711       0.88545184       -26.4469757      0.88545184       -26.4469757      0.445479269      62.2802729       
0.83             0.458685955      61.46304         0.878715296      -27.2954099      0.878715296      -27.2954099      0.458686002      61.4630418       
0.86             0.471593186      60.6562515       0.87189056       -28.1309051      0.87189056       -28.1309051      0.471593235      60.6562534       
0.89             0.484201873      59.8602137       0.864988266      -28.9534041      0.864988266      -28.9534041      0.484201923      59.8602156       
0.92             0.49651355       59.0751785       0.858018663      -29.7628729      0.858018663      -29.7628729      0.496513602      59.0751804       
0.95             0.508530285      58.301348        0.850991602      -30.5592991      0.850991602      -30.5592991      0.508530338      58.30135         
0.98             0.520254634      57.5388805       0.84391652       -31.342691       0.84391652       -31.342691       0.520254688      57.5388825       
1.01             0.531689597      56.787895        0.836802434      -32.1130759      0.836802434      -32.1130759      0.531689652      56.787897        
1.04             0.542838572      56.0484755       0.829657937      -32.8704989      0.829657937      -32.8704989      0.542838629      56.0484776       
1.07             0.553705319      55.3206748       0.822491192      -33.6150218      0.822491192      -33.6150218      0.553705377      55.3206769       
1.1              0.564293917      54.6045177       0.815309938      -34.3467217      0.815309938      -34.3467217      0.564293976      54.6045199       
1.13             0.574608722      53.900004        0.808121486      -35.0656895      0.808121486      -35.0656895      0.574608782      53.9000063       
1.16             0.584654338      53.2071111       0.80093273       -35.7720292      0.80093273       -35.7720292      0.5846544        53.2071133       
1.19             0.59443558       52.5257961       0.793750152      -36.4658563      0.793750152      -36.4658563      0.594435643      52.5257984       
1.22             0.603957438      51.8559984       0.78657983       -37.1472971      0.78657983       -37.1472971      0.603957502      51.8560008       
1.25             0.613225052      51.1976416       0.779427448      -37.8164872      0.779427448      -37.8164872      0.613225117      51.197644        
1.28             0.622243682      50.5506348       0.77229831       -38.4735707      0.77229831       -38.4735707      0.622243749      50.5506373       
1.31             0.631018684      49.9148748       0.765197347      -39.1186995      0.765197347      -39.1186995      0.631018752      49.9148773       
1.34             0.63955548       49.2902471       0.758129135      -39.7520318      0.758129135      -39.7520318      0.639555549      49.2902496       
1.37             0.647859544      48.6766275       0.751097905      -40.3737317      0.751097905      -40.3737317      0.647859614      48.67663         
1.4              0.655936377      48.0738834       0.744107559      -40.9839685      0.744107559      -40.9839685      0.655936448      48.073886        
1.43             0.663791489      47.4818748       0.737161682      -41.5829153      0.737161682      -41.5829153      0.663791561      47.4818775       
1.46             0.671430384      46.9004553       0.73026356       -42.1707491      0.73026356       -42.1707491      0.671430457      46.900458        
1.49             0.678858543      46.3294731       0.72341619       -42.7476496      0.72341619       -42.7476496      0.678858617      46.3294758       
1.52             0.686081414      45.7687718       0.716622296      -43.3137987      0.716622296      -43.3137987      0.686081489      45.7687746       
1.55             0.693104396      45.2181914       0.709884345      -43.8693801      0.709884345      -43.8693801      0.693104472      45.2181942       
1.58             0.699932831      44.6775687       0.703204555      -44.4145787      0.703204555      -44.4145787      0.699932909      44.6775715       
1.61             0.706571995      44.1467381       0.696584918      -44.94958        0.696584918      -44.94958        0.706572073      44.1467409       
1.64             0.713027086      43.6255323       0.690027205      -45.47457        0.690027205      -45.47457        0.713027166      43.6255352       
1.67             0.719303224      43.1137826       0.68353298       -45.9897342      0.68353298       -45.9897342      0.719303304      43.1137856       
1.7              0.725405437      42.6113198       0.677103619      -46.495258       0.677103619      -46.495258       0.725405518      42.6113228       
1.73             0.731338661      42.117974        0.670740313      -46.9913259      0.670740313      -46.9913259      0.731338744      42.117977        
1.76             0.737107737      41.6335755       0.664444085      -47.4781211      0.664444085      -47.4781211      0.73710782       41.6335786       
1.79             0.742717401      41.1579551       0.6582158        -47.9558256      0.6582158        -47.9558256      0.742717486      41.1579582       
1.82             0.748172289      40.6909441       0.652056176      -48.4246198      0.652056176      -48.4246198      0.748172374      40.6909473       
1.85             0.753476928      40.2323752       0.645965793      -48.8846823      0.645965793      -48.8846823      0.753477015      40.2323784       
1.88             0.758635741      39.7820818       0.639945103      -49.3361897      0.639945103      -49.3361897      0.758635828      39.7820851       
1.91             0.76365304       39.3398994       0.63399444       -49.7793162      0.63399444       -49.7793162      0.763653128      39.3399027       
1.94             0.768533029      38.9056647       0.628114027      -50.2142341      0.628114027      -50.2142341      0.768533118      38.9056681       
1.97             0.773279804      38.4792166       0.622303986      -50.6411129      0.622303986      -50.6411129      0.773279894      38.47922         
2                0.777897352      38.0603958       0.616564346      -51.0601198      0.616564346      -51.0601198      0.777897443      38.0603992       
2.03             0.78238955       37.6490451       0.610895048      -51.4714192      0.610895048      -51.4714192      0.782389641      37.6490486       
2.06             0.78676017       37.2450099       0.605295954      -51.875173       0.605295954      -51.875173       0.786760262      37.2450134       
2.09             0.791012876      36.8481376       0.599766855      -52.27154        0.599766855      -52.27154        0.79101297       36.8481411       
2.12             0.79515123       36.4582781       0.594307471      -52.6606766      0.594307471      -52.6606766      0.795151325      36.4582817       
2.15             0.799178688      36.075284        0.588917465      -53.042736       0.588917465      -53.042736       0.799178783      36.0752876       
2.18             0.803098605      35.6990103       0.583596443      -53.4178686      0.583596443      -53.4178686      0.803098701      35.6990139       
2.21             0.806914236      35.3293145       0.578343958      -53.7862221      0.578343958      -53.7862221      0.806914333      35.3293181       
2.24             0.81062874       34.9660569       0.573159522      -54.1479411      0.573159522      -54.1479411      0.810628837      34.9660606       
2.27             0.814245177      34.6091005       0.568042601      -54.5031672      0.568042601      -54.5031672      0.814245276      34.6091042       
2.3              0.817766516      34.2583107       0.562992626      -54.8520393      0.562992626      -54.8520393      0.817766615      34.2583144       
2.33             0.821195633      33.9135558       0.558008996      -55.1946933      0.558008996      -55.1946933      0.821195733      33.9135596       
2.36             0.824535314      33.5747067       0.553091077      -55.5312622      0.553091077      -55.5312622      0.824535416      33.5747105       
2.39             0.827788261      33.2416369       0.54823821       -55.8618762      0.54823821       -55.8618762      0.827788363      33.2416408       
2.42             0.830957087      32.9142228       0.543449714      -56.1866627      0.543449714      -56.1866627      0.83095719       32.9142267       
2.45             0.834044325      32.592343        0.538724887      -56.5057461      0.538724887      -56.5057461      0.834044428      32.5923469       
2.48             0.837052426      32.2758791       0.534063007      -56.8192483      0.534063007      -56.8192483      0.83705253       32.2758831       
2.51             0.839983764      31.9647152       0.529463339      -57.1272882      0.529463339      -57.1272882      0.839983869      31.9647192       
2.54             0.842840637      31.6587377       0.524925135      -57.4299823      0.524925135      -57.4299823      0.842840743      31.6587417       
2.57             0.845625268      31.3578359       0.520447636      -57.7274441      0.520447636      -57.7274441      0.845625375      31.3578399       
2.6              0.848339811      31.0619013       0.516030073      -58.0197848      0.516030073      -58.0197848      0.848339919      31.0619054       
2.63             0.850986348      30.7708281       0.511671672      -58.3071129      0.511671672      -58.3071129      0.850986457      30.7708322       
2.66             0.853566895      30.4845126       0.507371651      -58.5895343      0.507371651      -58.5895343      0.853567005      30.4845168       
2.69             0.856083403      30.2028538       0.503129226      -58.8671526      0.503129226      -58.8671526      0.856083513      30.202858        
2.72             0.858537759      29.925753        0.498943611      -59.1400688      0.498943611      -59.1400688      0.858537871      29.9257572       
2.75             0.860931791      29.6531135       0.494814017      -59.4083815      0.494814017      -59.4083815      0.860931903      29.6531177       
2.78             0.863267264      29.3848411       0.490739656      -59.6721873      0.490739656      -59.6721873      0.863267377      29.3848453       
2.81             0.86554589       29.1208438       0.486719741      -59.93158        0.486719741      -59.93158        0.865546004      29.1208481       
2.84             0.867769323      28.8610316       0.482753487      -60.1866517      0.482753487      -60.1866517      0.867769437      28.861036        
2.87             0.869939164      28.605317        0.478840112      -60.4374919      0.478840112      -60.4374919      0.869939279      28.6053213       
2.9              0.872056962      28.3536141       0.474978839      -60.6841881      0.474978839      -60.6841881      0.872057078      28.3536184       
2.93             0.874124217      28.1058392       0.471168893      -60.9268258      0.471168893      -60.9268258      0.874124333      28.1058437       
2.96             0.876142379      27.8619109       0.467409506      -61.1654883      0.467409506      -61.1654883      0.876142496      27.8619153       
2.99             0.878112852      27.6217492       0.463699915      -61.4002571      0.463699915      -61.4002571      0.87811297       27.6217537       
3.02             0.880036995      27.3852764       0.460039364      -61.6312116      0.460039364      -61.6312116      0.880037114      27.3852809       
3.05             0.881916122      27.1524166       0.456427103      -61.8584292      0.456427103      -61.8584292      0.881916242      27.1524211       
3.08             0.883751507      26.9230955       0.452862391      -62.0819858      0.452862391      -62.0819858      0.883751628      26.9231001       
3.11             0.885544382      26.6972409       0.449344492      -62.301955       0.449344492      -62.301955       0.885544503      26.6972454       
3.14             0.887295939      26.4747819       0.44587268       -62.5184092      0.44587268       -62.5184092      0.887296061      26.4747865       
3.17             0.889007332      26.2556498       0.442446237      -62.7314185      0.442446237      -62.7314185      0.889007455      26.2556544       
3.2              0.890679679      26.0397771       0.439064451      -62.9410518      0.439064451      -62.9410518      0.890679803      26.0397817       
3.23             0.892314063      25.8270981       0.435726623      -63.1473761      0.435726623      -63.1473761      0.892314187      25.8271028       
3.26             0.89391153       25.6175487       0.43243206       -63.3504568      0.43243206       -63.3504568      0.893911655      25.6175534       
3.29             0.895473096      25.4110664       0.429180078      -63.5503579      0.429180078      -63.5503579      0.895473222      25.4110711       
3.32             0.896999743      25.2075898       0.425970005      -63.7471417      0.425970005      -63.7471417      0.89699987       25.2075946       
3.35             0.898492424      25.0070594       0.422801175      -63.9408691      0.422801175      -63.9408691      0.898492551      25.0070642       
3.38             0.899952059      24.809417        0.419672932      -64.1315997      0.419672932      -64.1315997      0.899952187      24.8094218       
3.41             0.901379543      24.6146056       0.416584632      -64.3193914      0.416584632      -64.3193914      0.901379672      24.6146104       
3.44             0.90277574       24.4225697       0.413535638      -64.504301       0.413535638      -64.504301       0.902775869      24.4225745       
3.47             0.904141488      24.2332551       0.410525324      -64.6863838      0.410525324      -64.6863838      0.904141619      24.23326         
3.5              0.905477601      24.0466089       0.407553072      -64.8656939      0.407553072      -64.8656939      0.905477732      24.0466137       
3.53             0.906784864      23.8625793       0.404618274      -65.0422842      0.404618274      -65.0422842      0.906784996      23.8625842       
3.56             0.908064042      23.6811159       0.401720333      -65.2162061      0.401720333      -65.2162061      0.908064174      23.6811208       
3.59             0.909315873      23.5021693       0.39885866       -65.3875101      0.39885866       -65.3875101      0.909316007      23.5021743       
3.62             0.910541076      23.3256915       0.396032677      -65.5562453      0.396032677      -65.5562453      0.91054121       23.3256965       
3.65             0.911740344      23.1516355       0.393241812      -65.7224598      0.393241812      -65.7224598      0.911740479      23.1516404       
3.68             0.912914352      22.9799552       0.390485506      -65.8862006      0.390485506      -65.8862006      0.912914487      22.9799602       
3.71             0.914063753      22.8106058       0.387763209      -66.0475136      0.387763209      -66.0475136      0.914063889      22.8106108       
3.74             0.915189182      22.6435435       0.385074377      -66.2064436      0.385074377      -66.2064436      0.915189319      22.6435485       
3.77             0.916291253      22.4787255       0.382418478      -66.3630344      0.382418478      -66.3630344      0.916291391      22.4787305       
3.8              0.917370563      22.3161099       0.379794988      -66.5173288      0.379794988      -66.5173288      0.917370701      22.316115        
3.83             0.91842769       22.1556559       0.377203392      -66.6693686      0.377203392      -66.6693686      0.918427829      22.155661        
3.86             0.919463195      21.9973235       0.374643185      -66.8191948      0.374643185      -66.8191948      0.919463335      21.9973286       
