! Coilcraft 1008PS-272 Power Chip Inductor				
! 7 October 2002			
# MHZ S MA R 50
!Freq             MagS11           AngS11           MagS21           AngS21           MagS12           AngS12           MagS22           AngS22
0.05             0.00856492674    81.1043923       0.998711265      -0.485462936     0.998711265      -0.485462936     0.00856492775    81.1044003       
0.125            0.0212259388     85.219756        0.998455081      -1.21389266      0.998455081      -1.21389266      0.0212259433     85.2197633       
0.2              0.0339162552     85.6708461       0.998012827      -1.94194415      0.998012827      -1.94194415      0.0339162638     85.6708519       
0.275            0.0465935773     85.4497015       0.997385449      -2.66914268      0.997385449      -2.66914268      0.0465935901     85.4497061       
0.35             0.0592460254     84.9899792       0.996575079      -3.3951867       0.996575079      -3.3951867       0.0592460422     84.989983        
0.425            0.0718654532     84.4192958       0.995583671      -4.11979907      0.995583671      -4.11979907      0.0718654739     84.419299        
0.5              0.0844446353     83.7887507       0.994413247      -4.84270637      0.994413247      -4.84270637      0.0844446599     83.7887535       
0.575            0.0969767219     83.1228714       0.993066011      -5.56363781      0.993066011      -5.56363781      0.0969767504     83.1228738       
0.65             0.109455098      82.4349594       0.991544379      -6.28232616      0.991544379      -6.28232616      0.10945513       82.4349616       
0.725            0.121873344      81.732902        0.989850992      -6.99850869      0.989850992      -6.99850869      0.12187338       81.732904        
0.8              0.13422523       81.0217112       0.987988711      -7.71192789      0.987988711      -7.71192789      0.13422527       81.021713        
0.875            0.146504714      80.3047553       0.985960616      -8.42233206      0.985960616      -8.42233206      0.146504758      80.3047569       
0.95             0.158705956      79.5844064       0.983769993      -9.12947586      0.983769993      -9.12947586      0.158706004      79.5844079       
1.025            0.170823321      78.8624031       0.981420328      -9.83312069      0.981420328      -9.83312069      0.170823372      78.8624045       
1.1              0.18285139       78.1400641       0.978915288      -10.5330352      0.978915288      -10.5330352      0.182851445      78.1400654       
1.175            0.194784969      77.4184204       0.976258718      -11.2289954      0.976258718      -11.2289954      0.194785027      77.4184216       
1.25             0.206619094      76.6982993       0.973454618      -11.9207853      0.973454618      -11.9207853      0.206619155      76.6983004       
1.325            0.218349041      75.9803796       0.970507135      -12.608197       0.970507135      -12.608197       0.218349106      75.9803807       
1.4              0.22997033       75.2652297       0.967420547      -13.291031       0.967420547      -13.291031       0.229970398      75.2652307       
1.475            0.241478727      74.5533327       0.964199248      -13.969096       0.964199248      -13.969096       0.241478799      74.5533337       
1.55             0.252870252      73.8451059       0.960847731      -14.64221        0.960847731      -14.64221        0.252870328      73.8451069       
1.625            0.264141179      73.1409133       0.957370579      -15.3101993      0.957370579      -15.3101993      0.264141258      73.1409142       
1.7              0.275288035      72.4410754       0.953772446      -15.9728994      0.953772446      -15.9728994      0.275288117      72.4410763       
1.775            0.286307604      71.745877        0.950058042      -16.6301548      0.950058042      -16.6301548      0.28630769       71.7458778       
1.85             0.297196925      71.0555721       0.946232122      -17.281819       0.946232122      -17.281819       0.297197014      71.0555729       
1.925            0.307953289      70.3703885       0.94229947       -17.9277546      0.94229947       -17.9277546      0.307953381      70.3703893       
2                0.318574238      69.690531        0.938264889      -18.5678331      0.938264889      -18.5678331      0.318574333      69.6905317       
2.075            0.329057559      69.016184        0.934133183      -19.201935       0.934133183      -19.201935       0.329057657      69.0161847       
2.15             0.339401283      68.3475137       0.929909149      -19.8299497      0.929909149      -19.8299497      0.339401385      68.3475143       
2.225            0.349603679      67.6846695       0.925597564      -20.4517753      0.925597564      -20.4517753      0.349603784      67.6846702       
2.3              0.359663247      67.0277861       0.921203173      -21.0673188      0.921203173      -21.0673188      0.359663355      67.0277867       
2.375            0.369578713      66.3769838       0.916730681      -21.6764953      0.916730681      -21.6764953      0.369578823      66.3769844       
2.45             0.379349021      65.7323703       0.912184742      -22.2792286      0.912184742      -22.2792286      0.379349135      65.7323709       
2.525            0.38897333       65.0940411       0.907569948      -22.8754503      0.907569948      -22.8754503      0.388973446      65.0940417       
2.6              0.398451         64.4620805       0.902890826      -23.4651002      0.902890826      -23.4651002      0.39845112       64.4620811       
2.675            0.40778159       63.8365621       0.898151824      -24.0481258      0.898151824      -24.0481258      0.407781713      63.8365627       
2.75             0.416964847      63.2175497       0.89335731       -24.6244821      0.89335731       -24.6244821      0.416964972      63.2175503       
2.825            0.426000698      62.6050977       0.888511561      -25.1941312      0.888511561      -25.1941312      0.426000826      62.6050982       
2.9              0.434889242      61.9992514       0.883618761      -25.7570424      0.883618761      -25.7570424      0.434889372      61.9992519       
2.975            0.443630741      61.4000482       0.878682994      -26.3131917      0.878682994      -26.3131917      0.443630874      61.4000487       
3.05             0.452225614      60.8075171       0.87370824       -26.8625618      0.87370824       -26.8625618      0.452225749      60.8075175       
3.125            0.460674422      60.2216798       0.868698372      -27.4051414      0.868698372      -27.4051414      0.46067456       60.2216803       
3.2              0.468977868      59.6425511       0.863657153      -27.9409253      0.863657153      -27.9409253      0.468978009      59.6425516       
3.275            0.477136783      59.070139        0.858588234      -28.4699141      0.858588234      -28.4699141      0.477136926      59.0701395       
3.35             0.485152118      58.5044451       0.853495148      -28.9921139      0.853495148      -28.9921139      0.485152263      58.5044455       
3.425            0.493024936      57.9454651       0.848381315      -29.5075357      0.848381315      -29.5075357      0.493025084      57.9454656       
3.5              0.500756409      57.3931893       0.843250036      -30.0161958      0.843250036      -30.0161958      0.500756559      57.3931897       
3.575            0.508347801      56.8476024       0.838104495      -30.518115       0.838104495      -30.518115       0.508347954      56.8476029       
3.65             0.515800469      56.3086845       0.832947759      -31.0133187      0.832947759      -31.0133187      0.515800623      56.3086849       
3.725            0.523115849      55.7764108       0.827782773      -31.5018361      0.827782773      -31.5018361      0.523116006      55.7764112       
3.8              0.530295454      55.2507522       0.822612371      -31.9837008      0.822612371      -31.9837008      0.530295613      55.2507526       
3.875            0.537340864      54.7316757       0.817439265      -32.4589497      0.817439265      -32.4589497      0.537341025      54.7316761       
3.95             0.54425372       54.2191444       0.812266056      -32.9276234      0.812266056      -32.9276234      0.544253883      54.2191447       
4.025            0.551035719      53.7131177       0.807095229      -33.3897655      0.807095229      -33.3897655      0.551035884      53.7131181       
4.1              0.557688606      53.2135521       0.801929157      -33.8454229      0.801929157      -33.8454229      0.557688773      53.2135525       
4.175            0.564214168      52.7204009       0.796770105      -34.2946449      0.796770105      -34.2946449      0.564214337      52.7204012       
4.25             0.570614233      52.2336144       0.791620228      -34.7374837      0.791620228      -34.7374837      0.570614404      52.2336147       
4.325            0.576890657      51.7531407       0.786481577      -35.1739937      0.786481577      -35.1739937      0.57689083       51.753141        
4.4              0.583045327      51.2789252       0.781356097      -35.6042316      0.781356097      -35.6042316      0.583045502      51.2789255       
4.475            0.58908015       50.8109114       0.776245634      -36.0282558      0.776245634      -36.0282558      0.589080326      50.8109118       
4.55             0.594997052      50.3490408       0.771151936      -36.4461268      0.771151936      -36.4461268      0.59499723       50.3490411       
4.625            0.600797973      49.8932529       0.766076656      -36.8579067      0.766076656      -36.8579067      0.600798154      49.8932532       
4.7              0.606484865      49.4434858       0.761021351      -37.2636589      0.761021351      -37.2636589      0.606485047      49.4434861       
4.775            0.612059684      48.9996762       0.755987491      -37.6634484      0.755987491      -37.6634484      0.612059867      48.9996765       
4.85             0.617524389      48.5617594       0.750976458      -38.057341       0.750976458      -38.057341       0.617524574      48.5617597       
4.925            0.622880941      48.1296696       0.74598955       -38.4454038      0.74598955       -38.4454038      0.622881128      48.1296699       
5                0.628131297      47.7033402       0.741027982      -38.8277048      0.741027982      -38.8277048      0.628131486      47.7033405       
5.075            0.633277408      47.2827034       0.736092892      -39.2043126      0.736092892      -39.2043126      0.633277597      47.2827037       
5.15             0.638321215      46.867691        0.731185342      -39.5752964      0.731185342      -39.5752964      0.638321407      46.8676913       
5.225            0.643264652      46.458234        0.72630632       -39.9407263      0.72630632       -39.9407263      0.643264845      46.4582343       
5.3              0.648109639      46.0542632       0.721456745      -40.3006723      0.721456745      -40.3006723      0.648109833      46.0542635       
5.375            0.652858078      45.6557086       0.716637468      -40.6552051      0.716637468      -40.6552051      0.652858274      45.6557089       
5.45             0.657511859      45.2625003       0.711849275      -41.0043955      0.711849275      -41.0043955      0.657512057      45.2625006       
5.525            0.662072852      44.874568        0.707092892      -41.3483144      0.707092892      -41.3483144      0.662073051      44.8745683       
5.6              0.666542908      44.4918414       0.702368982      -41.6870328      0.702368982      -41.6870328      0.666543108      44.4918417       
5.675            0.670923855      44.1142502       0.697678155      -42.0206217      0.697678155      -42.0206217      0.670924056      44.1142505       
5.75             0.675217502      43.7417241       0.693020965      -42.3491518      0.693020965      -42.3491518      0.675217704      43.7417243       
5.825            0.679425632      43.3741928       0.688397912      -42.6726939      0.688397912      -42.6726939      0.679425836      43.3741931       
5.9              0.683550007      43.0115866       0.683809451      -42.9913183      0.683809451      -42.9913183      0.683550212      43.0115869       
5.975            0.687592362      42.6538357       0.679255986      -43.3050953      0.679255986      -43.3050953      0.687592568      42.653836        
6.05             0.691554407      42.3008708       0.674737878      -43.6140946      0.674737878      -43.6140946      0.691554615      42.3008711       
6.125            0.695437826      41.9526229       0.670255445      -43.9183856      0.670255445      -43.9183856      0.695438035      41.9526231       
6.2              0.699244277      41.6090234       0.665808964      -44.2180373      0.665808964      -44.2180373      0.699244487      41.6090236       
6.275            0.702975389      41.2700042       0.661398673      -44.513118       0.661398673      -44.513118       0.7029756        41.2700045       
6.35             0.706632765      40.9354978       0.657024774      -44.8036958      0.657024774      -44.8036958      0.706632977      40.935498        
6.425            0.710217982      40.6054371       0.652687435      -45.0898379      0.652687435      -45.0898379      0.710218195      40.6054373       
6.5              0.713732585      40.2797555       0.648386788      -45.3716111      0.648386788      -45.3716111      0.713732799      40.2797558       
6.575            0.717178094      39.9583874       0.644122939      -45.6490816      0.644122939      -45.6490816      0.71717831       39.9583876       
6.65             0.720556002      39.6412674       0.639895959      -45.9223148      0.639895959      -45.9223148      0.720556218      39.6412677       
6.725            0.72386777       39.3283311       0.635705894      -46.1913756      0.635705894      -46.1913756      0.723867987      39.3283313       
6.8              0.727114834      39.0195144       0.631552765      -46.4563279      0.631552765      -46.4563279      0.727115053      39.0195147       
6.875            0.730298602      38.7147544       0.627436566      -46.7172353      0.627436566      -46.7172353      0.730298821      38.7147546       
6.95             0.733420453      38.4139884       0.623357268      -46.9741603      0.623357268      -46.9741603      0.733420673      38.4139886       
7.025            0.736481738      38.1171549       0.61931482       -47.2271648      0.61931482       -47.2271648      0.736481959      38.1171551       
7.1              0.739483783      37.8241929       0.615309152      -47.4763099      0.615309152      -47.4763099      0.739484004      37.8241931       
7.175            0.742427883      37.5350421       0.611340173      -47.7216561      0.611340173      -47.7216561      0.742428106      37.5350423       
7.25             0.745315309      37.2496433       0.607407774      -47.9632628      0.607407774      -47.9632628      0.745315533      37.2496435       
7.325            0.748147305      36.9679377       0.603511829      -48.2011888      0.603511829      -48.2011888      0.74814753       36.9679379       
7.4              0.750925087      36.6898675       0.599652198      -48.4354922      0.599652198      -48.4354922      0.750925313      36.6898677       
7.475            0.753649847      36.4153757       0.595828723      -48.66623        0.595828723      -48.66623        0.753650073      36.4153759       
7.55             0.756322748      36.144406        0.592041235      -48.8934587      0.592041235      -48.8934587      0.756322975      36.1444062       
7.625            0.758944932      35.876903        0.588289549      -49.1172337      0.588289549      -49.1172337      0.75894516       35.8769032       
7.7              0.761517513      35.6128121       0.584573472      -49.33761        0.584573472      -49.33761        0.761517741      35.6128123       
7.775            0.76404158       35.3520793       0.580892797      -49.5546413      0.580892797      -49.5546413      0.764041809      35.3520795       
7.85             0.7665182        35.0946518       0.577247307      -49.7683809      0.577247307      -49.7683809      0.76651843       35.0946519       
7.925            0.768948415      34.8404771       0.573636776      -49.978881       0.573636776      -49.978881       0.768948645      34.8404773       
8                0.771333242      34.5895039       0.57006097       -50.1861932      0.57006097       -50.1861932      0.771333474      34.5895041       
8.075            0.773673679      34.3416816       0.566519646      -50.3903682      0.566519646      -50.3903682      0.773673911      34.3416817       
8.15             0.775970696      34.0969602       0.563012553      -50.5914559      0.563012553      -50.5914559      0.775970929      34.0969604       
8.225            0.778225246      33.8552907       0.559539435      -50.7895055      0.559539435      -50.7895055      0.77822548       33.8552909       
8.3              0.780438257      33.6166249       0.556100028      -50.9845654      0.556100028      -50.9845654      0.780438492      33.6166251       
8.375            0.782610637      33.3809152       0.552694065      -51.176683       0.552694065      -51.176683       0.782610872      33.3809153       
8.45             0.784743272      33.1481148       0.54932127       -51.3659053      0.54932127       -51.3659053      0.784743507      33.1481149       
8.525            0.786837028      32.9181778       0.545981367      -51.5522783      0.545981367      -51.5522783      0.786837264      32.9181779       
8.6              0.788892752      32.6910589       0.542674073      -51.7358471      0.542674073      -51.7358471      0.788892988      32.6910591       
8.675            0.790911269      32.4667137       0.539399101      -51.9166565      0.539399101      -51.9166565      0.790911506      32.4667138       
8.75             0.792893386      32.2450984       0.536156164      -52.0947501      0.536156164      -52.0947501      0.792893624      32.2450985       
8.825            0.794839893      32.0261699       0.532944968      -52.2701711      0.532944968      -52.2701711      0.794840131      32.0261701       
8.9              0.796751558      31.8098861       0.529765221      -52.4429617      0.529765221      -52.4429617      0.796751797      31.8098863       
8.975            0.798629134      31.5962053       0.526616627      -52.6131636      0.526616627      -52.6131636      0.798629373      31.5962055       
9.05             0.800473353      31.3850867       0.523498886      -52.7808177      0.523498886      -52.7808177      0.800473593      31.3850868       
9.125            0.802284934      31.17649         0.520411701      -52.9459642      0.520411701      -52.9459642      0.802285175      31.1764901       
9.2              0.804064576      30.9703758       0.517354772      -53.1086427      0.517354772      -53.1086427      0.804064817      30.9703759       
9.275            0.805812963      30.7667052       0.514327797      -53.2688919      0.514327797      -53.2688919      0.805813205      30.7667054       
9.35             0.807530761      30.5654402       0.511330475      -53.4267501      0.511330475      -53.4267501      0.807531004      30.5654403       
9.425            0.809218623      30.3665431       0.508362505      -53.5822547      0.508362505      -53.5822547      0.809218866      30.3665433       
9.5              0.810877185      30.1699773       0.505423585      -53.7354427      0.505423585      -53.7354427      0.810877428      30.1699774       
9.575            0.812507068      29.9757064       0.502513415      -53.8863503      0.502513415      -53.8863503      0.812507312      29.9757065       
