! Coilcraft 1008PS-824 Power Chip Inductor				
! 7 October 2002			
# MHZ S MA R 50
!Freq             MagS11           AngS11           MagS21           AngS21           MagS12           AngS12           MagS22           AngS22
0.05             0.902781617      20.3178373       0.348987006      -63.9264289      0.348987006      -63.9264289      0.902781704      20.3178395       
0.05237          0.910148753      19.541802        0.336045435      -64.9513062      0.336045435      -64.9513062      0.910148841      19.5418041       
0.05474          0.916741465      18.8178622       0.323935044      -65.9025609      0.323935044      -65.9025609      0.916741554      18.8178642       
0.05711          0.922659823      18.1414975       0.312588303      -66.7873674      0.312588303      -66.7873674      0.922659912      18.1414995       
0.05948          0.927989039      17.5086082       0.301943282      -67.6120617      0.301943282      -67.6120617      0.92798913       17.5086101       
0.06185          0.932801883      16.9154858       0.291943399      -68.3822496      0.291943399      -68.3822496      0.932801974      16.9154876       
0.06422          0.937160683      16.3587811       0.282537075      -69.1029005      0.282537075      -69.1029005      0.937160774      16.3587828       
0.06659          0.941118992      15.8354709       0.273677371      -69.7784291      0.273677371      -69.7784291      0.941119084      15.8354726       
0.06896          0.944722965      15.3428269       0.265321595      -70.4127659      0.265321595      -70.4127659      0.944723058      15.3428285       
0.07133          0.948012508      14.8783854       0.257430934      -71.0094179      0.257430934      -71.0094179      0.948012601      14.878387        
0.0737           0.951022226      14.4399207       0.249970097      -71.5715215      0.249970097      -71.5715215      0.95102232       14.4399222       
0.07607          0.953782224      14.0254193       0.242906978      -72.1018878      0.242906978      -72.1018878      0.953782317      14.0254208       
0.07844          0.956318765      13.6330582       0.236212351      -72.6030416      0.236212351      -72.6030416      0.956318859      13.6330596       
0.08081          0.958654833      13.2611845       0.229859588      -73.0772559      0.229859588      -73.0772559      0.958654927      13.2611859       
0.08318          0.960810596      12.9082974       0.223824406      -73.5265813      0.223824406      -73.5265813      0.96081069       12.9082988       
0.08555          0.9628038        12.5730326       0.218084636      -73.9528713      0.218084636      -73.9528713      0.962803895      12.5730339       
0.08792          0.964650107      12.2541475       0.212620011      -74.3578053      0.212620011      -74.3578053      0.964650202      12.2541488       
0.09029          0.966363369      11.9505091       0.207411989      -74.7429073      0.207411989      -74.7429073      0.966363464      11.9505103       
0.09266          0.967955871      11.6610826       0.202443577      -75.1095632      0.202443577      -75.1095632      0.967955967      11.6610838       
0.09503          0.969438539      11.3849214       0.197699187      -75.459036       0.197699187      -75.459036       0.969438635      11.3849227       
0.0974           0.970821107      11.1211587       0.193164497      -75.7924783      0.193164497      -75.7924783      0.970821203      11.1211598       
0.09977          0.972112271      10.8689988       0.188826336      -76.1109441      0.188826336      -76.1109441      0.972112368      10.8689999       
0.10214          0.973319817      10.627711        0.184672574      -76.415399       0.184672574      -76.415399       0.973319914      10.6277121       
0.10451          0.974450729      10.396623        0.180692023      -76.7067287      0.180692023      -76.7067287      0.974450825      10.3966241       
0.10688          0.975511286      10.1751152       0.176874356      -76.9857472      0.176874356      -76.9857472      0.975511383      10.1751163       
0.10925          0.976507146      9.96261612       0.173210024      -77.2532039      0.173210024      -77.2532039      0.976507243      9.96261718       
0.11162          0.977443416      9.7585977        0.16969019       -77.5097894      0.16969019       -77.5097894      0.977443512      9.75859875       
0.11399          0.978324711      9.56257148       0.166306664      -77.7561414      0.166306664      -77.7561414      0.978324808      9.5625725        
0.11636          0.979155218      9.37408499       0.163051847      -77.9928493      0.163051847      -77.9928493      0.979155315      9.37408599       
0.11873          0.979938731      9.1927186        0.159918682      -78.2204588      0.159918682      -78.2204588      0.979938829      9.19271959       
0.1211           0.980678705      9.01808267       0.156900606      -78.439476       0.156900606      -78.439476       0.980678802      9.01808363       
0.12347          0.981378282      8.84981493       0.153991507      -78.6503703      0.153991507      -78.6503703      0.981378379      8.84981588       
0.12584          0.98204033       8.68757822       0.151185693      -78.8535781      0.151185693      -78.8535781      0.982040427      8.68757915       
0.12821          0.982667468      8.53105835       0.148477849      -79.0495057      0.148477849      -79.0495057      0.982667566      8.53105927       
0.13058          0.983262095      8.37996224       0.145863015      -79.2385313      0.145863015      -79.2385313      0.983262192      8.37996314       
0.13295          0.983826404      8.23401619       0.143336552      -79.4210078      0.143336552      -79.4210078      0.983826502      8.23401708       
0.13532          0.984362413      8.09296434       0.140894118      -79.5972647      0.140894118      -79.5972647      0.984362511      8.09296521       
0.13769          0.984871972      7.95656725       0.138531649      -79.7676099      0.138531649      -79.7676099      0.98487207       7.95656811       
0.14006          0.985356786      7.82460065       0.136245331      -79.9323318      0.136245331      -79.9323318      0.985356884      7.8246015        
0.14243          0.985818423      7.69685426       0.134031587      -80.0917002      0.134031587      -80.0917002      0.985818521      7.69685509       
0.1448           0.986258332      7.5731307        0.131887056      -80.2459683      0.131887056      -80.2459683      0.98625843       7.57313152       
0.14717          0.98667785       7.45324458       0.12980858       -80.3953736      0.12980858       -80.3953736      0.986677948      7.45324539       
0.14954          0.987078213      7.3370216        0.127793185      -80.5401393      0.127793185      -80.5401393      0.987078311      7.3370224        
0.15191          0.987460566      7.22429772       0.125838072      -80.6804752      0.125838072      -80.6804752      0.987460664      7.22429852       
0.15428          0.987825969      7.11491846       0.123940602      -80.8165789      0.123940602      -80.8165789      0.987826068      7.11491924       
0.15665          0.988175408      7.00873818       0.122098286      -80.9486363      0.122098286      -80.9486363      0.988175506      7.00873895       
0.15902          0.988509796      6.90561951       0.120308777      -81.0768229      0.120308777      -81.0768229      0.988509894      6.90562027       
0.16139          0.988829983      6.80543274       0.118569853      -81.2013039      0.118569853      -81.2013039      0.988830081      6.80543349       
0.16376          0.98913676       6.70805532       0.116879416      -81.3222357      0.116879416      -81.3222357      0.989136859      6.70805606       
0.16613          0.989430865      6.61337137       0.115235482      -81.4397659      0.115235482      -81.4397659      0.989430963      6.6133721        
0.1685           0.989712984      6.52127123       0.113636171      -81.5540341      0.113636171      -81.5540341      0.989713083      6.52127196       
0.17087          0.989983759      6.43165108       0.112079703      -81.6651725      0.112079703      -81.6651725      0.989983858      6.4316518        
0.17324          0.99024379       6.34441252       0.110564389      -81.773306       0.110564389      -81.773306       0.990243888      6.34441323       
0.17561          0.990493635      6.25946226       0.109088629      -81.8785535      0.109088629      -81.8785535      0.990493734      6.25946296       
0.17798          0.990733821      6.17671177       0.1076509        -81.9810272      0.1076509        -81.9810272      0.99073392       6.17671247       
0.18035          0.990964838      6.096077         0.106249761      -82.080834       0.106249761      -82.080834       0.990964937      6.09607768       
0.18272          0.991187147      6.01747807       0.104883837      -82.1780752      0.104883837      -82.1780752      0.991187246      6.01747875       
0.18509          0.99140118       5.94083909       0.103551824      -82.2728471      0.103551824      -82.2728471      0.991401278      5.94083976       
0.18746          0.991607341      5.86608781       0.10225248       -82.3652414      0.10225248       -82.3652414      0.99160744       5.86608848       
0.18983          0.991806013      5.79315552       0.100984621      -82.455345       0.100984621      -82.455345       0.991806112      5.79315617       
0.1922           0.991997554      5.72197673       0.0997471203     -82.5432411      0.0997471203     -82.5432411      0.991997653      5.72197738       
0.19457          0.992182301      5.65248907       0.0985389044     -82.6290086      0.0985389044     -82.6290086      0.9921824        5.65248971       
0.19694          0.992360572      5.58463306       0.0973589485     -82.7127228      0.0973589485     -82.7127228      0.992360671      5.5846337        
0.19931          0.992532666      5.51835197       0.0962062749     -82.7944554      0.0962062749     -82.7944554      0.992532765      5.5183526        
0.20168          0.992698865      5.45359163       0.0950799503     -82.8742751      0.0950799503     -82.8742751      0.992698964      5.45359225       
0.20405          0.992859435      5.39030033       0.0939790829     -82.9522473      0.0939790829     -82.9522473      0.992859534      5.39030095       
0.20642          0.993014629      5.32842867       0.0929028208     -83.0284343      0.0929028208     -83.0284343      0.993014728      5.32842929       
0.20879          0.993164683      5.26792941       0.0918503491     -83.1028959      0.0918503491     -83.1028959      0.993164782      5.26793002       
0.21116          0.993309823      5.20875738       0.0908208883     -83.1756891      0.0908208883     -83.1756891      0.993309922      5.20875799       
0.21353          0.99345026       5.15086936       0.0898136924     -83.2468686      0.0898136924     -83.2468686      0.993450359      5.15086996       
0.2159           0.993586197      5.09422397       0.0888280472     -83.3164866      0.0888280472     -83.3164866      0.993586296      5.09422456       
0.21827          0.993717823      5.03878159       0.0878632684     -83.384593       0.0878632684     -83.384593       0.993717922      5.03878218       
0.22064          0.993845319      4.98450424       0.0869187001     -83.4512359      0.0869187001     -83.4512359      0.993845418      4.98450483       
0.22301          0.993968857      4.93135554       0.0859937136     -83.5164611      0.0859937136     -83.5164611      0.993968956      4.93135612       
0.22538          0.994088599      4.87930059       0.0850877058     -83.5803126      0.0850877058     -83.5803126      0.994088698      4.87930116       
0.22775          0.994204698      4.82830589       0.084200098      -83.6428326      0.084200098      -83.6428326      0.994204798      4.82830646       
0.23012          0.994317303      4.77833931       0.0833303346     -83.7040618      0.0833303346     -83.7040618      0.994317402      4.77833988       
0.23249          0.994426551      4.72937          0.0824778819     -83.7640388      0.0824778819     -83.7640388      0.99442665       4.72937057       
0.23486          0.994532575      4.68136831       0.0816422275     -83.8228012      0.0816422275     -83.8228012      0.994532674      4.68136887       
0.23723          0.994635501      4.63430576       0.0808228786     -83.8803847      0.0808228786     -83.8803847      0.9946356        4.63430631       
0.2396           0.994735449      4.58815496       0.0800193614     -83.9368239      0.0800193614     -83.9368239      0.994735548      4.58815551       
0.24197          0.994832533      4.54288959       0.0792312205     -83.9921518      0.0792312205     -83.9921518      0.994832632      4.54289014       
0.24434          0.994926861      4.49848432       0.0784580173     -84.0464004      0.0784580173     -84.0464004      0.99492696       4.49848486       
0.24671          0.995018537      4.45491476       0.07769933       -84.0996004      0.07769933       -84.0996004      0.995018636      4.4549153        
0.24908          0.99510766       4.41215745       0.0769547521     -84.1517812      0.0769547521     -84.1517812      0.995107759      4.41215799       
0.25145          0.995194324      4.37018979       0.0762238924     -84.2029713      0.0762238924     -84.2029713      0.995194423      4.37019032       
0.25382          0.995278618      4.32899          0.0755063737     -84.253198       0.0755063737     -84.253198       0.995278718      4.32899053       
0.25619          0.99536063       4.28853709       0.0748018327     -84.3024879      0.0748018327     -84.3024879      0.995360729      4.28853762       
0.25856          0.995440439      4.24881084       0.0741099188     -84.3508661      0.0741099188     -84.3508661      0.995440539      4.24881137       
0.26093          0.995518126      4.20979175       0.0734302941     -84.3983574      0.0734302941     -84.3983574      0.995518225      4.20979227       
0.2633           0.995593764      4.17146098       0.0727626326     -84.4449853      0.0727626326     -84.4449853      0.995593864      4.1714615        
0.26567          0.995667426      4.13380039       0.0721066194     -84.4907726      0.0721066194     -84.4907726      0.995667525      4.1338009        
0.26804          0.995739179      4.09679244       0.071461951      -84.5357414      0.071461951      -84.5357414      0.995739279      4.09679295       
0.27041          0.99580909       4.06042021       0.0708283337     -84.5799128      0.0708283337     -84.5799128      0.99580919       4.06042072       
0.27278          0.995877221      4.02466736       0.0702054844     -84.6233075      0.0702054844     -84.6233075      0.99587732       4.02466786       
0.27515          0.995943632      3.98951809       0.0695931292     -84.6659452      0.0695931292     -84.6659452      0.995943731      3.98951859       
0.27752          0.996008381      3.95495714       0.0689910034     -84.7078451      0.0689910034     -84.7078451      0.99600848       3.95495764       
0.27989          0.996071522      3.92096976       0.0683988512     -84.7490256      0.0683988512     -84.7490256      0.996071622      3.92097025       
0.28226          0.99613311       3.88754168       0.0678164251     -84.7895047      0.0678164251     -84.7895047      0.996133209      3.88754217       
0.28463          0.996193194      3.8546591        0.0672434859     -84.8292997      0.0672434859     -84.8292997      0.996193294      3.8546596        
0.287            0.996251823      3.82230869       0.0666798019     -84.8684273      0.0666798019     -84.8684273      0.996251923      3.82230918       
0.28937          0.996309045      3.79047751       0.066125149      -84.9069037      0.066125149      -84.9069037      0.996309144      3.790478         
0.29174          0.996364903      3.75915307       0.0655793103     -84.9447446      0.0655793103     -84.9447446      0.996365003      3.75915355       
0.29411          0.996419442      3.72832325       0.0650420757     -84.9819651      0.0650420757     -84.9819651      0.996419541      3.72832373       
0.29648          0.996472701      3.69797633       0.0645132416     -85.01858        0.0645132416     -85.01858        0.996472801      3.69797682       
0.29885          0.996524722      3.66810096       0.0639926109     -85.0546034      0.0639926109     -85.0546034      0.996524822      3.66810144       
0.30122          0.996575542      3.63868612       0.0634799925     -85.0900491      0.0634799925     -85.0900491      0.996575642      3.6386866        
0.30359          0.996625199      3.60972115       0.0629752013     -85.1249306      0.0629752013     -85.1249306      0.996625298      3.60972163       
0.30596          0.996673727      3.58119571       0.0624780577     -85.1592607      0.0624780577     -85.1592607      0.996673826      3.58119618       
0.30833          0.996721161      3.55309976       0.0619883876     -85.1930519      0.0619883876     -85.1930519      0.99672126       3.55310024       
0.3107           0.996767533      3.52542359       0.0615060222     -85.2263166      0.0615060222     -85.2263166      0.996767632      3.52542406       
0.31307          0.996812875      3.49815776       0.0610307975     -85.2590664      0.0610307975     -85.2590664      0.996812974      3.49815823       
0.31544          0.996857217      3.47129311       0.0605625546     -85.2913127      0.0605625546     -85.2913127      0.996857317      3.47129357       
0.31781          0.996900589      3.44482075       0.0601011392     -85.3230669      0.0601011392     -85.3230669      0.996900689      3.44482122       
0.32018          0.996943019      3.41873207       0.0596464014     -85.3543395      0.0596464014     -85.3543395      0.996943118      3.41873253       
0.32255          0.996984533      3.39301869       0.0591981958     -85.3851411      0.0591981958     -85.3851411      0.996984633      3.39301915       
0.32492          0.997025159      3.36767246       0.0587563811     -85.4154818      0.0587563811     -85.4154818      0.997025259      3.36767292       
0.32729          0.997064922      3.3426855        0.0583208199     -85.4453716      0.0583208199     -85.4453716      0.997065021      3.34268596       
0.32966          0.997103845      3.31805013       0.057891379      -85.4748199      0.057891379      -85.4748199      0.997103944      3.31805058       
0.33203          0.997141952      3.29375888       0.0574679287     -85.5038362      0.0574679287     -85.5038362      0.997142052      3.29375933       
0.3344           0.997179267      3.26980451       0.057050343      -85.5324295      0.057050343      -85.5324295      0.997179367      3.26980496       
0.33677          0.99721581       3.24617996       0.0566384994     -85.5606085      0.0566384994     -85.5606085      0.99721591       3.24618041       
0.33914          0.997251604      3.22287839       0.0562322789     -85.5883818      0.0562322789     -85.5883818      0.997251704      3.22287883       
0.34151          0.997286668      3.19989312       0.0558315654     -85.6157578      0.0558315654     -85.6157578      0.997286768      3.19989356       
0.34388          0.997321023      3.17721767       0.0554362465     -85.6427445      0.0554362465     -85.6427445      0.997321122      3.17721812       
0.34625          0.997354687      3.15484574       0.0550462124     -85.6693499      0.0550462124     -85.6693499      0.997354786      3.15484619       
0.34862          0.997387678      3.13277119       0.0546613563     -85.6955815      0.0546613563     -85.6955815      0.997387778      3.13277163       
0.35099          0.997420016      3.11098804       0.0542815745     -85.7214468      0.0542815745     -85.7214468      0.997420115      3.11098848       
