! Coilcraft 1008PS-392 Power Chip Inductor				
! 7 October 2002			
# MHZ S MA R 50
!Freq             MagS11           AngS11           MagS21           AngS21           MagS12           AngS12           MagS22           AngS22
0.05             0.0125129314     76.8809771       0.997234195      -0.700180541     0.997234195      -0.700180541     0.0125129327     76.880987        
0.125            0.0306674536     83.145288        0.996804769      -1.75042039      0.996804769      -1.75042039      0.0306674602     83.145296        
0.2              0.0489201169     83.9343541       0.996019235      -2.7994778       0.996019235      -2.7994778       0.0489201296     83.9343603       
0.275            0.0671435884     83.7066381       0.994880657      -3.84642612      0.994880657      -3.84642612      0.0671436069     83.7066429       
0.35             0.0853033125     83.1169173       0.993393292      -4.89050208      0.993393292      -4.89050208      0.0853033368     83.1169213       
0.425            0.103376144      82.3589812       0.991562058      -5.93096703      0.991562058      -5.93096703      0.103376174      82.3589845       
0.5              0.12134209       81.5108549       0.989392784      -6.9670956       0.989392784      -6.9670956       0.121342126      81.5108577       
0.575            0.139182628      80.6102342       0.986892242      -7.99817851      0.986892242      -7.99817851      0.139182668      80.6102367       
0.65             0.156880256      79.6777302       0.984068123      -9.02352594      0.984068123      -9.02352594      0.156880303      79.6777324       
0.725            0.174418376      78.7256902       0.980928975      -10.0424705      0.980928975      -10.0424705      0.174418428      78.7256922       
0.8              0.191781267      77.7620572       0.977484141      -11.0543698      0.977484141      -11.0543698      0.191781324      77.762059        
0.875            0.208954104      76.7922445       0.973743684      -12.0586086      0.973743684      -12.0586086      0.208954166      76.7922462       
0.95             0.225922987      75.8201211       0.96971831       -13.0546004      0.96971831       -13.0546004      0.225923055      75.8201226       
1.025            0.242674967      74.8485647       0.96541929       -14.0417895      0.96541929       -14.0417895      0.242675039      74.8485661       
1.1              0.259198067      73.8797879       0.96085838       -15.0196516      0.96085838       -15.0196516      0.259198144      73.8797892       
1.175            0.275481303      72.9155393       0.95604774       -15.9876955      0.95604774       -15.9876955      0.275481385      72.9155405       
1.25             0.291514689      71.9572322       0.950999849      -16.9454632      0.950999849      -16.9454632      0.291514776      71.9572334       
1.325            0.307289246      71.0060296       0.945727436      -17.8925306      0.945727436      -17.8925306      0.307289338      71.0060307       
1.4              0.322796989      70.0629019       0.940243394      -18.8285078      0.940243394      -18.8285078      0.322797086      70.0629029       
1.475            0.338030922      69.128667        0.934560713      -19.753039       0.934560713      -19.753039       0.338031023      69.128668        
1.55             0.352985015      68.2040196       0.928692408      -20.6658024      0.928692408      -20.6658024      0.35298512       68.2040206       
1.625            0.367654182      67.289552        0.922651456      -21.5665095      0.922651456      -21.5665095      0.367654292      67.2895529       
1.7              0.382034255      66.3857696       0.916450732      -22.4549049      0.916450732      -22.4549049      0.382034369      66.3857705       
1.775            0.396121942      65.4931037       0.910102956      -23.330765       0.910102956      -23.330765       0.396122061      65.4931045       
1.85             0.409914798      64.6119204       0.903620643      -24.1938979      0.903620643      -24.1938979      0.40991492       64.6119212       
1.925            0.423411178      63.7425285       0.897016052      -25.0441415      0.897016052      -25.0441415      0.423411305      63.7425292       
2                0.436610199      62.8851855       0.890301153      -25.8813631      0.890301153      -25.8813631      0.43661033       62.8851863       
2.075            0.449511691      62.0401032       0.883487587      -26.7054576      0.883487587      -26.7054576      0.449511826      62.0401039       
2.15             0.462116155      61.2074515       0.876586638      -27.5163468      0.876586638      -27.5163468      0.462116293      61.2074522       
2.225            0.474424709      60.3873629       0.869609205      -28.3139775      0.869609205      -28.3139775      0.474424852      60.3873636       
2.3              0.486439052      59.5799355       0.862565786      -29.0983206      0.862565786      -29.0983206      0.486439198      59.5799362       
2.375            0.498161406      58.7852363       0.855466457      -29.8693695      0.855466457      -29.8693695      0.498161556      58.7852369       
2.45             0.509594479      58.0033034       0.848320863      -30.6271386      0.848320863      -30.6271386      0.509594631      58.003304        
2.525            0.520741412      57.2341493       0.841138207      -31.371662       0.841138207      -31.371662       0.520741568      57.2341499       
2.6              0.531605745      56.4777626       0.833927248      -32.1029924      0.833927248      -32.1029924      0.531605904      56.4777632       
2.675            0.542191364      55.7341102       0.826696297      -32.8211992      0.826696297      -32.8211992      0.542191527      55.7341108       
2.75             0.552502471      55.0031395       0.819453219      -33.5263676      0.819453219      -33.5263676      0.552502636      55.00314         
2.825            0.562543536      54.2847801       0.812205439      -34.218597       0.812205439      -34.218597       0.562543704      54.2847806       
2.9              0.572319268      53.5789453       0.804959942      -34.8980001      0.804959942      -34.8980001      0.57231944       53.5789458       
2.975            0.581834578      52.8855341       0.797723288      -35.5647012      0.797723288      -35.5647012      0.581834752      52.8855346       
3.05             0.591094545      52.2044325       0.790501615      -36.2188355      0.790501615      -36.2188355      0.591094722      52.2044329       
3.125            0.600104387      51.5355146       0.783300657      -36.8605477      0.783300657      -36.8605477      0.600104567      51.5355151       
3.2              0.608869437      50.8786444       0.776125749      -37.4899913      0.776125749      -37.4899913      0.608869619      50.8786449       
3.275            0.617395108      50.2336767       0.768981845      -38.107327       0.768981845      -38.107327       0.617395293      50.2336772       
3.35             0.62568688       49.6004583       0.761873531      -38.7127222      0.761873531      -38.7127222      0.625687068      49.6004587       
3.425            0.63375027       48.9788288       0.754805037      -39.3063503      0.754805037      -39.3063503      0.63375046       48.9788292       
3.5              0.641590815      48.3686222       0.747780254      -39.8883893      0.747780254      -39.8883893      0.641591007      48.3686226       
3.575            0.649214054      47.7696669       0.74080275       -40.4590213      0.74080275       -40.4590213      0.649214249      47.7696674       
3.65             0.656625514      47.1817875       0.733875783      -41.0184321      0.733875783      -41.0184321      0.656625711      47.1817879       
3.725            0.663830691      46.6048048       0.727002314      -41.5668098      0.727002314      -41.5668098      0.66383089       46.6048052       
3.8              0.670835038      46.0385367       0.72018503       -42.1043449      0.72018503       -42.1043449      0.670835239      46.0385371       
3.875            0.677643956      45.482799        0.71342635       -42.6312293      0.71342635       -42.6312293      0.677644159      45.4827994       
3.95             0.684262782      44.9374062       0.706728445      -43.147656       0.706728445      -43.147656       0.684262988      44.9374065       
4.025            0.69069678       44.4021712       0.700093248      -43.6538184      0.700093248      -43.6538184      0.690696987      44.4021716       
4.1              0.696951133      43.8769068       0.693522473      -44.1499099      0.693522473      -44.1499099      0.696951342      43.8769071       
4.175            0.703030938      43.3614255       0.687017625      -44.6361238      0.687017625      -44.6361238      0.703031149      43.3614258       
4.25             0.708941196      42.85554         0.680580012      -45.1126525      0.680580012      -45.1126525      0.708941409      42.8555404       
4.325            0.714686815      42.3590639       0.674210762      -45.5796875      0.674210762      -45.5796875      0.71468703       42.3590643       
4.4              0.720272598      41.8718116       0.667910829      -46.037419       0.667910829      -46.037419       0.720272814      41.871812        
4.475            0.725703245      41.3935989       0.661681011      -46.4860354      0.661681011      -46.4860354      0.725703462      41.3935992       
4.55             0.730983347      40.924243        0.655521954      -46.9257234      0.655521954      -46.9257234      0.730983567      40.9242433       
4.625            0.73611739       40.4635629       0.649434168      -47.3566678      0.649434168      -47.3566678      0.736117611      40.4635632       
4.7              0.741109746      40.0113797       0.643418036      -47.779051       0.643418036      -47.779051       0.741109968      40.01138         
4.775            0.745964677      39.5675165       0.637473819      -48.193053       0.637473819      -48.193053       0.745964901      39.5675168       
4.85             0.750686336      39.131799        0.631601673      -48.5988515      0.631601673      -48.5988515      0.750686562      39.1317993       
4.925            0.755278764      38.7040549       0.625801648      -48.9966213      0.625801648      -48.9966213      0.755278991      38.7040552       
5                0.75974589       38.284115        0.620073705      -49.3865346      0.620073705      -49.3865346      0.759746118      38.2841153       
5.075            0.764091536      37.8718124       0.614417715      -49.7687608      0.614417715      -49.7687608      0.764091765      37.8718127       
5.15             0.768319413      37.466983        0.608833475      -50.1434661      0.608833475      -50.1434661      0.768319644      37.4669833       
5.225            0.772433126      37.0694657       0.603320708      -50.5108141      0.603320708      -50.5108141      0.772433358      37.069466        
5.3              0.776436175      36.6791021       0.597879069      -50.8709653      0.597879069      -50.8709653      0.776436408      36.6791024       
5.375            0.780331954      36.2957368       0.592508158      -51.224077       0.592508158      -51.224077       0.780332188      36.2957371       
5.45             0.784123756      35.9192174       0.587207516      -51.5703035      0.587207516      -51.5703035      0.784123991      35.9192176       
5.525            0.787814774      35.5493943       0.581976639      -51.9097963      0.581976639      -51.9097963      0.787815011      35.5493946       
5.6              0.791408103      35.1861211       0.576814975      -52.2427034      0.576814975      -52.2427034      0.79140834       35.1861214       
5.675            0.79490674       34.8292542       0.571721935      -52.5691699      0.571721935      -52.5691699      0.794906978      34.8292545       
5.75             0.79831359       34.4786532       0.566696893      -52.889338       0.566696893      -52.889338       0.79831383       34.4786535       
5.825            0.801631468      34.1341804       0.56173919       -53.2033466      0.56173919       -53.2033466      0.801631708      34.1341807       
5.9              0.804863095      33.7957013       0.556848142      -53.5113316      0.556848142      -53.5113316      0.804863337      33.7957015       
5.975            0.80801111       33.4630841       0.552023036      -53.8134261      0.552023036      -53.8134261      0.808011353      33.4630844       
6.05             0.811078066      33.1362002       0.547263141      -54.1097601      0.547263141      -54.1097601      0.811078309      33.1362004       
6.125            0.814066431      32.8149235       0.542567705      -54.4004605      0.542567705      -54.4004605      0.814066675      32.8149238       
6.2              0.816978597      32.4991312       0.53793596       -54.6856515      0.53793596       -54.6856515      0.816978842      32.4991314       
6.275            0.819816875      32.1887029       0.533367126      -54.9654545      0.533367126      -54.9654545      0.819817121      32.1887031       
6.35             0.822583505      31.8835211       0.528860409      -55.239988       0.528860409      -55.239988       0.822583751      31.8835213       
6.425            0.825280649      31.5834712       0.524415007      -55.5093675      0.524415007      -55.5093675      0.825280897      31.5834714       
6.5              0.827910402      31.288441        0.520030112      -55.7737062      0.520030112      -55.7737062      0.82791065       31.2884412       
6.575            0.830474787      30.9983211       0.515704907      -56.0331142      0.515704907      -56.0331142      0.830475036      30.9983213       
6.65             0.832975765      30.7130046       0.511438574      -56.2876994      0.511438574      -56.2876994      0.832976015      30.7130049       
6.725            0.835415228      30.4323873       0.50723029       -56.5375668      0.50723029       -56.5375668      0.835415479      30.4323876       
6.8              0.837795009      30.1563674       0.503079234      -56.782819       0.503079234      -56.782819       0.83779526       30.1563676       
6.875            0.840116878      29.8848453       0.498984584      -57.023556       0.498984584      -57.023556       0.84011713       29.8848456       
6.95             0.84238255       29.6177243       0.494945516      -57.2598757      0.494945516      -57.2598757      0.842382803      29.6177245       
7.025            0.844593681      29.3549095       0.490961214      -57.4918732      0.490961214      -57.4918732      0.844593934      29.3549097       
7.1              0.846751872      29.0963087       0.487030861      -57.7196417      0.487030861      -57.7196417      0.846752126      29.0963089       
7.175            0.848858675      28.8418317       0.483153646      -57.9432717      0.483153646      -57.9432717      0.84885893       28.8418319       
7.25             0.850915587      28.5913906       0.479328762      -58.1628519      0.479328762      -58.1628519      0.850915842      28.5913908       
7.325            0.852924058      28.3448996       0.475555409      -58.3784686      0.475555409      -58.3784686      0.852924314      28.3448998       
7.4              0.85488549       28.1022751       0.471832793      -58.5902059      0.471832793      -58.5902059      0.854885747      28.1022753       
7.475            0.856801239      27.8634353       0.468160124      -58.7981462      0.468160124      -58.7981462      0.856801496      27.8634355       
7.55             0.858672617      27.6283006       0.464536624      -59.0023695      0.464536624      -59.0023695      0.858672874      27.6283008       
7.625            0.860500892      27.3967933       0.46096152       -59.202954       0.46096152       -59.202954       0.86050115       27.3967935       
7.7              0.862287293      27.1688376       0.457434047      -59.399976       0.457434047      -59.399976       0.862287551      27.1688377       
7.775            0.864033006      26.9443594       0.45395345       -59.59351        0.45395345       -59.59351        0.864033265      26.9443596       
7.85             0.865739181      26.7232867       0.450518981      -59.7836284      0.450518981      -59.7836284      0.865739441      26.7232869       
7.925            0.86740693       26.5055491       0.447129904      -59.9704022      0.447129904      -59.9704022      0.86740719       26.5055493       
8                0.869037329      26.2910778       0.443785489      -60.1539003      0.443785489      -60.1539003      0.869037589      26.291078        
8.075            0.870631419      26.0798059       0.440485018      -60.3341902      0.440485018      -60.3341902      0.87063168       26.0798061       
8.15             0.872190207      25.871668        0.437227782      -60.5113375      0.437227782      -60.5113375      0.872190469      25.8716681       
8.225            0.873714671      25.6666002       0.434013082      -60.6854065      0.434013082      -60.6854065      0.873714933      25.6666004       
8.3              0.875205753      25.4645405       0.430840228      -60.8564597      0.430840228      -60.8564597      0.875206015      25.4645406       
8.375            0.876664368      25.2654279       0.427708541      -61.0245582      0.427708541      -61.0245582      0.876664631      25.2654281       
8.45             0.878091402      25.0692034       0.424617352      -61.1897615      0.424617352      -61.1897615      0.878091665      25.0692036       
8.525            0.879487711      24.875809        0.421566002      -61.3521278      0.421566002      -61.3521278      0.879487975      24.8758092       
8.6              0.880854126      24.6851884       0.418553843      -61.5117137      0.418553843      -61.5117137      0.88085439       24.6851885       
8.675            0.88219145       24.4972863       0.415580234      -61.6685747      0.415580234      -61.6685747      0.882191715      24.4972865       
8.75             0.883500462      24.3120493       0.412644549      -61.8227647      0.412644549      -61.8227647      0.883500727      24.3120494       
8.825            0.884781917      24.1294246       0.409746167      -61.9743366      0.409746167      -61.9743366      0.884782183      24.1294248       
8.9              0.886036546      23.9493612       0.406884482      -62.1233416      0.406884482      -62.1233416      0.886036812      23.9493614       
8.975            0.887265056      23.771809        0.404058895      -62.2698302      0.404058895      -62.2698302      0.887265322      23.7718092       
9.05             0.888468134      23.5967194       0.401268817      -62.4138513      0.401268817      -62.4138513      0.888468401      23.5967195       
9.125            0.889646445      23.4240445       0.39851367       -62.5554528      0.39851367       -62.5554528      0.889646712      23.4240446       
9.2              0.890800633      23.2537379       0.395792885      -62.6946814      0.395792885      -62.6946814      0.890800901      23.2537381       
9.275            0.891931324      23.0857543       0.393105904      -62.8315827      0.393105904      -62.8315827      0.891931592      23.0857544       
9.35             0.893039123      22.9200492       0.390452176      -62.9662014      0.390452176      -62.9662014      0.893039391      22.9200493       
9.425            0.894124617      22.7565793       0.387831162      -63.0985808      0.387831162      -63.0985808      0.894124886      22.7565795       
9.5              0.895188377      22.5953024       0.385242332      -63.2287636      0.385242332      -63.2287636      0.895188645      22.5953026       
9.575            0.896230954      22.4361772       0.382685165      -63.3567912      0.382685165      -63.3567912      0.896231223      22.4361773       
