! Coilcraft 1008PS-152 Power Chip Inductor				
! 7 October 2002			
# MHZ S MA R 50
!Freq             MagS11           AngS11           MagS21           AngS21           MagS12           AngS12           MagS22           AngS22
0.05             0.00503605864    68.8152498       0.998190983      -0.269533645     0.998190983      -0.269533645     0.00503605887    68.8152602       
0.162            0.0153556934     82.278907        0.998052801      -0.873574726     0.998052801      -0.873574726     0.0153556961     82.2789159       
0.274            0.0258557077     84.3493704       0.997785847      -1.47765975      0.997785847      -1.47765975      0.0258557137     84.3493778       
0.386            0.0363707303     84.843098        0.997388731      -2.08134613      0.997388731      -2.08134613      0.0363707397     84.843104        
0.498            0.046879009      84.8222254       0.996863098      -2.68440922      0.996863098      -2.68440922      0.0468790218     84.8222303       
0.61             0.0573720229     84.5708737       0.996210227      -3.28668011      0.996210227      -3.28668011      0.057372039      84.5708778       
0.722            0.0678441807     84.1970039       0.995431221      -3.88799858      0.995431221      -3.88799858      0.0678442001     84.1970074       
0.834            0.0782908384     83.7506318       0.994527184      -4.48820567      0.994527184      -4.48820567      0.0782908611     83.7506349       
0.946            0.0887077556     83.2581381       0.993499291      -5.08714324      0.993499291      -5.08714324      0.0887077815     83.2581409       
1.058            0.0990909104     82.7347855       0.992348815      -5.68465438      0.992348815      -5.68465438      0.0990909394     82.734788        
1.17             0.109436428      82.1900426       0.991077141      -6.28058388      0.991077141      -6.28058388      0.10943646       82.1900448       
1.282            0.119740549      81.630116        0.989685766      -6.87477864      0.989685766      -6.87477864      0.119740584      81.6301181       
1.394            0.12999962       81.059261        0.988176298      -7.467088        0.988176298      -7.467088        0.129999658      81.0592629       
1.506            0.140210087      80.4805064       0.986550457      -8.05736396      0.986550457      -8.05736396      0.140210128      80.4805082       
1.618            0.150368495      79.8960785       0.984810068      -8.64546145      0.984810068      -8.64546145      0.15036854       79.8960802       
1.73             0.160471493      79.3076598       0.982957057      -9.23123855      0.982957057      -9.23123855      0.16047154       79.3076614       
1.842            0.170515829      78.7165538       0.980993448      -9.81455659      0.980993448      -9.81455659      0.17051588       78.7165553       
1.954            0.180498361      78.1237924       0.97892136       -10.3952804      0.97892136       -10.3952804      0.180498415      78.1237938       
2.066            0.190416055      77.5302085       0.976742993      -10.9732785      0.976742993      -10.9732785      0.190416112      77.5302098       
2.178            0.20026599       76.9364864       0.974460635      -11.5484229      0.974460635      -11.5484229      0.20026605       76.9364877       
2.29             0.210045359      76.3431971       0.972076643      -12.1205899      0.972076643      -12.1205899      0.210045422      76.3431983       
2.402            0.219751471      75.7508237       0.969593449      -12.6896594      0.969593449      -12.6896594      0.219751536      75.7508249       
2.514            0.229381755      75.1597802       0.967013543      -13.2555156      0.967013543      -13.2555156      0.229381824      75.1597813       
2.626            0.238933762      74.5704251       0.964339477      -13.8180468      0.964339477      -13.8180468      0.238933833      74.5704261       
2.738            0.248405162      73.983072        0.961573852      -14.3771454      0.961573852      -14.3771454      0.248405236      73.983073        
2.85             0.257793751      73.3979977       0.958719314      -14.9327083      0.958719314      -14.9327083      0.257793828      73.3979987       
2.962            0.267097446      72.815448        0.955778549      -15.4846367      0.955778549      -15.4846367      0.267097526      72.8154489       
3.074            0.276314291      72.2356428       0.952754275      -16.0328359      0.952754275      -16.0328359      0.276314373      72.2356437       
3.186            0.285442449      71.6587798       0.949649238      -16.577216       0.949649238      -16.577216       0.285442535      71.6587806       
3.298            0.294480212      71.0850374       0.946466206      -17.1176912      0.946466206      -17.1176912      0.2944803        71.0850382       
3.41             0.30342599       70.5145775       0.943207961      -17.6541803      0.943207961      -17.6541803      0.303426081      70.5145783       
3.522            0.312278317      69.947547        0.939877298      -18.1866063      0.939877298      -18.1866063      0.312278411      69.9475478       
3.634            0.321035848      69.3840798       0.936477013      -18.7148968      0.936477013      -18.7148968      0.321035944      69.3840805       
3.746            0.329697354      68.8242979       0.933009907      -19.2389836      0.933009907      -19.2389836      0.329697452      68.8242987       
3.858            0.338261725      68.2683128       0.929478771      -19.7588029      0.929478771      -19.7588029      0.338261827      68.2683136       
3.97             0.346727967      67.7162262       0.92588639       -20.2742951      0.92588639       -20.2742951      0.346728071      67.7162268       
4.082            0.355095195      67.1681306       0.922235532      -20.7854049      0.922235532      -20.7854049      0.355095301      67.1681313       
4.194            0.363362638      66.6241107       0.918528948      -21.2920812      0.918528948      -21.2920812      0.363362747      66.6241114       
4.306            0.371529629      66.0842434       0.914769366      -21.7942768      0.914769366      -21.7942768      0.371529741      66.0842441       
4.418            0.37959561       65.5485984       0.910959486      -22.2919489      0.910959486      -22.2919489      0.379595723      65.548599        
4.53             0.387560119      65.0172388       0.907101982      -22.7850583      0.907101982      -22.7850583      0.387560235      65.0172394       
4.642            0.395422799      64.4902215       0.903199489      -23.2735698      0.903199489      -23.2735698      0.395422917      64.4902221       
4.754            0.403183383      63.9675975       0.89925461       -23.757452       0.89925461       -23.757452       0.403183504      63.9675981       
4.866            0.4108417        63.4494123       0.895269906      -24.2366772      0.895269906      -24.2366772      0.410841823      63.4494128       
4.978            0.418397666      62.9357061       0.891247897      -24.7112213      0.891247897      -24.7112213      0.418397791      62.9357066       
5.09             0.425851283      62.4265141       0.887191059      -25.1810636      0.887191059      -25.1810636      0.42585141       62.4265147       
5.202            0.433202635      61.921867        0.88310182       -25.6461871      0.88310182       -25.6461871      0.433202764      61.9218676       
5.314            0.440451884      61.421791        0.878982561      -26.1065777      0.878982561      -26.1065777      0.440452016      61.4217915       
5.426            0.44759927       60.9263078       0.874835611      -26.5622247      0.874835611      -26.5622247      0.447599404      60.9263083       
5.538            0.4546451        60.4354353       0.870663248      -27.0131206      0.870663248      -27.0131206      0.454645237      60.4354358       
5.65             0.461589754      59.9491878       0.866467697      -27.4592607      0.866467697      -27.4592607      0.461589892      59.9491882       
5.762            0.468433673      59.4675754       0.862251128      -27.9006431      0.862251128      -27.9006431      0.468433813      59.4675759       
5.874            0.475177361      58.9906054       0.858015656      -28.337269       0.858015656      -28.337269       0.475177503      58.9906059       
5.986            0.48182138       58.5182813       0.853763341      -28.769142       0.853763341      -28.769142       0.481821524      58.5182818       
6.098            0.488366346      58.0506038       0.849496184      -29.1962682      0.849496184      -29.1962682      0.488366492      58.0506043       
6.21             0.494812928      57.5875706       0.845216131      -29.6186564      0.845216131      -29.6186564      0.494813076      57.587571        
6.322            0.501161841      57.1291764       0.84092507       -30.0363175      0.84092507       -30.0363175      0.501161991      57.1291768       
6.434            0.507413847      56.6754135       0.836624831      -30.4492647      0.836624831      -30.4492647      0.507413999      56.675414        
6.546            0.513569749      56.2262717       0.832317187      -30.8575134      0.832317187      -30.8575134      0.513569903      56.2262721       
6.658            0.519630389      55.7817382       0.828003854      -31.261081       0.828003854      -31.261081       0.519630545      55.7817386       
6.77             0.525596645      55.341798        0.823686489      -31.6599867      0.823686489      -31.6599867      0.525596803      55.3417984       
6.882            0.53146943       54.9064342       0.819366694      -32.0542517      0.819366694      -32.0542517      0.53146959       54.9064346       
6.994            0.537249686      54.4756278       0.815046014      -32.4438988      0.815046014      -32.4438988      0.537249847      54.4756282       
7.106            0.542938383      54.0493577       0.810725939      -32.8289526      0.810725939      -32.8289526      0.542938546      54.0493581       
7.218            0.548536517      53.6276013       0.806407902      -33.2094389      0.806407902      -33.2094389      0.548536682      53.6276017       
7.33             0.554045108      53.2103342       0.802093283      -33.5853854      0.802093283      -33.5853854      0.554045274      53.2103346       
7.442            0.559465195      52.7975306       0.797783408      -33.9568207      0.797783408      -33.9568207      0.559465362      52.797531        
7.554            0.564797836      52.389163        0.793479549      -34.3237751      0.793479549      -34.3237751      0.564798005      52.3891634       
7.666            0.570044105      51.9852028       0.789182929      -34.6862799      0.789182929      -34.6862799      0.570044276      51.9852031       
7.778            0.575205093      51.5856199       0.784894716      -35.0443674      0.784894716      -35.0443674      0.575205265      51.5856203       
7.89             0.580281899      51.1903832       0.78061603       -35.3980711      0.78061603       -35.3980711      0.580282073      51.1903836       
8.002            0.585275635      50.7994605       0.776347944      -35.7474254      0.776347944      -35.7474254      0.585275811      50.7994608       
8.114            0.590187422      50.4128184       0.772091479      -36.0924655      0.772091479      -36.0924655      0.590187599      50.4128187       
8.226            0.595018386      50.0304228       0.767847611      -36.4332277      0.767847611      -36.4332277      0.595018565      50.0304231       
8.338            0.599769661      49.6522386       0.763617272      -36.7697486      0.763617272      -36.7697486      0.599769841      49.6522389       
8.45             0.604442382      49.27823         0.759401347      -37.1020659      0.759401347      -37.1020659      0.604442563      49.2782303       
8.562            0.609037688      48.9083605       0.755200679      -37.4302177      0.755200679      -37.4302177      0.60903787       48.9083608       
8.674            0.613556719      48.5425929       0.751016067      -37.7542427      0.751016067      -37.7542427      0.613556903      48.5425932       
8.786            0.618000614      48.1808894       0.746848271      -38.0741801      0.746848271      -38.0741801      0.6180008        48.1808897       
8.898            0.622370513      47.8232117       0.74269801       -38.3900696      0.74269801       -38.3900696      0.622370699      47.823212        
9.01             0.626667549      47.4695212       0.738565963      -38.7019511      0.738565963      -38.7019511      0.626667737      47.4695215       
9.122            0.630892856      47.1197786       0.734452774      -39.0098651      0.734452774      -39.0098651      0.630893045      47.1197789       
9.234            0.635047561      46.7739445       0.730359048      -39.3138523      0.730359048      -39.3138523      0.635047751      46.7739448       
9.346            0.639132785      46.431979        0.726285357      -39.6139535      0.726285357      -39.6139535      0.639132976      46.4319793       
9.458            0.643149644      46.093842        0.722232237      -39.9102099      0.722232237      -39.9102099      0.643149837      46.0938423       
9.57             0.647099247      45.7594933       0.718200191      -40.2026628      0.718200191      -40.2026628      0.647099441      45.7594936       
9.682            0.650982694      45.4288925       0.714189692      -40.4913535      0.714189692      -40.4913535      0.650982889      45.4288928       
9.794            0.654801077      45.1019989       0.710201179      -40.7763237      0.710201179      -40.7763237      0.654801273      45.1019992       
9.906            0.658555479      44.7787718       0.706235065      -41.0576147      0.706235065      -41.0576147      0.658555677      44.7787721       
10.018           0.662246973      44.4591706       0.702291732      -41.3352683      0.702291732      -41.3352683      0.662247172      44.4591709       
10.13            0.665876623      44.1431545       0.698371533      -41.6093258      0.698371533      -41.6093258      0.665876822      44.1431548       
10.242           0.669445479      43.8306827       0.694474798      -41.8798289      0.694474798      -41.8798289      0.66944568       43.830683        
10.354           0.672954583      43.5217146       0.690601828      -42.1468188      0.690601828      -42.1468188      0.672954785      43.5217148       
10.466           0.676404965      43.2162095       0.686752902      -42.410337       0.686752902      -42.410337       0.676405168      43.2162097       
10.578           0.679797641      42.9141268       0.682928273      -42.6704246      0.682928273      -42.6704246      0.679797845      42.9141271       
10.69            0.683133618      42.6154263       0.679128174      -42.9271227      0.679128174      -42.9271227      0.683133823      42.6154265       
10.802           0.686413887      42.3200675       0.675352813      -43.1804721      0.675352813      -43.1804721      0.686414093      42.3200678       
10.914           0.68963943       42.0280105       0.671602378      -43.4305135      0.671602378      -43.4305135      0.689639637      42.0280107       
11.026           0.692811212      41.7392153       0.667877039      -43.6772874      0.667877039      -43.6772874      0.69281142       41.7392155       
11.138           0.695930189      41.4536422       0.664176945      -43.9208339      0.664176945      -43.9208339      0.695930398      41.4536424       
11.25            0.698997301      41.1712517       0.660502226      -44.1611931      0.660502226      -44.1611931      0.69899751       41.171252        
11.362           0.702013474      40.8920047       0.656852996      -44.3984046      0.656852996      -44.3984046      0.702013685      40.8920049       
11.474           0.704979624      40.6158621       0.653229351      -44.632508       0.653229351      -44.632508       0.704979836      40.6158623       
11.586           0.70789665       40.3427852       0.64963137       -44.8635423      0.64963137       -44.8635423      0.707896863      40.3427855       
11.698           0.71076544       40.0727357       0.64605912       -45.0915464      0.64605912       -45.0915464      0.710765653      40.072736        
11.81            0.713586865      39.8056755       0.642512649      -45.3165588      0.642512649      -45.3165588      0.713587079      39.8056757       
11.922           0.716361786      39.5415666       0.638991994      -45.5386177      0.638991994      -45.5386177      0.716362         39.5415669       
12.034           0.719091048      39.2803717       0.635497177      -45.7577611      0.635497177      -45.7577611      0.719091263      39.2803719       
12.146           0.721775483      39.0220536       0.63202821       -45.9740263      0.63202821       -45.9740263      0.721775699      39.0220538       
12.258           0.72441591       38.7665755       0.628585088      -46.1874506      0.628585088      -46.1874506      0.724416127      38.7665757       
12.37            0.727013133      38.5139008       0.625167799      -46.3980708      0.625167799      -46.3980708      0.727013351      38.5139011       
12.482           0.729567944      38.2639936       0.621776318      -46.6059233      0.621776318      -46.6059233      0.729568163      38.2639938       
12.594           0.732081122      38.016818        0.618410611      -46.8110442      0.618410611      -46.8110442      0.732081341      38.0168182       
12.706           0.73455343       37.7723386       0.615070631      -47.0134693      0.615070631      -47.0134693      0.73455365       37.7723388       
12.818           0.73698562       37.5305204       0.611756325      -47.2132337      0.611756325      -47.2132337      0.736985841      37.5305206       
12.93            0.739378431      37.2913288       0.60846763       -47.4103726      0.60846763       -47.4103726      0.739378653      37.291329        
13.042           0.741732587      37.0547295       0.605204474      -47.6049204      0.605204474      -47.6049204      0.74173281       37.0547297       
13.154           0.744048802      36.8206885       0.601966778      -47.7969112      0.601966778      -47.7969112      0.744049025      36.8206887       
13.266           0.746327774      36.5891725       0.598754455      -47.9863789      0.598754455      -47.9863789      0.746327998      36.5891727       
13.378           0.748570191      36.3601481       0.59556741       -48.1733569      0.59556741       -48.1733569      0.748570416      36.3601483       
13.49            0.750776727      36.1335828       0.592405543      -48.357878       0.592405543      -48.357878       0.750776952      36.133583        
13.602           0.752948045      35.9094442       0.589268747      -48.539975       0.589268747      -48.539975       0.752948271      35.9094444       
13.714           0.755084794      35.6877002       0.58615691       -48.7196799      0.58615691       -48.7196799      0.75508502       35.6877004       
13.826           0.757187612      35.4683193       0.583069912      -48.8970247      0.583069912      -48.8970247      0.757187839      35.4683195       
13.938           0.759257125      35.2512704       0.580007629      -49.0720406      0.580007629      -49.0720406      0.759257353      35.2512706       
14.05            0.761293949      35.0365226       0.576969934      -49.2447587      0.576969934      -49.2447587      0.761294177      35.0365228       
14.162           0.763298684      34.8240455       0.573956693      -49.4152096      0.573956693      -49.4152096      0.763298913      34.8240457       
14.274           0.765271924      34.613809        0.570967769      -49.5834236      0.570967769      -49.5834236      0.765272153      34.6138092       
