! Coilcraft 1812PS-334 Power Chip Inductor				
! 1 October 2002			
# MHZ S MA R 50
!Freq             MagS11           AngS11           MagS21           AngS21           MagS12           AngS12           MagS22           AngS22
0.05             0.705552907      42.7915636       0.679921413      -44.8249089      0.679921413      -44.8249089      0.705552977      42.7915645       
0.06             0.766571603      37.9774841       0.615733497      -50.0046309      0.615733497      -50.0046309      0.766571679      37.9774849       
0.07             0.812074803      33.9796129       0.559161218      -54.2616145      0.559161218      -54.2616145      0.812074884      33.9796136       
0.08             0.846374377      30.6483373       0.509957826      -57.7855095      0.509957826      -57.7855095      0.846374462      30.6483379       
0.09             0.872588348      27.8526835       0.467342823      -60.7295304      0.467342823      -60.7295304      0.872588435      27.852684        
0.1              0.892921019      25.4862658       0.430405507      -63.2134009      0.430405507      -63.2134009      0.892921108      25.4862663       
0.11             0.908924329      23.4651599       0.398279423      -65.3295267      0.398279423      -65.3295267      0.90892442       23.4651603       
0.12             0.92169683       21.7237987       0.370204227      -67.1491239      0.370204227      -67.1491239      0.921696922      21.7237991       
0.13             0.932024104      20.2109692       0.345537141      -68.7273118      0.345537141      -68.7273118      0.932024197      20.2109696       
0.14             0.940474971      18.8864881       0.323744197      -70.1070608      0.323744197      -70.1070608      0.940475065      18.8864884       
0.15             0.947466805      17.7186059       0.30438502       -71.3221613      0.30438502       -71.3221613      0.9474669        17.7186062       
0.16             0.953309975      16.6820336       0.287097011      -72.3994309      0.287097011      -72.3994309      0.953310071      16.682034        
0.17             0.958238301      15.7564563       0.271581127      -73.3603518      0.271581127      -73.3603518      0.958238396      15.7564566       
0.18             0.96243013       14.9254149       0.257589889      -74.2222891      0.257589889      -74.2222891      0.962430226      14.9254152       
0.19             0.966023111      14.1754634       0.244917566      -74.9994033      0.244917566      -74.9994033      0.966023208      14.1754636       
0.2              0.969124657      13.4955292       0.23339227       -75.7033373      0.23339227       -75.7033373      0.969124754      13.4955294       
0.21             0.971819459      12.8764246       0.222869626      -76.3437396      0.222869626      -76.3437396      0.971819556      12.8764249       
0.22             0.97417494       12.3104712       0.213227716      -76.9286651      0.213227716      -76.9286651      0.974175037      12.3104715       
0.23             0.976245263      11.791208        0.204363039      -77.4648852      0.204363039      -77.4648852      0.976245361      11.7912082       
0.24             0.978074309      11.3131637       0.196187275      -77.958129       0.196187275      -77.958129       0.978074406      11.313164        
0.25             0.979697904      10.8716774       0.188624678      -78.4132738      0.188624678      -78.4132738      0.979698002      10.8716777       
0.26             0.981145521      10.462756        0.181609976      -78.8344953      0.181609976      -78.8344953      0.981145619      10.4627562       
0.27             0.982441569      10.0829602       0.175086658      -79.2253879      0.175086658      -79.2253879      0.982441667      10.0829604       
0.28             0.983606396      9.72931306       0.169005589      -79.5890612      0.169005589      -79.5890612      0.983606494      9.72931328       
0.29             0.984657068      9.39922579       0.16332386       -79.9282182      0.16332386       -79.9282182      0.984657166      9.39922601       
0.3              0.985607981      9.09043691       0.158003858      -80.2452189      0.158003858      -80.2452189      0.985608079      9.09043713       
0.31             0.986471341      8.80096279       0.153012478      -80.5421326      0.153012478      -80.5421326      0.986471439      8.800963         
0.32             0.987257553      8.52905655       0.148320483      -80.820781       0.148320483      -80.820781       0.987257651      8.52905676       
0.33             0.987975527      8.27317412       0.143901961      -81.0827736      0.143901961      -81.0827736      0.987975625      8.27317433       
0.34             0.988632928      8.03194586       0.139733871      -81.3295378      0.139733871      -81.3295378      0.988633026      8.03194606       
0.35             0.989236378      7.80415275       0.135795663      -81.5623433      0.135795663      -81.5623433      0.989236477      7.80415295       
0.36             0.989791621      7.58870644       0.132068949      -81.7823236      0.132068949      -81.7823236      0.98979172       7.58870664       
0.37             0.99030366       7.38463228       0.128537235      -81.9904935      0.128537235      -81.9904935      0.990303759      7.38463248       
0.38             0.990776865      7.19105496       0.125185683      -82.187764       0.125185683      -82.187764       0.990776964      7.19105516       
0.39             0.991215069      7.00718623       0.122000908      -82.3749553      0.122000908      -82.3749553      0.991215168      7.00718643       
0.4              0.991621645      6.83231441       0.11897081       -82.5528077      0.11897081       -82.5528077      0.991621744      6.83231461       
0.41             0.99199957       6.66579536       0.116084421      -82.7219912      0.116084421      -82.7219912      0.991999669      6.66579556       
0.42             0.992351478      6.5070447        0.11333178       -82.8831133      0.11333178       -82.8831133      0.992351578      6.5070449        
0.43             0.99267971       6.35553106       0.110703819      -83.0367264      0.110703819      -83.0367264      0.992679809      6.35553126       
0.44             0.992986347      6.21077022       0.108192265      -83.1833337      0.108192265      -83.1833337      0.992986447      6.21077042       
0.45             0.993273249      6.07232005       0.105789558      -83.3233945      0.105789558      -83.3233945      0.993273348      6.07232025       
0.46             0.993542077      5.93977603       0.103488773      -83.4573291      0.103488773      -83.4573291      0.993542176      5.93977623       
0.47             0.993794324      5.81276735       0.101283558      -83.5855224      0.101283558      -83.5855224      0.993794423      5.81276755       
0.48             0.99403133       5.6909535        0.0991680753     -83.708328       0.0991680753     -83.708328       0.99403143       5.6909537        
0.49             0.994254304      5.57402121       0.0971369499     -83.8260711      0.0971369499     -83.8260711      0.994254403      5.57402141       
0.5              0.994464335      5.46168185       0.095185226      -83.9390511      0.095185226      -83.9390511      0.994464434      5.46168205       
0.51             0.99466241       5.353669         0.0933083261     -84.0475445      0.0933083261     -84.0475445      0.99466251       5.3536692        
0.52             0.994849424      5.24973641       0.0915020169     -84.1518066      0.0915020169     -84.1518066      0.994849524      5.24973661       
0.53             0.995026189      5.1496561        0.0897623765     -84.2520739      0.0897623765     -84.2520739      0.995026288      5.1496563        
0.54             0.995193443      5.05321672       0.0880857673     -84.3485654      0.0880857673     -84.3485654      0.995193542      5.05321692       
0.55             0.99535186       4.96022205       0.0864688105     -84.4414844      0.0864688105     -84.4414844      0.995351959      4.96022225       
0.56             0.995502054      4.87048969       0.0849083634     -84.53102        0.0849083634     -84.53102        0.995502154      4.87048989       
0.57             0.995644588      4.78384986       0.0834014995     -84.6173481      0.0834014995     -84.6173481      0.995644688      4.78385007       
0.58             0.995779976      4.70014433       0.0819454902     -84.7006323      0.0819454902     -84.7006323      0.995780076      4.70014453       
0.59             0.995908691      4.61922545       0.0805377883     -84.7810257      0.0805377883     -84.7810257      0.995908791      4.61922565       
0.6              0.996031166      4.54095529       0.0791760134     -84.858671       0.0791760134     -84.858671       0.996031266      4.5409555        
0.61             0.9961478        4.46520487       0.0778579385     -84.9337015      0.0778579385     -84.9337015      0.9961479        4.46520508       
0.62             0.996258961      4.39185342       0.0765814777     -85.0062423      0.0765814777     -85.0062423      0.996259061      4.39185363       
0.63             0.996364987      4.32078774       0.0753446754     -85.0764102      0.0753446754     -85.0764102      0.996365087      4.32078795       
0.64             0.996466192      4.25190164       0.0741456963     -85.1443153      0.0741456963     -85.1443153      0.996466292      4.25190185       
0.65             0.996562865      4.18509539       0.0729828162     -85.2100603      0.0729828162     -85.2100603      0.996562965      4.1850956        
0.66             0.996655274      4.12027524       0.0718544138     -85.2737423      0.0718544138     -85.2737423      0.996655374      4.12027546       
0.67             0.996743667      4.057353         0.0707589635     -85.3354522      0.0707589635     -85.3354522      0.996743767      4.05735321       
0.68             0.996828275      3.99624557       0.0696950277     -85.3952759      0.0696950277     -85.3952759      0.996828375      3.99624578       
0.69             0.996909313      3.93687467       0.0686612513     -85.453294       0.0686612513     -85.453294       0.996909412      3.93687488       
0.7              0.996986978      3.87916642       0.0676563555     -85.5095829      0.0676563555     -85.5095829      0.996987077      3.87916664       
0.71             0.997061456      3.82305109       0.0666791327     -85.5642144      0.0666791327     -85.5642144      0.997061556      3.82305131       
0.72             0.997132921      3.76846276       0.0657284414     -85.6172565      0.0657284414     -85.6172565      0.997133021      3.76846298       
0.73             0.997201533      3.71533911       0.064803202      -85.6687733      0.064803202      -85.6687733      0.997201633      3.71533933       
0.74             0.997267443      3.66362117       0.0639023925     -85.7188256      0.0639023925     -85.7188256      0.997267543      3.66362139       
0.75             0.997330791      3.61325306       0.0630250448     -85.7674709      0.0630250448     -85.7674709      0.997330891      3.61325329       
0.76             0.997391709      3.56418185       0.0621702411     -85.8147636      0.0621702411     -85.8147636      0.997391809      3.56418208       
0.77             0.99745032       3.51635731       0.0613371109     -85.8607555      0.0613371109     -85.8607555      0.99745042       3.51635754       
0.78             0.99750674       3.46973179       0.0605248277     -85.9054954      0.0605248277     -85.9054954      0.99750684       3.46973202       
0.79             0.997561076      3.42426002       0.0597326065     -85.94903        0.0597326065     -85.94903        0.997561176      3.42426025       
0.8              0.997613431      3.37989899       0.0589597012     -85.9914033      0.0589597012     -85.9914033      0.99761353       3.37989922       
0.81             0.997663899      3.33660778       0.058205402      -86.0326574      0.058205402      -86.0326574      0.997663998      3.33660801       
0.82             0.99771257       3.29434747       0.0574690336     -86.0728321      0.0574690336     -86.0728321      0.99771267       3.2943477        
0.83             0.997759529      3.25308099       0.0567499527     -86.1119656      0.0567499527     -86.1119656      0.997759629      3.25308123       
0.84             0.997804856      3.21277305       0.0560475466     -86.1500939      0.0560475466     -86.1500939      0.997804955      3.21277328       
0.85             0.997848624      3.17338997       0.055361231      -86.1872515      0.055361231      -86.1872515      0.997848724      3.17339021       
0.86             0.997890905      3.13489966       0.0546904486     -86.2234713      0.0546904486     -86.2234713      0.997891005      3.1348999        
0.87             0.997931765      3.09727148       0.0540346676     -86.2587846      0.0540346676     -86.2587846      0.997931865      3.09727172       
0.88             0.997971268      3.06047618       0.0533933798     -86.2932213      0.0533933798     -86.2932213      0.997971367      3.06047642       
0.89             0.998009471      3.02448582       0.0527661002     -86.32681        0.0527661002     -86.32681        0.998009571      3.02448607       
0.9              0.998046433      2.98927369       0.0521523647     -86.3595778      0.0521523647     -86.3595778      0.998046533      2.98927394       
0.91             0.998082205      2.95481425       0.0515517297     -86.3915509      0.0515517297     -86.3915509      0.998082305      2.9548145        
0.92             0.998116839      2.92108306       0.0509637707     -86.4227541      0.0509637707     -86.4227541      0.998116938      2.9210833        
0.93             0.998150381      2.88805672       0.0503880812     -86.4532113      0.0503880812     -86.4532113      0.998150481      2.88805697       
0.94             0.998182877      2.85571285       0.0498242721     -86.4829453      0.0498242721     -86.4829453      0.998182977      2.8557131        
0.95             0.998214369      2.82402997       0.0492719703     -86.5119778      0.0492719703     -86.5119778      0.998214469      2.82403022       
0.96             0.998244899      2.79298751       0.0487308183     -86.5403298      0.0487308183     -86.5403298      0.998244999      2.79298777       
0.97             0.998274505      2.76256575       0.0482004732     -86.5680213      0.0482004732     -86.5680213      0.998274605      2.762566         
0.98             0.998303223      2.73274575       0.0476806061     -86.5950715      0.0476806061     -86.5950715      0.998303323      2.73274601       
0.99             0.998331088      2.70350936       0.047170901      -86.6214987      0.047170901      -86.6214987      0.998331188      2.70350962       
1                0.998358134      2.67483912       0.0466710548     -86.6473207      0.0466710548     -86.6473207      0.998358234      2.67483938       
1.01             0.998384392      2.64671829       0.0461807762     -86.6725544      0.0461807762     -86.6725544      0.998384492      2.64671855       
1.02             0.998409891      2.61913076       0.0456997852     -86.697216       0.0456997852     -86.697216       0.998409991      2.61913103       
1.03             0.99843466       2.59206105       0.0452278127     -86.7213211      0.0452278127     -86.7213211      0.99843476       2.59206132       
1.04             0.998458728      2.56549429       0.0447645997     -86.7448848      0.0447645997     -86.7448848      0.998458827      2.56549456       
1.05             0.998482118      2.53941614       0.0443098973     -86.7679215      0.0443098973     -86.7679215      0.998482218      2.53941641       
1.06             0.998504856      2.51381283       0.0438634656     -86.790445       0.0438634656     -86.790445       0.998504956      2.5138131        
1.07             0.998526966      2.48867108       0.043425074      -86.8124686      0.043425074      -86.8124686      0.998527066      2.48867136       
1.08             0.998548471      2.46397813       0.0429945        -86.8340051      0.0429945        -86.8340051      0.998548571      2.4639784        
1.09             0.998569391      2.43972164       0.0425715296     -86.855067       0.0425715296     -86.855067       0.998569491      2.43972192       
1.1              0.998589747      2.41588977       0.0421559562     -86.8756659      0.0421559562     -86.8756659      0.998589847      2.41589004       
1.11             0.998609558      2.39247106       0.0417475808     -86.8958135      0.0417475808     -86.8958135      0.998609658      2.39247134       
1.12             0.998628845      2.36945448       0.0413462114     -86.9155206      0.0413462114     -86.9155206      0.998628945      2.36945476       
1.13             0.998647624      2.34682939       0.0409516628     -86.9347979      0.0409516628     -86.9347979      0.998647723      2.34682968       
1.14             0.998665912      2.32458553       0.0405637563     -86.9536556      0.0405637563     -86.9536556      0.998666012      2.32458581       
1.15             0.998683726      2.30271296       0.0401823193     -86.9721035      0.0401823193     -86.9721035      0.998683826      2.30271325       
1.16             0.998701082      2.28120212       0.0398071852     -86.9901511      0.0398071852     -86.9901511      0.998701182      2.28120241       
1.17             0.998717995      2.26004375       0.039438193      -87.0078076      0.039438193      -87.0078076      0.998718095      2.26004404       
1.18             0.99873448       2.23922893       0.0390751871     -87.0250818      0.0390751871     -87.0250818      0.99873458       2.23922922       
1.19             0.998750549      2.21874901       0.0387180173     -87.0419822      0.0387180173     -87.0419822      0.998750649      2.2187493        
1.2              0.998766217      2.19859564       0.0383665381     -87.0585169      0.0383665381     -87.0585169      0.998766317      2.19859594       
1.21             0.998781496      2.17876075       0.0380206091     -87.0746941      0.0380206091     -87.0746941      0.998781596      2.17876105       
1.22             0.998796398      2.15923653       0.0376800942     -87.0905212      0.0376800942     -87.0905212      0.998796498      2.15923683       
1.23             0.998810936      2.14001541       0.0373448619     -87.1060057      0.0373448619     -87.1060057      0.998811036      2.14001572       
1.24             0.99882512       2.1210901        0.0370147848     -87.1211547      0.0370147848     -87.1211547      0.99882522       2.1210904        
1.25             0.998838961      2.10245349       0.0366897396     -87.1359751      0.0366897396     -87.1359751      0.998839061      2.1024538        
1.26             0.998852469      2.08409874       0.036369607      -87.1504736      0.036369607      -87.1504736      0.998852569      2.08409905       
1.27             0.998865656      2.06601921       0.0360542713     -87.1646566      0.0360542713     -87.1646566      0.998865756      2.06601952       
1.28             0.998878529      2.04820846       0.0357436205     -87.1785303      0.0357436205     -87.1785303      0.998878629      2.04820877       
1.29             0.9988911        2.03066025       0.0354375459     -87.1921008      0.0354375459     -87.1921008      0.9988912        2.03066056       
1.3              0.998903375      2.01336854       0.0351359424     -87.2053738      0.0351359424     -87.2053738      0.998903475      2.01336885       
1.31             0.998915364      1.99632747       0.0348387078     -87.2183549      0.0348387078     -87.2183549      0.998915464      1.99632778       
1.32             0.998927076      1.97953135       0.0345457433     -87.2310497      0.0345457433     -87.2310497      0.998927176      1.97953167       
