! Coilcraft 1812PS-562 Power Chip Inductor				
! 1 October 2002			
# MHZ S MA R 50
!Freq             MagS11           AngS11           MagS21           AngS21           MagS12           AngS12           MagS22           AngS22
0.05             0.0176070523     85.363703        0.998730865      -1.00683845      0.998730865      -1.00683845      0.0176070541     85.363706        
0.162            0.0568878452     85.4052682       0.997056504      -3.26030937      0.997056504      -3.26030937      0.056887853      85.4052732       
0.274            0.0959620494     83.5267498       0.993766086      -5.50590827      0.993766086      -5.50590827      0.0959620666     83.5267557       
0.386            0.134597609      81.3952357       0.988857878      -7.7344564       0.988857878      -7.7344564       0.134597638      81.3952416       
0.498            0.172587508      79.2002921       0.982399386      -9.93716158      0.982399386      -9.93716158      0.172587549      79.2002976       
0.61             0.209756383      77.0003161       0.974489552      -12.1065862      0.974489552      -12.1065862      0.209756436      77.000321        
0.722            0.245956391      74.8209606       0.965242843      -14.236397       0.965242843      -14.236397       0.245956456      74.8209651       
0.834            0.281063929      72.6762448       0.954783468      -16.3211493      0.954783468      -16.3211493      0.281064005      72.6762489       
0.946            0.314978347      70.5750587       0.943241933      -18.3562043      0.943241933      -18.3562043      0.314978435      70.5750624       
1.058            0.347621237      68.5235624       0.9307519        -20.3376992      0.9307519        -20.3376992      0.347621335      68.5235657       
1.17             0.378935507      66.5261941       0.917447161      -22.2625255      0.917447161      -22.2625255      0.378935615      66.5261972       
1.282            0.408884064      64.5861525       0.903458875      -24.1282989      0.903458875      -24.1282989      0.408884181      64.5861553       
1.394            0.437448088      62.7056616       0.888913206      -25.9333173      0.888913206      -25.9333173      0.437448215      62.7056643       
1.506            0.464625036      60.8861419       0.873929428      -27.6765077      0.873929428      -27.6765077      0.464625171      60.8861444       
1.618            0.490426477      59.1283361       0.85861852       -29.3573662      0.85861852       -29.3573662      0.49042662       59.1283384       
1.73             0.514875883      57.4324127       0.843082235      -30.9758925      0.843082235      -30.9758925      0.514876033      57.4324149       
1.842            0.538006472      55.7980559       0.827412582      -32.5325241      0.827412582      -32.5325241      0.53800663       55.798058        
1.954            0.559859183      54.2245453       0.811691675      -34.0280709      0.811691675      -34.0280709      0.559859347      54.2245472       
2.066            0.580480812      52.7108279       0.795991867      -35.4636522      0.795991867      -35.4636522      0.580480983      52.7108298       
2.178            0.599922365      51.2555831       0.780376109      -36.8406397      0.780376109      -36.8406397      0.599922542      51.2555848       
2.29             0.618237621      49.8572791       0.764898472      -38.1606035      0.764898472      -38.1606035      0.618237804      49.8572807       
2.402            0.63548191       48.514224        0.749604778      -39.4252658      0.749604778      -39.4252658      0.635482098      48.5142256       
2.514            0.651711101      47.2246091       0.734533298      -40.6364585      0.734533298      -40.6364585      0.651711295      47.2246106       
2.626            0.66698078       45.9865467       0.71971547       -41.7960878      0.71971547       -41.7960878      0.666980978      45.9865482       
2.738            0.681345589      44.7981015       0.70517662       -42.9061037      0.70517662       -42.9061037      0.681345792      44.798103        
2.85             0.694858732      43.6573174       0.690936663      -43.9684738      0.690936663      -43.9684738      0.694858939      43.6573188       
2.962            0.70757159       42.5622392       0.677010769      -44.9851625      0.677010769      -44.9851625      0.707571801      42.5622405       
3.074            0.719533459      41.5109303       0.663409973      -45.9581137      0.663409973      -45.9581137      0.719533673      41.5109316       
3.186            0.730791368      40.5014871       0.650141753      -46.8892371      0.650141753      -46.8892371      0.730791586      40.5014883       
3.298            0.741389979      39.5320496       0.637210535      -47.7803972      0.637210535      -47.7803972      0.7413902        39.5320508       
3.41             0.751371534      38.6008103       0.624618162      -48.6334054      0.624618162      -48.6334054      0.751371758      38.6008115       
3.522            0.760775859      37.70602         0.612364298      -49.4500139      0.612364298      -49.4500139      0.760776086      37.7060211       
3.634            0.7696404        36.8459921       0.600446799      -50.2319116      0.600446799      -50.2319116      0.769640629      36.8459932       
3.746            0.778000279      36.0191057       0.58886202       -50.9807214      0.58886202       -50.9807214      0.778000511      36.0191068       
3.858            0.78588838       35.223807        0.5776051        -51.6979985      0.5776051        -51.6979985      0.785888615      35.223808        
3.97             0.793335442      34.4586095       0.566670196      -52.3852305      0.566670196      -52.3852305      0.793335679      34.4586105       
4.082            0.800370161      33.7220942       0.556050693      -53.0438372      0.556050693      -53.0438372      0.8003704        33.7220951       
4.194            0.807019297      33.0129083       0.545739375      -53.6751721      0.545739375      -53.6751721      0.807019538      33.0129092       
4.306            0.813307786      32.329764        0.535728579      -54.2805233      0.535728579      -54.2805233      0.813308029      32.3297649       
4.418            0.819258851      31.6714367       0.52601032       -54.8611158      0.52601032       -54.8611158      0.819259096      31.6714376       
4.53             0.824894105      31.0367629       0.516576401      -55.4181132      0.516576401      -55.4181132      0.824894352      31.0367637       
4.642            0.83023366       30.4246377       0.507418497      -55.9526203      0.507418497      -55.9526203      0.830233908      30.4246386       
4.754            0.835296226      29.834013        0.498528237      -56.4656854      0.498528237      -56.4656854      0.835296476      29.8340138       
4.866            0.840099206      29.2638945       0.489897257      -56.9583024      0.489897257      -56.9583024      0.840099457      29.2638953       
4.978            0.84465879       28.7133396       0.481517261      -57.4314139      0.481517261      -57.4314139      0.844659043      28.7133404       
5.09             0.84899004       28.1814548       0.47338005       -57.8859131      0.47338005       -57.8859131      0.848990294      28.1814556       
5.202            0.853106968      27.6673933       0.465477566      -58.3226466      0.465477566      -58.3226466      0.853107223      27.6673941       
5.314            0.857022617      27.1703526       0.45780191       -58.7424166      0.45780191       -58.7424166      0.857022873      27.1703533       
5.426            0.860749126      26.6895722       0.450345367      -59.1459833      0.450345367      -59.1459833      0.860749384      26.6895729       
5.538            0.864297802      26.2243313       0.443100418      -59.534067       0.443100418      -59.534067       0.864298061      26.224332        
5.65             0.867679176      25.7739469       0.436059755      -59.9073505      0.436059755      -59.9073505      0.867679436      25.7739476       
5.762            0.870903063      25.3377716       0.429216282      -60.2664809      0.429216282      -60.2664809      0.870903324      25.3377723       
5.874            0.873978614      24.9151915       0.422563129      -60.6120717      0.422563129      -60.6120717      0.873978875      24.9151922       
5.986            0.876914363      24.5056245       0.416093647      -60.9447046      0.416093647      -60.9447046      0.876914625      24.5056252       
6.098            0.879718276      24.1085185       0.40980141       -61.2649314      0.40980141       -61.2649314      0.87971854       24.1085192       
6.21             0.882397791      23.7233497       0.403680217      -61.5732756      0.403680217      -61.5732756      0.882398055      23.7233504       
6.322            0.884959853      23.3496211       0.397724086      -61.8702338      0.397724086      -61.8702338      0.884960118      23.3496217       
6.434            0.887410958      22.9868606       0.391927252      -62.1562776      0.391927252      -62.1562776      0.887411223      22.9868612       
6.546            0.889757176      22.6346202       0.386284163      -62.4318549      0.386284163      -62.4318549      0.889757442      22.6346208       
6.658            0.89200419       22.2924742       0.380789474      -62.6973908      0.380789474      -62.6973908      0.892004457      22.2924748       
6.77             0.894157318      21.9600182       0.375438042      -62.9532897      0.375438042      -62.9532897      0.894157586      21.9600188       
6.882            0.896221544      21.6368676       0.370224922      -63.1999357      0.370224922      -63.1999357      0.896221812      21.6368682       
6.994            0.898201537      21.3226568       0.365145357      -63.4376941      0.365145357      -63.4376941      0.898201806      21.3226574       
7.106            0.900101676      21.0170379       0.360194776      -63.6669125      0.360194776      -63.6669125      0.900101946      21.0170385       
7.218            0.901926071      20.7196799       0.355368785      -63.8879217      0.355368785      -63.8879217      0.901926341      20.7196805       
7.33             0.903678579      20.4302677       0.350663162      -64.1010364      0.350663162      -64.1010364      0.90367885       20.4302682       
7.442            0.905362824      20.148501        0.346073849      -64.3065566      0.346073849      -64.3065566      0.905363096      20.1485016       
7.554            0.906982214      19.874094        0.341596948      -64.5047681      0.341596948      -64.5047681      0.906982485      19.8740945       
7.666            0.90853995       19.606774        0.337228715      -64.695943       0.337228715      -64.695943       0.908540222      19.6067745       
7.778            0.910039047      19.3462812       0.332965551      -64.8803411      0.332965551      -64.8803411      0.91003932       19.3462817       
7.89             0.911482344      19.0923675       0.328803999      -65.0582101      0.328803999      -65.0582101      0.911482617      19.092368        
8.002            0.912872513      18.8447965       0.324740737      -65.2297863      0.324740737      -65.2297863      0.912872786      18.844797        
8.114            0.914212074      18.6033422       0.320772574      -65.3952954      0.320772574      -65.3952954      0.914212348      18.6033427       
8.226            0.915503404      18.367789        0.316896441      -65.5549529      0.316896441      -65.5549529      0.915503678      18.3677895       
8.338            0.916748744      18.1379307       0.313109391      -65.7089647      0.313109391      -65.7089647      0.916749019      18.1379312       
8.45             0.917950212      17.9135705       0.309408589      -65.8575275      0.309408589      -65.8575275      0.917950487      17.913571        
8.562            0.919109806      17.6945199       0.305791312      -66.0008295      0.305791312      -66.0008295      0.919110082      17.6945204       
8.674            0.920229417      17.4805989       0.30225494       -66.1390506      0.30225494       -66.1390506      0.920229692      17.4805993       
8.786            0.92131083       17.271635        0.298796953      -66.2723631      0.298796953      -66.2723631      0.921311106      17.2716355       
8.898            0.922355736      17.0674633       0.29541493       -66.4009318      0.29541493       -66.4009318      0.922356012      17.0674637       
9.01             0.923365735      16.8679258       0.292106539      -66.5249146      0.292106539      -66.5249146      0.923366012      16.8679262       
9.122            0.924342342      16.672871        0.288869537      -66.6444626      0.288869537      -66.6444626      0.924342619      16.6728714       
9.234            0.925286992      16.482154        0.285701767      -66.7597208      0.285701767      -66.7597208      0.925287269      16.4821545       
9.346            0.926201046      16.2956358       0.28260115       -66.8708281      0.28260115       -66.8708281      0.926201323      16.2956362       
9.458            0.927085794      16.1131829       0.279565687      -66.9779178      0.279565687      -66.9779178      0.927086072      16.1131833       
9.57             0.927942461      15.9346674       0.276593452      -67.0811176      0.276593452      -67.0811176      0.927942739      15.9346678       
9.682            0.928772208      15.7599667       0.27368259       -67.1805501      0.27368259       -67.1805501      0.928772487      15.7599671       
9.794            0.92957614       15.5889627       0.270831314      -67.2763333      0.270831314      -67.2763333      0.929576419      15.5889631       
9.906            0.930355306      15.4215424       0.268037902      -67.3685801      0.268037902      -67.3685801      0.930355585      15.4215428       
10.018           0.931110702      15.2575969       0.265300695      -67.4573992      0.265300695      -67.4573992      0.931110981      15.2575973       
10.13            0.931843277      15.0970219       0.262618092      -67.542895       0.262618092      -67.542895       0.931843556      15.0970223       
10.242           0.932553932      14.9397169       0.259988551      -67.6251679      0.259988551      -67.6251679      0.932554212      14.9397172       
10.354           0.933243527      14.7855851       0.257410585      -67.7043144      0.257410585      -67.7043144      0.933243807      14.7855855       
10.466           0.933912878      14.6345339       0.254882758      -67.7804273      0.254882758      -67.7804273      0.933913158      14.6345343       
10.578           0.934562766      14.4864736       0.252403686      -67.8535961      0.252403686      -67.8535961      0.934563046      14.486474        
10.69            0.935193931      14.3413183       0.249972033      -67.9239068      0.249972033      -67.9239068      0.935194211      14.3413187       
10.802           0.935807082      14.1989852       0.247586508      -67.991442       0.247586508      -67.991442       0.935807362      14.1989855       
10.914           0.936402893      14.0593942       0.245245866      -68.0562818      0.245245866      -68.0562818      0.936403174      14.0593946       
11.026           0.93698201       13.9224687       0.242948905      -68.1185028      0.242948905      -68.1185028      0.936982291      13.922469        
11.138           0.937545046      13.7881344       0.240694461      -68.1781791      0.240694461      -68.1781791      0.937545327      13.7881347       
11.25            0.93809259       13.6563199       0.238481414      -68.2353823      0.238481414      -68.2353823      0.938092871      13.6563202       
11.362           0.938625201      13.5269563       0.236308678      -68.2901811      0.236308678      -68.2901811      0.938625482      13.5269567       
11.474           0.939143416      13.3999772       0.234175204      -68.342642       0.234175204      -68.342642       0.939143698      13.3999776       
11.586           0.939647748      13.2753184       0.232079979      -68.3928291      0.232079979      -68.3928291      0.939648029      13.2753188       
11.698           0.940138686      13.1529181       0.230022022      -68.4408043      0.230022022      -68.4408043      0.940138968      13.1529185       
11.81            0.940616699      13.0327165       0.228000384      -68.4866273      0.228000384      -68.4866273      0.940616981      13.0327168       
11.922           0.941082237      12.9146558       0.22601415       -68.5303558      0.22601415       -68.5303558      0.941082519      12.9146562       
12.034           0.941535729      12.7986805       0.22406243       -68.5720456      0.22406243       -68.5720456      0.941536011      12.7986808       
12.146           0.941977586      12.6847365       0.222144365      -68.6117504      0.222144365      -68.6117504      0.941977868      12.6847369       
12.258           0.942408202      12.572772        0.220259124      -68.6495224      0.220259124      -68.6495224      0.942408485      12.5727723       
12.37            0.942827956      12.4627365       0.218405901      -68.6854118      0.218405901      -68.6854118      0.942828239      12.4627368       
12.482           0.94323721       12.3545814       0.216583916      -68.7194673      0.216583916      -68.7194673      0.943237493      12.3545817       
12.594           0.943636311      12.2482597       0.214792414      -68.7517361      0.214792414      -68.7517361      0.943636594      12.24826         
12.706           0.944025592      12.1437258       0.213030661      -68.7822635      0.213030661      -68.7822635      0.944025875      12.1437261       
12.818           0.944405373      12.0409358       0.211297949      -68.8110937      0.211297949      -68.8110937      0.944405656      12.0409361       
12.93            0.944775961      11.9398469       0.20959359       -68.8382693      0.20959359       -68.8382693      0.944776244      11.9398472       
13.042           0.94513765       11.8404179       0.207916917      -68.8638318      0.207916917      -68.8638318      0.945137934      11.8404182       
13.154           0.945490725      11.7426088       0.206267283      -68.8878209      0.206267283      -68.8878209      0.945491009      11.7426091       
13.266           0.945835457      11.6463809       0.204644062      -68.9102756      0.204644062      -68.9102756      0.945835741      11.6463812       
13.378           0.946172107      11.5516966       0.203046644      -68.9312333      0.203046644      -68.9312333      0.946172391      11.5516969       
13.49            0.946500927      11.4585197       0.20147444       -68.9507304      0.20147444       -68.9507304      0.946501211      11.45852         
13.602           0.946822159      11.3668149       0.199926877      -68.9688023      0.199926877      -68.9688023      0.946822442      11.3668152       
13.714           0.947136034      11.2765481       0.198403398      -68.9854831      0.198403398      -68.9854831      0.947136318      11.2765484       
13.826           0.947442777      11.187686        0.196903464      -69.000806       0.196903464      -69.000806       0.947443061      11.1876863       
13.938           0.947742604      11.1001966       0.195426551      -69.0148031      0.195426551      -69.0148031      0.947742888      11.1001969       
14.05            0.948035721      11.0140488       0.19397215       -69.0275057      0.19397215       -69.0275057      0.948036005      11.014049        
14.162           0.948322328      10.9292121       0.192539765      -69.038944       0.192539765      -69.038944       0.948322612      10.9292124       
14.274           0.948602617      10.8456574       0.191128917      -69.0491476      0.191128917      -69.0491476      0.948602901      10.8456577       
