! Coilcraft 1812PS-392 Power Chip Inductor				
! 1 October 2002			
# MHZ S MA R 50
!Freq             MagS11           AngS11           MagS21           AngS21           MagS12           AngS12           MagS22           AngS22
0.05             0.0122879453     84.134605        0.998818923      -0.701207217     0.998818923      -0.701207217     0.0122879465     84.1346079       
0.175            0.0428264693     85.8823215       0.997839408      -2.45349122      0.997839408      -2.45349122      0.0428264743     85.8823253       
0.3              0.0733049396     84.673178        0.995872755      -4.20302525      0.995872755      -4.20302525      0.0733049499     84.673183        
0.425            0.103609352      83.1042258       0.992902404      -5.94623309      0.992902404      -5.94623309      0.10360937       83.1042316       
0.55             0.133632946      81.4223081       0.988936135      -7.67862797      0.988936135      -7.67862797      0.133632972      81.422314        
0.675            0.163273378      79.6990025       0.984004596      -9.39576515      0.984004596      -9.39576515      0.163273413      79.6990084       
0.8              0.192439328      77.9654058       0.97815365       -11.0936628      0.97815365       -11.0936628      0.192439372      77.9654115       
0.925            0.221051499      76.2379946       0.971438045      -12.7688527      0.971438045      -12.7688527      0.221051553      76.2379999       
1.05             0.249041711      74.5266153       0.963917777      -14.4183191      0.963917777      -14.4183191      0.249041774      74.5266203       
1.175            0.276351923      72.8376941       0.95565608       -16.039437       0.95565608       -16.039437       0.276351994      72.8376988       
1.3              0.302933516      71.1757179       0.946718149      -17.6299308      0.946718149      -17.6299308      0.302933597      71.1757224       
1.425            0.328746783      69.5439729       0.937170114      -19.1878485      0.937170114      -19.1878485      0.328746872      69.5439771       
1.55             0.353760463      67.944936        0.927078149      -20.7115441      0.927078149      -20.7115441      0.353760561      67.9449399       
1.675            0.377951277      66.3804936       0.916507649      -22.1996632      0.916507649      -22.1996632      0.377951382      66.3804973       
1.8              0.401303403      64.8520723       0.905522495      -23.6511279      0.905522495      -23.6511279      0.401303516      64.8520758       
1.925            0.4238079        63.3607224       0.894184414      -25.0651214      0.894184414      -25.0651214      0.42380802       63.3607256       
2.05             0.445462089      61.9071758       0.882552441      -26.4410704      0.882552441      -26.4410704      0.445462216      61.9071789       
2.175            0.466268895      60.4918906       0.870682502      -27.7786267      0.870682502      -27.7786267      0.466269029      60.4918936       
2.3              0.486236187      59.1150863       0.858627086      -29.0776474      0.858627086      -29.0776474      0.486236327      59.1150892       
2.425            0.505376115      57.7767744       0.846435037      -30.3381748      0.846435037      -30.3381748      0.505376261      57.7767771       
2.55             0.523704473      56.4767854       0.834151427      -31.5604167      0.834151427      -31.5604167      0.523704625      56.4767879       
2.675            0.541240087      55.2147929       0.821817518      -32.7447264      0.821817518      -32.7447264      0.541240245      55.2147954       
2.8              0.558004251      53.9903365       0.809470783      -33.8915835      0.809470783      -33.8915835      0.558004414      53.9903389       
2.925            0.574020202      52.8028415       0.797144998      -35.001576       0.797144998      -35.001576       0.57402037       52.8028437       
3.05             0.589312649      51.6516376       0.784870367      -36.0753835      0.784870367      -36.0753835      0.589312822      51.6516397       
3.175            0.603907355      50.5359758       0.772673687      -37.113761       0.772673687      -37.113761       0.603907532      50.5359779       
3.3              0.617830763      49.4550437       0.760578541      -38.1175251      0.760578541      -38.1175251      0.617830945      49.4550457       
3.425            0.631109678      48.4079787       0.748605499      -39.0875405      0.748605499      -39.0875405      0.631109863      48.4079807       
3.55             0.643770989      47.3938805       0.73677234       -40.0247086      0.73677234       -40.0247086      0.643771179      47.3938823       
3.675            0.655841442      46.4118213       0.725094262      -40.9299573      0.725094262      -40.9299573      0.655841636      46.4118231       
3.8              0.667347443      45.4608557       0.71358411       -41.8042314      0.71358411       -41.8042314      0.66734764       45.4608575       
3.925            0.678314902      44.5400285       0.702252581      -42.6484852      0.702252581      -42.6484852      0.678315102      44.5400303       
4.05             0.688769106      43.6483817       0.69110843       -43.4636754      0.69110843       -43.4636754      0.68876931       43.6483834       
4.175            0.698734624      42.7849603       0.680158667      -44.2507551      0.680158667      -44.2507551      0.69873483       42.784962        
4.3              0.708235228      41.9488179       0.669408741      -45.0106692      0.669408741      -45.0106692      0.708235438      41.9488194       
4.425            0.717293843      41.1390201       0.658862705      -45.74435        0.658862705      -45.74435        0.717294055      41.1390216       
4.55             0.725932507      40.3546486       0.648523383      -46.4527138      0.648523383      -46.4527138      0.725932723      40.3546501       
4.675            0.734172356      39.5948038       0.638392511      -47.1366583      0.638392511      -47.1366583      0.734172574      39.5948052       
4.8              0.742033606      38.858607        0.628470871      -47.79706        0.628470871      -47.79706        0.742033826      38.8586084       
4.925            0.749535562      38.1452021       0.618758417      -48.4347731      0.618758417      -48.4347731      0.749535785      38.1452035       
5.05             0.756696623      37.4537571       0.609254378      -49.0506275      0.609254378      -49.0506275      0.756696848      37.4537584       
5.175            0.763534301      36.7834648       0.599957364      -49.6454286      0.599957364      -49.6454286      0.763534528      36.7834661       
5.3              0.770065237      36.1335436       0.590865454      -50.2199558      0.590865454      -50.2199558      0.770065467      36.1335449       
5.425            0.776305235      35.5032378       0.581976273      -50.7749633      0.581976273      -50.7749633      0.776305466      35.503239        
5.55             0.782269281      34.8918176       0.573287068      -51.3111787      0.573287068      -51.3111787      0.782269514      34.8918188       
5.675            0.787971577      34.2985792       0.564794766      -51.8293043      0.564794766      -51.8293043      0.787971812      34.2985804       
5.8              0.793425576      33.7228444       0.556496035      -52.3300164      0.556496035      -52.3300164      0.793425812      33.7228456       
5.925            0.798644007      33.1639606       0.548387333      -52.8139661      0.548387333      -52.8139661      0.798644245      33.1639618       
6.05             0.803638916      32.6212997       0.540464948      -53.2817797      0.540464948      -53.2817797      0.803639155      32.6213009       
6.175            0.80842169       32.0942583       0.532725041      -53.7340593      0.532725041      -53.7340593      0.808421931      32.0942594       
6.3              0.813003097      31.5822564       0.525163675      -54.1713833      0.525163675      -54.1713833      0.813003339      31.5822575       
6.425            0.817393313      31.0847372       0.517776849      -54.5943071      0.517776849      -54.5943071      0.817393557      31.0847383       
6.55             0.821601953      30.6011663       0.510560521      -55.0033636      0.510560521      -55.0033636      0.821602198      30.6011674       
6.675            0.825638104      30.1310309       0.503510628      -55.3990644      0.503510628      -55.3990644      0.82563835       30.1310319       
6.8              0.829510349      29.673839        0.496623107      -55.7819002      0.496623107      -55.7819002      0.829510597      29.67384         
6.925            0.833226799      29.2291188       0.489893913      -56.1523415      0.489893913      -56.1523415      0.833227047      29.2291198       
7.05             0.836795115      28.7964181       0.483319028      -56.5108395      0.483319028      -56.5108395      0.836795365      28.7964191       
7.175            0.840222538      28.3753031       0.476894476      -56.8578267      0.476894476      -56.8578267      0.840222789      28.3753041       
7.3              0.843515909      27.9653581       0.470616335      -57.1937177      0.470616335      -57.1937177      0.843516161      27.965359        
7.425            0.846681694      27.5661844       0.464480737      -57.5189102      0.464480737      -57.5189102      0.846681947      27.5661854       
7.55             0.849726004      27.1774002       0.458483885      -57.8337851      0.458483885      -57.8337851      0.849726258      27.1774011       
7.675            0.852654618      26.7986391       0.452622049      -58.1387077      0.452622049      -58.1387077      0.852654873      26.79864         
7.8              0.855473         26.4295501       0.446891577      -58.4340281      0.446891577      -58.4340281      0.855473256      26.4295509       
7.925            0.858186317      26.0697966       0.441288897      -58.720082       0.441288897      -58.720082       0.858186573      26.0697975       
8.05             0.860799458      25.719056        0.435810515      -58.9971911      0.435810515      -58.9971911      0.860799715      25.7190569       
8.175            0.863317049      25.3770189       0.430453024      -59.265664       0.430453024      -59.265664       0.863317307      25.3770198       
8.3              0.865743469      25.0433886       0.425213101      -59.5257966      0.425213101      -59.5257966      0.865743728      25.0433895       
8.425            0.868082866      24.7178806       0.420087505      -59.7778728      0.420087505      -59.7778728      0.868083125      24.7178814       
8.55             0.870339165      24.4002219       0.415073084      -60.0221646      0.415073084      -60.0221646      0.870339425      24.4002227       
8.675            0.872516087      24.0901506       0.410166771      -60.2589333      0.410166771      -60.2589333      0.872516348      24.0901514       
8.8              0.874617158      23.7874155       0.405365581      -60.4884295      0.405365581      -60.4884295      0.874617419      23.7874163       
8.925            0.876645719      23.4917755       0.400666616      -60.7108936      0.400666616      -60.7108936      0.876645981      23.4917763       
9.05             0.878604941      23.2029991       0.396067058      -60.9265564      0.396067058      -60.9265564      0.878605204      23.2029998       
9.175            0.880497831      22.920864        0.391564172      -61.1356397      0.391564172      -61.1356397      0.880498094      22.9208647       
9.3              0.882327241      22.6451568       0.387155304      -61.3383561      0.387155304      -61.3383561      0.882327505      22.6451576       
9.425            0.88409588       22.3756727       0.382837877      -61.5349102      0.382837877      -61.5349102      0.884096144      22.3756734       
9.55             0.88580632       22.1122145       0.378609392      -61.7254983      0.378609392      -61.7254983      0.885806585      22.1122153       
9.675            0.887461004      21.8545932       0.374467424      -61.9103091      0.374467424      -61.9103091      0.887461269      21.854594        
9.8              0.889062253      21.6026269       0.370409623      -62.089524       0.370409623      -62.089524       0.889062519      21.6026276       
9.925            0.890612275      21.3561407       0.366433709      -62.2633173      0.366433709      -62.2633173      0.890612542      21.3561414       
10.05            0.892113168      21.1149665       0.362537473      -62.4318568      0.362537473      -62.4318568      0.892113435      21.1149672       
10.175           0.893566928      20.8789427       0.358718773      -62.5953035      0.358718773      -62.5953035      0.893567196      20.8789433       
10.3             0.894975455      20.6479135       0.354975534      -62.7538128      0.354975534      -62.7538128      0.894975723      20.6479142       
10.425           0.896340557      20.4217295       0.351305742      -62.9075338      0.351305742      -62.9075338      0.896340826      20.4217302       
10.55            0.897663957      20.2002465       0.34770745       -63.0566103      0.34770745       -63.0566103      0.897664225      20.2002471       
10.675           0.898947293      19.9833257       0.344178767      -63.2011805      0.344178767      -63.2011805      0.898947562      19.9833263       
10.8             0.90019213       19.7708337       0.340717864      -63.3413777      0.340717864      -63.3413777      0.900192399      19.7708343       
10.925           0.901399957      19.5626417       0.337322964      -63.4773302      0.337322964      -63.4773302      0.901400227      19.5626424       
11.05            0.902572195      19.3586259       0.333992351      -63.6091615      0.333992351      -63.6091615      0.902572466      19.3586265       
11.175           0.9037102        19.1586668       0.330724357      -63.7369908      0.330724357      -63.7369908      0.903710471      19.1586674       
11.3             0.904815265      18.9626492       0.327517368      -63.860933       0.327517368      -63.860933       0.904815536      18.9626498       
11.425           0.905888624      18.7704622       0.324369819      -63.9810986      0.324369819      -63.9810986      0.905888895      18.7704628       
11.55            0.906931456      18.5819986       0.321280193      -64.0975946      0.321280193      -64.0975946      0.906931727      18.5819992       
11.675           0.907944887      18.3971554       0.318247021      -64.2105237      0.318247021      -64.2105237      0.907945159      18.397156        
11.8             0.908929993      18.2158327       0.315268878      -64.3199856      0.315268878      -64.3199856      0.908930266      18.2158333       
11.925           0.909887803      18.0379345       0.312344382      -64.4260759      0.312344382      -64.4260759      0.909888076      18.0379351       
12.05            0.9108193        17.863368        0.309472194      -64.5288873      0.309472194      -64.5288873      0.910819572      17.8633686       
12.175           0.911725423      17.6920435       0.306651016      -64.6285092      0.306651016      -64.6285092      0.911725696      17.6920441       
12.3             0.912607074      17.5238745       0.303879588      -64.7250279      0.303879588      -64.7250279      0.912607347      17.5238751       
12.425           0.913465113      17.3587774       0.301156691      -64.8185267      0.301156691      -64.8185267      0.913465387      17.358778        
12.55            0.914300365      17.1966714       0.298481139      -64.9090863      0.298481139      -64.9090863      0.914300639      17.196672        
12.675           0.915113619      17.0374785       0.295851783      -64.9967845      0.295851783      -64.9967845      0.915113893      17.0374791       
12.8             0.915905632      16.8811232       0.293267511      -65.0816965      0.293267511      -65.0816965      0.915905906      16.8811238       
12.925           0.916677128      16.7275325       0.29072724       -65.1638952      0.29072724       -65.1638952      0.916677403      16.7275331       
13.05            0.917428803      16.5766359       0.288229921      -65.243451       0.288229921      -65.243451       0.917429078      16.5766364       
13.175           0.918161323      16.4283651       0.285774537      -65.3204319      0.285774537      -65.3204319      0.918161598      16.4283656       
13.3             0.918875325      16.282654        0.2833601        -65.3949038      0.2833601        -65.3949038      0.918875601      16.2826546       
13.425           0.919571425      16.1394388       0.28098565       -65.4669304      0.28098565       -65.4669304      0.9195717        16.1394394       
13.55            0.920250209      15.9986576       0.278650256      -65.5365736      0.278650256      -65.5365736      0.920250485      15.9986582       
13.675           0.920912243      15.8602506       0.276353015      -65.603893       0.276353015      -65.603893       0.920912519      15.8602511       
13.8             0.92155807       15.7241596       0.274093049      -65.6689465      0.274093049      -65.6689465      0.921558346      15.7241601       
13.925           0.922188209      15.5903285       0.271869505      -65.7317902      0.271869505      -65.7317902      0.922188485      15.590329        
14.05            0.922803162      15.4587029       0.269681555      -65.7924784      0.269681555      -65.7924784      0.922803438      15.4587034       
14.175           0.923403409      15.3292301       0.267528394      -65.8510636      0.267528394      -65.8510636      0.923403686      15.3292306       
14.3             0.923989413      15.2018589       0.265409242      -65.907597       0.265409242      -65.907597       0.92398969       15.2018594       
14.425           0.924561619      15.0765398       0.263323337      -65.9621279      0.263323337      -65.9621279      0.924561896      15.0765403       
14.55            0.925120455      14.9532247       0.261269944      -66.0147042      0.261269944      -66.0147042      0.925120732      14.9532252       
14.675           0.925666331      14.8318671       0.259248343      -66.0653726      0.259248343      -66.0653726      0.925666608      14.8318676       
14.8             0.926199644      14.7124218       0.257257838      -66.114178       0.257257838      -66.114178       0.926199921      14.7124222       
14.925           0.926720775      14.5948448       0.25529775       -66.1611644      0.25529775       -66.1611644      0.926721053      14.5948453       
15.05            0.927230091      14.4790938       0.25336742       -66.206374       0.25336742       -66.206374       0.927230369      14.4790942       
15.175           0.927727946      14.3651272       0.251466206      -66.2498482      0.251466206      -66.2498482      0.927728224      14.3651277       
15.3             0.928214679      14.2529052       0.249593486      -66.2916269      0.249593486      -66.2916269      0.928214958      14.2529057       
15.425           0.92869062       14.1423887       0.247748651      -66.3317491      0.247748651      -66.3317491      0.928690899      14.1423892       
15.55            0.929156085      14.03354         0.245931112      -66.3702524      0.245931112      -66.3702524      0.929156363      14.0335404       
15.675           0.929611378      13.9263223       0.244140294      -66.4071735      0.244140294      -66.4071735      0.929611657      13.9263227       
15.8             0.930056793      13.8207          0.242375639      -66.442548       0.242375639      -66.442548       0.930057072      13.8207004       
15.925           0.930492615      13.7166384       0.240636601      -66.4764106      0.240636601      -66.4764106      0.930492894      13.7166388       
