! Coilcraft 1812PS-473 Power Chip Inductor				
! 1 October 2002			
# MHZ S MA R 50
!Freq             MagS11           AngS11           MagS21           AngS21           MagS12           AngS12           MagS22           AngS22
0.05             0.145025244      78.0071412       0.980184935      -8.32150814      0.980184935      -8.32150814      0.145025259      78.0071426       
0.095            0.267781964      72.4164653       0.953894758      -15.5220202      0.953894758      -15.5220202      0.267781991      72.4164661       
0.14             0.37869614       66.2543525       0.915656019      -22.2449053      0.915656019      -22.2449053      0.378696177      66.254353        
0.185            0.475284342      60.4063479       0.869747597      -28.3708227      0.869747597      -28.3708227      0.47528439       60.4063484       
0.23             0.557175037      55.0849101       0.82014166       -33.8540734      0.82014166       -33.8540734      0.557175092      55.0849105       
0.275            0.625395723      50.3373582       0.769923347      -38.7048315      0.769923347      -38.7048315      0.625395785      50.3373586       
0.32             0.681666477      46.1442542       0.721173002      -42.9676031      0.721173002      -42.9676031      0.681666545      46.1442545       
0.365            0.727889913      42.4573607       0.675113685      -46.7032746      0.675113685      -46.7032746      0.727889985      42.457361        
0.41             0.765861646      39.218585        0.632342865      -49.9769973      0.632342865      -49.9769973      0.765861723      39.2185853       
0.455            0.797143873      36.369694        0.593047798      -52.8512446      0.593047798      -52.8512446      0.797143953      36.3696943       
0.5              0.823035165      33.8569079       0.557169711      -55.3824918      0.557169711      -55.3824918      0.823035247      33.8569082       
0.545            0.84458743       31.6326656       0.52451594       -57.6200919      0.52451594       -57.6200919      0.844587514      31.6326659       
0.59             0.862640939      29.6559135       0.494831097      -59.6063335      0.494831097      -59.6063335      0.862641026      29.6559138       
0.635            0.877862523      27.8916907       0.467839676      -61.3770546      0.467839676      -61.3770546      0.877862611      27.891691        
0.68             0.890780412      26.3104336       0.443270063      -62.9624578      0.443270063      -62.9624578      0.890780501      26.3104339       
0.725            0.901813577      24.8872158       0.420867035      -64.3879446      0.420867035      -64.3879446      0.901813667      24.8872162       
0.77             0.911295397      23.6010277       0.400397385      -65.6748853      0.400397385      -65.6748853      0.911295488      23.601028        
0.815            0.919492337      22.4341357       0.381651599      -66.8412904      0.381651599      -66.8412904      0.919492429      22.4341361       
0.86             0.926618489      21.3715348       0.364443391      -67.902382       0.364443391      -67.902382       0.926618582      21.3715351       
0.905            0.932846842      20.4004873       0.348608143      -68.8710687      0.348608143      -68.8710687      0.932846935      20.4004877       
0.95             0.93831799       19.5101415       0.334000879      -69.7583393      0.334000879      -69.7583393      0.938318084      19.5101419       
0.995            0.943146877      18.6912164       0.320494116      -70.573585       0.320494116      -70.573585       0.943146972      18.6912167       
1.04             0.947428027      17.9357425       0.307975786      -71.3248653      0.307975786      -71.3248653      0.947428122      17.9357429       
1.085            0.951239619      17.2368492       0.296347312      -72.0191242      0.296347312      -72.0191242      0.951239714      17.2368496       
1.13             0.954646672      16.5885897       0.285521873      -72.6623695      0.285521873      -72.6623695      0.954646767      16.5885901       
1.175            0.957703558      15.9857961       0.275422881      -73.2598195      0.275422881      -73.2598195      0.957703654      15.9857965       
1.22             0.960455978      15.4239609       0.265982639      -73.8160238      0.265982639      -73.8160238      0.960456074      15.4239613       
1.265            0.962942539      14.8991375       0.257141185      -74.3349644      0.257141185      -74.3349644      0.962942635      14.8991379       
1.31             0.965196011      14.4078583       0.248845284      -74.8201387      0.248845284      -74.8201387      0.965196108      14.4078588       
1.355            0.967244337      13.947066        0.24104757       -75.274629       0.24104757       -75.274629       0.967244434      13.9470665       
1.4              0.969111449      13.514056        0.233705793      -75.7011613      0.233705793      -75.7011613      0.969111546      13.5140565       
1.445            0.970817929      13.1064282       0.226782183      -76.1021537      0.226782183      -76.1021537      0.970818026      13.1064287       
1.49             0.972381549      12.7220461       0.220242894      -76.4797582      0.220242894      -76.4797582      0.972381646      12.7220466       
1.535            0.973817715      12.3590024       0.214057526      -76.8358953      0.214057526      -76.8358953      0.973817813      12.3590029       
1.58             0.975139829      12.0155895       0.208198713      -77.1722837      0.208198713      -77.1722837      0.975139927      12.01559         
1.625            0.976359592      11.6902744       0.202641765      -77.490466       0.202641765      -77.490466       0.97635969       11.690275        
1.67             0.977487252      11.3816775       0.19736436       -77.79183        0.19736436       -77.79183        0.97748735       11.3816781       
1.715            0.978531815      11.088554        0.192346274      -78.0776274      0.192346274      -78.0776274      0.978531913      11.0885546       
1.76             0.97950122       10.8097781       0.187569143      -78.34899        0.187569143      -78.34899        0.979501318      10.8097787       
1.805            0.980402485      10.5443293       0.183016264      -78.6069432      0.183016264      -78.6069432      0.980402584      10.5443299       
1.85             0.981241832      10.2912804       0.178672413      -78.8524183      0.178672413      -78.8524183      0.98124193       10.291281        
1.895            0.98202479       10.0497876       0.174523688      -79.086263       0.174523688      -79.086263       0.982024888      10.0497882       
1.94             0.982756289      9.8190809        0.170557372      -79.3092499      0.170557372      -79.3092499      0.982756388      9.81908153       
1.985            0.983440732      9.59845665       0.166761812      -79.5220854      0.166761812      -79.5220854      0.983440831      9.59845729       
2.03             0.984082063      9.3872705        0.163126312      -79.7254156      0.163126312      -79.7254156      0.984082162      9.38727116       
2.075            0.984683823      9.18493138       0.159641037      -79.9198332      0.159641037      -79.9198332      0.984683922      9.18493205       
2.12             0.985249195      8.99089612       0.156296929      -80.1058827      0.156296929      -80.1058827      0.985249294      8.99089681       
2.165            0.985781051      8.80466477       0.153085638      -80.2840649      0.153085638      -80.2840649      0.98578115       8.80466547       
2.21             0.986281985      8.62577639       0.149999447      -80.4548413      0.149999447      -80.4548413      0.986282084      8.6257771        
2.255            0.986754343      8.45380539       0.147031222      -80.618638       0.147031222      -80.618638       0.986754442      8.45380611       
2.3              0.987200255      8.28835817       0.144174352      -80.7758488      0.144174352      -80.7758488      0.987200354      8.2883589        
2.345            0.987621654      8.12907026       0.141422707      -80.9268381      0.141422707      -80.9268381      0.987621754      8.12907101       
2.39             0.988020302      7.97560365       0.138770595      -81.0719437      0.138770595      -81.0719437      0.988020402      7.97560441       
2.435            0.988397803      7.82764446       0.13621272       -81.2114792      0.13621272       -81.2114792      0.988397903      7.82764524       
2.48             0.988755623      7.68490084       0.133744154      -81.345736       0.133744154      -81.345736       0.988755723      7.68490163       
2.525            0.989095102      7.54710107       0.131360304      -81.4749852      0.131360304      -81.4749852      0.989095202      7.54710187       
2.57             0.989417467      7.41399189       0.129056881      -81.5994793      0.129056881      -81.5994793      0.989417567      7.41399271       
2.615            0.989723846      7.28533695       0.126829881      -81.7194539      0.126829881      -81.7194539      0.989723946      7.28533778       
2.66             0.990015274      7.16091543       0.124675557      -81.835129       0.124675557      -81.835129       0.990015374      7.16091627       
2.705            0.990292702      7.0405208        0.122590403      -81.94671        0.122590403      -81.94671        0.990292802      7.04052165       
2.75             0.990557007      6.92395967       0.120571131      -82.0543894      0.120571131      -82.0543894      0.990557107      6.92396053       
2.795            0.990809         6.81105079       0.11861466       -82.1583472      0.11861466       -82.1583472      0.9908091        6.81105167       
2.84             0.991049426      6.70162412       0.116718093      -82.2587524      0.116718093      -82.2587524      0.991049527      6.70162502       
2.885            0.991278979      6.59551996       0.11487871       -82.3557634      0.11487871       -82.3557634      0.991279079      6.59552086       
2.93             0.991498297      6.49258817       0.113093951      -82.4495291      0.113093951      -82.4495291      0.991498397      6.49258908       
2.975            0.991707973      6.3926875        0.111361405      -82.5401894      0.111361405      -82.5401894      0.991708073      6.39268843       
3.02             0.991908559      6.29568494       0.109678801      -82.6278761      0.109678801      -82.6278761      0.991908659      6.29568589       
3.065            0.992100565      6.20145512       0.108043997      -82.712713       0.108043997      -82.712713       0.992100666      6.20145607       
3.11             0.992284468      6.10987974       0.106454971      -82.794817       0.106454971      -82.794817       0.992284569      6.10988071       
3.155            0.99246071       6.02084716       0.104909812      -82.8742984      0.104909812      -82.8742984      0.992460811      6.02084815       
3.2              0.992629704      5.93425186       0.103406714      -82.9512612      0.103406714      -82.9512612      0.992629805      5.93425286       
3.245            0.992791835      5.84999408       0.101943969      -83.0258037      0.101943969      -83.0258037      0.992791936      5.84999509       
3.29             0.992947463      5.7679794        0.100519959      -83.0980187      0.100519959      -83.0980187      0.992947564      5.76798042       
3.335            0.993096923      5.6881184        0.09913315       -83.1679941      0.09913315       -83.1679941      0.993097024      5.68811944       
3.38             0.993240529      5.61032637       0.0977820894     -83.2358131      0.0977820894     -83.2358131      0.99324063       5.61032742       
3.425            0.993378577      5.53452293       0.0964653981     -83.3015545      0.0964653981     -83.3015545      0.993378678      5.53452399       
3.47             0.993511341      5.46063182       0.0951817667     -83.3652929      0.0951817667     -83.3652929      0.993511442      5.4606329        
3.515            0.993639081      5.38858063       0.0939299513     -83.4270992      0.0939299513     -83.4270992      0.993639182      5.38858172       
3.56             0.993762038      5.31830054       0.0927087695     -83.4870405      0.0927087695     -83.4870405      0.993762139      5.31830165       
3.605            0.993880442      5.24972612       0.0915170964     -83.5451806      0.0915170964     -83.5451806      0.993880543      5.24972723       
3.65             0.993994506      5.1827951        0.0903538614     -83.6015801      0.0903538614     -83.6015801      0.993994607      5.18279623       
3.695            0.994104433      5.11744821       0.089218045      -83.6562967      0.089218045      -83.6562967      0.994104534      5.11744935       
3.74             0.994210411      5.05362901       0.0881086754     -83.7093852      0.0881086754     -83.7093852      0.994210513      5.05363016       
3.785            0.994312621      4.99128367       0.0870248264     -83.7608976      0.0870248264     -83.7608976      0.994312722      4.99128484       
3.83             0.99441123       4.93036088       0.0859656142     -83.8108836      0.0859656142     -83.8108836      0.994411332      4.93036206       
3.875            0.994506399      4.87081167       0.0849301954     -83.8593905      0.0849301954     -83.8593905      0.9945065        4.87081286       
3.92             0.994598277      4.81258929       0.0839177644     -83.9064633      0.0839177644     -83.9064633      0.994598378      4.8125905        
3.965            0.994687006      4.7556491        0.0829275516     -83.952145       0.0829275516     -83.952145       0.994687107      4.75565032       
4.01             0.99477272       4.69994841       0.0819588212     -83.9964765      0.0819588212     -83.9964765      0.994772822      4.69994964       
4.055            0.994855548      4.64544642       0.0810108697     -84.0394968      0.0810108697     -84.0394968      0.994855649      4.64544767       
4.1              0.994935608      4.59210411       0.0800830236     -84.0812434      0.0800830236     -84.0812434      0.99493571       4.59210537       
4.145            0.995013015      4.53988411       0.0791746383     -84.1217519      0.0791746383     -84.1217519      0.995013117      4.53988538       
4.19             0.995087876      4.48875065       0.0782850965     -84.1610562      0.0782850965     -84.1610562      0.995087978      4.48875194       
4.235            0.995160295      4.43866946       0.0774138066     -84.1991888      0.0774138066     -84.1991888      0.995160397      4.43867077       
4.28             0.995230368      4.38960771       0.0765602015     -84.236181       0.0765602015     -84.236181       0.99523047       4.38960902       
4.325            0.995298187      4.34153389       0.0757237373     -84.2720624      0.0757237373     -84.2720624      0.995298289      4.34153522       
4.37             0.99536384       4.2944178        0.0749038921     -84.3068614      0.0749038921     -84.3068614      0.995363942      4.29441914       
4.415            0.99542741       4.24823046       0.0741001652     -84.3406053      0.0741001652     -84.3406053      0.995427512      4.24823181       
4.46             0.995488977      4.20294402       0.0733120755     -84.3733201      0.0733120755     -84.3733201      0.995489079      4.20294539       
4.505            0.995548615      4.15853177       0.072539161      -84.4050309      0.072539161      -84.4050309      0.995548717      4.15853315       
4.55             0.995606397      4.11496801       0.0717809778     -84.4357615      0.0717809778     -84.4357615      0.995606499      4.11496941       
4.595            0.99566239       4.07222807       0.0710370989     -84.4655347      0.0710370989     -84.4655347      0.995662492      4.07222948       
4.64             0.99571666       4.03028821       0.0703071139     -84.4943726      0.0703071139     -84.4943726      0.995716762      4.03028963       
4.685            0.995769269      3.98912559       0.0695906277     -84.5222963      0.0695906277     -84.5222963      0.995769371      3.98912702       
4.73             0.995820275      3.94871824       0.0688872603     -84.5493258      0.0688872603     -84.5493258      0.995820378      3.94871968       
4.775            0.995869736      3.909045         0.0681966457     -84.5754805      0.0681966457     -84.5754805      0.995869839      3.90904646       
4.82             0.995917705      3.87008552       0.0675184313     -84.6007791      0.0675184313     -84.6007791      0.995917808      3.87008699       
4.865            0.995964233      3.83182017       0.0668522777     -84.6252392      0.0668522777     -84.6252392      0.995964336      3.83182165       
4.91             0.99600937       3.79423004       0.0661978574     -84.6488781      0.0661978574     -84.6488781      0.996009473      3.79423154       
4.955            0.996053163      3.75729691       0.0655548549     -84.6717121      0.0655548549     -84.6717121      0.996053266      3.75729842       
5                0.996095657      3.7210032        0.064922966      -84.6937569      0.064922966      -84.6937569      0.99609576       3.72100472       
5.045            0.996136894      3.68533196       0.0643018969     -84.7150278      0.0643018969     -84.7150278      0.996136997      3.68533349       
5.09             0.996176916      3.65026683       0.0636913645     -84.7355392      0.0636913645     -84.7355392      0.996177019      3.65026838       
5.135            0.996215762      3.61579202       0.0630910951     -84.7553051      0.0630910951     -84.7553051      0.996215866      3.61579358       
5.18             0.99625347       3.58189229       0.0625008247     -84.7743389      0.0625008247     -84.7743389      0.996253574      3.58189387       
5.225            0.996290076      3.54855292       0.0619202982     -84.7926535      0.0619202982     -84.7926535      0.99629018       3.5485545        
5.27             0.996325615      3.51575968       0.0613492691     -84.8102613      0.0613492691     -84.8102613      0.996325718      3.51576127       
5.315            0.996360119      3.48349882       0.0607874993     -84.8271741      0.0607874993     -84.8271741      0.996360223      3.48350043       
5.36             0.996393621      3.45175707       0.0602347584     -84.8434034      0.0602347584     -84.8434034      0.996393725      3.45175869       
5.405            0.996426152      3.42052157       0.0596908238     -84.8589602      0.0596908238     -84.8589602      0.996426255      3.42052321       
5.45             0.99645774       3.3897799        0.0591554801     -84.8738551      0.0591554801     -84.8738551      0.996457844      3.38978155       
5.495            0.996488414      3.35952004       0.0586285188     -84.8880981      0.0586285188     -84.8880981      0.996488518      3.3595217        
5.54             0.996518201      3.32973035       0.0581097383     -84.9016991      0.0581097383     -84.9016991      0.996518304      3.32973203       
5.585            0.996547126      3.30039958       0.0575989433     -84.9146675      0.0575989433     -84.9146675      0.99654723       3.30040127       
5.63             0.996575216      3.27151682       0.0570959447     -84.9270122      0.0570959447     -84.9270122      0.99657532       3.27151853       
5.675            0.996602494      3.24307152       0.0566005594     -84.938742       0.0566005594     -84.938742       0.996602598      3.24307324       
5.72             0.996628982      3.21505345       0.0561126101     -84.9498652      0.0561126101     -84.9498652      0.996629087      3.21505518       
5.765            0.996654705      3.18745269       0.0556319249     -84.9603898      0.0556319249     -84.9603898      0.996654809      3.18745443       
