! Coilcraft 1812PS-124 Power Chip Inductor				
! 1 October 2002			
# MHZ S MA R 50
!Freq             MagS11           AngS11           MagS21           AngS21           MagS12           AngS12           MagS22           AngS22
0.05             0.348523193      67.3772491       0.923764574      -20.3807095      0.923764574      -20.3807095      0.348523227      67.37725         
0.072            0.47169414       60.2464203       0.868515475      -28.1320563      0.868515475      -28.1320563      0.471694187      60.2464209       
0.094            0.572273043      53.8020404       0.80718878       -34.8986122      0.80718878       -34.8986122      0.5722731        53.8020409       
0.116            0.652244502      48.1930693       0.745533915      -40.7018835      0.745533915      -40.7018835      0.652244567      48.1930697       
0.138            0.715032288      43.3856499       0.687005292      -45.6373379      0.687005292      -45.6373379      0.71503236       43.3856503       
0.16             0.764189759      39.2855584       0.633261699      -49.8268317      0.633261699      -49.8268317      0.764189835      39.2855588       
0.182            0.802808432      35.78618         0.584822216      -53.3911959      0.584822216      -53.3911959      0.802808513      35.7861803       
0.204            0.833364082      32.7879808       0.541581206      -56.4380133      0.541581206      -56.4380133      0.833364165      32.7879811       
0.226            0.857759694      30.2050582       0.50313778       -59.0580781      0.50313778       -59.0580781      0.857759779      30.2050585       
0.248            0.877430479      27.9659826       0.468983003      -61.3259598      0.468983003      -61.3259598      0.877430566      27.9659828       
0.27             0.893451768      26.0123982       0.438596952      -63.302119       0.438596952      -63.302119       0.893451857      26.0123985       
0.292            0.906629733      24.2969733       0.411494092      -65.0353497      0.411494092      -65.0353497      0.906629824      24.2969736       
0.314            0.917571634      22.7813672       0.387240912      -66.5650383      0.387240912      -66.5650383      0.917571725      22.7813675       
0.336            0.926738152      21.4344566       0.36545956       -67.9230752      0.36545956       -67.9230752      0.926738244      21.4344568       
0.358            0.9344817        20.2308726       0.345824939      -69.1354036      0.345824939      -69.1354036      0.934481794      20.2308728       
0.38             0.941074283      19.1498286       0.328059163      -70.2232482      0.328059163      -70.2232482      0.941074377      19.1498288       
0.402            0.946727755      18.1741933       0.311925327      -71.2040802      0.311925327      -71.2040802      0.94672785       18.1741935       
0.424            0.951608614      17.2897617       0.297221501      -72.0923714      0.297221501      -72.0923714      0.951608709      17.289762        
0.446            0.955848858      16.4846837       0.283775337      -72.9001847      0.283775337      -72.9001847      0.955848954      16.4846839       
0.468            0.959554022      15.7490133       0.271439389      -73.6376369      0.271439389      -73.6376369      0.959554118      15.7490135       
0.49             0.962809162      15.0743541       0.26008715       -74.3132634      0.26008715       -74.3132634      0.962809259      15.0743543       
0.512            0.965683355      14.4535774       0.249609712      -74.9343068      0.249609712      -74.9343068      0.965683452      14.4535777       
0.534            0.968233111      13.8805984       0.239912996      -75.5069463      0.239912996      -75.5069463      0.968233207      13.8805987       
0.556            0.970504975      13.3501959       0.230915432      -76.0364815      0.230915432      -76.0364815      0.970505072      13.3501962       
0.578            0.972537539      12.8578679       0.222546046      -76.5274799      0.222546046      -76.5274799      0.972537636      12.8578682       
0.6              0.974362992      12.3997144       0.214742855      -76.983897       0.214742855      -76.983897       0.97436309       12.3997147       
0.622            0.976008344      11.9723417       0.207451544      -77.4091735      0.207451544      -77.4091735      0.976008442      11.972342        
0.644            0.97749638       11.5727842       0.200624347      -77.8063149      0.200624347      -77.8063149      0.977496478      11.5727844       
0.666            0.978846424      11.19844         0.19421912       -78.1779573      0.19421912       -78.1779573      0.978846521      11.1984403       
0.688            0.980074942      10.8470179       0.18819856       -78.5264214      0.18819856       -78.5264214      0.98007504       10.8470181       
0.71             0.981196035      10.5164923       0.182529543      -78.8537578      0.182529543      -78.8537578      0.981196133      10.5164926       
0.732            0.982221827      10.205067        0.177182573      -79.1617849      0.177182573      -79.1617849      0.982221925      10.2050673       
0.754            0.98316279       9.91114367       0.172131301      -79.4521199      0.172131301      -79.4521199      0.983162889      9.91114397       
0.776            0.984028004      9.63329547       0.16735213       -79.7262062      0.16735213       -79.7262062      0.984028102      9.63329578       
0.798            0.984825369      9.3702452        0.162823871      -79.9853353      0.162823871      -79.9853353      0.984825467      9.37024552       
0.82             0.985561787      9.12084619       0.158527445      -80.2306664      0.158527445      -80.2306664      0.985561886      9.12084652       
0.842            0.986243309      8.88406626       0.154445633      -80.4632428      0.154445633      -80.4632428      0.986243407      8.88406659       
0.864            0.986875252      8.65897386       0.150562858      -80.6840055      0.150562858      -80.6840055      0.986875351      8.65897419       
0.886            0.98746231       8.44472621       0.146864997      -80.8938059      0.146864997      -80.8938059      0.987462409      8.44472655       
0.908            0.988008634      8.24055909       0.143339216      -81.0934155      0.143339216      -81.0934155      0.988008733      8.24055944       
0.93             0.988517906      8.04577791       0.139973828      -81.2835353      0.139973828      -81.2835353      0.988518005      8.04577826       
0.952            0.988993403      7.85975003       0.13675817       -81.4648038      0.13675817       -81.4648038      0.988993502      7.85975039       
0.974            0.989438048      7.68189807       0.133682495      -81.6378033      0.133682495      -81.6378033      0.989438147      7.68189844       
0.996            0.989854455      7.51169403       0.130737876      -81.8030661      0.130737876      -81.8030661      0.989854554      7.5116944        
1.018            0.990244965      7.34865413       0.127916121      -81.9610799      0.127916121      -81.9610799      0.990245064      7.34865451       
1.04             0.990611685      7.19233434       0.125209702      -82.112292       0.125209702      -82.112292       0.990611784      7.19233472       
1.062            0.990956508      7.04232638       0.122611689      -82.2571136      0.122611689      -82.2571136      0.990956607      7.04232677       
1.084            0.991281144      6.89825422       0.120115689      -82.3959232      0.120115689      -82.3959232      0.991281244      6.89825462       
1.106            0.991587141      6.75977098       0.117715803      -82.52907        0.117715803      -82.52907        0.99158724       6.75977139       
1.128            0.991875897      6.62655615       0.11540657       -82.6568762      0.11540657       -82.6568762      0.991875997      6.62655656       
1.15             0.992148685      6.49831317       0.113182936      -82.7796401      0.113182936      -82.7796401      0.992148785      6.49831358       
1.172            0.99240666       6.37476721       0.111040211      -82.8976377      0.111040211      -82.8976377      0.99240676       6.37476764       
1.194            0.992650876      6.25566328       0.10897404       -83.0111252      0.10897404       -83.0111252      0.992650976      6.25566371       
1.216            0.992882293      6.14076441       0.106980373      -83.1203405      0.106980373      -83.1203405      0.992882392      6.14076485       
1.238            0.993101788      6.02985014       0.105055439      -83.2255048      0.105055439      -83.2255048      0.993101888      6.02985059       
1.26             0.993310167      5.92271512       0.103195723      -83.326824       0.103195723      -83.326824       0.993310267      5.92271557       
1.282            0.993508166      5.81916778       0.101397943      -83.42449        0.101397943      -83.42449        0.993508265      5.81916824       
1.304            0.99369646       5.71902927       0.0996590347     -83.518682       0.0996590347     -83.518682       0.99369656       5.71902973       
1.326            0.993875673      5.62213238       0.0979761297     -83.6095673      0.0979761297     -83.6095673      0.993875773      5.62213285       
1.348            0.994046377      5.52832063       0.0963465427     -83.6973025      0.0963465427     -83.6973025      0.994046477      5.52832111       
1.37             0.994209101      5.43744742       0.0947677566     -83.7820341      0.0947677566     -83.7820341      0.9942092        5.43744791       
1.392            0.99436433       5.34937527       0.0932374094     -83.8638995      0.0932374094     -83.8638995      0.99436443       5.34937577       
1.414            0.994512517      5.26397511       0.0917532828     -83.9430273      0.0917532828     -83.9430273      0.994512617      5.26397561       
1.436            0.994654078      5.18112566       0.0903132913     -84.0195387      0.0903132913     -84.0195387      0.994654178      5.18112617       
1.458            0.994789399      5.10071286       0.0889154724     -84.0935472      0.0889154724     -84.0935472      0.994789499      5.10071337       
1.48             0.994918839      5.02262932       0.0875579779     -84.1651597      0.0875579779     -84.1651597      0.994918939      5.02262984       
1.502            0.995042731      4.94677387       0.0862390656     -84.234477       0.0862390656     -84.234477       0.995042831      4.9467744        
1.524            0.995161384      4.87305108       0.0849570917     -84.3015939      0.0849570917     -84.3015939      0.995161484      4.87305161       
1.546            0.995275085      4.8013709        0.0837105044     -84.3665997      0.0837105044     -84.3665997      0.995275185      4.80137144       
1.568            0.995384104      4.73164825       0.0824978372     -84.4295788      0.0824978372     -84.4295788      0.995384204      4.7316488        
1.59             0.995488689      4.66380272       0.0813177033     -84.490611       0.0813177033     -84.490611       0.995488789      4.66380328       
1.612            0.995589076      4.59775823       0.08016879       -84.5497715      0.08016879       -84.5497715      0.995589176      4.59775879       
1.634            0.995685481      4.53344272       0.0790498545     -84.6071316      0.0790498545     -84.6071316      0.995685581      4.53344329       
1.656            0.995778109      4.47078797       0.0779597185     -84.6627586      0.0779597185     -84.6627586      0.995778209      4.47078854       
1.678            0.99586715       4.40972924       0.0768972647     -84.7167164      0.0768972647     -84.7167164      0.99586725       4.40972982       
1.7              0.995952784      4.35020514       0.0758614326     -84.7690655      0.0758614326     -84.7690655      0.995952884      4.35020573       
1.722            0.996035177      4.29215738       0.0748512151     -84.8198631      0.0748512151     -84.8198631      0.996035278      4.29215798       
1.744            0.996114489      4.23553057       0.0738656551     -84.8691637      0.0738656551     -84.8691637      0.996114589      4.23553117       
1.766            0.996190865      4.18027205       0.0729038424     -84.917019       0.0729038424     -84.917019       0.996190965      4.18027267       
1.788            0.996264446      4.12633175       0.0719649112     -84.9634779      0.0719649112     -84.9634779      0.996264546      4.12633236       
1.81             0.996335361      4.07366197       0.0710480369     -85.0085872      0.0710480369     -85.0085872      0.996335462      4.0736626        
1.832            0.996403735      4.02221732       0.070152434      -85.0523911      0.070152434      -85.0523911      0.996403835      4.02221795       
1.854            0.996469681      3.97195452       0.069277354      -85.0949318      0.069277354      -85.0949318      0.996469781      3.97195516       
1.876            0.996533311      3.92283231       0.0684220828     -85.1362495      0.0684220828     -85.1362495      0.996533411      3.92283296       
1.898            0.996594726      3.87481133       0.0675859392     -85.1763823      0.0675859392     -85.1763823      0.996594826      3.87481198       
1.92             0.996654024      3.82785399       0.0667682725     -85.2153667      0.0667682725     -85.2153667      0.996654124      3.82785465       
1.942            0.996711297      3.78192442       0.0659684615     -85.2532374      0.0659684615     -85.2532374      0.996711397      3.78192509       
1.964            0.996766631      3.73698832       0.0651859122     -85.2900274      0.0651859122     -85.2900274      0.996766731      3.736989         
1.986            0.996820109      3.69301291       0.0644200568     -85.3257685      0.0644200568     -85.3257685      0.996820209      3.69301359       
2.008            0.996871809      3.64996681       0.0636703521     -85.3604906      0.0636703521     -85.3604906      0.996871909      3.6499675        
2.03             0.996921803      3.60782003       0.0629362779     -85.3942225      0.0629362779     -85.3942225      0.996921903      3.60782073       
2.052            0.996970162      3.56654383       0.0622173365     -85.4269918      0.0622173365     -85.4269918      0.996970263      3.56654453       
2.074            0.997016952      3.52611069       0.0615130507     -85.4588246      0.0615130507     -85.4588246      0.997017053      3.52611139       
2.096            0.997062236      3.48649422       0.0608229633     -85.4897461      0.0608229633     -85.4897461      0.997062336      3.48649494       
2.118            0.997106072      3.44766915       0.060146636      -85.5197802      0.060146636      -85.5197802      0.997106173      3.44766987       
2.14             0.997148518      3.40961121       0.0594836481     -85.5489499      0.0594836481     -85.5489499      0.997148619      3.40961194       
2.162            0.997189628      3.37229713       0.0588335961     -85.5772771      0.0588335961     -85.5772771      0.997189728      3.37229787       
2.184            0.997229451      3.33570457       0.0581960924     -85.6047829      0.0581960924     -85.6047829      0.997229552      3.33570531       
2.206            0.997268038      3.29981207       0.0575707648     -85.6314872      0.0575707648     -85.6314872      0.997268138      3.29981282       
2.228            0.997305434      3.26459902       0.0569572556     -85.6574094      0.0569572556     -85.6574094      0.997305534      3.26459978       
2.25             0.997341682      3.2300456        0.0563552212     -85.682568       0.0563552212     -85.682568       0.997341783      3.23004636       
2.272            0.997376826      3.19613275       0.0557643309     -85.7069805      0.0557643309     -85.7069805      0.997376927      3.19613353       
2.294            0.997410906      3.16284217       0.0551842667     -85.7306638      0.0551842667     -85.7306638      0.997411006      3.16284294       
2.316            0.997443958      3.1301562        0.0546147225     -85.7536343      0.0546147225     -85.7536343      0.997444058      3.13015698       
2.338            0.99747602       3.09805788       0.0540554039     -85.7759074      0.0540554039     -85.7759074      0.99747612       3.09805867       
2.36             0.997507125      3.06653087       0.0535060269     -85.797498       0.0535060269     -85.797498       0.997507226      3.06653167       
2.382            0.997537309      3.03555942       0.0529663185     -85.8184205      0.0529663185     -85.8184205      0.997537409      3.03556023       
2.404            0.997566601      3.00512836       0.052436015      -85.8386885      0.052436015      -85.8386885      0.997566702      3.00512918       
2.426            0.997595032      2.97522308       0.0519148628     -85.8583152      0.0519148628     -85.8583152      0.997595133      2.9752239        
2.448            0.997622632      2.94582946       0.0514026168     -85.8773131      0.0514026168     -85.8773131      0.997622733      2.94583029       
2.47             0.997649427      2.91693392       0.0508990409     -85.8956945      0.0508990409     -85.8956945      0.997649528      2.91693475       
2.492            0.997675445      2.88852332       0.0504039072     -85.9134709      0.0504039072     -85.9134709      0.997675546      2.88852416       
2.514            0.99770071       2.86058501       0.0499169958     -85.9306534      0.0499169958     -85.9306534      0.997700811      2.86058586       
2.536            0.997725247      2.83310675       0.0494380941     -85.9472527      0.0494380941     -85.9472527      0.997725348      2.83310761       
2.558            0.997749079      2.80607675       0.0489669971     -85.9632792      0.0489669971     -85.9632792      0.99774918       2.80607761       
2.58             0.997772229      2.77948358       0.0485035065     -85.9787425      0.0485035065     -85.9787425      0.99777233       2.77948445       
2.602            0.997794717      2.75331623       0.0480474308     -85.9936523      0.0480474308     -85.9936523      0.997794818      2.75331711       
2.624            0.997816564      2.72756404       0.0475985849     -86.0080176      0.0475985849     -86.0080176      0.997816665      2.72756492       
2.646            0.99783779       2.7022167        0.0471567897     -86.0218471      0.0471567897     -86.0218471      0.997837891      2.7022176        
2.668            0.997858414      2.67726426       0.0467218721     -86.0351491      0.0467218721     -86.0351491      0.997858515      2.67726516       
2.69             0.997878453      2.65269708       0.0462936645     -86.0479316      0.0462936645     -86.0479316      0.997878554      2.65269798       
2.712            0.997897925      2.62850581       0.0458720047     -86.0602024      0.0458720047     -86.0602024      0.997898026      2.62850673       
2.734            0.997916847      2.60468145       0.0454567359     -86.0719689      0.0454567359     -86.0719689      0.997916948      2.60468237       
2.756            0.997935235      2.58121523       0.0450477061     -86.0832381      0.0450477061     -86.0832381      0.997935336      2.58121616       
2.778            0.997953105      2.55809871       0.044644768      -86.0940168      0.044644768      -86.0940168      0.997953206      2.55809964       
2.8              0.99797047       2.53532366       0.0442477792     -86.1043116      0.0442477792     -86.1043116      0.997970571      2.5353246        
2.822            0.997987346      2.51288216       0.0438566015     -86.1141286      0.0438566015     -86.1141286      0.997987447      2.51288311       
2.844            0.998003745      2.4907665        0.0434711009     -86.123474       0.0434711009     -86.123474       0.998003846      2.49076745       
