! Coilcraft 1812PS-223 Power Chip Inductor				
! 1 October 2002			
# MHZ S MA R 50
!Freq             MagS11           AngS11           MagS21           AngS21           MagS12           AngS12           MagS22           AngS22
0.05             0.0688020291     83.2996872       0.994323041      -3.94060073      0.994323041      -3.94060073      0.0688020359     83.2996882       
0.112            0.152476035      79.8332631       0.984591562      -8.76781092      0.984591562      -8.76781092      0.152476051      79.8332636       
0.174            0.232923201      75.4897876       0.968263356      -13.4669621      0.968263356      -13.4669621      0.232923224      75.489788        
0.236            0.308750595      71.1230177       0.9463308        -17.9816848      0.9463308        -17.9816848      0.308750626      71.123018        
0.298            0.378998624      66.9076968       0.919968973      -22.2692526      0.919968973      -22.2692526      0.378998662      66.9076971       
0.36             0.443134279      62.9125288       0.890396067      -26.3013722      0.890396067      -26.3013722      0.443134324      62.9125291       
0.422            0.500999987      59.1687073       0.858757146      -30.0632071      0.858757146      -30.0632071      0.501000037      59.1687075       
0.484            0.552731338      55.687551        0.82604861       -33.5512507      0.82604861       -33.5512507      0.552731394      55.6875512       
0.546            0.598666937      52.468018        0.793083297      -36.7707124      0.793083297      -36.7707124      0.598666997      52.4680183       
0.608            0.639266905      49.5011765       0.760487132      -39.7329304      0.760487132      -39.7329304      0.639266969      49.5011768       
0.67             0.675048125      46.7732858       0.72871569       -42.4531198      0.72871569       -42.4531198      0.675048193      46.7732861       
0.732            0.706537851      44.2679895       0.69808048       -44.9485833      0.69808048       -44.9485833      0.706537922      44.2679898       
0.794            0.734243579      41.9678491       0.668777734      -47.2373893      0.668777734      -47.2373893      0.734243652      41.9678494       
0.856            0.758635637      39.8553749       0.640915431      -49.3374594      0.640915431      -49.3374594      0.758635713      39.8553752       
0.918            0.78013884       37.9136827       0.614536519      -51.265981       0.614536519      -51.265981       0.780138918      37.9136831       
0.98             0.799130142      36.1268806       0.589637752      -53.0390634      0.589637752      -53.0390634      0.799130222      36.126881        
1.042            0.815939949      34.4802681       0.566184338      -54.6715654      0.566184338      -54.6715654      0.815940031      34.4802685       
1.104            0.830855451      32.96041         0.544120983      -56.1770389      0.544120983      -56.1770389      0.830855534      32.9604104       
1.166            0.844124903      31.5551306       0.523379994      -57.5677467      0.523379994      -57.5677467      0.844124987      31.555131        
1.228            0.855962171      30.2534589       0.503887091      -58.8547252      0.503887091      -58.8547252      0.855962256      30.2534593       
1.29             0.866551156      29.0455478       0.485565466      -60.0478711      0.485565466      -60.0478711      0.866551242      29.0455482       
1.352            0.876049886      27.9225801       0.468338557      -61.156039       0.468338557      -61.156039       0.876049974      27.9225806       
1.414            0.884594189      26.8766721       0.452131867      -62.1871413      0.452131867      -62.1871413      0.884594277      26.8766726       
1.476            0.892300908      25.9007779       0.436874114      -63.1482455      0.436874114      -63.1482455      0.892300998      25.9007784       
1.538            0.899270701      24.9886007       0.422497894      -64.0456647      0.422497894      -64.0456647      0.899270791      24.9886012       
1.6              0.905590427      24.1345098       0.408940011      -64.8850418      0.408940011      -64.8850418      0.905590518      24.1345104       
1.662            0.911335194      23.333466        0.396141583      -65.6714251      0.396141583      -65.6714251      0.911335286      23.3334666       
1.724            0.916570091      22.580954        0.384047993      -66.4093361      0.384047993      -66.4093361      0.916570183      22.5809546       
1.786            0.921351655      21.872923        0.372608746      -67.1028303      0.372608746      -67.1028303      0.921351748      21.8729236       
1.848            0.925729115      21.2057331       0.361777259      -67.7555502      0.361777259      -67.7555502      0.925729208      21.2057338       
1.91             0.929745443      20.5761089       0.351510628      -68.370773       0.351510628      -68.370773       0.929745537      20.5761095       
1.972            0.933438243      19.9810976       0.341769377      -68.951452       0.341769377      -68.951452       0.933438337      19.9810982       
2.034            0.936840503      19.4180332       0.332517199      -69.5002528      0.332517199      -69.5002528      0.936840597      19.4180339       
2.096            0.939981236      18.8845044       0.323720711      -70.0195862      0.323720711      -70.0195862      0.939981331      18.8845051       
2.158            0.94288602       18.3783263       0.315349215      -70.5116355      0.315349215      -70.5116355      0.942886115      18.378327        
2.22             0.945577459      17.8975158       0.307374474      -70.978382       0.307374474      -70.978382       0.945577554      17.8975166       
2.282            0.948075577      17.4402701       0.299770501      -71.4216266      0.299770501      -71.4216266      0.948075673      17.4402708       
2.344            0.950398157      17.0049471       0.292513365      -71.8430087      0.292513365      -71.8430087      0.950398253      17.0049479       
2.406            0.952561022      16.5900491       0.285581015      -72.2440238      0.285581015      -72.2440238      0.952561118      16.5900498       
2.468            0.954578286      16.1942073       0.278953114      -72.6260377      0.278953114      -72.6260377      0.954578383      16.1942081       
2.53             0.956462567      15.8161691       0.272610889      -72.9903003      0.272610889      -72.9903003      0.956462663      15.8161699       
2.592            0.958225165      15.4547863       0.266536998      -73.3379569      0.266536998      -73.3379569      0.958225262      15.4547872       
2.654            0.959876225      15.1090048       0.260715403      -73.6700586      0.260715403      -73.6700586      0.959876322      15.1090057       
2.716            0.961424871      14.7778553       0.255131258      -73.9875717      0.255131258      -73.9875717      0.961424968      14.7778562       
2.778            0.962879326      14.4604453       0.249770809      -74.2913856      0.249770809      -74.2913856      0.962879423      14.4604462       
2.84             0.964247012      14.1559518       0.244621299      -74.5823202      0.244621299      -74.5823202      0.96424711       14.1559527       
2.902            0.965534645      13.8636148       0.239670883      -74.8611324      0.239670883      -74.8611324      0.965534743      13.8636157       
2.964            0.96674831       13.5827316       0.234908556      -75.128522       0.234908556      -75.128522       0.966748408      13.5827325       
3.026            0.967893528      13.3126516       0.230324079      -75.3851365      0.230324079      -75.3851365      0.967893626      13.3126525       
3.088            0.968975321      13.0527715       0.225907918      -75.631576       0.225907918      -75.631576       0.968975419      13.0527724       
3.15             0.969998262      12.8025314       0.221651186      -75.8683976      0.221651186      -75.8683976      0.969998361      12.8025324       
3.212            0.970966523      12.5614109       0.217545594      -76.0961185      0.217545594      -76.0961185      0.970966622      12.5614119       
3.274            0.971883915      12.3289258       0.213583398      -76.3152202      0.213583398      -76.3152202      0.971884013      12.3289269       
3.336            0.972753923      12.1046251       0.209757362      -76.5261506      0.209757362      -76.5261506      0.972754022      12.1046262       
3.398            0.973579742      11.888088        0.206060714      -76.7293277      0.206060714      -76.7293277      0.973579841      11.8880891       
3.46             0.974364304      11.6789218       0.202487114      -76.9251413      0.202487114      -76.9251413      0.974364403      11.6789229       
3.522            0.975110301      11.4767594       0.19903062       -77.1139556      0.19903062       -77.1139556      0.9751104        11.4767606       
3.584            0.97582021       11.2812575       0.195685654      -77.2961114      0.195685654      -77.2961114      0.97582031       11.2812586       
3.646            0.976496315      11.0920943       0.192446984      -77.4719275      0.192446984      -77.4719275      0.976496415      11.0920954       
3.708            0.977140721      10.9089683       0.189309689      -77.6417027      0.189309689      -77.6417027      0.97714082       10.9089695       
3.77             0.97775537       10.7315968       0.186269142      -77.8057172      0.186269142      -77.8057172      0.97775547       10.731598        
3.832            0.978342063      10.5597138       0.18332099       -77.9642341      0.18332099       -77.9642341      0.978342163      10.559715        
3.894            0.978902461      10.3930697       0.18046113       -78.1175007      0.18046113       -78.1175007      0.978902561      10.393071        
3.956            0.979438107      10.2314295       0.177685694      -78.2657493      0.177685694      -78.2657493      0.979438207      10.2314307       
4.018            0.979950432      10.0745718       0.174991034      -78.4091987      0.174991034      -78.4091987      0.979950533      10.074573        
4.08             0.980440765      9.92228795       0.172373705      -78.5480551      0.172373705      -78.5480551      0.980440865      9.92228924       
4.142            0.980910339      9.77438133       0.169830452      -78.6825127      0.169830452      -78.6825127      0.98091044       9.77438264       
4.204            0.981360306      9.63066617       0.167358197      -78.8127549      0.167358197      -78.8127549      0.981360407      9.6306675        
4.266            0.981791736      9.490967         0.164954028      -78.9389546      0.164954028      -78.9389546      0.981791837      9.49096835       
4.328            0.982205627      9.35511794       0.162615187      -79.0612754      0.162615187      -79.0612754      0.982205728      9.35511931       
4.39             0.982602911      9.22296204       0.160339063      -79.179872       0.160339063      -79.179872       0.982603012      9.22296342       
4.452            0.982984459      9.09435068       0.158123178      -79.2948906      0.158123178      -79.2948906      0.98298456       9.09435209       
4.514            0.983351085      8.96914308       0.155965183      -79.4064697      0.155965183      -79.4064697      0.983351187      8.9691445        
4.576            0.983703551      8.84720573       0.153862846      -79.5147407      0.153862846      -79.5147407      0.983703653      8.84720717       
4.638            0.98404257       8.72841197       0.151814049      -79.6198279      0.151814049      -79.6198279      0.984042672      8.72841343       
4.7              0.984368811      8.61264156       0.149816778      -79.7218493      0.149816778      -79.7218493      0.984368913      8.61264304       
4.762            0.984682902      8.49978027       0.147869117      -79.8209172      0.147869117      -79.8209172      0.984683004      8.49978177       
4.824            0.984985432      8.38971952       0.145969244      -79.9171378      0.145969244      -79.9171378      0.984985534      8.38972103       
4.886            0.985276955      8.28235601       0.144115422      -80.0106125      0.144115422      -80.0106125      0.985277057      8.28235755       
4.948            0.98555799       8.17759146       0.142306         -80.1014373      0.142306         -80.1014373      0.985558093      8.17759301       
5.01             0.985829029      8.07533226       0.140539401      -80.1897038      0.140539401      -80.1897038      0.985829131      8.07533383       
5.072            0.986090532      7.97548923       0.138814122      -80.2754992      0.138814122      -80.2754992      0.986090635      7.97549081       
5.134            0.986342935      7.87797732       0.137128729      -80.3589064      0.137128729      -80.3589064      0.986343038      7.87797893       
5.196            0.986586647      7.78271545       0.135481854      -80.4400047      0.135481854      -80.4400047      0.98658675       7.78271707       
5.258            0.986822056      7.6896262        0.133872189      -80.5188693      0.133872189      -80.5188693      0.986822158      7.68962784       
5.32             0.987049526      7.59863566       0.132298484      -80.5955723      0.132298484      -80.5955723      0.987049629      7.59863732       
5.382            0.987269403      7.50967323       0.130759545      -80.6701823      0.130759545      -80.6701823      0.987269506      7.50967491       
5.444            0.987482015      7.42267141       0.129254229      -80.742765       0.129254229      -80.742765       0.987482118      7.42267311       
5.506            0.987687668      7.33756566       0.127781442      -80.8133829      0.127781442      -80.8133829      0.987687771      7.33756737       
5.568            0.987886657      7.25429422       0.126340139      -80.8820959      0.126340139      -80.8820959      0.98788676       7.25429596       
5.63             0.988079258      7.17279799       0.124929315      -80.9489613      0.124929315      -80.9489613      0.988079361      7.17279975       
5.692            0.988265733      7.09302037       0.12354801       -81.0140339      0.12354801       -81.0140339      0.988265837      7.09302214       
5.754            0.988446332      7.01490711       0.122195304      -81.077366       0.122195304      -81.077366       0.988446436      7.01490889       
5.816            0.988621291      6.93840623       0.120870311      -81.1390078      0.120870311      -81.1390078      0.988621395      6.93840804       
5.878            0.988790835      6.8634679        0.119572186      -81.1990075      0.119572186      -81.1990075      0.988790939      6.86346972       
5.94             0.988955175      6.79004429       0.118300113      -81.2574109      0.118300113      -81.2574109      0.988955279      6.79004613       
6.002            0.989114516      6.71808951       0.117053313      -81.3142624      0.117053313      -81.3142624      0.98911462       6.71809137       
6.064            0.989269049      6.64755949       0.115831034      -81.3696041      0.115831034      -81.3696041      0.989269153      6.64756137       
6.126            0.989418958      6.57841193       0.114632555      -81.4234767      0.114632555      -81.4234767      0.989419063      6.57841383       
6.188            0.989564417      6.51060615       0.113457183      -81.4759192      0.113457183      -81.4759192      0.989564522      6.51060806       
6.25             0.989705593      6.44410306       0.112304251      -81.5269688      0.112304251      -81.5269688      0.989705697      6.444105         
6.312            0.989842643      6.37886509       0.111173119      -81.5766616      0.111173119      -81.5766616      0.989842748      6.37886704       
6.374            0.989975718      6.31485606       0.110063167      -81.6250321      0.110063167      -81.6250321      0.989975823      6.31485803       
6.436            0.990104963      6.25204119       0.108973803      -81.6721133      0.108973803      -81.6721133      0.990105068      6.25204318       
6.498            0.990230515      6.19038699       0.107904454      -81.717937       0.107904454      -81.717937       0.99023062       6.19038899       
6.56             0.990352504      6.12986119       0.106854568      -81.7625341      0.106854568      -81.7625341      0.99035261       6.12986321       
6.622            0.990471057      6.07043272       0.105823615      -81.8059338      0.105823615      -81.8059338      0.990471162      6.07043476       
6.684            0.990586292      6.01207165       0.104811081      -81.8481646      0.104811081      -81.8481646      0.990586397      6.0120737        
6.746            0.990698323      5.9547491        0.103816474      -81.8892537      0.103816474      -81.8892537      0.990698429      5.95475118       
6.808            0.990807261      5.89843725       0.102839316      -81.9292273      0.102839316      -81.9292273      0.990807367      5.89843934       
6.87             0.990913209      5.84310925       0.101879148      -81.9681108      0.101879148      -81.9681108      0.990913315      5.84311136       
6.932            0.991016268      5.7887392        0.100935525      -82.0059285      0.100935525      -82.0059285      0.991016374      5.78874132       
6.994            0.991116534      5.73530208       0.100008021      -82.0427039      0.100008021      -82.0427039      0.99111664       5.73530422       
7.056            0.991214098      5.68277377       0.0990962199     -82.0784595      0.0990962199     -82.0784595      0.991214204      5.68277593       
7.118            0.991309048      5.63113094       0.098199723      -82.1132171      0.098199723      -82.1132171      0.991309154      5.63113312       
7.18             0.991401468      5.58035108       0.0973181436     -82.1469979      0.0973181436     -82.1469979      0.991401575      5.58035328       
7.242            0.991491439      5.53041242       0.0964511085     -82.1798219      0.0964511085     -82.1798219      0.991491546      5.53041463       
7.304            0.99157904       5.48129392       0.0955982564     -82.2117089      0.0955982564     -82.2117089      0.991579147      5.48129615       
7.366            0.991664343      5.43297524       0.0947592383     -82.2426776      0.0947592383     -82.2426776      0.99166445       5.43297749       
7.428            0.99174742       5.38543671       0.0939337163     -82.2727462      0.0939337163     -82.2727462      0.991747528      5.38543898       
7.49             0.991828341      5.33865929       0.0931213634     -82.3019324      0.0931213634     -82.3019324      0.991828448      5.33866158       
7.552            0.99190717       5.29262458       0.0923218633     -82.330253       0.0923218633     -82.330253       0.991907277      5.29262688       
7.614            0.991983971      5.24731473       0.0915349096     -82.3577245      0.0915349096     -82.3577245      0.991984079      5.24731705       
7.676            0.992058805      5.20271249       0.0907602056     -82.3843628      0.0907602056     -82.3843628      0.992058913      5.20271483       
7.738            0.99213173       5.15880115       0.0899974639     -82.4101831      0.0899974639     -82.4101831      0.992131838      5.1588035        
7.8              0.992202803      5.11556452       0.0892464061     -82.4352001      0.0892464061     -82.4352001      0.992202911      5.11556689       
7.862            0.992272077      5.0729869        0.0885067623     -82.4594282      0.0885067623     -82.4594282      0.992272185      5.07298929       
7.924            0.992339605      5.0310531        0.087778271      -82.4828812      0.087778271      -82.4828812      0.992339713      5.03105551       
