! Coilcraft 1812PS-564 Power Chip Inductor				
! 1 October 2002			
# MHZ S MA R 50
!Freq             MagS11           AngS11           MagS21           AngS21           MagS12           AngS12           MagS22           AngS22
0.05             0.8550745        29.0193141       0.485491381      -58.6927429      0.485491381      -58.6927429      0.855074585      29.019315        
0.054            0.871856918      27.2618196       0.458375031      -60.6045317      0.458375031      -60.6045317      0.871857005      27.2618205       
0.058            0.886033118      25.6866296       0.433713244      -62.3122437      0.433713244      -62.3122437      0.886033206      25.6866303       
0.062            0.898085519      24.2695924       0.411253369      -63.8442546      0.411253369      -63.8442546      0.898085609      24.2695931       
0.066            0.908397098      22.9900459       0.390760878      -65.2244266      0.390760878      -65.2244266      0.908397188      22.9900466       
0.07             0.917273007      21.8303731       0.372023056      -66.4728453      0.372023056      -66.4728453      0.917273098      21.8303738       
0.074            0.924957552      20.7755641       0.354849669      -67.606455       0.354849669      -67.606455       0.924957644      20.7755648       
0.078            0.93164738       19.8128183       0.339072042      -68.6395935      0.339072042      -68.6395935      0.931647473      19.8128189       
0.082            0.937501682      18.9311965       0.324541359      -69.5844368      0.324541359      -69.5844368      0.937501776      18.9311971       
0.086            0.94265009       18.121325        0.311126672      -70.4513651      0.311126672      -70.4513651      0.942650184      18.1213255       
0.09             0.947198784      17.3751456       0.298712869      -71.2492636      0.298712869      -71.2492636      0.947198879      17.3751461       
0.094            0.951235244      16.6857078       0.287198748      -71.9857689      0.287198748      -71.9857689      0.951235339      16.6857083       
0.098            0.954831951      16.0469949       0.27649526       -72.6674713      0.27649526       -72.6674713      0.954832046      16.0469954       
0.102            0.958049294      15.4537803       0.26652394       -73.3000811      0.26652394       -73.3000811      0.958049389      15.4537807       
0.106            0.960937851      14.9015068       0.257215521      -73.8885656      0.257215521      -73.8885656      0.960937947      14.9015072       
0.11             0.963540204      14.3861875       0.248508739      -74.4372621      0.248508739      -74.4372621      0.9635403        14.3861879       
0.114            0.965892377      13.904322        0.240349284      -74.9499719      0.240349284      -74.9499719      0.965892474      13.9043224       
0.118            0.968024993      13.4528268       0.232688903      -75.4300386      0.232688903      -75.4300386      0.96802509       13.4528272       
0.122            0.969964197      13.028977        0.225484625      -75.880413       0.225484625      -75.880413       0.969964294      13.0289774       
0.126            0.97173241       12.6303566       0.21869809       -76.3037079      0.21869809       -76.3037079      0.971732507      12.630357        
0.13             0.973348937      12.2548173       0.212294977      -76.7022441      0.212294977      -76.7022441      0.973349034      12.2548177       
0.134            0.974830469      11.9004433       0.206244504      -77.0780894      0.206244504      -77.0780894      0.974830566      11.9004437       
0.138            0.976191485      11.5655211       0.200519003      -77.4330914      0.200519003      -77.4330914      0.976191583      11.5655214       
0.142            0.977444598      11.248514        0.195093546      -77.7689058      0.195093546      -77.7689058      0.977444696      11.2485143       
0.146            0.978600827      10.9480405       0.189945625      -78.0870197      0.189945625      -78.0870197      0.978600925      10.9480408       
0.15             0.979669833      10.6628554       0.185054878      -78.3887728      0.185054878      -78.3887728      0.979669931      10.6628557       
0.154            0.980660114      10.3918337       0.180402838      -78.6753749      0.180402838      -78.6753749      0.980660212      10.391834        
0.158            0.981579165      10.1339564       0.175972731      -78.9479205      0.175972731      -78.9479205      0.981579263      10.1339568       
0.162            0.982433617      9.88829904       0.171749286      -79.2074027      0.171749286      -79.2074027      0.982433715      9.88829938       
0.166            0.983229352      9.65402051       0.167718573      -79.4547242      0.167718573      -79.4547242      0.98322945       9.65402085       
0.17             0.983971604      9.43035438       0.163867869      -79.6907073      0.163867869      -79.6907073      0.983971702      9.43035471       
0.174            0.984665038      9.21660075       0.160185522      -79.9161025      0.160185522      -79.9161025      0.984665136      9.21660107       
0.178            0.985313825      9.01211927       0.156660853      -80.1315963      0.156660853      -80.1315963      0.985313924      9.01211959       
0.182            0.985921704      8.81632305       0.153284051      -80.3378174      0.153284051      -80.3378174      0.985921803      8.81632337       
0.186            0.986492031      8.62867321       0.150046091      -80.535343       0.150046091      -80.535343       0.986492129      8.62867353       
0.19             0.987027826      8.44867414       0.146938659      -80.7247038      0.146938659      -80.7247038      0.987027925      8.44867445       
0.194            0.987531815      8.27586926       0.143954081      -80.9063884      0.143954081      -80.9063884      0.987531914      8.27586957       
0.198            0.98800646       8.10983734       0.141085267      -81.0808475      0.141085267      -81.0808475      0.988006559      8.10983764       
0.202            0.988453991      7.95018909       0.138325654      -81.2484976      0.138325654      -81.2484976      0.988454089      7.95018939       
0.206            0.988876429      7.7965643        0.135669162      -81.4097238      0.135669162      -81.4097238      0.988876528      7.79656459       
0.21             0.989275614      7.64862912       0.133110148      -81.5648829      0.133110148      -81.5648829      0.989275713      7.64862942       
0.214            0.989653219      7.50607378       0.130643369      -81.714306       0.130643369      -81.714306       0.989653318      7.50607408       
0.218            0.99001077       7.36861042       0.128263948      -81.8583007      0.128263948      -81.8583007      0.990010869      7.36861072       
0.222            0.990349661      7.23597123       0.125967341      -81.997153       0.125967341      -81.997153       0.99034976       7.23597152       
0.226            0.990671167      7.10790671       0.123749314      -82.1311294      0.123749314      -82.1311294      0.990671266      7.107907         
0.23             0.990976456      6.98418421       0.12160591       -82.2604781      0.12160591       -82.2604781      0.990976555      6.98418449       
0.234            0.991266601      6.86458645       0.119533434      -82.3854311      0.119533434      -82.3854311      0.9912667        6.86458673       
0.238            0.991542586      6.74891036       0.117528428      -82.506205       0.117528428      -82.506205       0.991542685      6.74891064       
0.242            0.991805319      6.63696589       0.115587654      -82.6230027      0.115587654      -82.6230027      0.991805418      6.63696618       
0.246            0.992055634      6.52857503       0.113708074      -82.7360139      0.113708074      -82.7360139      0.992055733      6.52857531       
0.25             0.992294302      6.42357083       0.11188684       -82.8454167      0.11188684       -82.8454167      0.992294401      6.42357111       
0.254            0.992522034      6.3217966        0.110121274      -82.9513781      0.110121274      -82.9513781      0.992522133      6.32179688       
0.258            0.99273949       6.22310511       0.108408862      -83.054055       0.108408862      -83.054055       0.992739589      6.22310539       
0.262            0.992947278      6.12735792       0.106747234      -83.153595       0.106747234      -83.153595       0.992947377      6.1273582        
0.266            0.993145963      6.0344247        0.10513416       -83.2501369      0.10513416       -83.2501369      0.993146063      6.03442498       
0.27             0.993336071      5.94418267       0.103567538      -83.3438114      0.103567538      -83.3438114      0.99333617       5.94418295       
0.274            0.993518088      5.85651607       0.102045384      -83.4347419      0.102045384      -83.4347419      0.993518187      5.85651635       
0.278            0.993692467      5.77131565       0.100565825      -83.5230446      0.100565825      -83.5230446      0.993692566      5.77131593       
0.282            0.99385963       5.68847823       0.0991270916     -83.6088293      0.0991270916     -83.6088293      0.993859729      5.6884785        
0.286            0.99401997       5.60790627       0.0977275096     -83.6921999      0.0977275096     -83.6921999      0.994020069      5.60790654       
0.29             0.994173854      5.52950752       0.0963654952     -83.7732545      0.0963654952     -83.7732545      0.994173954      5.52950779       
0.294            0.994321625      5.45319465       0.0950395484     -83.852086       0.0950395484     -83.852086       0.994321724      5.45319493       
0.298            0.994463601      5.37888493       0.0937482474     -83.9287823      0.0937482474     -83.9287823      0.994463701      5.37888521       
0.302            0.994600084      5.30649994       0.0924902438     -84.0034269      0.0924902438     -84.0034269      0.994600183      5.30650021       
0.306            0.994731352      5.23596526       0.0912642581     -84.0760989      0.0912642581     -84.0760989      0.994731451      5.23596553       
0.31             0.994857668      5.16721027       0.0900690749     -84.1468732      0.0900690749     -84.1468732      0.994857768      5.16721054       
0.314            0.994979279      5.10016788       0.0889035396     -84.2158212      0.0889035396     -84.2158212      0.994979379      5.10016815       
0.318            0.995096416      5.03477432       0.0877665542     -84.2830106      0.0877665542     -84.2830106      0.995096515      5.03477459       
0.322            0.995209295      4.97096893       0.0866570738     -84.3485059      0.0866570738     -84.3485059      0.995209394      4.97096921       
0.326            0.995318121      4.908694         0.0855741039     -84.4123682      0.0855741039     -84.4123682      0.99531822       4.90869427       
0.33             0.995423085      4.84789454       0.0845166972     -84.474656       0.0845166972     -84.474656       0.995423185      4.84789482       
0.334            0.995524369      4.7885182        0.0834839506     -84.5354249      0.0834839506     -84.5354249      0.995524469      4.78851847       
0.338            0.995622143      4.73051502       0.082475003      -84.5947277      0.082475003      -84.5947277      0.995622242      4.7305153        
0.342            0.995716566      4.6738374        0.0814890328     -84.6526151      0.0814890328     -84.6526151      0.995716666      4.67383767       
0.346            0.995807792      4.61843986       0.0805252556     -84.7091352      0.0805252556     -84.7091352      0.995807891      4.61844013       
0.35             0.995895961      4.564279         0.0795829221     -84.764334       0.0795829221     -84.764334       0.99589606       4.56427928       
0.354            0.99598121       4.51131335       0.0786613163     -84.8182555      0.0786613163     -84.8182555      0.995981309      4.51131362       
0.358            0.996063665      4.45950326       0.0777597537     -84.8709417      0.0777597537     -84.8709417      0.996063765      4.45950354       
0.362            0.996143448      4.40881082       0.0768775794     -84.9224327      0.0768775794     -84.9224327      0.996143548      4.4088111        
0.366            0.996220674      4.35919976       0.0760141666     -84.972767       0.0760141666     -84.972767       0.996220773      4.35920003       
0.37             0.996295449      4.31063534       0.0751689151     -85.0219813      0.0751689151     -85.0219813      0.996295548      4.31063561       
0.374            0.996367876      4.2630843        0.0743412502     -85.0701108      0.0743412502     -85.0701108      0.996367976      4.26308458       
0.378            0.996438054      4.21651479       0.0735306207     -85.1171892      0.0735306207     -85.1171892      0.996438153      4.21651507       
0.382            0.996506073      4.17089624       0.0727364986     -85.1632489      0.0727364986     -85.1632489      0.996506173      4.17089652       
0.386            0.996572021      4.12619937       0.0719583771     -85.2083207      0.0719583771     -85.2083207      0.996572121      4.12619965       
0.39             0.996635982      4.08239605       0.07119577       -85.2524345      0.07119577       -85.2524345      0.996636082      4.08239633       
0.394            0.996698035      4.03945933       0.0704482104     -85.2956187      0.0704482104     -85.2956187      0.996698134      4.03945961       
0.398            0.996758253      3.99736328       0.0697152502     -85.3379007      0.0697152502     -85.3379007      0.996758353      3.99736356       
0.402            0.99681671       3.95608302       0.0689964585     -85.3793067      0.0689964585     -85.3793067      0.996816809      3.9560833        
0.406            0.996873472      3.91559464       0.0682914213     -85.419862       0.0682914213     -85.419862       0.996873572      3.91559493       
0.41             0.996928604      3.87587515       0.0675997407     -85.4595908      0.0675997407     -85.4595908      0.996928704      3.87587543       
0.414            0.996982169      3.83690244       0.0669210337     -85.4985165      0.0669210337     -85.4985165      0.996982268      3.83690272       
0.418            0.997034224      3.79865522       0.066254932      -85.5366615      0.066254932      -85.5366615      0.997034323      3.79865551       
0.422            0.997084825      3.76111304       0.0656010808     -85.5740473      0.0656010808     -85.5740473      0.997084925      3.76111332       
0.426            0.997134027      3.72425617       0.0649591386     -85.6106948      0.0649591386     -85.6106948      0.997134126      3.72425645       
0.43             0.997181879      3.68806563       0.0643287766     -85.6466238      0.0643287766     -85.6466238      0.997181979      3.68806591       
0.434            0.997228431      3.65252313       0.0637096777     -85.6818537      0.0637096777     -85.6818537      0.99722853       3.65252342       
0.438            0.997273728      3.61761104       0.0631015365     -85.716403       0.0631015365     -85.716403       0.997273828      3.61761133       
0.442            0.997317816      3.58331236       0.0625040582     -85.7502896      0.0625040582     -85.7502896      0.997317916      3.58331265       
0.446            0.997360737      3.54961071       0.0619169587     -85.7835307      0.0619169587     -85.7835307      0.997360837      3.549611         
0.45             0.997402531      3.51649026       0.0613399638     -85.8161429      0.0613399638     -85.8161429      0.997402631      3.51649055       
0.454            0.997443237      3.48393576       0.060772809      -85.8481422      0.060772809      -85.8481422      0.997443337      3.48393605       
0.458            0.997482892      3.45193247       0.0602152387     -85.8795441      0.0602152387     -85.8795441      0.997482992      3.45193276       
0.462            0.997521532      3.42046617       0.0596670061     -85.9103636      0.0596670061     -85.9103636      0.997521632      3.42046646       
0.466            0.99755919       3.38952312       0.0591278729     -85.9406149      0.0591278729     -85.9406149      0.99755929       3.38952341       
0.47             0.9975959        3.35909003       0.0585976089     -85.9703121      0.0585976089     -85.9703121      0.997596         3.35909032       
0.474            0.997631693      3.32915408       0.0580759913     -85.9994685      0.0580759913     -85.9994685      0.997631793      3.32915437       
0.478            0.997666598      3.29970285       0.0575628048     -86.0280972      0.0575628048     -86.0280972      0.997666698      3.29970315       
0.482            0.997700645      3.27072437       0.0570578414     -86.0562106      0.0570578414     -86.0562106      0.997700745      3.27072466       
0.486            0.99773386       3.242207         0.0565608995     -86.083821       0.0565608995     -86.083821       0.99773396       3.2422073        
0.49             0.997766271      3.21413954       0.0560717844     -86.1109401      0.0560717844     -86.1109401      0.997766371      3.21413984       
0.494            0.997797903      3.18651111       0.0555903073     -86.1375791      0.0555903073     -86.1375791      0.997798003      3.18651141       
0.498            0.99782878       3.15931118       0.0551162856     -86.1637491      0.0551162856     -86.1637491      0.99782888       3.15931149       
0.502            0.997858926      3.13252958       0.0546495425     -86.1894607      0.0546495425     -86.1894607      0.997859026      3.13252989       
0.506            0.997888363      3.10615644       0.0541899066     -86.2147242      0.0541899066     -86.2147242      0.997888463      3.10615674       
0.51             0.997917113      3.08018218       0.0537372119     -86.2395495      0.0537372119     -86.2395495      0.997917213      3.08018249       
0.514            0.997945197      3.05459756       0.0532912975     -86.2639462      0.0532912975     -86.2639462      0.997945297      3.05459787       
0.518            0.997972635      3.02939359       0.0528520075     -86.2879238      0.0528520075     -86.2879238      0.997972734      3.0293939        
0.522            0.997999445      3.00456156       0.0524191907     -86.3114912      0.0524191907     -86.3114912      0.997999545      3.00456187       
0.526            0.998025648      2.98009303       0.0519927004     -86.3346571      0.0519927004     -86.3346571      0.998025747      2.98009334       
0.53             0.998051259      2.95597981       0.0515723943     -86.3574302      0.0515723943     -86.3574302      0.998051359      2.95598012       
0.534            0.998076298      2.93221395       0.0511581344     -86.3798186      0.0511581344     -86.3798186      0.998076398      2.93221427       
0.538            0.99810078       2.90878775       0.0507497868     -86.4018303      0.0507497868     -86.4018303      0.99810088       2.90878806       
0.542            0.998124721      2.88569372       0.0503472214     -86.423473       0.0503472214     -86.423473       0.998124821      2.88569403       
0.546            0.998148137      2.86292458       0.0499503118     -86.4447543      0.0499503118     -86.4447543      0.998148237      2.8629249        
0.55             0.998171043      2.84047329       0.0495589356     -86.4656815      0.0495589356     -86.4656815      0.998171143      2.84047361       
0.554            0.998193453      2.818333         0.0491729736     -86.4862615      0.0491729736     -86.4862615      0.998193552      2.81833331       
0.558            0.99821538       2.79649703       0.0487923101     -86.5065013      0.0487923101     -86.5065013      0.99821548       2.79649735       
