! Coilcraft 1812PS-104 Power Chip Inductor				
! 1 October 2002			
# MHZ S MA R 50
!Freq             MagS11           AngS11           MagS21           AngS21           MagS12           AngS12           MagS22           AngS22
0.05             0.2961144        70.141189        0.941541965      -17.205333       0.941541965      -17.205333       0.29611443       70.14119         
0.077            0.430448652      62.7255538       0.889256358      -25.4826827      0.889256358      -25.4826827      0.430448694      62.7255544       
0.104            0.541184403      55.8597986       0.827909101      -32.7535118      0.827909101      -32.7535118      0.541184457      55.8597991       
0.131            0.629421747      49.8469092       0.764479444      -38.9980529      0.764479444      -38.9980529      0.62942181       49.8469096       
0.158            0.698512937      44.6934582       0.703422155      -44.2991861      0.703422155      -44.2991861      0.698513007      44.6934585       
0.185            0.752308884      40.3108707       0.647015356      -48.782603       0.647015356      -48.782603       0.752308959      40.310871        
0.212            0.794282631      36.585967        0.596091352      -52.5796233      0.596091352      -52.5796233      0.79428271       36.5859673       
0.239            0.827250639      33.4093778       0.550668466      -55.8095175      0.550668466      -55.8095175      0.827250722      33.409378        
0.266            0.853381884      30.6856325       0.510369865      -58.57361        0.510369865      -58.57361        0.853381969      30.6856328       
0.293            0.874306762      28.3351682       0.474664901      -60.9551415      0.474664901      -60.9551415      0.874306849      28.3351685       
0.32             0.891239705      26.2931111       0.442995038      -63.0214091      0.442995038      -63.0214091      0.891239794      26.2931113       
0.347            0.90508482       24.5070487       0.414833189      -64.8264848      0.414833189      -64.8264848      0.90508491       24.5070489       
0.374            0.916518145      22.9347293       0.389707382      -66.4137933      0.389707382      -66.4137933      0.916518237      22.9347295       
0.401            0.926048802      21.5420305       0.367206486      -67.8183089      0.367206486      -67.8183089      0.926048894      21.5420307       
0.428            0.934063519      20.3012821       0.346977588      -69.0683342      0.346977588      -69.0683342      0.934063612      20.3012823       
0.455            0.940858799      19.1899247       0.328719971      -70.1869072      0.328719971      -70.1869072      0.940858893      19.1899249       
0.482            0.946664136      18.1894547       0.312178164      -71.1929005      0.312178164      -71.1929005      0.94666423       18.1894549       
0.509            0.951658836      17.2845983       0.297135206      -72.101876       0.297135206      -72.101876       0.951658931      17.2845985       
0.536            0.955984283      16.4626672       0.283406588      -72.9267502      0.283406588      -72.9267502      0.955984379      16.4626674       
0.563            0.959752947      15.713054        0.270835016      -73.6783133      0.270835016      -73.6783133      0.959753043      15.7130543       
0.59             0.963055046      15.026837        0.259285989      -74.3656351      0.259285989      -74.3656351      0.963055142      15.0268372       
0.617            0.965963536      14.3964673       0.248644091      -74.9963851      0.248644091      -74.9963851      0.965963632      14.3964675       
0.644            0.968537855      13.8155219       0.238809922      -75.5770861      0.238809922      -75.5770861      0.968537952      13.8155222       
0.671            0.970826782      13.2785061       0.22969755       -76.1133154      0.22969755       -76.1133154      0.970826879      13.2785063       
0.698            0.972870613      12.780695        0.221232406      -76.6098668      0.221232406      -76.6098668      0.97287071       12.7806952       
0.725            0.974702854      12.3180063       0.213349536      -77.0708809      0.213349536      -77.0708809      0.974702951      12.3180065       
0.752            0.976351532      11.8868962       0.205992157      -77.4999505      0.205992157      -77.4999505      0.976351629      11.8868964       
0.779            0.977840223      11.4842751       0.199110447      -77.900207       0.199110447      -77.900207       0.977840321      11.4842753       
0.806            0.979188869      11.1074381       0.192660541      -78.2743908      0.192660541      -78.2743908      0.979188967      11.1074383       
0.833            0.980414421      10.7540077       0.186603693      -78.6249101      0.186603693      -78.6249101      0.980414519      10.754008        
0.86             0.981531358      10.4218867       0.180905563      -78.9538884      0.180905563      -78.9538884      0.981531456      10.421887        
0.887            0.982552105      10.1092181       0.175535622      -79.2632054      0.175535622      -79.2632054      0.982552203      10.1092184       
0.914            0.983487369      9.81435236       0.170466653      -79.5545303      0.170466653      -79.5545303      0.983487467      9.81435264       
0.941            0.984346415      9.5358195        0.165674315      -79.8293501      0.165674315      -79.8293501      0.984346514      9.53581978       
0.968            0.985137293      9.27230547       0.161136785      -80.0889939      0.161136785      -80.0889939      0.985137392      9.27230575       
0.995            0.985867021      9.02263224       0.156834443      -80.3346527      0.156834443      -80.3346527      0.98586712       9.02263253       
1.022            0.986541739      8.78574081       0.152749606      -80.5673968      0.152749606      -80.5673968      0.986541838      8.78574111       
1.049            0.987166839      8.56067668       0.148866297      -80.7881907      0.148866297      -80.7881907      0.987166938      8.56067698       
1.076            0.987747069      8.34657735       0.145170048      -80.9979055      0.145170048      -80.9979055      0.987747168      8.34657766       
1.103            0.988286624      8.14266159       0.141647729      -81.1973303      0.141647729      -81.1973303      0.988286723      8.1426619        
1.13             0.988789221      7.94822015       0.138287395      -81.3871809      0.138287395      -81.3871809      0.98878932       7.94822047       
1.157            0.989258162      7.76260773       0.135078162      -81.5681085      0.135078162      -81.5681085      0.989258261      7.76260805       
1.184            0.98969639       7.58523597       0.132010087      -81.7407068      0.132010087      -81.7407068      0.989696489      7.58523629       
1.211            0.990106532      7.41556732       0.129074075      -81.9055177      0.129074075      -81.9055177      0.990106631      7.41556765       
1.238            0.99049094       7.25310974       0.126261787      -82.0630373      0.126261787      -82.0630373      0.99049104       7.25311008       
1.265            0.990851727      7.097412         0.123565569      -82.2137203      0.123565569      -82.2137203      0.990851826      7.09741234       
1.292            0.991190791      6.94805953       0.120978377      -82.3579844      0.120978377      -82.3579844      0.991190891      6.94805988       
1.319            0.991509845      6.80467085       0.118493722      -82.4962137      0.118493722      -82.4962137      0.991509944      6.8046712        
1.346            0.991810434      6.66689426       0.116105618      -82.6287621      0.116105618      -82.6287621      0.991810533      6.66689463       
1.373            0.992093958      6.53440511       0.113808531      -82.7559562      0.113808531      -82.7559562      0.992094058      6.53440548       
1.4              0.992361687      6.40690317       0.111597339      -82.8780982      0.111597339      -82.8780982      0.992361786      6.40690355       
1.427            0.992614773      6.28411044       0.109467297      -82.9954673      0.109467297      -82.9954673      0.992614873      6.28411082       
1.454            0.992854267      6.16576911       0.107413997      -83.1083226      0.107413997      -83.1083226      0.992854366      6.16576949       
1.481            0.993081124      6.05163978       0.105433347      -83.2169045      0.105433347      -83.2169045      0.993081224      6.05164017       
1.508            0.99329622       5.94149986       0.103521536      -83.3214365      0.103521536      -83.3214365      0.993296319      5.94150026       
1.535            0.993500353      5.83514211       0.101675015      -83.4221264      0.101675015      -83.4221264      0.993500452      5.83514251       
1.562            0.993694255      5.73237334       0.0998904728     -83.519168       0.0998904728     -83.519168       0.993694355      5.73237375       
1.589            0.9938786        5.63301327       0.0981648182     -83.6127419      0.0981648182     -83.6127419      0.993878699      5.63301368       
1.616            0.994054003      5.53689344       0.0964951603     -83.7030168      0.0964951603     -83.7030168      0.994054102      5.53689386       
1.643            0.994221033      5.44385629       0.0948787937     -83.7901504      0.0948787937     -83.7901504      0.994221133      5.44385672       
1.67             0.994380214      5.35375428       0.0933131838     -83.8742903      0.0933131838     -83.8742903      0.994380314      5.35375471       
1.697            0.994532028      5.2664491        0.0917959535     -83.9555748      0.0917959535     -83.9555748      0.994532128      5.26644954       
1.724            0.994676922      5.18181097       0.0903248711     -84.0341333      0.0903248711     -84.0341333      0.994677022      5.18181142       
1.751            0.994815309      5.09971801       0.0888978396     -84.1100877      0.0888978396     -84.1100877      0.994815408      5.09971846       
1.778            0.994947569      5.02005563       0.0875128867     -84.1835522      0.0875128867     -84.1835522      0.994947669      5.02005609       
1.805            0.995074059      4.942716         0.0861681556     -84.2546342      0.0861681556     -84.2546342      0.995074158      4.94271646       
1.832            0.995195105      4.86759754       0.0848618966     -84.3234349      0.0848618966     -84.3234349      0.995195205      4.86759801       
1.859            0.995311015      4.79460453       0.08359246       -84.3900495      0.08359246       -84.3900495      0.995311115      4.79460501       
1.886            0.995422072      4.72364663       0.0823582884     -84.4545678      0.0823582884     -84.4545678      0.995422172      4.72364711       
1.913            0.995528541      4.65463856       0.081157911      -84.5170745      0.081157911      -84.5170745      0.995528641      4.65463904       
1.94             0.995630669      4.5874997        0.0799899372     -84.5776496      0.0799899372     -84.5776496      0.995630769      4.58750019       
1.967            0.995728685      4.52215383       0.0788530516     -84.6363686      0.0788530516     -84.6363686      0.995728785      4.52215433       
1.994            0.995822805      4.4585288        0.0777460086     -84.693303       0.0777460086     -84.693303       0.995822905      4.4585293        
2.021            0.995913229      4.39655628       0.0766676283     -84.7485202      0.0766676283     -84.7485202      0.995913329      4.39655679       
2.048            0.996000146      4.33617149       0.0756167919     -84.8020843      0.0756167919     -84.8020843      0.996000246      4.336172         
2.075            0.996083731      4.27731299       0.0745924379     -84.854056       0.0745924379     -84.854056       0.996083831      4.27731352       
2.102            0.99616415       4.21992249       0.0735935586     -84.9044926      0.0735935586     -84.9044926      0.99616425       4.21992302       
2.129            0.996241557      4.16394458       0.0726191965     -84.9534486      0.0726191965     -84.9534486      0.996241657      4.16394512       
2.156            0.996316098      4.10932664       0.0716684416     -85.0009759      0.0716684416     -85.0009759      0.996316198      4.10932718       
2.183            0.996387909      4.0560186        0.070740428      -85.0471235      0.070740428      -85.0471235      0.996388009      4.05601915       
2.21             0.996457118      4.00397283       0.0698343317     -85.091938       0.0698343317     -85.091938       0.996457218      4.00397338       
2.237            0.996523846      3.95314397       0.068949368      -85.1354639      0.068949368      -85.1354639      0.996523946      3.95314453       
2.264            0.996588207      3.90348882       0.0680847891     -85.1777435      0.0680847891     -85.1777435      0.996588307      3.90348939       
2.291            0.996650309      3.85496618       0.0672398818     -85.2188167      0.0672398818     -85.2188167      0.996650409      3.85496675       
2.318            0.996710251      3.80753675       0.066413966      -85.2587219      0.066413966      -85.2587219      0.996710351      3.80753733       
2.345            0.99676813       3.76116305       0.0656063924     -85.2974956      0.0656063924     -85.2974956      0.99676823       3.76116363       
2.372            0.996824035      3.71580927       0.0648165409     -85.3351725      0.0648165409     -85.3351725      0.996824135      3.71580986       
2.399            0.996878052      3.67144121       0.064043819      -85.3717856      0.064043819      -85.3717856      0.996878153      3.6714418        
2.426            0.996930262      3.62802617       0.0632876603     -85.4073665      0.0632876603     -85.4073665      0.996930362      3.62802677       
2.453            0.996980739      3.5855329        0.0625475231     -85.4419455      0.0625475231     -85.4419455      0.996980839      3.58553351       
2.48             0.997029557      3.54393147       0.0618228889     -85.4755512      0.0618228889     -85.4755512      0.997029657      3.54393209       
2.507            0.997076784      3.50319326       0.0611132614     -85.5082111      0.0611132614     -85.5082111      0.997076884      3.50319388       
2.534            0.997122483      3.46329085       0.0604181653     -85.5399515      0.0604181653     -85.5399515      0.997122584      3.46329148       
2.561            0.997166718      3.42419795       0.059737145      -85.5707976      0.059737145      -85.5707976      0.997166818      3.42419859       
2.588            0.997209546      3.3858894        0.0590697637     -85.6007732      0.0590697637     -85.6007732      0.997209646      3.38589004       
2.615            0.997251022      3.34834102       0.0584156026     -85.6299013      0.0584156026     -85.6299013      0.997251122      3.34834167       
2.642            0.997291199      3.31152967       0.0577742598     -85.6582038      0.0577742598     -85.6582038      0.997291299      3.31153032       
2.669            0.997330126      3.27543309       0.0571453495     -85.6857019      0.0571453495     -85.6857019      0.997330226      3.27543375       
2.696            0.997367852      3.24002993       0.0565285012     -85.7124155      0.0565285012     -85.7124155      0.997367952      3.24003059       
2.723            0.997404421      3.20529968       0.0559233589     -85.738364       0.0559233589     -85.738364       0.997404522      3.20530035       
2.75             0.997439877      3.17122263       0.0553295807     -85.7635657      0.0553295807     -85.7635657      0.997439978      3.17122331       
2.777            0.997474261      3.13777983       0.0547468377     -85.7880384      0.0547468377     -85.7880384      0.997474361      3.13778052       
2.804            0.99750761       3.10495306       0.0541748134     -85.8117989      0.0541748134     -85.8117989      0.997507711      3.10495375       
2.831            0.997539964      3.07272479       0.0536132037     -85.8348636      0.0536132037     -85.8348636      0.997540064      3.07272548       
2.858            0.997571357      3.04107813       0.0530617154     -85.8572479      0.0530617154     -85.8572479      0.997571457      3.04107884       
2.885            0.997601822      3.00999685       0.0525200666     -85.8789667      0.0525200666     -85.8789667      0.997601923      3.00999756       
2.912            0.997631394      2.97946531       0.0519879856     -85.9000345      0.0519879856     -85.9000345      0.997631494      2.97946602       
2.939            0.997660101      2.94946841       0.0514652107     -85.9204649      0.0514652107     -85.9204649      0.997660202      2.94946914       
2.966            0.997687975      2.91999165       0.0509514894     -85.9402711      0.0509514894     -85.9402711      0.997688075      2.91999238       
2.993            0.997715042      2.89102101       0.0504465785     -85.9594657      0.0504465785     -85.9594657      0.997715143      2.89102175       
3.02             0.99774133       2.86254299       0.0499502434     -85.9780608      0.0499502434     -85.9780608      0.997741431      2.86254373       
3.047            0.997766866      2.83454455       0.0494622577     -85.9960681      0.0494622577     -85.9960681      0.997766966      2.83454529       
3.074            0.997791672      2.80701311       0.048982403      -86.0134987      0.048982403      -86.0134987      0.997791773      2.80701386       
3.101            0.997815774      2.77993655       0.0485104682     -86.0303635      0.0485104682     -86.0303635      0.997815875      2.77993731       
3.128            0.997839194      2.75330312       0.0480462497     -86.0466726      0.0480462497     -86.0466726      0.997839294      2.75330389       
3.155            0.997861953      2.72710153       0.0475895507     -86.062436       0.0475895507     -86.062436       0.997862053      2.7271023        
3.182            0.997884072      2.70132081       0.0471401812     -86.0776631      0.0471401812     -86.0776631      0.997884173      2.70132159       
3.209            0.997905571      2.6759504        0.0466979573     -86.0923631      0.0466979573     -86.0923631      0.997905672      2.67595119       
3.236            0.99792647       2.65098008       0.0462627014     -86.1065447      0.0462627014     -86.1065447      0.997926571      2.65098087       
3.263            0.997946787      2.62639996       0.0458342416     -86.1202163      0.0458342416     -86.1202163      0.997946888      2.62640075       
3.29             0.997966539      2.60220047       0.0454124118     -86.133386       0.0454124118     -86.133386       0.997966639      2.60220127       
3.317            0.997985743      2.57837237       0.044997051      -86.1460615      0.044997051      -86.1460615      0.997985844      2.57837318       
3.344            0.998004415      2.5549067        0.0445880037     -86.1582504      0.0445880037     -86.1582504      0.998004516      2.55490752       
3.371            0.998022572      2.5317948        0.0441851191     -86.1699596      0.0441851191     -86.1699596      0.998022673      2.53179562       
3.398            0.998040228      2.50902826       0.0437882512     -86.1811961      0.0437882512     -86.1811961      0.998040329      2.50902909       
3.425            0.998057397      2.48659896       0.0433972587     -86.1919664      0.0433972587     -86.1919664      0.998057498      2.48659979       
3.452            0.998074094      2.46449902       0.0430120046     -86.2022769      0.0430120046     -86.2022769      0.998074195      2.46449986       
3.479            0.998090332      2.44272081       0.0426323562     -86.2121336      0.0426323562     -86.2121336      0.998090432      2.44272165       
