! Coilcraft 1812PS-393 Power Chip Inductor				
! 1 October 2002			
# MHZ S MA R 50
!Freq             MagS11           AngS11           MagS21           AngS21           MagS12           AngS12           MagS22           AngS22
0.05             0.121002693      79.9853175       0.986182789      -6.93992128      0.986182789      -6.93992128      0.121002705      79.9853187       
0.1              0.236489468      74.6339163       0.964673255      -13.6733554      0.964673255      -13.6733554      0.236489492      74.6339169       
0.15             0.342637517      68.7055616       0.931952351      -20.0325842      0.931952351      -20.0325842      0.342637551      68.705562        
0.2              0.436947528      63.0307565       0.891403885      -25.9044828      0.891403885      -25.9044828      0.436947572      63.0307569       
0.25             0.518592078      57.8077973       0.846384157      -31.2329954      0.846384157      -31.2329954      0.51859213       57.8077976       
0.3              0.587990614      53.0922595       0.799701704      -36.009435       0.799701704      -36.009435       0.587990673      53.0922598       
0.35             0.646300499      48.8800172       0.753419272      -40.2577679      0.753419272      -40.2577679      0.646300563      48.8800175       
0.4              0.694991847      45.1382342       0.708887004      -44.0206109      0.708887004      -44.0206109      0.694991917      45.1382345       
0.45             0.735566502      41.8216282       0.666883664      -47.3485955      0.666883664      -47.3485955      0.735566576      41.8216285       
0.5              0.76940614       38.8816244       0.627778405      -50.2934521      0.627778405      -50.2934521      0.769406217      38.8816247       
0.55             0.797709464      36.2712833       0.591670363      -52.9040918      0.591670363      -52.9040918      0.797709544      36.2712835       
0.6              0.821481101      33.947667        0.558493619      -55.2247408      0.558493619      -55.2247408      0.821481183      33.9476673       
0.65             0.841546071      31.8727184       0.528089761      -57.2943297      0.528089761      -57.2943297      0.841546156      31.8727187       
0.7              0.858574204      30.013329        0.500255154      -59.1465765      0.500255154      -59.1465765      0.85857429       30.0133292       
0.75             0.873106282      28.3410064       0.474770243      -60.8104097      0.474770243      -60.8104097      0.873106369      28.3410066       
0.8              0.885578128      26.8313751       0.451416812      -62.3105236      0.451416812      -62.3105236      0.885578217      26.8313754       
0.85             0.896341245      25.4636369       0.429987505      -63.6679533      0.429987505      -63.6679533      0.896341335      25.4636372       
0.9              0.905679831      24.2200542       0.410290521      -64.9006152      0.410290521      -64.9006152      0.905679922      24.2200545       
0.95             0.91382449       23.085485        0.392151413      -66.0237881      0.392151413      -66.0237881      0.913824582      23.0854853       
1                0.920963142      22.046978        0.375413201      -67.0505287      0.375413201      -67.0505287      0.920963234      22.0469783       
1.05             0.927249646      21.0934266       0.35993557       -67.9920262      0.35993557       -67.9920262      0.927249739      21.0934269       
1.1              0.932810605      20.2152777       0.345593598      -68.8578981      0.345593598      -68.8578981      0.932810698      20.2152781       
1.15             0.937750714      19.4042877       0.332276317      -69.6564394      0.332276317      -69.6564394      0.937750808      19.4042881       
1.2              0.942156996      18.6533183       0.319885242      -70.3948291      0.319885242      -70.3948291      0.942157091      18.6533187       
1.25             0.946102148      17.9561672       0.308332966      -71.0793018      0.308332966      -71.0793018      0.946102242      17.9561676       
1.3              0.949647193      17.3074266       0.297541867      -71.7152915      0.297541867      -71.7152915      0.949647288      17.307427        
1.35             0.952843606      16.7023651       0.287442933      -72.3075502      0.287442933      -72.3075502      0.952843701      16.7023655       
1.4              0.955735004      16.1368292       0.277974722      -72.8602483      0.277974722      -72.8602483      0.9557351        16.1368296       
1.45             0.958358514      15.6071605       0.269082438      -73.3770572      0.269082438      -73.3770572      0.95835861       15.6071609       
1.5              0.960745876      15.1101267       0.260717128      -73.86122        0.260717128      -73.86122        0.960745972      15.1101271       
1.55             0.962924333      14.6428629       0.252834968      -74.3156099      0.252834968      -74.3156099      0.962924429      14.6428633       
1.6              0.964917365      14.2028221       0.245396654      -74.7427806      0.245396654      -74.7427806      0.964917462      14.2028225       
1.65             0.966745286      13.7877336       0.238366863      -75.1450078      0.238366863      -75.1450078      0.966745383      13.7877341       
1.7              0.968425733      13.3955673       0.231713785      -75.5243254      0.231713785      -75.5243254      0.96842583       13.3955678       
1.75             0.969974075      13.0245033       0.225408715      -75.8825563      0.225408715      -75.8825563      0.969974172      13.0245038       
1.8              0.971403748      12.6729059       0.219425701      -76.2213379      0.219425701      -76.2213379      0.971403846      12.6729064       
1.85             0.972726539      12.3393014       0.213741231      -76.5421454      0.213741231      -76.5421454      0.972726637      12.3393019       
1.9              0.973952817      12.0223587       0.208333965      -76.8463105      0.208333965      -76.8463105      0.973952914      12.0223592       
1.95             0.975091731      11.7208731       0.203184496      -77.135038       0.203184496      -77.135038       0.975091829      11.7208736       
2                0.976151382      11.4337513       0.198275143      -77.4094211      0.198275143      -77.4094211      0.97615148       11.4337519       
2.05             0.977138954      11.1599997       0.193589768      -77.6704527      0.193589768      -77.6704527      0.977139052      11.1600002       
2.1              0.978060842      10.8987128       0.189113617      -77.9190374      0.189113617      -77.9190374      0.97806094       10.8987134       
2.15             0.97892275       10.6490643       0.184833175      -78.1560006      0.184833175      -78.1560006      0.978922848      10.6490648       
2.2              0.979729777      10.4102982       0.180736048      -78.3820967      0.180736048      -78.3820967      0.979729876      10.4102988       
2.25             0.980486495      10.1817222       0.176810843      -78.5980166      0.176810843      -78.5980166      0.980486593      10.1817228       
2.3              0.981197008      9.96270076       0.173047078      -78.8043943      0.173047078      -78.8043943      0.981197107      9.96270137       
2.35             0.981865014      9.75264943       0.169435091      -79.0018123      0.169435091      -79.0018123      0.981865113      9.75265006       
2.4              0.982493846      9.55103019       0.165965964      -79.1908069      0.165965964      -79.1908069      0.982493945      9.55103082       
2.45             0.983086519      9.35734672       0.162631454      -79.3718723      0.162631454      -79.3718723      0.983086618      9.35734737       
2.5              0.983645762      9.17114059       0.159423929      -79.5454651      0.159423929      -79.5454651      0.983645861      9.17114125       
2.55             0.984174053      8.9919877        0.156336319      -79.7120073      0.156336319      -79.7120073      0.984174152      8.99198837       
2.6              0.984673642      8.81949517       0.153362059      -79.8718895      0.153362059      -79.8718895      0.984673741      8.81949585       
2.65             0.985146579      8.65329853       0.150495049      -80.0254742      0.150495049      -80.0254742      0.985146679      8.65329922       
2.7              0.985594736      8.49305923       0.147729615      -80.1730977      0.147729615      -80.1730977      0.985594835      8.49305994       
2.75             0.986019819      8.3384624        0.145060471      -80.3150725      0.145060471      -80.3150725      0.986019918      8.33846312       
2.8              0.986423393      8.18921481       0.142482687      -80.4516899      0.142482687      -80.4516899      0.986423492      8.18921554       
2.85             0.98680689       8.04504306       0.139991661      -80.5832208      0.139991661      -80.5832208      0.986806989      8.0450438        
2.9              0.987171625      7.90569197       0.137583091      -80.7099183      0.137583091      -80.7099183      0.987171724      7.90569273       
2.95             0.987518806      7.77092306       0.135252953      -80.8320186      0.135252953      -80.8320186      0.987518906      7.77092383       
3                0.987849547      7.64051324       0.132997478      -80.9497425      0.132997478      -80.9497425      0.987849646      7.64051402       
3.05             0.988164871      7.51425359       0.13081313       -81.0632967      0.13081313       -81.0632967      0.988164971      7.51425438       
3.1              0.988465726      7.39194823       0.128696596      -81.1728748      0.128696596      -81.1728748      0.988465826      7.39194904       
3.15             0.988752984      7.2734134        0.126644758      -81.2786583      0.126644758      -81.2786583      0.988753084      7.27341422       
3.2              0.989027456      7.15847645       0.124654689      -81.3808177      0.124654689      -81.3808177      0.989027556      7.15847728       
3.25             0.989289889      7.04697508       0.122723632      -81.479513       0.122723632      -81.479513       0.989289989      7.04697592       
3.3              0.989540978      6.93875655       0.120848992      -81.5748948      0.120848992      -81.5748948      0.989541078      6.93875741       
3.35             0.989781368      6.83367702       0.119028323      -81.6671046      0.119028323      -81.6671046      0.989781468      6.83367789       
3.4              0.990011658      6.73160087       0.117259316      -81.756276       0.117259316      -81.756276       0.990011758      6.73160175       
3.45             0.990232405      6.63240016       0.115539791      -81.8425345      0.115539791      -81.8425345      0.990232505      6.63240105       
3.5              0.990444129      6.5359541        0.11386769       -81.9259989      0.11386769       -81.9259989      0.990444229      6.535955         
3.55             0.990647313      6.44214851       0.112241064      -82.0067812      0.112241064      -82.0067812      0.990647413      6.44214943       
3.6              0.990842409      6.35087544       0.110658072      -82.0849872      0.110658072      -82.0849872      0.990842509      6.35087637       
3.65             0.991029838      6.26203272       0.109116969      -82.1607168      0.109116969      -82.1607168      0.991029938      6.26203366       
3.7              0.991209995      6.17552357       0.107616099      -82.2340648      0.107616099      -82.2340648      0.991210096      6.17552452       
3.75             0.991383249      6.09125627       0.106153895      -82.3051206      0.106153895      -82.3051206      0.99138335       6.09125724       
3.8              0.991549945      6.00914384       0.104728869      -82.3739693      0.104728869      -82.3739693      0.991550046      6.00914482       
3.85             0.991710407      5.92910371       0.103339607      -82.4406912      0.103339607      -82.4406912      0.991710508      5.9291047        
3.9              0.991864939      5.85105748       0.101984767      -82.5053627      0.101984767      -82.5053627      0.99186504       5.85105848       
3.95             0.992013827      5.77493062       0.100663072      -82.5680563      0.100663072      -82.5680563      0.992013927      5.77493163       
4                0.992157337      5.70065228       0.0993733058     -82.6288406      0.0993733058     -82.6288406      0.992157438      5.70065331       
4.05             0.992295722      5.62815505       0.0981143135     -82.6877811      0.0981143135     -82.6877811      0.992295823      5.62815609       
4.1              0.99242922       5.55737472       0.0968849935     -82.7449399      0.0968849935     -82.7449399      0.992429321      5.55737577       
4.15             0.992558054      5.48825016       0.0956842959     -82.8003761      0.0956842959     -82.8003761      0.992558155      5.48825122       
4.2              0.992682433      5.42072306       0.0945112199     -82.854146       0.0945112199     -82.854146       0.992682534      5.42072414       
4.25             0.992802558      5.35473786       0.0933648105     -82.9063032      0.0933648105     -82.9063032      0.992802659      5.35473894       
4.3              0.992918615      5.29024149       0.0922441561     -82.9568986      0.0922441561     -82.9568986      0.992918716      5.29024259       
4.35             0.993030781      5.22718332       0.091148386      -83.005981       0.091148386      -83.005981       0.993030882      5.22718443       
4.4              0.993139223      5.16551497       0.0900766684     -83.0535967      0.0900766684     -83.0535967      0.993139324      5.16551609       
4.45             0.9932441        5.1051902        0.0890282077     -83.0997899      0.0890282077     -83.0997899      0.993244201      5.10519133       
4.5              0.993345561      5.0461648        0.0880022433     -83.144603       0.0880022433     -83.144603       0.993345662      5.04616595       
4.55             0.993443748      4.98839649       0.0869980469     -83.1880762      0.0869980469     -83.1880762      0.993443849      4.98839765       
4.6              0.993538795      4.93184477       0.0860149216     -83.230248       0.0860149216     -83.230248       0.993538896      4.93184595       
4.65             0.993630829      4.87647089       0.0850521996     -83.2711553      0.0850521996     -83.2711553      0.99363093       4.87647208       
4.7              0.993719971      4.82223771       0.0841092411     -83.3108333      0.0841092411     -83.3108333      0.993720073      4.8222389        
4.75             0.993806337      4.76910962       0.0831854327     -83.3493156      0.0831854327     -83.3493156      0.993806438      4.76911083       
4.8              0.993890033      4.71705252       0.082280186      -83.3866344      0.082280186      -83.3866344      0.993890135      4.71705374       
4.85             0.993971164      4.66603364       0.0813929365     -83.4228205      0.0813929365     -83.4228205      0.993971266      4.66603488       
4.9              0.994049829      4.61602159       0.0805231423     -83.4579034      0.0805231423     -83.4579034      0.994049931      4.61602283       
4.95             0.99412612       4.56698618       0.079670283      -83.4919114      0.079670283      -83.4919114      0.994126221      4.56698744       
5                0.994200126      4.51889845       0.0788338587     -83.5248716      0.0788338587     -83.5248716      0.994200228      4.51889972       
5.05             0.994271932      4.47173056       0.0780133889     -83.5568098      0.0780133889     -83.5568098      0.994272034      4.47173184       
5.1              0.994341619      4.42545574       0.0772084115     -83.5877509      0.0772084115     -83.5877509      0.994341721      4.42545704       
5.15             0.994409264      4.38004827       0.0764184824     -83.6177188      0.0764184824     -83.6177188      0.994409366      4.38004958       
5.2              0.994474939      4.3354834        0.0756431741     -83.6467363      0.0756431741     -83.6467363      0.994475041      4.33548472       
5.25             0.994538715      4.2917373        0.074882075      -83.6748254      0.074882075      -83.6748254      0.994538817      4.29173863       
5.3              0.994600659      4.24878704       0.074134789      -83.7020071      0.074134789      -83.7020071      0.994600761      4.24878838       
5.35             0.994660833      4.20661055       0.0734009346     -83.7283015      0.0734009346     -83.7283015      0.994660936      4.2066119        
5.4              0.9947193        4.16518654       0.072680144      -83.7537282      0.072680144      -83.7537282      0.994719402      4.16518791       
5.45             0.994776117      4.12449452       0.071972063      -83.7783057      0.071972063      -83.7783057      0.994776219      4.1244959        
5.5              0.994831339      4.08451473       0.0712763498     -83.8020519      0.0712763498     -83.8020519      0.994831442      4.08451612       
5.55             0.994885021      4.04522812       0.0705926751     -83.824984       0.0705926751     -83.824984       0.994885123      4.04522952       
5.6              0.994937212      4.00661629       0.0699207207     -83.8471185      0.0699207207     -83.8471185      0.994937315      4.00661771       
5.65             0.994987962      3.96866152       0.06926018       -83.8684713      0.06926018       -83.8684713      0.994988064      3.96866295       
5.7              0.995037316      3.93134668       0.0686107568     -83.8890576      0.0686107568     -83.8890576      0.995037419      3.93134812       
5.75             0.995085321      3.89465525       0.0679721651     -83.9088921      0.0679721651     -83.9088921      0.995085424      3.8946567        
5.8              0.995132018      3.85857126       0.0673441285     -83.927989       0.0673441285     -83.927989       0.995132121      3.85857272       
5.85             0.995177449      3.82307928       0.0667263803     -83.9463617      0.0667263803     -83.9463617      0.995177551      3.82308076       
5.9              0.995221652      3.78816442       0.0661186623     -83.9640233      0.0661186623     -83.9640233      0.995221755      3.78816591       
5.95             0.995264667      3.75381226       0.0655207252     -83.9809864      0.0655207252     -83.9809864      0.99526477       3.75381376       
6                0.995306528      3.72000887       0.0649323276     -83.9972631      0.0649323276     -83.9972631      0.995306631      3.72001038       
6.05             0.995347271      3.68674078       0.0643532364     -84.0128649      0.0643532364     -84.0128649      0.995347374      3.6867423        
6.1              0.995386929      3.65399495       0.0637832258     -84.027803       0.0637832258     -84.027803       0.995387032      3.65399648       
6.15             0.995425535      3.62175876       0.0632220772     -84.0420883      0.0632220772     -84.0420883      0.995425638      3.62176031       
6.2              0.995463118      3.59002001       0.0626695791     -84.055731       0.0626695791     -84.055731       0.995463222      3.59002157       
6.25             0.99549971       3.55876687       0.0621255267     -84.0687411      0.0621255267     -84.0687411      0.995499813      3.55876844       
6.3              0.995535338      3.52798789       0.0615897216     -84.0811283      0.0615897216     -84.0811283      0.995535441      3.52798948       
6.35             0.99557003       3.49767198       0.0610619716     -84.0929017      0.0610619716     -84.0929017      0.995570133      3.49767357       
6.4              0.995603812      3.46780838       0.0605420904     -84.1040703      0.0605420904     -84.1040703      0.995603915      3.46780999       
