! Coilcraft 1812PS-272 Power Chip Inductor				
! 1 October 2002			
# MHZ S MA R 50
!Freq             MagS11           AngS11           MagS21           AngS21           MagS12           AngS12           MagS22           AngS22
0.05             0.00850794444    84.5377086       0.999225867      -0.485637524     0.999225867      -0.485637524     0.00850794526    84.537711        
0.187            0.0317009441     86.653804        0.998651065      -1.81598697      0.998651065      -1.81598697      0.0317009474     86.6538061       
0.324            0.0548802138     85.7955621       0.997479026      -3.14544794      0.997479026      -3.14544794      0.0548802199     85.795565        
0.461            0.078001966      84.614629        0.995712008      -4.47316068      0.995712008      -4.47316068      0.0780019755     84.6146328       
0.598            0.10102983       83.3292755       0.993345272      -5.79780176      0.993345272      -5.79780176      0.101029844      83.32928         
0.735            0.123921377      81.9956608       0.990375985      -7.11761565      0.990375985      -7.11761565      0.123921395      81.9956659       
0.872            0.146629984      80.6367128       0.986807226      -8.43055595      0.986807226      -8.43055595      0.146630007      80.6367182       
1.009            0.169107842      79.2651712       0.982649388      -9.73445509      0.982649388      -9.73445509      0.169107871      79.2651769       
1.146            0.191308582      77.8896284       0.977919896      -11.0271685      0.977919896      -11.0271685      0.191308618      77.8896342       
1.283            0.213189082      76.516487        0.972642082      -12.3066724      0.972642082      -12.3066724      0.213189124      76.5164928       
1.42             0.234710465      75.1507278       0.966843788      -13.5711177      0.966843788      -13.5711177      0.234710513      75.1507336       
1.557            0.255838517      73.7962899       0.960556054      -14.8188519      0.960556054      -14.8188519      0.255838573      73.7962956       
1.694            0.276543727      72.4563057       0.953812014      -16.0484214      0.953812014      -16.0484214      0.27654379       72.4563114       
1.831            0.296801122      71.1332694       0.946646019      -17.2585628      0.946646019      -17.2585628      0.29680119       71.1332749       
1.968            0.316590005      69.8291654       0.939092959      -18.4481906      0.939092959      -18.4481906      0.31659008       69.8291707       
2.105            0.335893662      68.545568        0.931187746      -19.6163833      0.931187746      -19.6163833      0.335893744      68.5455732       
2.242            0.354699057      67.2837195       0.922964908      -20.7623702      0.922964908      -20.7623702      0.354699146      67.2837246       
2.379            0.372996529      66.0445902       0.914458274      -21.8855183      0.914458274      -21.8855183      0.372996623      66.0445951       
2.516            0.390779504      64.8289255       0.90570073       -22.9853216      0.90570073       -22.9853216      0.390779604      64.8289302       
2.653            0.40804422       63.6372826       0.896724018      -24.0613899      0.896724018      -24.0613899      0.408044326      63.6372872       
2.79             0.424789459      62.4700598       0.887558586      -25.1134396      0.887558586      -25.1134396      0.424789571      62.4700642       
2.927            0.441016289      61.3275196       0.878233474      -26.1412842      0.878233474      -26.1412842      0.441016407      61.3275239       
3.064            0.456727824      60.209808        0.868776221      -27.1448261      0.868776221      -27.1448261      0.456727947      60.2098121       
3.201            0.471928984      59.1169699       0.859212811      -28.1240481      0.859212811      -28.1240481      0.471929112      59.116974        
3.338            0.486626279      58.0489631       0.84956764       -29.079006       0.84956764       -29.079006       0.486626412      58.048967        
3.475            0.500827593      57.0056691       0.839863494      -30.0098211      0.839863494      -30.0098211      0.500827731      57.0056729       
3.612            0.514541994      55.9869035       0.830121565      -30.9166736      0.830121565      -30.9166736      0.514542136      55.9869072       
3.749            0.527779544      54.9924247       0.820361459      -31.7997953      0.820361459      -31.7997953      0.527779691      54.9924283       
3.886            0.540551135      54.0219419       0.810601238      -32.6594644      0.810601238      -32.6594644      0.540551286      54.0219454       
4.023            0.552868328      53.0751218       0.800857462      -33.4959987      0.800857462      -33.4959987      0.552868483      53.0751253       
4.16             0.564743214      52.1515954       0.791145241      -34.3097509      0.791145241      -34.3097509      0.564743373      52.1515987       
4.297            0.576188284      51.2509629       0.781478295      -35.1011034      0.781478295      -35.1011034      0.576188447      51.2509662       
4.434            0.587216315      50.3727998       0.771869023      -35.8704633      0.771869023      -35.8704633      0.587216481      50.372803        
4.571            0.597840263      49.5166607       0.762328566      -36.6182584      0.762328566      -36.6182584      0.597840433      49.5166638       
4.708            0.608073178      48.6820838       0.752866885      -37.3449335      0.752866885      -37.3449335      0.608073351      48.6820868       
4.845            0.617928116      47.8685946       0.743492828      -38.0509465      0.743492828      -38.0509465      0.617928293      47.8685975       
4.982            0.627418078      47.0757092       0.734214204      -38.736765       0.734214204      -38.736765       0.627418258      47.0757121       
5.119            0.636555943      46.3029373       0.725037855      -39.4028641      0.725037855      -39.4028641      0.636556126      46.3029401       
5.256            0.64535442       45.5497847       0.715969725      -40.0497231      0.715969725      -40.0497231      0.645354606      45.5497874       
5.393            0.653826006      44.8157557       0.707014929      -40.6778236      0.707014929      -40.6778236      0.653826194      44.8157584       
5.53             0.661982948      44.1003553       0.698177816      -41.2876474      0.698177816      -41.2876474      0.661983139      44.1003579       
5.667            0.669837215      43.4030907       0.689462033      -41.8796744      0.689462033      -41.8796744      0.66983741       43.4030932       
5.804            0.677400476      42.723473        0.680870587      -42.4543815      0.680870587      -42.4543815      0.677400673      42.7234755       
5.941            0.684684077      42.0610187       0.672405896      -43.0122409      0.672405896      -43.0122409      0.684684276      42.0610212       
6.078            0.691699034      41.4152506       0.664069845      -43.553719       0.664069845      -43.553719       0.691699235      41.415253        
6.215            0.698456017      40.7856987       0.655863836      -44.0792755      0.655863836      -44.0792755      0.698456221      40.785701        
6.352            0.70496535       40.1719014       0.647788833      -44.5893625      0.647788833      -44.5893625      0.704965556      40.1719037       
6.489            0.711237002      39.5734059       0.639845407      -45.0844236      0.639845407      -45.0844236      0.71123721       39.5734081       
6.626            0.717280591      38.9897686       0.632033774      -45.5648939      0.632033774      -45.5648939      0.7172808        38.9897708       
6.763            0.723105382      38.4205559       0.624353835      -46.0311987      0.624353835      -46.0311987      0.723105594      38.420558        
6.9              0.728720294      37.8653444       0.616805207      -46.4837538      0.616805207      -46.4837538      0.728720508      37.8653465       
7.037            0.734133904      37.3237209       0.609387256      -46.9229651      0.609387256      -46.9229651      0.734134119      37.323723        
7.174            0.739354449      36.7952831       0.602099128      -47.3492281      0.602099128      -47.3492281      0.739354666      36.7952851       
7.311            0.744389841      36.279639        0.59493977       -47.7629281      0.59493977       -47.7629281      0.74439006       36.279641        
7.448            0.749247669      35.7764076       0.587907961      -48.1644402      0.587907961      -48.1644402      0.749247889      35.7764096       
7.585            0.753935209      35.2852186       0.581002329      -48.5541287      0.581002329      -48.5541287      0.753935431      35.2852205       
7.722            0.758459436      34.8057122       0.574221375      -48.9323479      0.574221375      -48.9323479      0.758459659      34.8057141       
7.859            0.762827031      34.3375392       0.567563486      -49.2994418      0.567563486      -49.2994418      0.762827255      34.3375411       
7.996            0.76704439       33.8803611       0.561026959      -49.6557439      0.561026959      -49.6557439      0.767044616      33.8803629       
8.133            0.771117638      33.4338494       0.554610008      -50.001578       0.554610008      -50.001578       0.771117866      33.4338512       
8.27             0.775052635      32.9976858       0.548310783      -50.3372579      0.548310783      -50.3372579      0.775052864      32.9976876       
8.407            0.778854988      32.571562        0.54212738       -50.6630877      0.54212738       -50.6630877      0.778855218      32.5715638       
8.544            0.782530059      32.1551795       0.536057853      -50.9793619      0.536057853      -50.9793619      0.78253029       32.1551812       
8.681            0.786082977      31.7482491       0.530100223      -51.2863658      0.530100223      -51.2863658      0.786083209      31.7482508       
8.818            0.789518646      31.350491        0.524252487      -51.5843756      0.524252487      -51.5843756      0.78951888       31.3504927       
8.955            0.792841757      30.9616345       0.518512625      -51.8736585      0.518512625      -51.8736585      0.792841992      30.9616362       
9.092            0.796056793      30.5814177       0.51287861       -52.1544733      0.51287861       -52.1544733      0.796057028      30.5814193       
9.229            0.799168039      30.209587        0.507348409      -52.4270702      0.507348409      -52.4270702      0.799168276      30.2095886       
9.366            0.802179594      29.8458975       0.501919994      -52.6916913      0.501919994      -52.6916913      0.802179832      29.8458991       
9.503            0.805095376      29.4901121       0.496591345      -52.9485708      0.496591345      -52.9485708      0.805095614      29.4901137       
9.64             0.807919129      29.1420017       0.49136045       -53.1979352      0.49136045       -53.1979352      0.807919369      29.1420033       
9.777            0.810654435      28.8013447       0.486225317      -53.4400034      0.486225317      -53.4400034      0.810654675      28.8013462       
9.914            0.813304717      28.4679268       0.48118397       -53.6749873      0.48118397       -53.6749873      0.813304958      28.4679283       
10.051           0.815873249      28.1415409       0.476234455      -53.9030917      0.476234455      -53.9030917      0.815873491      28.1415423       
10.188           0.818363162      27.8219866       0.471374841      -54.1245146      0.471374841      -54.1245146      0.818363405      27.8219881       
10.325           0.82077745       27.5090705       0.466603225      -54.3394475      0.466603225      -54.3394475      0.820777694      27.509072        
10.462           0.823118977      27.2026053       0.461917731      -54.5480755      0.461917731      -54.5480755      0.823119222      27.2026067       
10.599           0.825390483      26.90241         0.457316512      -54.7505777      0.457316512      -54.7505777      0.825390728      26.9024114       
10.736           0.827594589      26.6083096       0.452797751      -54.9471272      0.452797751      -54.9471272      0.827594835      26.608311        
10.873           0.829733803      26.320135        0.448359664      -55.1378915      0.448359664      -55.1378915      0.829734049      26.3201364       
11.01            0.831810526      26.0377225       0.444000497      -55.3230325      0.444000497      -55.3230325      0.831810773      26.0377238       
11.147           0.833827055      25.7609138       0.439718531      -55.5027068      0.439718531      -55.5027068      0.833827303      25.7609152       
11.284           0.83578559       25.4895561       0.43551208       -55.6770658      0.43551208       -55.6770658      0.835785839      25.4895574       
11.421           0.837688238      25.2235012       0.431379491      -55.846256       0.431379491      -55.846256       0.837688488      25.2235025       
11.558           0.839537016      24.9626061       0.427319145      -56.0104193      0.427319145      -56.0104193      0.839537266      24.9626074       
11.695           0.841333856      24.7067321       0.423329456      -56.1696928      0.423329456      -56.1696928      0.841334107      24.7067334       
11.832           0.84308061       24.4557455       0.419408874      -56.324209       0.419408874      -56.324209       0.843080861      24.4557467       
11.969           0.844779051      24.2095164       0.415555881      -56.4740966      0.415555881      -56.4740966      0.844779302      24.2095177       
12.106           0.846430879      23.9679195       0.411768992      -56.6194796      0.411768992      -56.6194796      0.846431131      23.9679207       
12.243           0.848037725      23.7308333       0.408046758      -56.7604784      0.408046758      -56.7604784      0.848037978      23.7308346       
12.38            0.849601152      23.4981404       0.404387759      -56.8972095      0.404387759      -56.8972095      0.849601405      23.4981416       
12.517           0.851122658      23.2697268       0.400790611      -57.0297855      0.400790611      -57.0297855      0.851122911      23.269728        
12.654           0.852603681      23.0454826       0.39725396       -57.1583157      0.39725396       -57.1583157      0.852603935      23.0454838       
12.791           0.854045601      22.825301        0.393776485      -57.2829056      0.393776485      -57.2829056      0.854045855      22.8253022       
12.928           0.855449741      22.6090787       0.390356894      -57.4036578      0.390356894      -57.4036578      0.855449996      22.6090799       
13.065           0.856817372      22.3967157       0.386993929      -57.5206714      0.386993929      -57.5206714      0.856817627      22.3967169       
13.202           0.858149715      22.1881151       0.383686358      -57.6340424      0.383686358      -57.6340424      0.85814997       22.1881162       
13.339           0.85944794       21.9831829       0.380432982      -57.743864       0.380432982      -57.743864       0.859448196      21.983184        
13.476           0.860713173      21.7818281       0.37723263       -57.8502264      0.37723263       -57.8502264      0.860713429      21.7818293       
13.613           0.861946494      21.5839627       0.374084157      -57.9532171      0.374084157      -57.9532171      0.861946751      21.5839638       
13.75            0.863148944      21.389501        0.37098645       -58.0529208      0.37098645       -58.0529208      0.863149201      21.3895021       
13.887           0.864321519      21.1983602       0.367938419      -58.1494197      0.367938419      -58.1494197      0.864321777      21.1983613       
14.024           0.865465181      21.01046         0.364939004      -58.2427935      0.364939004      -58.2427935      0.865465439      21.0104611       
14.161           0.866580851      20.8257225       0.361987169      -58.3331195      0.361987169      -58.3331195      0.86658111       20.8257236       
14.298           0.867669418      20.6440721       0.359081904      -58.4204727      0.359081904      -58.4204727      0.867669677      20.6440731       
14.435           0.868731735      20.4654354       0.356222224      -58.5049258      0.356222224      -58.5049258      0.868731994      20.4654365       
14.572           0.869768624      20.2897415       0.353407168      -58.5865494      0.353407168      -58.5865494      0.869768884      20.2897425       
14.709           0.870780876      20.1169211       0.350635799      -58.665412       0.350635799      -58.665412       0.870781136      20.1169222       
14.846           0.871769252      19.9469075       0.347907202      -58.7415801      0.347907202      -58.7415801      0.871769513      19.9469085       
14.983           0.872734485      19.7796355       0.345220485      -58.8151182      0.345220485      -58.8151182      0.872734746      19.7796365       
15.12            0.873677281      19.6150421       0.34257478       -58.8860888      0.34257478       -58.8860888      0.873677542      19.6150431       
15.257           0.874598319      19.453066        0.339969238      -58.954553       0.339969238      -58.954553       0.87459858       19.453067        
15.394           0.875498255      19.2936477       0.33740303       -59.0205697      0.33740303       -59.0205697      0.875498516      19.2936487       
15.531           0.87637772       19.1367295       0.334875351      -59.0841963      0.334875351      -59.0841963      0.876377981      19.1367304       
15.668           0.877237322      18.982255        0.332385413      -59.1454886      0.332385413      -59.1454886      0.877237584      18.982256        
15.805           0.878077647      18.8301699       0.329932447      -59.2045008      0.329932447      -59.2045008      0.87807791       18.8301709       
15.942           0.878899263      18.6804212       0.327515705      -59.2612856      0.327515705      -59.2612856      0.878899525      18.6804221       
16.079           0.879702713      18.5329573       0.325134456      -59.3158939      0.325134456      -59.3158939      0.879702976      18.5329582       
16.216           0.880488525      18.3877281       0.322787986      -59.3683757      0.322787986      -59.3683757      0.880488788      18.3877291       
16.353           0.881257205      18.2446851       0.3204756        -59.4187793      0.3204756        -59.4187793      0.881257469      18.244686        
16.49            0.882009245      18.1037809       0.318196619      -59.4671517      0.318196619      -59.4671517      0.882009509      18.1037818       
16.627           0.882745117      17.9649694       0.315950381      -59.5135386      0.315950381      -59.5135386      0.882745381      17.9649703       
16.764           0.883465278      17.828206        0.313736239      -59.5579845      0.313736239      -59.5579845      0.883465542      17.8282069       
16.901           0.88417017       17.6934471       0.311553563      -59.6005327      0.311553563      -59.6005327      0.884170434      17.693448        
17.038           0.884860217      17.5606503       0.309401737      -59.6412253      0.309401737      -59.6412253      0.884860481      17.5606512       
17.175           0.885535832      17.4297745       0.30728016       -59.6801033      0.30728016       -59.6801033      0.885536096      17.4297754       
17.312           0.886197412      17.3007796       0.305188246      -59.7172065      0.305188246      -59.7172065      0.886197676      17.3007805       
17.449           0.886845341      17.1736265       0.303125422      -59.7525738      0.303125422      -59.7525738      0.886845606      17.1736273       
