! Coilcraft 1812PS-105 Power Chip Inductor				
! 1 October 2002			
# MHZ S MA R 50
!Freq             MagS11           AngS11           MagS21           AngS21           MagS12           AngS12           MagS22           AngS22
0.05             0.944080256      17.5046673       0.300936993      -70.6649793      0.300936993      -70.6649793      0.944080351      17.504668        
0.052            0.947937807      16.8813357       0.290528967      -71.3493462      0.290528967      -71.3493462      0.947937902      16.8813363       
0.054            0.951416108      16.2991482       0.280777878      -71.9878799      0.280777878      -71.9878799      0.951416202      16.2991489       
0.056            0.954562203      15.7543066       0.271626861      -72.5848836      0.271626861      -72.5848836      0.954562298      15.7543072       
0.058            0.957416231      15.2434469       0.263024977      -73.1441559      0.263024977      -73.1441559      0.957416327      15.2434475       
0.06             0.960012578      14.7635826       0.254926535      -73.6690601      0.254926535      -73.6690601      0.960012674      14.7635832       
0.062            0.962380812      14.3120552       0.247290489      -74.1625828      0.247290489      -74.1625828      0.962380908      14.3120558       
0.064            0.96454646       13.8864923       0.240079908      -74.6273837      0.240079908      -74.6273837      0.964546556      13.8864928       
0.066            0.966531635      13.484771        0.233261504      -75.0658375      0.233261504      -75.0658375      0.966531731      13.4847716       
0.068            0.968355563      13.1049878       0.226805222      -75.4800703      0.226805222      -75.4800703      0.96835566       13.1049884       
0.07             0.970035016      12.7454312       0.220683878      -75.8719905      0.220683878      -75.8719905      0.970035113      12.7454317       
0.072            0.971584671      12.4045589       0.214872841      -76.2433153      0.214872841      -76.2433153      0.971584768      12.4045594       
0.074            0.973017411      12.0809782       0.20934975       -76.5955936      0.20934975       -76.5955936      0.973017508      12.0809786       
0.076            0.974344583      11.7734282       0.204094276      -76.9302255      0.204094276      -76.9302255      0.97434468       11.7734287       
0.078            0.975576203      11.4807657       0.199087899      -77.2484798      0.199087899      -77.2484798      0.975576301      11.4807662       
0.08             0.976721143      11.2019513       0.194313719      -77.5515083      0.194313719      -77.5515083      0.97672124       11.2019517       
0.082            0.977787276      10.9360384       0.189756292      -77.8403591      0.189756292      -77.8403591      0.977787374      10.9360389       
0.084            0.978781614      10.6821636       0.185401478      -78.1159875      0.185401478      -78.1159875      0.978781712      10.682164        
0.086            0.979710412      10.4395374       0.181236312      -78.3792664      0.181236312      -78.3792664      0.979710509      10.4395378       
0.088            0.980579262      10.2074368       0.177248884      -78.6309944      0.177248884      -78.6309944      0.98057936       10.2074372       
0.09             0.981393181      9.98519861       0.173428243      -78.8719035      0.173428243      -78.8719035      0.981393279      9.98519903       
0.092            0.982156674      9.77221352       0.169764299      -79.102666       0.169764299      -79.102666       0.982156773      9.77221393       
0.094            0.982873798      9.56792063       0.166247744      -79.3239002      0.166247744      -79.3239002      0.982873896      9.56792103       
0.096            0.983548213      9.37180294       0.162869979      -79.5361759      0.162869979      -79.5361759      0.983548311      9.37180334       
0.098            0.984183225      9.18338316       0.159623051      -79.7400187      0.159623051      -79.7400187      0.984183323      9.18338355       
0.1              0.984781832      9.00222001       0.15649959       -79.9359143      0.15649959       -79.9359143      0.984781931      9.0022204        
0.102            0.985346752      8.82790494       0.153492763      -80.1243122      0.153492763      -80.1243122      0.98534685       8.82790532       
0.104            0.985880455      8.66005917       0.150596224      -80.305629       0.150596224      -80.305629       0.985880554      8.66005955       
0.106            0.986385192      8.49833107       0.14780407       -80.4802512      0.14780407       -80.4802512      0.986385291      8.49833144       
0.108            0.986863014      8.34239379       0.145110808      -80.648538       0.145110808      -80.648538       0.986863112      8.34239415       
0.11             0.987315794      8.19194312       0.142511318      -80.8108234      0.142511318      -80.8108234      0.987315893      8.19194348       
0.112            0.987745248      8.04669563       0.140000823      -80.9674187      0.140000823      -80.9674187      0.987745347      8.04669598       
0.114            0.988152947      7.90638688       0.13757486       -81.1186141      0.13757486       -81.1186141      0.988153046      7.90638723       
0.116            0.988540332      7.77076991       0.135229258      -81.2646805      0.135229258      -81.2646805      0.988540431      7.77077026       
0.118            0.988908728      7.63961384       0.13296011       -81.4058713      0.13296011       -81.4058713      0.988908826      7.63961418       
0.12             0.989259352      7.51270254       0.130763758      -81.5424234      0.130763758      -81.5424234      0.989259451      7.51270288       
0.122            0.989593329      7.38983355       0.128636768      -81.6745588      0.128636768      -81.6745588      0.989593428      7.38983389       
0.124            0.989911695      7.27081696       0.12657592       -81.8024854      0.12657592       -81.8024854      0.989911794      7.2708173        
0.126            0.990215405      7.15547451       0.124578186      -81.9263987      0.124578186      -81.9263987      0.990215504      7.15547484       
0.128            0.990505345      7.04363868       0.122640718      -82.0464821      0.122640718      -82.0464821      0.990505444      7.043639         
0.13             0.990782334      6.93515191       0.120760836      -82.1629082      0.120760836      -82.1629082      0.990782433      6.93515224       
0.132            0.991047131      6.82986591       0.118936016      -82.2758392      0.118936016      -82.2758392      0.99104723       6.82986623       
0.134            0.991300442      6.72764093       0.117163877      -82.385428       0.117163877      -82.385428       0.991300541      6.72764125       
0.136            0.99154292       6.62834521       0.115442171      -82.491819       0.115442171      -82.491819       0.991543019      6.62834552       
0.138            0.991775175      6.53185438       0.113768778      -82.595148       0.113768778      -82.595148       0.991775274      6.53185469       
0.14             0.991997773      6.43805098       0.112141691      -82.6955435      0.112141691      -82.6955435      0.991997872      6.4380513        
0.142            0.992211242      6.34682401       0.110559014      -82.793127       0.110559014      -82.793127       0.992211341      6.34682432       
0.144            0.992416075      6.25806842       0.109018951      -82.8880132      0.109018951      -82.8880132      0.992416174      6.25806873       
0.146            0.992612731      6.1716848        0.107519802      -82.9803108      0.107519802      -82.9803108      0.99261283       6.1716851        
0.148            0.99280164       6.08757895       0.106059955      -83.0701227      0.106059955      -83.0701227      0.99280174       6.08757925       
0.15             0.992983205      6.00566159       0.104637881      -83.1575464      0.104637881      -83.1575464      0.992983304      6.00566189       
0.152            0.9931578        5.92584801       0.103252129      -83.2426745      0.103252129      -83.2426745      0.993157899      5.92584831       
0.154            0.993325778      5.8480578        0.10190132       -83.3255947      0.10190132       -83.3255947      0.993325877      5.8480581        
0.156            0.99348747       5.77221457       0.100584144      -83.4063905      0.100584144      -83.4063905      0.99348757       5.77221487       
0.158            0.993643187      5.69824573       0.0992993564     -83.4851411      0.0992993564     -83.4851411      0.993643286      5.69824602       
0.16             0.993793218      5.62608221       0.0980457712     -83.5619218      0.0980457712     -83.5619218      0.993793317      5.6260825        
0.162            0.993937837      5.5556583        0.09682226       -83.6368043      0.09682226       -83.6368043      0.993937937      5.55565859       
0.164            0.994077303      5.48691142       0.0956277479     -83.709857       0.0956277479     -83.709857       0.994077403      5.48691171       
0.166            0.994211858      5.41978195       0.0944612102     -83.7811448      0.0944612102     -83.7811448      0.994211957      5.41978223       
0.168            0.994341729      5.35421303       0.0933216697     -83.8507297      0.0933216697     -83.8507297      0.994341828      5.35421332       
0.17             0.994467131      5.29015046       0.0922081938     -83.9186708      0.0922081938     -83.9186708      0.994467231      5.29015075       
0.172            0.994588268      5.22754249       0.0911198924     -83.9850246      0.0911198924     -83.9850246      0.994588368      5.22754277       
0.174            0.994705332      5.1663397        0.090055915      -84.0498448      0.090055915      -84.0498448      0.994705431      5.16633998       
0.176            0.994818502      5.10649489       0.089015449      -84.1131829      0.089015449      -84.1131829      0.994818602      5.10649517       
0.178            0.99492795       5.04796293       0.0879977173     -84.1750881      0.0879977173     -84.1750881      0.99492805       5.04796321       
0.18             0.995033838      4.99070067       0.0870019766     -84.2356073      0.0870019766     -84.2356073      0.995033938      4.99070094       
0.182            0.995136319      4.93466682       0.0860275154     -84.2947856      0.0860275154     -84.2947856      0.995136418      4.9346671        
0.184            0.995235537      4.87982186       0.0850736524     -84.3526658      0.0850736524     -84.3526658      0.995235636      4.87982214       
0.186            0.99533163       4.82612794       0.0841397351     -84.4092894      0.0841397351     -84.4092894      0.995331729      4.82612822       
0.188            0.995424727      4.77354879       0.0832251381     -84.4646956      0.0832251381     -84.4646956      0.995424826      4.77354907       
0.19             0.995514952      4.72204965       0.0823292617     -84.5189223      0.0823292617     -84.5189223      0.995515052      4.72204993       
0.192            0.995602423      4.67159718       0.0814515307     -84.5720058      0.0814515307     -84.5720058      0.995602523      4.67159746       
0.194            0.99568725       4.62215941       0.0805913931     -84.6239809      0.0805913931     -84.6239809      0.99568735       4.62215968       
0.196            0.995769539      4.57370562       0.079748319      -84.6748809      0.079748319      -84.6748809      0.995769638      4.57370589       
0.198            0.99584939       4.52620635       0.0789217996     -84.7247379      0.0789217996     -84.7247379      0.99584949       4.52620662       
0.2              0.995926899      4.47963329       0.0781113458     -84.7735826      0.0781113458     -84.7735826      0.995926998      4.47963356       
0.202            0.996002156      4.43395923       0.0773164876     -84.8214447      0.0773164876     -84.8214447      0.996002256      4.4339595        
0.204            0.996075249      4.38915801       0.0765367733     -84.8683524      0.0765367733     -84.8683524      0.996075348      4.38915828       
0.206            0.996146259      4.34520449       0.0757717682     -84.9143333      0.0757717682     -84.9143333      0.996146358      4.34520476       
0.208            0.996215264      4.30207446       0.075021054      -84.9594134      0.075021054      -84.9594134      0.996215364      4.30207473       
0.21             0.99628234       4.25974464       0.0742842281     -85.0036181      0.0742842281     -85.0036181      0.99628244       4.25974491       
0.212            0.996347558      4.21819262       0.073560903      -85.0469718      0.073560903      -85.0469718      0.996347658      4.21819289       
0.214            0.996410986      4.17739679       0.0728507052     -85.0894978      0.0728507052     -85.0894978      0.996411085      4.17739706       
0.216            0.996472688      4.13733636       0.0721532748     -85.1312187      0.0721532748     -85.1312187      0.996472788      4.13733663       
0.218            0.996532728      4.09799128       0.0714682652     -85.1721563      0.0714682652     -85.1721563      0.996532828      4.09799155       
0.22             0.996591163      4.05934223       0.0707953418     -85.2123315      0.0707953418     -85.2123315      0.996591263      4.05934249       
0.222            0.996648052      4.02137055       0.0701341822     -85.2517645      0.0701341822     -85.2517645      0.996648151      4.02137082       
0.224            0.996703447      3.98405828       0.0694844751     -85.2904748      0.0694844751     -85.2904748      0.996703547      3.98405855       
0.226            0.996757401      3.94738807       0.0688459202     -85.3284813      0.0688459202     -85.3284813      0.9967575        3.94738833       
0.228            0.996809963      3.91134316       0.0682182274     -85.3658019      0.0682182274     -85.3658019      0.996810062      3.91134342       
0.23             0.99686118       3.87590738       0.0676011168     -85.4024544      0.0676011168     -85.4024544      0.99686128       3.87590764       
0.232            0.996911099      3.84106511       0.0669943179     -85.4384555      0.0669943179     -85.4384555      0.996911198      3.84106538       
0.234            0.996959762      3.80680126       0.0663975691     -85.4738216      0.0663975691     -85.4738216      0.996959862      3.80680153       
0.236            0.997007211      3.77310125       0.065810618      -85.5085685      0.065810618      -85.5085685      0.997007311      3.77310151       
0.238            0.997053487      3.73995097       0.0652332201     -85.5427114      0.0652332201     -85.5427114      0.997053587      3.73995123       
0.24             0.997098627      3.70733678       0.0646651392     -85.5762651      0.0646651392     -85.5762651      0.997098727      3.70733705       
0.242            0.997142669      3.67524551       0.0641061468     -85.6092438      0.0641061468     -85.6092438      0.997142768      3.67524577       
0.244            0.997185647      3.64366439       0.0635560216     -85.6416613      0.0635560216     -85.6416613      0.997185747      3.64366465       
0.246            0.997227595      3.61258106       0.0630145498     -85.673531       0.0630145498     -85.673531       0.997227695      3.61258133       
0.248            0.997268547      3.58198358       0.0624815239     -85.7048658      0.0624815239     -85.7048658      0.997268647      3.58198385       
0.25             0.997308533      3.55186038       0.0619567434     -85.7356781      0.0619567434     -85.7356781      0.997308633      3.55186064       
0.252            0.997347583      3.52220023       0.0614400139     -85.7659801      0.0614400139     -85.7659801      0.997347683      3.52220049       
0.254            0.997385727      3.49299228       0.0609311469     -85.7957835      0.0609311469     -85.7957835      0.997385826      3.49299254       
0.256            0.997422991      3.464226         0.0604299599     -85.8250995      0.0604299599     -85.8250995      0.997423091      3.46422627       
0.258            0.997459403      3.4358912        0.0599362761     -85.8539393      0.0599362761     -85.8539393      0.997459503      3.43589146       
0.26             0.997494988      3.40797797       0.0594499239     -85.8823135      0.0594499239     -85.8823135      0.997495088      3.40797824       
0.262            0.997529771      3.38047674       0.0589707369     -85.9102324      0.0589707369     -85.9102324      0.997529871      3.38047701       
0.264            0.997563777      3.3533782        0.0584985536     -85.9377061      0.0584985536     -85.9377061      0.997563876      3.35337847       
0.266            0.997597026      3.32667333       0.0580332176     -85.9647441      0.0580332176     -85.9647441      0.997597126      3.32667359       
0.268            0.997629543      3.30035336       0.0575745768     -85.9913561      0.0575745768     -85.9913561      0.997629643      3.30035362       
0.27             0.997661348      3.27440979       0.0571224838     -86.017551       0.0571224838     -86.017551       0.997661447      3.27441006       
0.272            0.997692461      3.24883439       0.0566767953     -86.0433378      0.0566767953     -86.0433378      0.997692561      3.24883465       
0.274            0.997722902      3.22361913       0.0562373722     -86.0687251      0.0562373722     -86.0687251      0.997723002      3.22361939       
0.276            0.997752691      3.19875622       0.0558040794     -86.0937212      0.0558040794     -86.0937212      0.997752791      3.19875649       
0.278            0.997781846      3.17423812       0.0553767858     -86.1183343      0.0553767858     -86.1183343      0.997781946      3.17423839       
0.28             0.997810384      3.15005748       0.0549553638     -86.1425722      0.0549553638     -86.1425722      0.997810484      3.15005774       
0.282            0.997838323      3.12620715       0.0545396894     -86.1664426      0.0545396894     -86.1664426      0.997838423      3.12620741       
0.284            0.997865679      3.1026802        0.0541296421     -86.1899529      0.0541296421     -86.1899529      0.997865779      3.10268046       
0.286            0.997892468      3.07946988       0.0537251049     -86.2131104      0.0537251049     -86.2131104      0.997892567      3.07947014       
0.288            0.997918705      3.05656963       0.0533259637     -86.2359221      0.0533259637     -86.2359221      0.997918805      3.0565699        
0.29             0.997944405      3.03397307       0.0529321077     -86.2583948      0.0529321077     -86.2583948      0.997944505      3.03397334       
0.292            0.997969584      3.011674         0.0525434293     -86.2805352      0.0525434293     -86.2805352      0.997969684      3.01167427       
0.294            0.997994254      2.98966638       0.0521598233     -86.3023497      0.0521598233     -86.3023497      0.997994353      2.98966664       
0.296            0.998018428      2.96794432       0.0517811879     -86.3238445      0.0517811879     -86.3238445      0.998018528      2.96794459       
0.298            0.998042121      2.94650211       0.0514074235     -86.3450259      0.0514074235     -86.3450259      0.998042221      2.94650238       
0.3              0.998065345      2.92533419       0.0510384335     -86.3658997      0.0510384335     -86.3658997      0.998065444      2.92533445       
0.302            0.998088111      2.90443512       0.0506741237     -86.3864717      0.0506741237     -86.3864717      0.998088211      2.90443539       
0.304            0.998110431      2.88379963       0.0503144022     -86.4067476      0.0503144022     -86.4067476      0.998110531      2.8837999        
