! Coilcraft 1812PS-154 Power Chip Inductor				
! 1 October 2002			
# MHZ S MA R 50
!Freq             MagS11           AngS11           MagS21           AngS21           MagS12           AngS12           MagS22           AngS22
0.05             0.419586444      62.7047839       0.88951028       -24.7830349      0.88951028       -24.7830349      0.419586486      62.7047849       
0.07             0.542916993      55.2886208       0.822458704      -32.8631726      0.822458704      -32.8631726      0.542917047      55.2886215       
0.09             0.638907588      48.8202332       0.75290034       -39.6944315      0.75290034       -39.6944315      0.638907651      48.8202338       
0.11             0.712098734      43.3492223       0.686608941      -45.3919189      0.686608941      -45.3919189      0.712098805      43.3492227       
0.13             0.767616829      38.7668954       0.626269897      -50.1276041      0.626269897      -50.1276041      0.767616906      38.7668958       
0.15             0.809907474      34.9292482       0.572650869      -54.0749618      0.572650869      -54.0749618      0.809907555      34.9292486       
0.17             0.842426071      31.7000178       0.52553873       -57.3858182      0.52553873       -57.3858182      0.842426156      31.7000181       
0.19             0.867728931      28.9636003       0.484307311      -60.184762       0.484307311      -60.184762       0.867729018      28.9636007       
0.21             0.887669485      26.6263068       0.448213499      -62.5710268      0.448213499      -62.5710268      0.887669574      26.626307        
0.23             0.903585209      24.613657        0.416534442      -64.6226964      0.416534442      -64.6226964      0.9035853        24.6136573       
0.25             0.916444725      22.8668104       0.388621942      -66.4010534      0.388621942      -66.4010534      0.916444817      22.8668106       
0.27             0.926955189      21.3392527       0.363917044      -67.9543233      0.363917044      -67.9543233      0.926955282      21.3392529       
0.29             0.935638214      19.9940557       0.341947058      -69.3206686      0.341947058      -69.3206686      0.935638308      19.9940559       
0.31             0.942882923      18.8017169       0.322315907      -70.5305036      0.322315907      -70.5305036      0.942883017      18.8017172       
0.33             0.948982978      17.7384955       0.30469282       -71.6082567      0.30469282       -71.6082567      0.948983073      17.7384957       
0.35             0.954162545      16.7851406       0.288801551      -72.5737065      0.288801551      -72.5737065      0.95416264       16.7851408       
0.37             0.958594642      15.9259218       0.274410908      -73.442995       0.274410908      -73.442995       0.958594738      15.925922        
0.39             0.962414222      15.1478882       0.261326762      -74.2293985      0.261326762      -74.2293985      0.962414318      15.1478884       
0.41             0.965727608      14.4402991       0.249385448      -74.943918       0.249385448      -74.943918       0.965727705      14.4402993       
0.43             0.968619358      13.7941849       0.238448377      -75.5957339      0.238448377      -75.5957339      0.968619454      13.7941852       
0.45             0.971157318      13.202005        0.228397658      -76.1925591      0.228397658      -76.1925591      0.971157415      13.2020052       
0.47             0.973396383      12.6573801       0.219132537      -76.7409146      0.219132537      -76.7409146      0.97339648       12.6573803       
0.49             0.975381314      12.1548815       0.210566518      -77.246347       0.210566518      -77.246347       0.975381412      12.1548818       
0.51             0.977148881      11.6898636       0.202625008      -77.7136009      0.202625008      -77.7136009      0.977148979      11.6898638       
0.53             0.978729495      11.2583293       0.195243398      -78.1467563      0.195243398      -78.1467563      0.978729593      11.2583296       
0.55             0.980148472      10.8568231       0.188365497      -78.5493393      0.188365497      -78.5493393      0.98014857       10.8568233       
0.57             0.981427014      10.4823429       0.18194223       -78.9244121      0.18194223       -78.9244121      0.981427112      10.4823431       
0.59             0.982582984      10.1322694       0.175930579      -79.2746455      0.175930579      -79.2746455      0.982583082      10.1322697       
0.61             0.983631506      9.80430755       0.170292689      -79.6023789      0.170292689      -79.6023789      0.983631604      9.80430778       
0.63             0.984585457      9.49643823       0.164995134      -79.9096696      0.164995134      -79.9096696      0.984585555      9.49643846       
0.65             0.985455849      9.20687868       0.160008297      -80.1983336      0.160008297      -80.1983336      0.985455948      9.20687892       
0.67             0.986252145      8.93404908       0.155305853      -80.4699798      0.155305853      -80.4699798      0.986252244      8.93404932       
0.69             0.98698251       8.67654477       0.150864327      -80.7260381      0.150864327      -80.7260381      0.986982609      8.67654501       
0.71             0.987654018      8.43311279       0.146662729      -80.9677835      0.146662729      -80.9677835      0.987654117      8.43311303       
0.73             0.988272824      8.20263213       0.142682234      -81.1963566      0.142682234      -81.1963566      0.988272923      8.20263238       
0.75             0.988844299      7.98409695       0.138905913      -81.4127804      0.138905913      -81.4127804      0.988844398      7.9840972        
0.77             0.989373149      7.77660221       0.135318507      -81.6179751      0.135318507      -81.6179751      0.989373248      7.77660247       
0.79             0.989863511      7.5793315        0.131906224      -81.8127705      0.131906224      -81.8127705      0.989863611      7.57933175       
0.81             0.990319033      7.39154644       0.128656569      -81.9979167      0.128656569      -81.9979167      0.990319132      7.3915467        
0.83             0.990742941      7.21257771       0.125558199      -82.1740938      0.125558199      -82.1740938      0.99074304       7.21257798       
0.85             0.991138095      7.04181716       0.122600793      -82.3419192      0.122600793      -82.3419192      0.991138194      7.04181743       
0.87             0.991507041      6.87871102       0.119774941      -82.501955       0.119774941      -82.501955       0.99150714       6.8787113        
0.89             0.991852049      6.722754         0.117072043      -82.6547139      0.117072043      -82.6547139      0.991852148      6.72275427       
0.91             0.992175147      6.5734841        0.114484231      -82.8006646      0.114484231      -82.8006646      0.992175246      6.57348438       
0.93             0.992478154      6.43047813       0.112004286      -82.9402361      0.112004286      -82.9402361      0.992478254      6.43047841       
0.95             0.992762704      6.29334769       0.10962558       -83.0738221      0.10962558       -83.0738221      0.992762803      6.29334798       
0.97             0.993030267      6.16173574       0.10734201       -83.2017844      0.10734201       -83.2017844      0.993030366      6.16173603       
0.99             0.99328217       6.03531345       0.105147954      -83.3244558      0.105147954      -83.3244558      0.993282269      6.03531375       
1.01             0.993519613      5.91377753       0.103038221      -83.4421435      0.103038221      -83.4421435      0.993519712      5.91377783       
1.03             0.993743681      5.79684776       0.101008009      -83.5551309      0.101008009      -83.5551309      0.993743781      5.79684806       
1.05             0.993955362      5.68426488       0.0990528765     -83.6636803      0.0990528765     -83.6636803      0.993955462      5.68426519       
1.07             0.994155552      5.57578868       0.0971687008     -83.7680344      0.0971687008     -83.7680344      0.994155652      5.57578899       
1.09             0.994345068      5.47119624       0.0953516563     -83.8684184      0.0953516563     -83.8684184      0.994345168      5.47119655       
1.11             0.994524655      5.37028045       0.0935981856     -83.9650416      0.0935981856     -83.9650416      0.994524754      5.37028078       
1.13             0.994694993      5.27284864       0.0919049774     -84.0580983      0.0919049774     -84.0580983      0.994695093      5.27284897       
1.15             0.994856707      5.17872131       0.0902689452     -84.1477695      0.0902689452     -84.1477695      0.994856807      5.17872164       
1.17             0.995010368      5.08773106       0.0886872089     -84.2342241      0.0886872089     -84.2342241      0.995010468      5.0877314        
1.19             0.995156501      4.99972157       0.087157078      -84.3176194      0.087157078      -84.3176194      0.995156601      4.99972191       
1.21             0.995295588      4.91454672       0.0856760359     -84.3981026      0.0856760359     -84.3981026      0.995295687      4.91454707       
1.23             0.995428073      4.83206976       0.0842417266     -84.4758112      0.0842417266     -84.4758112      0.995428172      4.8320701        
1.25             0.995554365      4.75216256       0.0828519419     -84.550874       0.0828519419     -84.550874       0.995554465      4.75216291       
1.27             0.995674844      4.67470497       0.08150461       -84.6234118      0.08150461       -84.6234118      0.995674944      4.67470533       
1.29             0.995789858      4.59958422       0.0801977854     -84.6935377      0.0801977854     -84.6935377      0.995789958      4.59958458       
1.31             0.995899731      4.5266943        0.078929639      -84.761358       0.078929639      -84.761358       0.99589983       4.52669466       
1.33             0.996004762      4.45593553       0.0776984501     -84.8269726      0.0776984501     -84.8269726      0.996004861      4.4559359        
1.35             0.996105229      4.38721406       0.0765025982     -84.8904755      0.0765025982     -84.8904755      0.996105329      4.38721444       
1.37             0.996201391      4.32044148       0.0753405558     -84.951955       0.0753405558     -84.951955       0.99620149       4.32044186       
1.39             0.996293487      4.25553438       0.074210882      -85.0114946      0.074210882      -85.0114946      0.996293586      4.25553476       
1.41             0.99638174       4.19241405       0.0731122164     -85.0691727      0.0731122164     -85.0691727      0.99638184       4.19241444       
1.43             0.99646636       4.13100615       0.0720432736     -85.1250635      0.0720432736     -85.1250635      0.99646646       4.13100655       
1.45             0.996547539      4.07124039       0.071002838      -85.179237       0.071002838      -85.179237       0.996547639      4.07124078       
1.47             0.996625459      4.01305025       0.0699897594     -85.2317594      0.0699897594     -85.2317594      0.996625559      4.01305065       
1.49             0.996700289      3.95637278       0.0690029483     -85.2826933      0.0690029483     -85.2826933      0.996700389      3.95637319       
1.51             0.996772187      3.90114832       0.0680413722     -85.3320977      0.0680413722     -85.3320977      0.996772287      3.90114873       
1.53             0.996841302      3.84732031       0.0671040521     -85.3800288      0.0671040521     -85.3800288      0.996841402      3.84732072       
1.55             0.996907772      3.79483506       0.0661900586     -85.4265396      0.0661900586     -85.4265396      0.996907872      3.79483548       
1.57             0.996971727      3.74364162       0.0652985093     -85.4716806      0.0652985093     -85.4716806      0.996971827      3.74364205       
1.59             0.997033289      3.69369157       0.0644285654     -85.5154995      0.0644285654     -85.5154995      0.997033389      3.693692         
1.61             0.997092573      3.64493889       0.0635794296     -85.5580417      0.0635794296     -85.5580417      0.997092673      3.64493932       
1.63             0.997149686      3.59733977       0.0627503432     -85.5993501      0.0627503432     -85.5993501      0.997149786      3.59734021       
1.65             0.997204731      3.55085255       0.0619405836     -85.6394657      0.0619405836     -85.6394657      0.997204831      3.55085299       
1.67             0.997257802      3.50543751       0.0611494628     -85.6784274      0.0611494628     -85.6784274      0.997257902      3.50543796       
1.69             0.997308989      3.46105682       0.060376325      -85.7162723      0.060376325      -85.7162723      0.997309089      3.46105727       
1.71             0.997358378      3.41767441       0.0596205444     -85.7530354      0.0596205444     -85.7530354      0.997358478      3.41767487       
1.73             0.997406047      3.37525585       0.0588815242     -85.7887504      0.0588815242     -85.7887504      0.997406147      3.37525632       
1.75             0.997452073      3.33376829       0.0581586945     -85.8234492      0.0581586945     -85.8234492      0.997452173      3.33376876       
1.77             0.997496526      3.29318035       0.057451511      -85.8571622      0.057451511      -85.8571622      0.997496626      3.29318082       
1.79             0.997539474      3.25346203       0.0567594533     -85.8899184      0.0567594533     -85.8899184      0.997539574      3.25346251       
1.81             0.997580981      3.21458466       0.0560820239     -85.9217454      0.0560820239     -85.9217454      0.997581081      3.21458514       
1.83             0.997621107      3.17652082       0.0554187469     -85.9526698      0.0554187469     -85.9526698      0.997621207      3.17652131       
1.85             0.997659909      3.13924427       0.0547691667     -85.9827166      0.0547691667     -85.9827166      0.997660009      3.13924476       
1.87             0.997697441      3.10272986       0.0541328471     -86.0119099      0.0541328471     -86.0119099      0.997697541      3.10273035       
1.89             0.997733755      3.06695352       0.0535093702     -86.0402727      0.0535093702     -86.0402727      0.997733855      3.06695402       
1.91             0.997768898      3.03189219       0.0528983355     -86.0678269      0.0528983355     -86.0678269      0.997768999      3.03189269       
1.93             0.997802919      2.99752374       0.0522993587     -86.0945935      0.0522993587     -86.0945935      0.997803019      2.99752425       
1.95             0.997835859      2.96382696       0.0517120716     -86.1205926      0.0517120716     -86.1205926      0.997835959      2.96382748       
1.97             0.997867762      2.93078149       0.0511361204     -86.1458433      0.0511361204     -86.1458433      0.997867862      2.93078201       
1.99             0.997898666      2.89836778       0.0505711658     -86.170364       0.0505711658     -86.170364       0.997898766      2.8983683        
2.01             0.997928609      2.86656706       0.0500168814     -86.1941722      0.0500168814     -86.1941722      0.99792871       2.86656758       
2.03             0.997957628      2.83536128       0.0494729542     -86.2172847      0.0494729542     -86.2172847      0.997957728      2.83536182       
2.05             0.997985756      2.80473313       0.0489390828     -86.2397176      0.0489390828     -86.2397176      0.997985856      2.80473367       
2.07             0.998013026      2.77466592       0.0484149776     -86.2614863      0.0484149776     -86.2614863      0.998013126      2.77466647       
2.09             0.998039468      2.74514363       0.0479003601     -86.2826054      0.0479003601     -86.2826054      0.998039569      2.74514418       
2.11             0.998065113      2.71615082       0.047394962      -86.3030892      0.047394962      -86.3030892      0.998065214      2.71615138       
2.13             0.998089989      2.68767265       0.0468985254     -86.322951       0.0468985254     -86.322951       0.99809009       2.68767321       
2.15             0.998114123      2.65969481       0.0464108015     -86.3422039      0.0464108015     -86.3422039      0.998114223      2.65969537       
2.17             0.99813754       2.63220352       0.0459315509     -86.3608603      0.0459315509     -86.3608603      0.99813764       2.63220409       
2.19             0.998160265      2.60518552       0.0454605428     -86.378932       0.0454605428     -86.378932       0.998160365      2.60518609       
2.21             0.998182321      2.57862799       0.0449975548     -86.3964304      0.0449975548     -86.3964304      0.998182421      2.57862857       
2.23             0.998203731      2.55251861       0.0445423723     -86.4133665      0.0445423723     -86.4133665      0.998203831      2.55251919       
2.25             0.998224516      2.52684547       0.0440947884     -86.4297506      0.0440947884     -86.4297506      0.998224616      2.52684606       
2.27             0.998244697      2.50159709       0.0436546034     -86.4455929      0.0436546034     -86.4455929      0.998244797      2.50159768       
2.29             0.998264294      2.47676237       0.0432216245     -86.4609028      0.0432216245     -86.4609028      0.998264394      2.47676297       
2.31             0.998283325      2.45233062       0.0427956655     -86.4756897      0.0427956655     -86.4756897      0.998283425      2.45233122       
2.33             0.998301808      2.4282915        0.0423765467     -86.4899623      0.0423765467     -86.4899623      0.998301908      2.42829211       
2.35             0.998319761      2.40463503       0.0419640945     -86.5037291      0.0419640945     -86.5037291      0.998319861      2.40463564       
2.37             0.9983372        2.38135155       0.0415581409     -86.5169981      0.0415581409     -86.5169981      0.9983373        2.38135216       
2.39             0.998354141      2.35843173       0.0411585237     -86.5297772      0.0411585237     -86.5297772      0.998354241      2.35843235       
2.41             0.9983706        2.33586656       0.0407650861     -86.5420738      0.0407650861     -86.5420738      0.9983707        2.33586719       
2.43             0.99838659       2.31364731       0.0403776762     -86.5538949      0.0403776762     -86.5538949      0.998386691      2.31364794       
2.45             0.998402127      2.29176555       0.0399961472     -86.5652474      0.0399961472     -86.5652474      0.998402227      2.29176618       
2.47             0.998417223      2.27021309       0.0396203571     -86.5761378      0.0396203571     -86.5761378      0.998417323      2.27021373       
2.49             0.998431891      2.24898205       0.0392501683     -86.5865724      0.0392501683     -86.5865724      0.998431992      2.24898269       
2.51             0.998446145      2.22806476       0.0388854476     -86.596557       0.0388854476     -86.596557       0.998446245      2.22806541       
2.53             0.998459995      2.20745381       0.038526066      -86.6060975      0.038526066      -86.6060975      0.998460095      2.20745446       
2.55             0.998473453      2.18714202       0.0381718985     -86.6151993      0.0381718985     -86.6151993      0.998473554      2.18714268       
2.57             0.998486532      2.16712243       0.0378228242     -86.6238676      0.0378228242     -86.6238676      0.998486632      2.16712309       
2.59             0.99849924       2.14738829       0.0374787255     -86.6321074      0.0374787255     -86.6321074      0.99849934       2.14738896       
