! Coilcraft 1812PS-824 Power Chip Inductor				
! 1 October 2002			
# MHZ S MA R 50
!Freq             MagS11           AngS11           MagS21           AngS21           MagS12           AngS12           MagS22           AngS22
0.05             0.921043008      20.9594235       0.357935269      -66.9926798      0.357935269      -66.9926798      0.9210431        20.9594243       
0.052            0.926308408      20.2382674       0.346131357      -67.7826376      0.346131357      -67.7826376      0.926308501      20.2382681       
0.054            0.931078276      19.5624454       0.335021201      -68.5219879      0.335021201      -68.5219879      0.931078368      19.5624462       
0.056            0.935410844      18.9280468       0.324550855      -69.2152089      0.324550855      -69.2152089      0.935410938      18.9280475       
0.058            0.939356345      18.331568        0.314671108      -69.866293       0.314671108      -69.866293       0.939356439      18.3315687       
0.06             0.942958237      17.7698665       0.305337097      -70.4788068      0.305337097      -70.4788068      0.942958331      17.7698671       
0.062            0.946254234      17.2401182       0.29650793       -71.0559431      0.29650793       -71.0559431      0.946254328      17.2401189       
0.064            0.949277159      16.7397819       0.288146328      -71.6005662      0.288146328      -71.6005662      0.949277254      16.7397825       
0.066            0.952055669      16.2665659       0.280218294      -72.1152511      0.280218294      -72.1152511      0.952055764      16.2665665       
0.068            0.954614848      15.8184007       0.2726928        -72.6023179      0.2726928        -72.6023179      0.954614943      15.8184013       
0.07             0.95697672       15.3934136       0.265541506      -73.0638605      0.265541506      -73.0638605      0.956976815      15.3934142       
0.072            0.95916067       14.9899072       0.258738506      -73.5017735      0.258738506      -73.5017735      0.959160766      14.9899077       
0.074            0.961183812      14.6063399       0.252260088      -73.9177739      0.252260088      -73.9177739      0.961183908      14.6063404       
0.076            0.963061287      14.2413095       0.246084533      -74.3134207      0.246084533      -74.3134207      0.963061383      14.24131         
0.078            0.96480653       13.8935384       0.240191917      -74.6901327      0.240191917      -74.6901327      0.964806626      13.8935389       
0.08             0.966431487      13.56186         0.234563944      -75.0492029      0.234563944      -75.0492029      0.966431584      13.5618605       
0.082            0.967946809      13.2452081       0.229183796      -75.3918121      0.229183796      -75.3918121      0.967946905      13.2452086       
0.084            0.96936201       12.942606        0.224035989      -75.7190404      0.224035989      -75.7190404      0.969362106      12.9426065       
0.086            0.970685609      12.6531577       0.219106254      -76.0318773      0.219106254      -76.0318773      0.970685706      12.6531582       
0.088            0.971925252      12.3760403       0.214381424      -76.3312311      0.214381424      -76.3312311      0.971925349      12.3760407       
0.09             0.973087813      12.1104964       0.209849334      -76.6179366      0.209849334      -76.6179366      0.97308791       12.1104968       
0.092            0.974179486      11.8558282       0.205498735      -76.8927626      0.205498735      -76.8927626      0.974179583      11.8558286       
0.094            0.975205862      11.6113917       0.201319205      -77.1564176      0.201319205      -77.1564176      0.97520596       11.6113921       
0.096            0.976171998      11.3765919       0.197301086      -77.4095562      0.197301086      -77.4095562      0.976172096      11.3765923       
0.098            0.977082476      11.1508782       0.193435411      -77.6527832      0.193435411      -77.6527832      0.977082574      11.1508786       
0.1              0.977941456      10.9337404       0.189713847      -77.8866592      0.189713847      -77.8866592      0.977941553      10.9337408       
0.102            0.978752718      10.7247051       0.186128644      -78.1117034      0.186128644      -78.1117034      0.978752816      10.7247055       
0.104            0.979519707      10.5233327       0.182672583      -78.3283981      0.182672583      -78.3283981      0.979519805      10.5233331       
0.106            0.980245564      10.3292142       0.179338935      -78.5371916      0.179338935      -78.5371916      0.980245662      10.3292146       
0.108            0.980933161      10.1419689       0.17612142       -78.738501       0.17612142       -78.738501       0.980933259      10.1419693       
0.11             0.981585122      9.96124189       0.173014171      -78.932715       0.173014171      -78.932715       0.98158522       9.96124227       
0.112            0.982203854      9.78670184       0.170011702      -79.1201961      0.170011702      -79.1201961      0.982203953      9.78670221       
0.114            0.982791567      9.61803931       0.167108877      -79.3012829      0.167108877      -79.3012829      0.982791665      9.61803968       
0.116            0.983350288      9.45496487       0.164300884      -79.4762919      0.164300884      -79.4762919      0.983350386      9.45496524       
0.118            0.983881885      9.29720757       0.161583213      -79.6455193      0.161583213      -79.6455193      0.983881983      9.29720793       
0.12             0.984388078      9.14451346       0.158951627      -79.8092426      0.158951627      -79.8092426      0.984388177      9.14451382       
0.122            0.984870454      8.99664437       0.156402147      -79.9677218      0.156402147      -79.9677218      0.984870552      8.99664472       
0.124            0.985330478      8.85337664       0.153931033      -80.1212012      0.153931033      -80.1212012      0.985330577      8.85337699       
0.126            0.985769506      8.71450008       0.151534763      -80.2699101      0.151534763      -80.2699101      0.985769604      8.71450043       
0.128            0.986188792      8.57981701       0.14921002       -80.4140643      0.14921002       -80.4140643      0.98618889       8.57981735       
0.13             0.986589498      8.44914129       0.146953679      -80.5538669      0.146953679      -80.5538669      0.986589597      8.44914162       
0.132            0.986972704      8.32229754       0.144762791      -80.6895089      0.144762791      -80.6895089      0.986972803      8.32229787       
0.134            0.987339412      8.19912038       0.142634571      -80.8211708      0.142634571      -80.8211708      0.987339511      8.19912071       
0.136            0.987690554      8.07945371       0.140566389      -80.9490226      0.140566389      -80.9490226      0.987690652      8.07945404       
0.138            0.988026995      7.96315012       0.138555757      -81.0732249      0.138555757      -81.0732249      0.988027094      7.96315044       
0.14             0.988349545      7.85007024       0.136600322      -81.1939296      0.136600322      -81.1939296      0.988349644      7.85007056       
0.142            0.988658956      7.74008224       0.134697856      -81.3112801      0.134697856      -81.3112801      0.988659055      7.74008256       
0.144            0.988955932      7.63306133       0.132846247      -81.4254123      0.132846247      -81.4254123      0.988956031      7.63306165       
0.146            0.98924113       7.5288893        0.131043494      -81.5364549      0.131043494      -81.5364549      0.989241229      7.52888961       
0.148            0.989515163      7.42745407       0.129287696      -81.6445298      0.129287696      -81.6445298      0.989515262      7.42745438       
0.15             0.989778607      7.32864934       0.127577052      -81.7497527      0.127577052      -81.7497527      0.989778706      7.32864965       
0.152            0.990032         7.23237419       0.125909847      -81.8522334      0.125909847      -81.8522334      0.990032099      7.2323745        
0.154            0.990275846      7.13853278       0.124284454      -81.952076       0.124284454      -81.952076       0.990275945      7.13853309       
0.156            0.99051062       7.04703401       0.122699324      -82.0493795      0.122699324      -82.0493795      0.990510719      7.04703431       
0.158            0.990736765      6.95779122       0.121152983      -82.1442383      0.121152983      -82.1442383      0.990736864      6.95779152       
0.16             0.990954701      6.87072198       0.119644027      -82.2367418      0.119644027      -82.2367418      0.9909548        6.87072228       
0.162            0.991164818      6.78574778       0.11817112       -82.3269753      0.11817112       -82.3269753      0.991164917      6.78574808       
0.164            0.991367488      6.70279384       0.116732987      -82.4150202      0.116732987      -82.4150202      0.991367587      6.70279413       
0.166            0.991563058      6.62178885       0.115328412      -82.5009538      0.115328412      -82.5009538      0.991563157      6.62178914       
0.168            0.991751857      6.54266482       0.113956235      -82.5848499      0.113956235      -82.5848499      0.991751956      6.5426651        
0.17             0.991934193      6.46535686       0.112615347      -82.666779       0.112615347      -82.666779       0.991934292      6.46535714       
0.172            0.992110359      6.38980302       0.111304691      -82.7468084      0.111304691      -82.7468084      0.992110458      6.3898033        
0.174            0.99228063       6.31594411       0.110023256      -82.8250023      0.110023256      -82.8250023      0.99228073       6.31594439       
0.176            0.992445267      6.24372357       0.108770073      -82.9014221      0.108770073      -82.9014221      0.992445367      6.24372385       
0.178            0.992604517      6.17308732       0.107544219      -82.9761264      0.107544219      -82.9761264      0.992604616      6.17308759       
0.18             0.992758611      6.1039836        0.106344806      -83.0491713      0.106344806      -83.0491713      0.99275871       6.10398387       
0.182            0.99290777       6.03636289       0.105170988      -83.1206107      0.105170988      -83.1206107      0.99290787       6.03636316       
0.184            0.993052204      5.97017776       0.104021952      -83.1904958      0.104021952      -83.1904958      0.993052304      5.97017804       
0.186            0.993192111      5.90538279       0.102896919      -83.258876       0.102896919      -83.258876       0.99319221       5.90538306       
0.188            0.993327677      5.84193442       0.101795143      -83.3257985      0.101795143      -83.3257985      0.993327776      5.84193469       
0.19             0.993459082      5.7797909        0.100715908      -83.3913086      0.100715908      -83.3913086      0.993459181      5.77979117       
0.192            0.993586493      5.71891218       0.0996585264     -83.4554495      0.0996585264     -83.4554495      0.993586592      5.71891245       
0.194            0.993710072      5.65925982       0.0986223387     -83.518263       0.0986223387     -83.518263       0.993710172      5.65926008       
0.196            0.993829972      5.60079691       0.0976067115     -83.579789       0.0976067115     -83.579789       0.993830071      5.60079718       
0.198            0.993946336      5.54348803       0.0966110359     -83.640066       0.0966110359     -83.640066       0.993946435      5.54348829       
0.2              0.994059304      5.4872991        0.0956347271     -83.6991308      0.0956347271     -83.6991308      0.994059403      5.48729936       
0.202            0.994169006      5.4321974        0.0946772224     -83.7570189      0.0946772224     -83.7570189      0.994169105      5.43219766       
0.204            0.994275568      5.37815146       0.0937379808     -83.8137642      0.0937379808     -83.8137642      0.994275667      5.37815172       
0.206            0.994379108      5.32513099       0.0928164817     -83.8693997      0.0928164817     -83.8693997      0.994379208      5.32513125       
0.208            0.994479741      5.27310688       0.091912224      -83.9239568      0.091912224      -83.9239568      0.99447984       5.27310714       
0.21             0.994577574      5.22205106       0.0910247252     -83.9774658      0.0910247252     -83.9774658      0.994577673      5.22205132       
0.212            0.99467271       5.17193655       0.0901535205     -84.0299561      0.0901535205     -84.0299561      0.994672809      5.1719368        
0.214            0.994765248      5.12273732       0.0892981621     -84.0814556      0.0892981621     -84.0814556      0.994765348      5.12273757       
0.216            0.994855283      5.0744283        0.0884582183     -84.1319916      0.0884582183     -84.1319916      0.994855382      5.07442856       
0.218            0.994942903      5.02698534       0.087633273      -84.1815902      0.087633273      -84.1815902      0.994943002      5.0269856        
0.22             0.995028195      4.98038514       0.0868229247     -84.2302765      0.0868229247     -84.2302765      0.995028294      4.98038539       
0.222            0.995111241      4.93460521       0.0860267862     -84.2780749      0.0860267862     -84.2780749      0.99511134       4.93460546       
0.224            0.995192119      4.88962388       0.0852444837     -84.3250087      0.0852444837     -84.3250087      0.995192218      4.88962413       
0.226            0.995270904      4.84542022       0.0844756564     -84.3711007      0.0844756564     -84.3711007      0.995271004      4.84542047       
0.228            0.995347669      4.80197402       0.0837199559     -84.4163726      0.0837199559     -84.4163726      0.995347768      4.80197427       
0.23             0.995422481      4.75926577       0.0829770456     -84.4608455      0.0829770456     -84.4608455      0.99542258       4.75926602       
0.232            0.995495407      4.71727661       0.0822466003     -84.5045398      0.0822466003     -84.5045398      0.995495507      4.71727686       
0.234            0.99556651       4.67598833       0.0815283056     -84.5474752      0.0815283056     -84.5474752      0.99556661       4.67598858       
0.236            0.99563585       4.63538332       0.0808218577     -84.5896706      0.0808218577     -84.5896706      0.99563595       4.63538357       
0.238            0.995703486      4.59544455       0.0801269626     -84.6311445      0.0801269626     -84.6311445      0.995703586      4.5954448        
0.24             0.995769473      4.55615556       0.0794433362     -84.6719146      0.0794433362     -84.6719146      0.995769572      4.55615581       
0.242            0.995833864      4.51750042       0.0787707032     -84.7119981      0.0787707032     -84.7119981      0.995833963      4.51750067       
0.244            0.99589671       4.47946372       0.0781087976     -84.7514117      0.0781087976     -84.7514117      0.99589681       4.47946396       
0.246            0.995958061      4.44203053       0.0774573616     -84.7901714      0.0774573616     -84.7901714      0.995958161      4.44203077       
0.248            0.996017965      4.4051864        0.0768161456     -84.8282928      0.0768161456     -84.8282928      0.996018064      4.40518665       
0.25             0.996076465      4.36891737       0.0761849079     -84.8657911      0.0761849079     -84.8657911      0.996076565      4.36891761       
0.252            0.996133607      4.33320986       0.0755634143     -84.9026808      0.0755634143     -84.9026808      0.996133706      4.3332101        
0.254            0.996189431      4.29805075       0.0749514379     -84.9389761      0.0749514379     -84.9389761      0.996189531      4.29805099       
0.256            0.996243979      4.26342732       0.0743487588     -84.9746906      0.0743487588     -84.9746906      0.996244078      4.26342757       
0.258            0.996297288      4.22932724       0.0737551635     -85.0098378      0.0737551635     -85.0098378      0.996297388      4.22932748       
0.26             0.996349397      4.19573854       0.0731704454     -85.0444304      0.0731704454     -85.0444304      0.996349496      4.19573878       
0.262            0.996400341      4.16264963       0.0725944038     -85.078481       0.0725944038     -85.078481       0.99640044       4.16264987       
0.264            0.996450155      4.13004925       0.0720268441     -85.1120016      0.0720268441     -85.1120016      0.996450254      4.13004949       
0.266            0.996498871      4.09792649       0.0714675774     -85.1450042      0.0714675774     -85.1450042      0.996498971      4.09792673       
0.268            0.996546523      4.06627075       0.0709164205     -85.1774999      0.0709164205     -85.1774999      0.996546623      4.06627099       
0.27             0.996593141      4.03507175       0.0703731952     -85.2095         0.0703731952     -85.2095         0.996593241      4.03507199       
0.272            0.996638755      4.00431951       0.0698377289     -85.2410152      0.0698377289     -85.2410152      0.996638855      4.00431974       
0.274            0.996683394      3.97400432       0.0693098537     -85.2720558      0.0693098537     -85.2720558      0.996683493      3.97400456       
0.276            0.996727085      3.94411677       0.0687894065     -85.3026321      0.0687894065     -85.3026321      0.996727184      3.94411701       
0.278            0.996769854      3.9146477        0.0682762289     -85.3327539      0.0682762289     -85.3327539      0.996769954      3.91464794       
0.28             0.996811729      3.88558824       0.0677701669     -85.3624307      0.0677701669     -85.3624307      0.996811828      3.88558847       
0.282            0.996852733      3.85692972       0.0672710709     -85.3916718      0.0672710709     -85.3916718      0.996852832      3.85692996       
0.284            0.996892891      3.82866376       0.0667787953     -85.4204863      0.0667787953     -85.4204863      0.99689299       3.828664         
0.286            0.996932225      3.80078218       0.0662931987     -85.4488829      0.0662931987     -85.4488829      0.996932325      3.80078242       
0.288            0.996970759      3.77327704       0.0658141434     -85.4768702      0.0658141434     -85.4768702      0.996970859      3.77327728       
0.29             0.997008514      3.74614061       0.0653414955     -85.5044564      0.0653414955     -85.5044564      0.997008614      3.74614085       
0.292            0.997045511      3.71936537       0.0648751249     -85.5316498      0.0648751249     -85.5316498      0.99704561       3.71936561       
0.294            0.997081769      3.69294402       0.0644149047     -85.558458       0.0644149047     -85.558458       0.997081869      3.69294425       
0.296            0.99711731       3.66686942       0.0639607116     -85.5848887      0.0639607116     -85.5848887      0.997117409      3.66686966       
0.298            0.99715215       3.64113466       0.0635124254     -85.6109494      0.0635124254     -85.6109494      0.99715225       3.6411349        
0.3              0.99718631       3.61573298       0.0630699293     -85.6366474      0.0630699293     -85.6366474      0.997186409      3.61573322       
0.302            0.997219805      3.59065781       0.0626331093     -85.6619896      0.0626331093     -85.6619896      0.997219905      3.59065805       
0.304            0.997252655      3.56590277       0.0622018545     -85.6869829      0.0622018545     -85.6869829      0.997252754      3.565903         
