! Coilcraft 1812PS-224 Power Chip Inductor				
! 1 October 2002			
# MHZ S MA R 50
!Freq             MagS11           AngS11           MagS21           AngS21           MagS12           AngS12           MagS22           AngS22
0.05             0.558496476      53.7769637       0.807374386      -33.920757       0.807374386      -33.920757       0.558496531      53.7769646       
0.065            0.658252982      47.038595        0.732182146      -41.1415152      0.732182146      -41.1415152      0.658253047      47.0385956       
0.08             0.732256128      41.4230124       0.661846757      -47.0541259      0.661846757      -47.0541259      0.732256201      41.423013        
0.095            0.7870094        36.7894685       0.599036032      -51.8874388      0.599036032      -51.8874388      0.787009478      36.789469        
0.11             0.827832985      32.9605773       0.54417729       -55.8588453      0.54417729       -55.8588453      0.827833068      32.9605777       
0.125            0.858663574      29.7754513       0.496689391      -59.1500016      0.496689391      -59.1500016      0.85866366       29.7754516       
0.14             0.882296444      27.1023158       0.455649273      -61.9045265      0.455649273      -61.9045265      0.882296532      27.1023161       
0.155            0.900690572      24.8374351       0.420100283      -64.2333981      0.420100283      -64.2333981      0.900690662      24.8374354       
0.17             0.91522041       22.9002974       0.389174359      -66.2218025      0.389174359      -66.2218025      0.915220501      22.9002977       
0.185            0.926858397      21.2285491       0.362127593      -67.9352429      0.362127593      -67.9352429      0.92685849       21.2285494       
0.2              0.936300784      19.7737099       0.33833925       -69.4243977      0.33833925       -69.4243977      0.936300877      19.7737101       
0.215            0.944052796      18.4978229       0.317297481      -70.7288033      0.317297481      -70.7288033      0.94405289       18.4978231       
0.23             0.950486142      17.3709195       0.298581932      -71.879592       0.298581932      -71.879592       0.950486237      17.3709198       
0.245            0.955878042      16.3691249       0.281847264      -72.9015144      0.281847264      -72.9015144      0.955878138      16.3691252       
0.26             0.960437971      15.4732462       0.266808969      -73.8144342      0.266808969      -73.8144342      0.960438067      15.4732465       
0.275            0.964326187      14.6677172       0.253231653      -74.6344403      0.253231653      -74.6344403      0.964326283      14.6677174       
0.29             0.967666739      13.9398053       0.240919583      -75.3746779      0.240919583      -75.3746779      0.967666836      13.9398055       
0.305            0.970556703      13.279011        0.229709129      -76.0459767      0.229709129      -76.0459767      0.9705568        13.2790112       
0.32             0.973072824      12.6766101       0.219462741      -76.6573279      0.219462741      -76.6573279      0.973072922      12.6766103       
0.335            0.975276361      12.1253009       0.210064157      -77.2162514      0.210064157      -77.2162514      0.975276458      12.1253011       
0.35             0.977216642      11.6189309       0.201414581      -77.7290795      0.201414581      -77.7290795      0.97721674       11.6189311       
0.365            0.978933726      11.152283        0.193429613      -78.201179       0.193429613      -78.201179       0.978933824      11.1522832       
0.38             0.980460391      10.7209065       0.186036797      -78.6371257      0.186036797      -78.6371257      0.980460489      10.7209067       
0.395            0.981823657      10.3209837       0.179173625      -79.0408431      0.179173625      -79.0408431      0.981823755      10.3209839       
0.41             0.983045948      9.94922237       0.172785926      -79.4157129      0.172785926      -79.4157129      0.983046046      9.94922256       
0.425            0.984145992      9.60276926       0.166826546      -79.7646651      0.166826546      -79.7646651      0.98414609       9.60276945       
0.44             0.985139523      9.27914028       0.161254269      -80.0902492      0.161254269      -80.0902492      0.985139622      9.27914047       
0.455            0.986039837      8.97616314       0.156032927      -80.3946944      0.156032927      -80.3946944      0.986039936      8.97616333       
0.47             0.986858226      8.69193037       0.151130658      -80.679957       0.151130658      -80.679957       0.986858325      8.69193056       
0.485            0.98760433       8.42476051       0.146519297      -80.9477613      0.146519297      -80.9477613      0.987604429      8.42476069       
0.5              0.988286415      8.17316585       0.142173861      -81.1996322      0.142173861      -81.1996322      0.988286514      8.17316603       
0.515            0.988911603      7.93582552       0.138072113      -81.4369232      0.138072113      -81.4369232      0.988911702      7.93582571       
0.53             0.989486056      7.71156291       0.134194206      -81.6608398      0.134194206      -81.6608398      0.989486155      7.7115631        
0.545            0.990015124      7.49932662       0.130522368      -81.8724585      0.130522368      -81.8724585      0.990015223      7.49932681       
0.56             0.990503473      7.29817434       0.127040643      -82.0727443      0.127040643      -82.0727443      0.990503572      7.29817453       
0.575            0.990955183      7.10725913       0.123734667      -82.2625639      0.123734667      -82.2625639      0.990955282      7.10725932       
0.59             0.991373839      6.92581774       0.120591475      -82.4426982      0.120591475      -82.4426982      0.991373938      6.92581794       
0.605            0.991762597      6.75316058       0.117599338      -82.6138525      0.117599338      -82.6138525      0.991762696      6.75316077       
0.62             0.992124245      6.58866306       0.114747617      -82.7766657      0.114747617      -82.7766657      0.992124344      6.58866325       
0.635            0.992461253      6.43175815       0.112026643      -82.9317172      0.112026643      -82.9317172      0.992461353      6.43175835       
0.65             0.992775819      6.28192998       0.10942761       -83.0795343      0.10942761       -83.0795343      0.992775918      6.28193017       
0.665            0.993069898      6.13870813       0.106942478      -83.2205975      0.106942478      -83.2205975      0.993069997      6.13870833       
0.68             0.993345238      6.00166284       0.104563897      -83.3553457      0.104563897      -83.3553457      0.993345337      6.00166304       
0.695            0.993603403      5.87040068       0.10228513       -83.4841805      0.10228513       -83.4841805      0.993603503      5.87040088       
0.71             0.9938458        5.7445608        0.100099995      -83.6074702      0.100099995      -83.6074702      0.993845899      5.74456101       
0.725            0.994073691      5.62381169       0.0980028062     -83.7255531      0.0980028062     -83.7255531      0.994073791      5.6238119        
0.74             0.994288216      5.50784821       0.0959883273     -83.8387401      0.0959883273     -83.8387401      0.994288316      5.50784842       
0.755            0.994490406      5.39638904       0.0940517273     -83.9473182      0.0940517273     -83.9473182      0.994490505      5.39638925       
0.77             0.994681191      5.28917444       0.0921885427     -84.0515521      0.0921885427     -84.0515521      0.99468129       5.28917465       
0.785            0.994861417      5.18596419       0.0903946428     -84.1516863      0.0903946428     -84.1516863      0.994861516      5.1859644        
0.8              0.995031853      5.08653581       0.0886662001     -84.2479474      0.0886662001     -84.2479474      0.995031952      5.08653602       
0.815            0.995193198      4.99068296       0.0869996627     -84.3405454      0.0869996627     -84.3405454      0.995193298      4.99068318       
0.83             0.99534609       4.89821401       0.0853917298     -84.4296752      0.0853917298     -84.4296752      0.99534619       4.89821423       
0.845            0.995491113      4.80895073       0.0838393306     -84.5155181      0.0838393306     -84.5155181      0.995491212      4.80895095       
0.86             0.995628798      4.72272716       0.0823396042     -84.5982428      0.0823396042     -84.5982428      0.995628897      4.72272739       
0.875            0.995759634      4.63938861       0.0808898821     -84.6780062      0.0808898821     -84.6780062      0.995759734      4.63938883       
0.89             0.995884071      4.55879063       0.0794876728     -84.7549552      0.0794876728     -84.7549552      0.995884171      4.55879086       
0.905            0.99600252       4.48079828       0.0781306466     -84.8292266      0.0781306466     -84.8292266      0.996002619      4.48079851       
0.92             0.99611536       4.4052853        0.0768166235     -84.9009484      0.0768166235     -84.9009484      0.996115459      4.40528553       
0.935            0.996222941      4.33213343       0.0755435609     -84.9702406      0.0755435609     -84.9702406      0.99622304       4.33213367       
0.95             0.996325585      4.26123182       0.0743095433     -85.0372154      0.0743095433     -85.0372154      0.996325685      4.26123206       
0.965            0.996423592      4.19247642       0.0731127723     -85.1019781      0.0731127723     -85.1019781      0.996423691      4.19247666       
0.98             0.996517235      4.1257695        0.071951558      -85.1646276      0.071951558      -85.1646276      0.996517335      4.12576974       
0.995            0.996606772      4.06101915       0.0708243112     -85.2252568      0.0708243112     -85.2252568      0.996606871      4.06101939       
1.01             0.996692438      3.99813887       0.0697295353     -85.283953       0.0697295353     -85.283953       0.996692537      3.99813912       
1.025            0.996774454      3.93704719       0.0686658204     -85.3407987      0.0686658204     -85.3407987      0.996774553      3.93704744       
1.04             0.996853023      3.87766728       0.0676318369     -85.3958711      0.0676318369     -85.3958711      0.996853123      3.87766753       
1.055            0.996928338      3.81992666       0.0666263298     -85.4492434      0.0666263298     -85.4492434      0.996928437      3.81992691       
1.07             0.997000573      3.76375685       0.0656481134     -85.5009845      0.0656481134     -85.5009845      0.997000673      3.76375711       
1.085            0.997069895      3.70909316       0.0646960669     -85.5511595      0.0646960669     -85.5511595      0.997069995      3.70909342       
1.1              0.997136458      3.65587437       0.0637691301     -85.59983        0.0637691301     -85.59983        0.997136557      3.65587463       
1.115            0.997200405      3.60404254       0.0628662988     -85.647054       0.0628662988     -85.647054       0.997200505      3.6040428        
1.13             0.997261871      3.55354279       0.0619866219     -85.6928868      0.0619866219     -85.6928868      0.997261971      3.55354306       
1.145            0.997320982      3.50432309       0.0611291974     -85.7373804      0.0611291974     -85.7373804      0.997321082      3.50432335       
1.16             0.997377857      3.45633406       0.0602931695     -85.7805842      0.0602931695     -85.7805842      0.997377957      3.45633433       
1.175            0.997432605      3.40952886       0.0594777256     -85.8225451      0.0594777256     -85.8225451      0.997432705      3.40952914       
1.19             0.99748533       3.36386298       0.0586820937     -85.8633076      0.0586820937     -85.8633076      0.99748543       3.36386325       
1.205            0.997536131      3.31929409       0.0579055398     -85.9029139      0.0579055398     -85.9029139      0.99753623       3.31929437       
1.22             0.997585097      3.27578196       0.0571473658     -85.941404       0.0571473658     -85.941404       0.997585197      3.27578224       
1.235            0.997632316      3.23328829       0.0564069071     -85.978816       0.0564069071     -85.978816       0.997632416      3.23328857       
1.25             0.997677869      3.1917766        0.0556835306     -86.0151863      0.0556835306     -86.0151863      0.997677969      3.19177688       
1.265            0.997721831      3.15121213       0.0549766332     -86.0505493      0.0549766332     -86.0505493      0.997721931      3.15121242       
1.28             0.997764276      3.11156175       0.0542856396     -86.0849377      0.0542856396     -86.0849377      0.997764375      3.11156204       
1.295            0.997805269      3.07279386       0.053610001      -86.118383       0.053610001      -86.118383       0.997805369      3.07279415       
1.31             0.997844877      3.03487827       0.0529491937     -86.1509148      0.0529491937     -86.1509148      0.997844977      3.03487856       
1.325            0.997883159      2.99778617       0.0523027172     -86.1825616      0.0523027172     -86.1825616      0.997883259      2.99778647       
1.34             0.997920172      2.96149005       0.0516700934     -86.2133504      0.0516700934     -86.2133504      0.997920272      2.96149035       
1.355            0.99795597       2.92596358       0.0510508653     -86.2433071      0.0510508653     -86.2433071      0.99795607       2.92596388       
1.37             0.997990605      2.89118159       0.0504445956     -86.2724564      0.0504445956     -86.2724564      0.997990705      2.89118189       
1.385            0.998024125      2.85711999       0.0498508659     -86.3008218      0.0498508659     -86.3008218      0.998024225      2.8571203        
1.4              0.998056576      2.82375574       0.0492692756     -86.3284259      0.0492692756     -86.3284259      0.998056676      2.82375605       
1.415            0.998088001      2.79106674       0.0486994409     -86.3552901      0.0486994409     -86.3552901      0.998088101      2.79106705       
1.43             0.998118442      2.75903182       0.048140994      -86.381435       0.048140994      -86.381435       0.998118542      2.75903214       
1.445            0.998147938      2.72763071       0.0475935822     -86.4068803      0.0475935822     -86.4068803      0.998148038      2.72763103       
1.46             0.998176526      2.69684394       0.0470568675     -86.4316448      0.0470568675     -86.4316448      0.998176626      2.69684426       
1.475            0.998204242      2.66665285       0.0465305253     -86.4557465      0.0465305253     -86.4557465      0.998204342      2.66665317       
1.49             0.998231118      2.6370395        0.0460142439     -86.4792027      0.0460142439     -86.4792027      0.998231218      2.63703983       
1.505            0.998257187      2.60798669       0.0455077242     -86.5020298      0.0455077242     -86.5020298      0.998257287      2.60798702       
1.52             0.99828248       2.57947789       0.0450106786     -86.5242437      0.0450106786     -86.5242437      0.99828258       2.57947822       
1.535            0.998307025      2.55149719       0.044522831      -86.5458594      0.044522831      -86.5458594      0.998307125      2.55149753       
1.55             0.99833085       2.52402934       0.0440439155     -86.5668917      0.0440439155     -86.5668917      0.99833095       2.52402968       
1.565            0.998353982      2.49705962       0.0435736767     -86.5873542      0.0435736767     -86.5873542      0.998354081      2.49705996       
1.58             0.998376444      2.47057391       0.0431118686     -86.6072604      0.0431118686     -86.6072604      0.998376544      2.47057425       
1.595            0.998398262      2.44455859       0.0426582546     -86.6266232      0.0426582546     -86.6266232      0.998398362      2.44455894       
1.61             0.998419457      2.41900056       0.0422126066     -86.6454547      0.0422126066     -86.6454547      0.998419557      2.41900091       
1.625            0.998440053      2.39388719       0.0417747052     -86.6637667      0.0417747052     -86.6637667      0.998440153      2.39388754       
1.64             0.998460069      2.36920633       0.0413443388     -86.6815705      0.0413443388     -86.6815705      0.998460169      2.36920668       
1.655            0.998479525      2.34494625       0.0409213034     -86.698877       0.0409213034     -86.698877       0.998479625      2.34494661       
1.67             0.998498441      2.32109565       0.0405054024     -86.7156966      0.0405054024     -86.7156966      0.998498541      2.32109601       
1.685            0.998516835      2.29764363       0.040096446      -86.7320393      0.040096446      -86.7320393      0.998516935      2.29764399       
1.7              0.998534724      2.27457966       0.0396942514     -86.7479146      0.0396942514     -86.7479146      0.998534824      2.27458003       
1.715            0.998552124      2.25189361       0.0392986417     -86.7633318      0.0392986417     -86.7633318      0.998552224      2.25189397       
1.73             0.998569052      2.22957566       0.0389094466     -86.7782998      0.0389094466     -86.7782998      0.998569152      2.22957603       
1.745            0.998585523      2.20761635       0.0385265012     -86.7928269      0.0385265012     -86.7928269      0.998585623      2.20761672       
1.76             0.998601551      2.18600654       0.0381496465     -86.8069214      0.0381496465     -86.8069214      0.998601651      2.18600692       
1.775            0.998617151      2.1647374        0.0377787286     -86.8205911      0.0377787286     -86.8205911      0.998617251      2.16473778       
1.79             0.998632336      2.14380038       0.037413599      -86.8338435      0.037413599      -86.8338435      0.998632436      2.14380076       
1.805            0.998647119      2.12318723       0.0370541139     -86.8466859      0.0370541139     -86.8466859      0.998647219      2.12318761       
1.82             0.998661512      2.10288996       0.0367001343     -86.8591251      0.0367001343     -86.8591251      0.998661612      2.10289035       
1.835            0.998675527      2.08290085       0.0363515257     -86.8711679      0.0363515257     -86.8711679      0.998675627      2.08290124       
1.85             0.998689176      2.06321242       0.0360081581     -86.8828206      0.0360081581     -86.8828206      0.998689276      2.06321281       
1.865            0.998702469      2.04381743       0.0356699054     -86.8940894      0.0356699054     -86.8940894      0.998702569      2.04381783       
1.88             0.998715418      2.02470889       0.0353366458     -86.9049802      0.0353366458     -86.9049802      0.998715518      2.02470929       
1.895            0.998728031      2.00588001       0.035008261      -86.9154986      0.035008261      -86.9154986      0.998728131      2.00588041       
1.91             0.99874032       1.98732421       0.0346846367     -86.9256501      0.0346846367     -86.9256501      0.99874042       1.98732461       
1.925            0.998752293      1.96903513       0.0343656621     -86.9354399      0.0343656621     -86.9354399      0.998752393      1.96903554       
1.94             0.998763959      1.9510066        0.0340512296     -86.9448729      0.0340512296     -86.9448729      0.998764059      1.95100701       
1.955            0.998775328      1.93323264       0.0337412352     -86.9539541      0.0337412352     -86.9539541      0.998775428      1.93323305       
