! Coilcraft 1812PS-682 Power Chip Inductor				
! 1 October 2002			
# MHZ S MA R 50
!Freq             MagS11           AngS11           MagS21           AngS21           MagS12           AngS12           MagS22           AngS22
0.05             0.0213723115     85.2981377       0.998475169      -1.2223789       0.998475169      -1.2223789       0.0213723138     85.2981418       
0.15             0.0639301373     85.0245983       0.996492699      -3.66446693      0.996492699      -3.66446693      0.0639301482     85.0246044       
0.25             0.10617509       82.9533542       0.992583651      -6.09402875      0.992583651      -6.09402875      0.106175113      82.9533601       
0.35             0.147819676      80.6458532       0.986812156      -8.49964471      0.986812156      -8.49964471      0.147819713      80.6458584       
0.45             0.188632255      78.288771        0.979288008      -10.8717969      0.979288008      -10.8717969      0.188632306      78.2887754       
0.55             0.228415422      75.9376651       0.970141109      -13.2022884      0.970141109      -13.2022884      0.228415485      75.9376689       
0.65             0.26700082       73.617217        0.959516709      -15.4839271      0.959516709      -15.4839271      0.267000895      73.6172204       
0.75             0.304249184      71.3414666       0.947571643      -17.7104991      0.947571643      -17.7104991      0.304249271      71.3414696       
0.85             0.340050711      69.1196143       0.93446976       -19.8767916      0.93446976       -19.8767916      0.340050809      69.1196169       
0.95             0.374324556      66.9580978       0.92037721       -21.9785966      0.92037721       -21.9785966      0.374324665      66.9581002       
1.05             0.407017364      64.8614815       0.905458082      -24.0126865      0.905458082      -24.0126865      0.407017483      64.8614837       
1.15             0.438101006      62.8329096       0.889870679      -25.9767632      0.889870679      -25.9767632      0.438101135      62.8329116       
1.25             0.467569773      60.8743817       0.873764571      -27.8693855      0.873764571      -27.8693855      0.467569911      60.8743835       
1.35             0.495437258      58.9869488       0.857278428      -29.6898841      0.857278428      -29.6898841      0.495437404      58.9869505       
1.45             0.521733159      57.1708707       0.840538616      -31.4382676      0.840538616      -31.4382676      0.521733313      57.1708724       
1.55             0.54650015       55.42575         0.823658446      -33.1151267      0.823658446      -33.1151267      0.546500313      55.4257516       
1.65             0.569790956      53.7506498       0.806737991      -34.7215403      0.806737991      -34.7215403      0.569791126      53.7506512       
1.75             0.591665706      52.1441984       0.789864335      -36.2589859      0.789864335      -36.2589859      0.591665882      52.1441998       
1.85             0.612189614      50.6046818       0.773112154      -37.7292581      0.773112154      -37.7292581      0.612189796      50.604683        
1.95             0.631430999      49.1301242       0.756544528      -39.1343942      0.756544528      -39.1343942      0.631431187      49.1301254       
2.05             0.649459636      47.7183581       0.740213888      -40.4766096      0.740213888      -40.4766096      0.64945983       47.7183593       
2.15             0.666345423      46.3670837       0.724163047      -41.7582418      0.724163047      -41.7582418      0.666345621      46.3670848       
2.25             0.682157322      45.0739188       0.708426236      -42.9817023      0.708426236      -42.9817023      0.682157525      45.0739198       
2.35             0.696962554      43.8364402       0.693030134      -44.1494379      0.693030134      -44.1494379      0.696962762      43.8364412       
2.45             0.710826003      42.6522177       0.677994835      -45.2638975      0.677994835      -45.2638975      0.710826215      42.6522187       
2.55             0.723809792      41.5188412       0.663334757      -46.3275065      0.663334757      -46.3275065      0.723810009      41.5188421       
2.65             0.735973013      40.4339416       0.649059471      -47.3426459      0.649059471      -47.3426459      0.735973233      40.4339424       
2.75             0.747371562      39.3952075       0.635174446      -48.3116369      0.635174446      -48.3116369      0.747371785      39.3952084       
2.85             0.758058079      38.4003976       0.621681713      -49.2367291      0.621681713      -49.2367291      0.758058305      38.4003984       
2.95             0.768081949      37.4473489       0.608580455      -50.1200916      0.608580455      -50.1200916      0.768082178      37.4473497       
3.05             0.777489359      36.5339829       0.595867513      -50.9638082      0.595867513      -50.9638082      0.777489591      36.5339837       
3.15             0.786323398      35.6583096       0.583537836      -51.7698733      0.583537836      -51.7698733      0.786323633      35.6583104       
3.25             0.794624177      34.8184286       0.571584854      -52.5401905      0.571584854      -52.5401905      0.794624415      34.8184293       
3.35             0.802428977      34.0125298       0.560000809      -53.2765726      0.560000809      -53.2765726      0.802429217      34.0125305       
3.45             0.809772397      33.2388926       0.548777029      -53.9807426      0.548777029      -53.9807426      0.809772639      33.2388933       
3.55             0.816686513      32.4958841       0.537904161      -54.654335       0.537904161      -54.654335       0.816686758      32.4958847       
3.65             0.823201044      31.7819565       0.527372368      -55.298899       0.527372368      -55.298899       0.82320129       31.7819571       
3.75             0.829343499      31.0956447       0.517171488      -55.9159007      0.517171488      -55.9159007      0.829343748      31.0956453       
3.85             0.835139341      30.4355629       0.507291172      -56.5067266      0.507291172      -56.5067266      0.835139591      30.4355635       
3.95             0.840612125      29.8004012       0.497720995      -57.0726873      0.497720995      -57.0726873      0.840612377      29.8004018       
4.05             0.845783643      29.1889223       0.488450542      -57.6150205      0.488450542      -57.6150205      0.845783897      29.1889228       
4.15             0.850674056      28.5999575       0.479469487      -58.134895       0.479469487      -58.134895       0.85067431       28.599958        
4.25             0.855302013      28.0324037       0.470767644      -58.633414       0.470767644      -58.633414       0.85530227       28.0324043       
4.35             0.859684777      27.4852199       0.46233502       -59.1116188      0.46233502       -59.1116188      0.859685035      27.4852204       
4.45             0.863838323      26.9574231       0.454161846      -59.5704919      0.454161846      -59.5704919      0.863838582      26.9574236       
4.55             0.867777446      26.4480859       0.446238603      -60.0109607      0.446238603      -60.0109607      0.867777706      26.4480864       
4.65             0.871515847      25.956333        0.438556047      -60.4339005      0.438556047      -60.4339005      0.871516109      25.9563335       
4.75             0.875066228      25.4813378       0.431105216      -60.8401373      0.431105216      -60.8401373      0.875066491      25.4813383       
4.85             0.878440363      25.0223201       0.423877444      -61.2304512      0.423877444      -61.2304512      0.878440626      25.0223206       
4.95             0.881649174      24.5785431       0.416864363      -61.6055787      0.416864363      -61.6055787      0.881649439      24.5785436       
5.05             0.884702801      24.1493107       0.410057904      -61.9662154      0.410057904      -61.9662154      0.884703066      24.1493111       
5.15             0.887610658      23.7339651       0.403450299      -62.3130187      0.403450299      -62.3130187      0.887610924      23.7339656       
5.25             0.890381495      23.3318848       0.397034074      -62.64661        0.397034074      -62.64661        0.890381762      23.3318853       
5.35             0.893023449      22.9424819       0.390802048      -62.9675765      0.390802048      -62.9675765      0.893023716      22.9424823       
5.45             0.895544087      22.5652003       0.384747322      -63.276474       0.384747322      -63.276474       0.895544355      22.5652007       
5.55             0.897950457      22.199514        0.378863276      -63.5738282      0.378863276      -63.5738282      0.897950726      22.1995144       
5.65             0.900249125      21.8449248       0.37314356       -63.8601367      0.37314356       -63.8601367      0.900249395      21.8449252       
5.75             0.90244621       21.500961        0.367582084      -64.1358708      0.367582084      -64.1358708      0.902446481      21.5009615       
5.85             0.904547422      21.1671759       0.362173011      -64.4014771      0.362173011      -64.4014771      0.904547693      21.1671763       
5.95             0.906558089      20.8431456       0.356910747      -64.6573786      0.356910747      -64.6573786      0.906558361      20.843146        
6.05             0.908483189      20.5284686       0.351789931      -64.9039767      0.351789931      -64.9039767      0.908483461      20.528469        
6.15             0.910327374      20.2227637       0.346805431      -65.1416522      0.346805431      -65.1416522      0.910327647      20.2227641       
6.25             0.912094995      19.9256693       0.341952327      -65.3707663      0.341952327      -65.3707663      0.912095268      19.9256697       
6.35             0.913790125      19.6368418       0.337225908      -65.5916621      0.337225908      -65.5916621      0.913790399      19.6368422       
6.45             0.915416576      19.355955        0.332621662      -65.8046655      0.332621662      -65.8046655      0.915416851      19.3559554       
6.55             0.916977924      19.0826987       0.328135266      -66.0100863      0.328135266      -66.0100863      0.916978199      19.0826991       
6.65             0.918477519      18.8167781       0.32376258       -66.208219       0.32376258       -66.208219       0.918477794      18.8167784       
6.75             0.919918505      18.5579126       0.319499637      -66.3993438      0.319499637      -66.3993438      0.91991878       18.5579129       
6.85             0.921303834      18.3058352       0.315342636      -66.5837273      0.315342636      -66.5837273      0.921304111      18.3058356       
6.95             0.922636281      18.0602918       0.311287936      -66.7616233      0.311287936      -66.7616233      0.922636558      18.0602922       
7.05             0.923918453      17.8210402       0.307332046      -66.9332738      0.307332046      -66.9332738      0.92391873       17.8210405       
7.15             0.925152802      17.5878495       0.303471621      -67.0989092      0.303471621      -67.0989092      0.92515308       17.5878498       
7.25             0.926341637      17.3604998       0.299703453      -67.2587492      0.299703453      -67.2587492      0.926341915      17.3605001       
7.35             0.927487132      17.1387812       0.296024468      -67.4130034      0.296024468      -67.4130034      0.92748741       17.1387815       
7.45             0.928591335      16.9224933       0.292431715      -67.5618718      0.292431715      -67.5618718      0.928591613      16.9224936       
7.55             0.929656178      16.711445        0.288922364      -67.7055453      0.288922364      -67.7055453      0.929656457      16.7114453       
7.65             0.930683483      16.5054536       0.285493701      -67.8442062      0.285493701      -67.8442062      0.930683762      16.5054539       
7.75             0.931674971      16.3043447       0.282143121      -67.9780289      0.282143121      -67.9780289      0.93167525       16.304345        
7.85             0.932632266      16.1079514       0.278868121      -68.1071798      0.278868121      -68.1071798      0.932632546      16.1079517       
7.95             0.933556904      15.9161143       0.275666301      -68.2318182      0.275666301      -68.2318182      0.933557183      15.9161146       
8.05             0.934450335      15.7286807       0.272535354      -68.3520964      0.272535354      -68.3520964      0.934450616      15.728681        
8.15             0.935313935      15.5455045       0.269473064      -68.4681604      0.269473064      -68.4681604      0.935314215      15.5455048       
8.25             0.936149002      15.366446        0.266477302      -68.5801496      0.266477302      -68.5801496      0.936149283      15.3664463       
8.35             0.936956768      15.1913712       0.263546021      -68.6881978      0.263546021      -68.6881978      0.936957049      15.1913714       
8.45             0.937738398      15.0201517       0.260677254      -68.7924332      0.260677254      -68.7924332      0.937738679      15.020152        
8.55             0.938495         14.8526645       0.25786911       -68.8929785      0.25786911       -68.8929785      0.938495281      14.8526648       
8.65             0.939227621      14.6887917       0.255119769      -68.9899516      0.255119769      -68.9899516      0.939227903      14.688792        
8.75             0.939937257      14.5284201       0.252427479      -69.0834654      0.252427479      -69.0834654      0.939937539      14.5284203       
8.85             0.940624853      14.371441        0.249790556      -69.1736283      0.249790556      -69.1736283      0.940625135      14.3714413       
8.95             0.941291306      14.2177502       0.247207377      -69.2605445      0.247207377      -69.2605445      0.941291588      14.2177505       
9.05             0.941937469      14.0672476       0.244676381      -69.3443138      0.244676381      -69.3443138      0.941937751      14.0672479       
9.15             0.942564153      13.919837        0.242196064      -69.4250324      0.242196064      -69.4250324      0.942564435      13.9198373       
9.25             0.943172129      13.775426        0.239764976      -69.5027925      0.239764976      -69.5027925      0.943172412      13.7754263       
9.35             0.943762131      13.6339256       0.23738172       -69.5776827      0.23738172       -69.5776827      0.943762414      13.6339259       
9.45             0.944334858      13.4952505       0.235044951      -69.6497885      0.235044951      -69.6497885      0.944335141      13.4952507       
9.55             0.944890975      13.3593183       0.23275337       -69.7191919      0.23275337       -69.7191919      0.944891258      13.3593186       
9.65             0.945431116      13.22605         0.230505726      -69.7859719      0.230505726      -69.7859719      0.9454314        13.2260503       
9.75             0.945955887      13.0953695       0.228300812      -69.8502045      0.228300812      -69.8502045      0.94595617       13.0953697       
9.85             0.946465862      12.9672033       0.226137461      -69.9119629      0.226137461      -69.9119629      0.946466146      12.9672036       
9.95             0.946961592      12.8414809       0.224014551      -69.9713176      0.224014551      -69.9713176      0.946961876      12.8414811       
10.05            0.947443602      12.7181341       0.221930995      -70.0283367      0.221930995      -70.0283367      0.947443886      12.7181344       
10.15            0.947912393      12.5970975       0.219885745      -70.0830856      0.219885745      -70.0830856      0.947912677      12.5970977       
10.25            0.948368444      12.4783076       0.217877788      -70.1356274      0.217877788      -70.1356274      0.948368728      12.4783078       
10.35            0.948812211      12.3617035       0.215906148      -70.1860231      0.215906148      -70.1860231      0.948812496      12.3617037       
10.45            0.949244133      12.2472264       0.213969878      -70.2343314      0.213969878      -70.2343314      0.949244418      12.2472266       
10.55            0.949664627      12.1348194       0.212068065      -70.280609       0.212068065      -70.280609       0.949664912      12.1348196       
10.65            0.950074093      12.0244278       0.210199826      -70.3249107      0.210199826      -70.3249107      0.950074378      12.024428        
10.75            0.950472914      11.9159986       0.208364306      -70.3672893      0.208364306      -70.3672893      0.950473199      11.9159988       
10.85            0.950861457      11.8094806       0.20656068       -70.4077958      0.20656068       -70.4077958      0.950861742      11.8094809       
10.95            0.951240071      11.7048246       0.204788149      -70.4464795      0.204788149      -70.4464795      0.951240357      11.7048248       
11.05            0.951609094      11.6019828       0.203045939      -70.4833882      0.203045939      -70.4833882      0.95160938       11.601983        
11.15            0.951968848      11.500909        0.201333301      -70.5185678      0.201333301      -70.5185678      0.951969133      11.5009092       
11.25            0.95231964       11.4015587       0.199649511      -70.5520629      0.199649511      -70.5520629      0.952319926      11.4015589       
11.35            0.952661768      11.3038887       0.197993867      -70.5839166      0.197993867      -70.5839166      0.952662054      11.3038889       
11.45            0.952995516      11.2078572       0.196365689      -70.6141706      0.196365689      -70.6141706      0.952995801      11.2078574       
11.55            0.953321155      11.113424        0.194764319      -70.6428651      0.194764319      -70.6428651      0.953321441      11.1134242       
11.65            0.953638948      11.02055         0.193189118      -70.6700392      0.193189118      -70.6700392      0.953639234      11.0205502       
11.75            0.953949146      10.9291972       0.191639468      -70.6957307      0.191639468      -70.6957307      0.953949432      10.9291974       
11.85            0.95425199       10.8393291       0.190114769      -70.7199762      0.190114769      -70.7199762      0.954252276      10.8393293       
11.95            0.954547712      10.7509103       0.188614441      -70.742811       0.188614441      -70.742811       0.954547999      10.7509105       
12.05            0.954836535      10.6639062       0.187137919      -70.7642696      0.187137919      -70.7642696      0.954836822      10.6639064       
12.15            0.955118673      10.5782837       0.185684657      -70.7843852      0.185684657      -70.7843852      0.95511896       10.5782839       
12.25            0.955394333      10.4940105       0.184254124      -70.80319        0.184254124      -70.80319        0.955394619      10.4940107       
12.35            0.955663711      10.4110552       0.182845804      -70.8207153      0.182845804      -70.8207153      0.955663998      10.4110554       
12.45            0.955926999      10.3293876       0.1814592        -70.8369915      0.1814592        -70.8369915      0.955927286      10.3293877       
12.55            0.956184381      10.2489781       0.180093824      -70.8520479      0.180093824      -70.8520479      0.956184668      10.2489783       
12.65            0.956436033      10.1697982       0.178749207      -70.8659131      0.178749207      -70.8659131      0.95643632       10.1697984       
12.75            0.956682125      10.0918203       0.17742489       -70.8786147      0.17742489       -70.8786147      0.956682412      10.0918205       
