! Coilcraft 1812PS-152 Power Chip Inductor				
! 1 October 2002			
# MHZ S MA R 50
!Freq             MagS11           AngS11           MagS21           AngS21           MagS12           AngS12           MagS22           AngS22
0.05             0.00474162027    83.0886059       0.999440356      -0.269852718     0.999440356      -0.269852718     0.00474162072    83.0886087       
0.2              0.0188483988     87.0807889       0.999217268      -1.07944109      0.999217268      -1.07944109      0.0188484007     87.0807907       
0.35             0.0329741101     86.9076996       0.998763957      -1.88920354      0.998763957      -1.88920354      0.0329741135     86.9077019       
0.5              0.0471000716     86.3178393       0.998082379      -2.69923711      0.998082379      -2.69923711      0.0471000768     86.3178423       
0.65             0.06122151       85.5960888       0.99716886       -3.5095016       0.99716886       -3.5095016       0.0612215172     85.5960923       
0.8              0.07533181       84.8121572       0.996017767      -4.31979172      0.996017767      -4.31979172      0.0753318195     84.8121612       
0.95             0.0894217686     83.9915401       0.994623276      -5.12973891      0.994623276      -5.12973891      0.0894217807     83.9915447       
1.1              0.103479885      83.1462868       0.992980512      -5.9388347       0.992980512      -5.9388347       0.1034799        83.1462917       
1.25             0.117492964      82.2834038       0.991086269      -6.74646625      0.991086269      -6.74646625      0.117492982      82.283409        
1.4              0.131446806      81.4077017       0.988939349      -7.55195512      0.988939349      -7.55195512      0.131446828      81.4077071       
1.55             0.14532684       80.5228817       0.986540625      -8.35459308      0.986540625      -8.35459308      0.145326865      80.5228873       
1.7              0.159118645      79.6319823       0.983892917      -9.1536712       0.983892917      -9.1536712       0.159118674      79.6319881       
1.85             0.172808336      78.7375764       0.981000754      -9.94850132      0.981000754      -9.94850132      0.172808369      78.7375822       
2                0.186382813      77.8418676       0.977870094      -10.7384302      0.977870094      -10.7384302      0.18638285       77.8418734       
2.15             0.199829916      76.9467476       0.974508045      -11.522848       0.974508045      -11.522848       0.199829957      76.9467534       
2.3              0.21313849       76.0538374       0.970922608      -12.3011918      0.970922608      -12.3011918      0.213138535      76.0538432       
2.45             0.226298401      75.1645217       0.967122452      -13.0729464      0.967122452      -13.0729464      0.226298451      75.1645274       
2.6              0.239300518      74.2799797       0.963116732      -13.8376436      0.963116732      -13.8376436      0.239300572      74.2799853       
2.75             0.252136668      73.4012136       0.958914935      -14.5948596      0.958914935      -14.5948596      0.252136726      73.4012191       
2.9              0.26479959       72.5290731       0.954526761      -15.344212       0.954526761      -15.344212       0.264799651      72.5290786       
3.05             0.277282876      71.6642779       0.949962023      -16.0853574      0.949962023      -16.0853574      0.277282942      71.6642833       
3.2              0.289580921      70.8074365       0.945230574      -16.8179884      0.945230574      -16.8179884      0.289580991      70.8074418       
3.35             0.301688865      69.959063        0.940342243      -17.5418307      0.940342243      -17.5418307      0.301688939      69.9590682       
3.5              0.313602549      69.1195906       0.935306784      -18.2566406      0.935306784      -18.2566406      0.313602627      69.1195957       
3.65             0.325318465      68.2893836       0.930133839      -18.9622033      0.930133839      -18.9622033      0.325318547      68.2893886       
3.8              0.336833714      67.468747        0.924832901      -19.6583301      0.924832901      -19.6583301      0.3368338        67.4687518       
3.95             0.348145966      66.6579346       0.919413289      -20.3448575      0.919413289      -20.3448575      0.348146055      66.6579393       
4.1              0.359253423      65.857156        0.913884125      -21.0216448      0.913884125      -21.0216448      0.359253516      65.8571606       
4.25             0.370154784      65.0665822       0.908254312      -21.688573       0.908254312      -21.688573       0.370154881      65.0665867       
4.4              0.380849211      64.2863501       0.902532519      -22.3455434      0.902532519      -22.3455434      0.380849311      64.2863545       
4.55             0.391336296      63.5165669       0.896727169      -22.9924764      0.896727169      -22.9924764      0.391336401      63.5165712       
4.7              0.401616036      62.7573134       0.890846425      -23.6293103      0.890846425      -23.6293103      0.401616144      62.7573176       
4.85             0.411688798      62.0086464       0.884898182      -24.2559999      0.884898182      -24.2559999      0.411688909      62.0086506       
5                0.421555293      61.270602        0.87889006       -24.872516       0.87889006       -24.872516       0.421555408      61.2706061       
5.15             0.431216554      60.5431971       0.872829397      -25.4788441      0.872829397      -25.4788441      0.431216672      60.5432011       
5.3              0.440673904      59.8264315       0.866723249      -26.0749834      0.866723249      -26.0749834      0.440674024      59.8264353       
5.45             0.449928935      59.1202895       0.860578383      -26.6609461      0.860578383      -26.6609461      0.449929058      59.1202933       
5.6              0.458983484      58.4247415       0.854401276      -27.2367564      0.854401276      -27.2367564      0.458983611      58.4247452       
5.75             0.467839613      57.7397452       0.848198121      -27.8024497      0.848198121      -27.8024497      0.467839743      57.7397488       
5.9              0.476499581      57.0652467       0.841974822      -28.358072       0.841974822      -28.358072       0.476499714      57.0652503       
6.05             0.484965832      56.4011819       0.835737         -28.9036786      0.835737         -28.9036786      0.484965967      56.4011854       
6.2              0.493240967      55.7474772       0.829489995      -29.4393339      0.829489995      -29.4393339      0.493241105      55.7474806       
6.35             0.501327733      55.1040502       0.823238872      -29.9651106      0.823238872      -29.9651106      0.501327874      55.1040536       
6.5              0.509229002      54.4708113       0.816988424      -30.4810888      0.816988424      -30.4810888      0.509229146      54.4708146       
6.65             0.516947753      53.8476634       0.810743178      -30.9873553      0.810743178      -30.9873553      0.516947899      53.8476667       
6.8              0.524487061      53.2345037       0.804507404      -31.4840036      0.804507404      -31.4840036      0.52448721       53.2345069       
6.95             0.531850078      52.6312236       0.798285119      -31.9711325      0.798285119      -31.9711325      0.531850229      52.6312268       
7.1              0.539040022      52.0377096       0.792080096      -32.448846       0.792080096      -32.448846       0.539040176      52.0377127       
7.25             0.546060165      51.4538439       0.78589587       -32.9172527      0.78589587       -32.9172527      0.54606032       51.4538469       
7.4              0.552913817      50.8795047       0.779735746      -33.3764652      0.779735746      -33.3764652      0.552913975      50.8795076       
7.55             0.55960432       50.3145671       0.77360281       -33.8265999      0.77360281       -33.8265999      0.559604481      50.31457         
7.7              0.566135037      49.7589032       0.767499933      -34.2677761      0.767499933      -34.2677761      0.5661352        49.7589061       
7.85             0.57250934       49.2123828       0.761429782      -34.7001159      0.761429782      -34.7001159      0.572509505      49.2123856       
8                0.578730603      48.6748736       0.755394827      -35.1237438      0.755394827      -35.1237438      0.57873077       48.6748764       
8.15             0.584802196      48.1462417       0.749397352      -35.538786       0.749397352      -35.538786       0.584802365      48.1462444       
8.3              0.590727475      47.6263517       0.743439458      -35.9453707      0.743439458      -35.9453707      0.590727646      47.6263544       
8.45             0.596509779      47.1150675       0.737523077      -36.343627       0.737523077      -36.343627       0.596509951      47.1150702       
8.6              0.602152418      46.6122523       0.731649975      -36.7336851      0.731649975      -36.7336851      0.602152592      46.6122548       
8.75             0.607658678      46.1177686       0.725821765      -37.115676       0.725821765      -37.115676       0.607658854      46.1177711       
8.9              0.613031805      45.631479        0.720039911      -37.489731       0.720039911      -37.489731       0.613031983      45.6314815       
9.05             0.618275009      45.1532461       0.714305735      -37.8559815      0.714305735      -37.8559815      0.618275189      45.1532486       
9.2              0.623391459      44.6829329       0.708620429      -38.2145591      0.708620429      -38.2145591      0.62339164       44.6829353       
9.35             0.628384274      44.2204027       0.702985055      -38.565595       0.702985055      -38.565595       0.628384457      44.2204051       
9.5              0.63325653       43.7655197       0.697400562      -38.90922        0.697400562      -38.90922        0.633256714      43.765522        
9.65             0.638011248      43.3181486       0.69186778       -39.2455643      0.69186778       -39.2455643      0.638011434      43.3181509       
9.8              0.642651399      42.8781554       0.686387439      -39.5747573      0.686387439      -39.5747573      0.642651586      42.8781577       
9.95             0.647179898      42.445407        0.680960166      -39.8969277      0.680960166      -39.8969277      0.647180087      42.4454093       
10.1             0.651599606      42.0197717       0.675586495      -40.2122027      0.675586495      -40.2122027      0.651599796      42.0197739       
10.25            0.655913325      41.6011189       0.670266873      -40.520709       0.670266873      -40.520709       0.655913516      41.6011211       
10.4             0.6601238        41.1893197       0.665001664      -40.8225715      0.665001664      -40.8225715      0.660123994      41.1893218       
10.55            0.66423372       40.7842465       0.659791155      -41.1179141      0.659791155      -41.1179141      0.664233915      40.7842486       
10.7             0.668245712      40.3857734       0.65463556       -41.4068591      0.65463556       -41.4068591      0.668245908      40.3857755       
10.85            0.672162346      39.9937762       0.649535027      -41.6895273      0.649535027      -41.6895273      0.672162543      39.9937783       
11               0.675986132      39.6081322       0.644489641      -41.9660381      0.644489641      -41.9660381      0.67598633       39.6081343       
11.15            0.679719521      39.2287208       0.639499427      -42.2365091      0.639499427      -42.2365091      0.679719721      39.2287229       
11.3             0.683364907      38.8554229       0.634564356      -42.5010564      0.634564356      -42.5010564      0.683365108      38.8554249       
11.45            0.686924625      38.4881214       0.62968435       -42.7597941      0.62968435       -42.7597941      0.686924826      38.4881233       
11.6             0.69040095       38.1267009       0.624859283      -43.012835       0.624859283      -43.012835       0.690401153      38.1267029       
11.75            0.693796104      37.7710481       0.620088986      -43.2602898      0.620088986      -43.2602898      0.693796308      37.7710501       
11.9             0.69711225       37.4210516       0.615373248      -43.5022675      0.615373248      -43.5022675      0.697112455      37.4210535       
12.05            0.700351494      37.0766017       0.610711825      -43.7388753      0.610711825      -43.7388753      0.7003517        37.0766036       
12.2             0.70351589       36.7375908       0.606104435      -43.9702186      0.606104435      -43.9702186      0.703516097      36.7375926       
12.35            0.706607437      36.4039131       0.601550767      -44.1964009      0.601550767      -44.1964009      0.706607645      36.4039149       
12.5             0.709628079      36.0754649       0.597050481      -44.4175239      0.597050481      -44.4175239      0.709628288      36.0754667       
12.65            0.712579711      35.7521443       0.592603211      -44.6336876      0.592603211      -44.6336876      0.712579921      35.7521461       
12.8             0.715464174      35.4338513       0.588208567      -44.84499        0.588208567      -44.84499        0.715464385      35.4338531       
12.95            0.718283261      35.1204879       0.583866137      -45.0515274      0.583866137      -45.0515274      0.718283473      35.1204897       
13.1             0.721038714      34.8119579       0.57957549       -45.2533941      0.57957549       -45.2533941      0.721038927      34.8119597       
13.25            0.723732229      34.508167        0.575336178      -45.4506829      0.575336178      -45.4506829      0.723732442      34.5081688       
13.4             0.726365453      34.2090229       0.571147735      -45.6434845      0.571147735      -45.6434845      0.726365667      34.2090246       
13.55            0.728939988      33.9144348       0.567009683      -45.831888       0.567009683      -45.831888       0.728940204      33.9144365       
13.7             0.731457392      33.6243141       0.562921531      -46.0159807      0.562921531      -46.0159807      0.731457608      33.6243158       
13.85            0.733919178      33.3385738       0.558882776      -46.1958482      0.558882776      -46.1958482      0.733919395      33.3385755       
14               0.736326817      33.0571287       0.554892905      -46.3715744      0.554892905      -46.3715744      0.736327034      33.0571303       
14.15            0.738681737      32.7798953       0.550951398      -46.5432414      0.550951398      -46.5432414      0.738681956      32.779897        
14.3             0.740985329      32.506792        0.547057728      -46.7109298      0.547057728      -46.7109298      0.740985548      32.5067936       
14.45            0.743238941      32.2377387       0.54321136       -46.8747183      0.54321136       -46.8747183      0.743239161      32.2377403       
14.6             0.745443883      31.9726571       0.539411756      -47.0346842      0.539411756      -47.0346842      0.745444104      31.9726587       
14.75            0.747601429      31.7114705       0.535658372      -47.1909032      0.535658372      -47.1909032      0.747601651      31.7114721       
14.9             0.749712817      31.4541038       0.531950662      -47.3434493      0.531950662      -47.3434493      0.749713039      31.4541054       
15.05            0.751779247      31.2004836       0.528288077      -47.4923949      0.528288077      -47.4923949      0.75177947       31.2004852       
15.2             0.753801888      30.9505379       0.524670067      -47.6378112      0.524670067      -47.6378112      0.753802111      30.9505395       
15.35            0.755781872      30.7041964       0.521096081      -47.7797675      0.521096081      -47.7797675      0.755782096      30.7041979       
15.5             0.757720301      30.4613902       0.517565569      -47.9183319      0.517565569      -47.9183319      0.757720526      30.4613917       
15.65            0.759618245      30.2220518       0.514077978      -48.053571       0.514077978      -48.053571       0.759618471      30.2220533       
15.8             0.761476743      29.9861154       0.510632759      -48.1855499      0.510632759      -48.1855499      0.761476969      29.9861168       
15.95            0.763296803      29.7535163       0.507229364      -48.3143326      0.507229364      -48.3143326      0.76329703       29.7535178       
16.1             0.765079407      29.5241916       0.503867247      -48.4399812      0.503867247      -48.4399812      0.765079634      29.524193        
16.25            0.766825506      29.2980793       0.500545863      -48.5625571      0.500545863      -48.5625571      0.766825733      29.2980807       
16.4             0.768536025      29.0751191       0.497264672      -48.6821199      0.497264672      -48.6821199      0.768536253      29.0751205       
16.55            0.770211863      28.8552518       0.494023135      -48.7987282      0.494023135      -48.7987282      0.770212092      28.8552532       
16.7             0.771853893      28.6384196       0.490820719      -48.9124393      0.490820719      -48.9124393      0.771854122      28.638421        
16.85            0.773462961      28.4245659       0.487656893      -49.0233091      0.487656893      -49.0233091      0.773463191      28.4245672       
17               0.775039893      28.2136352       0.484531129      -49.1313925      0.484531129      -49.1313925      0.775040124      28.2136366       
17.15            0.776585489      28.0055736       0.481442908      -49.2367431      0.481442908      -49.2367431      0.77658572       28.0055749       
17.3             0.778100525      27.8003279       0.47839171       -49.3394135      0.47839171       -49.3394135      0.778100756      27.8003292       
17.45            0.779585758      27.5978463       0.475377024      -49.439455       0.475377024      -49.439455       0.779585989      27.5978477       
17.6             0.781041921      27.3980781       0.472398342      -49.536918       0.472398342      -49.536918       0.781042153      27.3980794       
17.75            0.782469727      27.2009737       0.469455162      -49.6318516      0.469455162      -49.6318516      0.78246996       27.200975        
17.9             0.783869871      27.0064845       0.466546985      -49.7243039      0.466546985      -49.7243039      0.783870104      27.0064858       
18.05            0.785243024      26.814563        0.463673322      -49.8143221      0.463673322      -49.8143221      0.785243258      26.8145643       
18.2             0.786589843      26.6251627       0.460833684      -49.9019523      0.460833684      -49.9019523      0.786590077      26.625164        
18.35            0.787910964      26.4382383       0.458027593      -49.9872397      0.458027593      -49.9872397      0.787911198      26.4382395       
18.5             0.789207004      26.253745        0.455254572      -50.0702283      0.455254572      -50.0702283      0.789207239      26.2537463       
18.65            0.790478566      26.0716395       0.452514153      -50.1509615      0.452514153      -50.1509615      0.790478801      26.0716408       
18.8             0.791726234      25.8918792       0.449805872      -50.2294815      0.449805872      -50.2294815      0.791726469      25.8918804       
18.95            0.792950575      25.7144222       0.447129272      -50.3058297      0.447129272      -50.3058297      0.792950812      25.7144235       
19.1             0.794152144      25.5392279       0.444483902      -50.3800467      0.444483902      -50.3800467      0.79415238       25.5392292       
