! Coilcraft 1812PS-474 Power Chip Inductor				
! 1 October 2002			
# MHZ S MA R 50
!Freq             MagS11           AngS11           MagS21           AngS21           MagS12           AngS12           MagS22           AngS22
0.05             0.814055188      33.3987575       0.550855565      -54.4368084      0.550855565      -54.4368084      0.814055269      33.3987583       
0.057            0.847518881      30.1882957       0.503125835      -57.8915067      0.503125835      -57.8915067      0.847518965      30.1882964       
0.064            0.873201508      27.4834255       0.461702508      -60.7860694      0.461702508      -60.7860694      0.873201595      27.4834262       
0.071            0.893197049      25.1862098       0.425723135      -63.2346067      0.425723135      -63.2346067      0.893197138      25.1862104       
0.078            0.908987422      23.2186173       0.394367796      -65.3255154      0.394367796      -65.3255154      0.908987513      23.2186178       
0.085            0.921626887      21.5192134       0.366915549      -67.1271788      0.366915549      -67.1271788      0.921626979      21.519214        
0.092            0.931872888      20.0397116       0.342755188      -68.6927152      0.342755188      -68.6927152      0.931872981      20.039712        
0.099            0.940276209      18.742025        0.32137743       -70.0636737      0.32137743       -70.0636737      0.940276303      18.7420254       
0.106            0.947242557      17.5959265       0.302361012      -71.2728279      0.302361012      -71.2728279      0.947242651      17.5959269       
0.113            0.953074672      16.5772466       0.285358099      -72.346261       0.285358099      -72.346261       0.953074767      16.577247        
0.12             0.95800134       15.6665043       0.270081082      -73.3049198      0.270081082      -73.3049198      0.958001436      15.6665047       
0.127            0.962197565      14.8478696       0.256291374      -74.1657757      0.256291374      -74.1657757      0.962197661      14.84787         
0.134            0.965798752      14.1083768       0.243790209      -74.9426969      0.243790209      -74.9426969      0.965798849      14.1083772       
0.141            0.968910811      13.4373238       0.232411183      -75.6471074      0.232411183      -75.6471074      0.968910908      13.4373241       
0.148            0.971617419      12.8258118       0.222014275      -76.2884909      0.222014275      -76.2884909      0.971617516      12.8258121       
0.155            0.973985319      12.2663898       0.212481048      -76.8747772      0.212481048      -76.8747772      0.973985416      12.2663901       
0.162            0.97606822       11.7527778       0.2037108        -77.4126417      0.2037108        -77.4126417      0.976068317      11.7527781       
0.169            0.977909702      11.2796495       0.195617481      -77.9077402      0.195617481      -77.9077402      0.977909799      11.2796498       
0.176            0.979545399      10.8424609       0.188127196      -78.3648934      0.188127196      -78.3648934      0.979545497      10.8424612       
0.183            0.981004663      10.4373143       0.181176192      -78.7882331      0.181176192      -78.7882331      0.981004761      10.4373146       
0.19             0.982311833      10.0608487       0.174709213      -79.1813196      0.174709213      -79.1813196      0.982311931      10.0608489       
0.197            0.983487223      9.71015145       0.168678165      -79.5472362      0.168678165      -79.5472362      0.983487321      9.71015171       
0.204            0.984547885      9.38268734       0.163041011      -79.8886651      0.163041011      -79.8886651      0.984547983      9.38268759       
0.211            0.985508219      9.07623961       0.157760866      -80.2079505      0.157760866      -80.2079505      0.985508318      9.07623985       
0.218            0.986380446      8.78886215       0.152805243      -80.5071492      0.152805243      -80.5071492      0.986380545      8.78886239       
0.225            0.987174991      8.51883978       0.148145426      -80.7880733      0.148145426      -80.7880733      0.987175089      8.51884002       
0.232            0.987900788      8.2646553        0.143755948      -81.0523251      0.143755948      -81.0523251      0.987900887      8.26465554       
0.239            0.988565529      8.02496194       0.139614149      -81.301326       0.139614149      -81.301326       0.988565628      8.02496218       
0.246            0.989175865      7.7985603        0.135699802      -81.536342       0.135699802      -81.536342       0.989175964      7.79856052       
0.253            0.989737565      7.58437882       0.131994802      -81.7585032      0.131994802      -81.7585032      0.989737664      7.58437905       
0.26             0.99025566       7.3814574        0.128482899      -81.9688222      0.128482899      -81.9688222      0.990255759      7.38145762       
0.267            0.990734546      7.18893328       0.125149464      -82.1682086      0.125149464      -82.1682086      0.990734645      7.1889335        
0.274            0.991178082      7.00602912       0.121981297      -82.3574816      0.121981297      -82.3574816      0.991178181      7.00602934       
0.281            0.991589662      6.83204278       0.118966456      -82.537381       0.118966456      -82.537381       0.991589761      6.83204299       
0.288            0.991972287      6.66633842       0.116094117      -82.7085765      0.116094117      -82.7085765      0.991972386      6.66633863       
0.295            0.992328611      6.50833896       0.11335444       -82.8716759      0.11335444       -82.8716759      0.99232871       6.50833917       
0.302            0.992660994      6.35751945       0.110738466      -83.0272319      0.110738466      -83.0272319      0.992661093      6.35751966       
0.309            0.992971535      6.21340134       0.108238019      -83.1757482      0.108238019      -83.1757482      0.992971635      6.21340155       
0.316            0.993262111      6.0755475        0.105845623      -83.3176847      0.105845623      -83.3176847      0.993262211      6.07554771       
0.323            0.9935344        5.94355784       0.103554429      -83.4534623      0.103554429      -83.4534623      0.993534499      5.94355805       
0.33             0.993789908      5.81706552       0.101358152      -83.5834671      0.101358152      -83.5834671      0.993790007      5.81706572       
0.337            0.994029988      5.69573351       0.0992510138     -83.7080532      0.0992510138     -83.7080532      0.994030087      5.69573372       
0.344            0.994255862      5.5792517        0.0972276937     -83.8275468      0.0972276937     -83.8275468      0.994255961      5.57925191       
0.351            0.994468631      5.46733426       0.0952832834     -83.9422483      0.0952832834     -83.9422483      0.99446873       5.46733447       
0.358            0.994669292      5.35971729       0.0934132487     -84.0524351      0.0934132487     -84.0524351      0.994669392      5.3597175        
0.365            0.994858751      5.25615679       0.0916133946     -84.1583635      0.0916133946     -84.1583635      0.99485885       5.25615699       
0.372            0.995037827      5.15642681       0.0898798343     -84.2602707      0.0898798343     -84.2602707      0.995037926      5.15642701       
0.379            0.995207269      5.06031784       0.0882089615     -84.3583769      0.0882089615     -84.3583769      0.995207368      5.06031804       
0.386            0.995367757      4.96763531       0.0865974256     -84.4528864      0.0865974256     -84.4528864      0.995367857      4.96763551       
0.393            0.995519914      4.87819831       0.0850421099     -84.5439889      0.0850421099     -84.5439889      0.995520014      4.87819852       
0.4              0.995664309      4.79183844       0.083540111      -84.6318613      0.083540111      -84.6318613      0.995664409      4.79183864       
0.407            0.995801463      4.70839867       0.0820887214     -84.7166683      0.0820887214     -84.7166683      0.995801562      4.70839887       
0.414            0.995931853      4.62773248       0.0806854133     -84.7985636      0.0806854133     -84.7985636      0.995931953      4.62773268       
0.421            0.996055919      4.54970297       0.0793278238     -84.8776908      0.0793278238     -84.8776908      0.996056019      4.54970317       
0.428            0.996174066      4.47418206       0.0780137416     -84.9541841      0.0780137416     -84.9541841      0.996174165      4.47418227       
0.435            0.996286664      4.40104985       0.0767410956     -85.0281693      0.0767410956     -85.0281693      0.996286764      4.40105005       
0.442            0.996394059      4.3301939        0.0755079434     -85.0997641      0.0755079434     -85.0997641      0.996394158      4.3301941        
0.449            0.996496566      4.26150873       0.0743124619     -85.169079       0.0743124619     -85.169079       0.996496666      4.26150893       
0.456            0.996594479      4.19489526       0.0731529382     -85.2362179      0.0731529382     -85.2362179      0.996594579      4.19489546       
0.463            0.99668807       4.13026033       0.0720277611     -85.3012783      0.0720277611     -85.3012783      0.99668817       4.13026054       
0.47             0.996777591      4.06751629       0.0709354144     -85.364352       0.0709354144     -85.364352       0.99677769       4.06751649       
0.477            0.996863274      4.00658055       0.0698744694     -85.4255253      0.0698744694     -85.4255253      0.996863374      4.00658076       
0.484            0.996945338      3.94737529       0.0688435787     -85.4848797      0.0688435787     -85.4848797      0.996945438      3.9473755        
0.491            0.997023984      3.88982706       0.0678414709     -85.542492       0.0678414709     -85.542492       0.997024084      3.88982726       
0.498            0.9970994        3.8338665        0.0668669452     -85.5984348      0.0668669452     -85.5984348      0.9970995        3.8338667        
0.505            0.997171761      3.77942807       0.0659188663     -85.6527765      0.0659188663     -85.6527765      0.997171861      3.77942828       
0.512            0.997241231      3.72644978       0.0649961604     -85.705582       0.0649961604     -85.705582       0.997241331      3.72644999       
0.519            0.997307962      3.67487296       0.0640978108     -85.7569124      0.0640978108     -85.7569124      0.997308062      3.67487317       
0.526            0.997372097      3.62464203       0.0632228543     -85.806826       0.0632228543     -85.806826       0.997372196      3.62464224       
0.533            0.997433769      3.5757043        0.0623703779     -85.8553776      0.0623703779     -85.8553776      0.997433868      3.57570451       
0.54             0.997493103      3.52800981       0.061539515      -85.9026194      0.061539515      -85.9026194      0.997493203      3.52801002       
0.547            0.997550216      3.48151113       0.0607294433     -85.9486009      0.0607294433     -85.9486009      0.997550316      3.48151134       
0.554            0.997605218      3.43616319       0.0599393813     -85.9933691      0.0599393813     -85.9933691      0.997605318      3.4361634        
0.561            0.997658213      3.39192318       0.0591685863     -86.0369686      0.0591685863     -86.0369686      0.997658312      3.39192339       
0.568            0.997709296      3.34875037       0.0584163518     -86.0794419      0.0584163518     -86.0794419      0.997709395      3.34875059       
0.575            0.997758559      3.306606         0.0576820053     -86.1208293      0.0576820053     -86.1208293      0.997758658      3.30660622       
0.582            0.997806087      3.26545318       0.0569649063     -86.1611692      0.0569649063     -86.1611692      0.997806187      3.26545339       
0.589            0.997851962      3.22525673       0.0562644446     -86.2004983      0.0562644446     -86.2004983      0.997852061      3.22525694       
0.596            0.997896258      3.18598313       0.0555800382     -86.2388514      0.0555800382     -86.2388514      0.997896358      3.18598335       
0.603            0.997939049      3.14760041       0.0549111322     -86.2762617      0.0549111322     -86.2762617      0.997939148      3.14760063       
0.61             0.9979804        3.11007806       0.0542571967     -86.3127611      0.0542571967     -86.3127611      0.9979805        3.11007828       
0.617            0.998020377      3.07338693       0.0536177256     -86.3483797      0.0536177256     -86.3483797      0.998020477      3.07338715       
0.624            0.998059039      3.03749919       0.0529922354     -86.3831464      0.0529922354     -86.3831464      0.998059139      3.03749941       
0.631            0.998096443      3.00238822       0.0523802641     -86.417089       0.0523802641     -86.417089       0.998096543      3.00238844       
0.638            0.998132644      2.96802857       0.0517813693     -86.4502337      0.0517813693     -86.4502337      0.998132744      2.9680288        
0.645            0.998167692      2.93439589       0.0511951282     -86.4826058      0.0511951282     -86.4826058      0.998167792      2.93439612       
0.652            0.998201635      2.90146687       0.0506211357     -86.5142295      0.0506211357     -86.5142295      0.998201735      2.9014671        
0.659            0.99823452       2.86921919       0.0500590038     -86.5451279      0.0500590038     -86.5451279      0.99823462       2.86921942       
0.666            0.99826639       2.83763144       0.0495083608     -86.5753232      0.0495083608     -86.5753232      0.99826649       2.83763167       
0.673            0.998297287      2.80668313       0.0489688503     -86.6048365      0.0489688503     -86.6048365      0.998297386      2.80668336       
0.68             0.998327248      2.77635458       0.0484401304     -86.6336881      0.0484401304     -86.6336881      0.998327348      2.77635481       
0.687            0.998356312      2.74662692       0.0479218732     -86.6618977      0.0479218732     -86.6618977      0.998356411      2.74662716       
0.694            0.998384513      2.71748205       0.0474137638     -86.6894838      0.0474137638     -86.6894838      0.998384613      2.71748229       
0.701            0.998411886      2.68890257       0.0469154998     -86.7164644      0.0469154998     -86.7164644      0.998411986      2.68890281       
0.708            0.998438462      2.66087178       0.0464267908     -86.7428567      0.0464267908     -86.7428567      0.998438562      2.66087202       
0.715            0.998464271      2.63337362       0.0459473576     -86.7686773      0.0459473576     -86.7686773      0.998464371      2.63337385       
0.722            0.998489344      2.60639265       0.0454769317     -86.793942       0.0454769317     -86.793942       0.998489443      2.60639288       
0.729            0.998513706      2.57991402       0.045015255      -86.8186662      0.045015255      -86.8186662      0.998513806      2.57991426       
0.736            0.998537385      2.55392346       0.0445620791     -86.8428645      0.0445620791     -86.8428645      0.998537485      2.5539237        
0.743            0.998560405      2.52840722       0.0441171649     -86.866551       0.0441171649     -86.866551       0.998560505      2.52840746       
0.75             0.998582791      2.50335205       0.0436802821     -86.8897393      0.0436802821     -86.8897393      0.998582891      2.5033523        
0.757            0.998604565      2.47874522       0.0432512089     -86.9124425      0.0432512089     -86.9124425      0.998604665      2.47874547       
0.764            0.998625749      2.45457444       0.0428297318     -86.9346731      0.0428297318     -86.9346731      0.998625849      2.45457469       
0.771            0.998646365      2.43082787       0.0424156446     -86.9564432      0.0424156446     -86.9564432      0.998646464      2.43082811       
0.778            0.99866643       2.40749409       0.0420087489     -86.9777646      0.0420087489     -86.9777646      0.99866653       2.40749434       
0.785            0.998685966      2.38456209       0.0416088531     -86.9986485      0.0416088531     -86.9986485      0.998686066      2.38456234       
0.792            0.99870499       2.36202127       0.0412157724     -87.0191057      0.0412157724     -87.0191057      0.99870509       2.36202152       
0.799            0.998723519      2.33986135       0.0408293283     -87.0391466      0.0408293283     -87.0391466      0.998723619      2.33986161       
0.806            0.998741571      2.31807246       0.0404493488     -87.0587814      0.0404493488     -87.0587814      0.99874167       2.31807272       
0.813            0.99875916       2.29664503       0.0400756675     -87.0780196      0.0400756675     -87.0780196      0.99875926       2.29664529       
0.82             0.998776303      2.27556984       0.0397081237     -87.0968708      0.0397081237     -87.0968708      0.998776403      2.27557009       
0.827            0.998793013      2.25483795       0.0393465622     -87.115344       0.0393465622     -87.115344       0.998793113      2.25483821       
0.834            0.998809306      2.23444076       0.038990833      -87.1334478      0.038990833      -87.1334478      0.998809406      2.23444102       
0.841            0.998825195      2.21436993       0.038640791      -87.1511908      0.038640791      -87.1511908      0.998825294      2.21437019       
0.848            0.998840691      2.1946174        0.0382962959     -87.1685811      0.0382962959     -87.1685811      0.998840791      2.19461766       
0.855            0.998855809      2.17517537       0.0379572119     -87.1856264      0.0379572119     -87.1856264      0.998855909      2.17517563       
0.862            0.998870559      2.15603629       0.0376234077     -87.2023346      0.0376234077     -87.2023346      0.998870659      2.15603655       
0.869            0.998884954      2.13719287       0.0372947562     -87.2187128      0.0372947562     -87.2187128      0.998885054      2.13719313       
0.876            0.998899004      2.11863803       0.0369711342     -87.2347682      0.0369711342     -87.2347682      0.998899104      2.11863829       
0.883            0.998912719      2.10036492       0.0366524226     -87.2505077      0.0366524226     -87.2505077      0.998912819      2.10036519       
0.89             0.99892611       2.08236693       0.036338506      -87.2659378      0.036338506      -87.2659378      0.99892621       2.0823672        
0.897            0.998939187      2.06463761       0.0360292724     -87.2810651      0.0360292724     -87.2810651      0.998939287      2.06463789       
0.904            0.998951959      2.04717075       0.0357246134     -87.2958958      0.0357246134     -87.2958958      0.998952059      2.04717103       
0.911            0.998964435      2.02996031       0.035424424      -87.3104358      0.035424424      -87.3104358      0.998964535      2.02996059       
0.918            0.998976624      2.01300044       0.0351286021     -87.3246909      0.0351286021     -87.3246909      0.998976724      2.01300071       
0.925            0.998988534      1.99628545       0.034837049      -87.3386669      0.034837049      -87.3386669      0.998988634      1.99628573       
0.932            0.999000173      1.97980986       0.0345496688     -87.3523692      0.0345496688     -87.3523692      0.999000272      1.97981014       
0.939            0.999011548      1.9635683        0.0342663685     -87.365803       0.0342663685     -87.365803       0.999011648      1.96356858       
