! Coilcraft 1812PS-332 Power Chip Inductor				
! 1 October 2002			
# MHZ S MA R 50
!Freq             MagS11           AngS11           MagS21           AngS21           MagS12           AngS12           MagS22           AngS22
0.05             0.0104253539     82.7206582       0.998732426      -0.593277066     0.998732426      -0.593277066     0.0104253549     82.7206615       
0.175            0.0362523463     85.8806953       0.998050935      -2.07624084      0.998050935      -2.07624084      0.0362523501     85.8806982       
0.3              0.0620803481     85.1286379       0.996649429      -3.55829556      0.996649429      -3.55829556      0.0620803555     85.1286419       
0.425            0.0878306526     83.9053285       0.994516813      -5.03796029      0.994516813      -5.03796029      0.0878306646     83.9053334       
0.55             0.113442244      82.5258276       0.991643026      -6.51286493      0.991643026      -6.51286493      0.113442261      82.525833        
0.675            0.138847858      81.076114        0.988029182      -7.98009435      0.988029182      -7.98009435      0.138847882      81.0761198       
0.8              0.163979592      79.5927469       0.983689629      -9.43659766      0.983689629      -9.43659766      0.163979623      79.5927528       
0.925            0.188773724      78.0957015       0.978649922      -10.8794697      0.978649922      -10.8794697      0.188773762      78.0957074       
1.05             0.213173099      76.5974805       0.972943693      -12.3060834      0.972943693      -12.3060834      0.213173145      76.5974863       
1.175            0.237127793      75.1065003       0.966609882      -13.7141232      0.966609882      -13.7141232      0.237127847      75.106506        
1.3              0.260594941      73.6286788       0.959690699      -15.1015734      0.959690699      -15.1015734      0.260595002      73.6286842       
1.425            0.283538259      72.1683057       0.952230234      -16.4666905      0.952230234      -16.4666905      0.283538329      72.168311        
1.55             0.305927542      70.7285644       0.944273489      -17.8079755      0.944273489      -17.8079755      0.305927619      70.7285694       
1.675            0.327738176      69.3118588       0.935865686      -19.1241507      0.935865686      -19.1241507      0.32773826       69.3118636       
1.8              0.348950716      67.9200243       0.927051734      -20.4141393      0.927051734      -20.4141393      0.348950807      67.9200289       
1.925            0.369550484      66.554467        0.917875795      -21.6770504      0.917875795      -21.6770504      0.369550582      66.5544715       
2.05             0.389527202      65.2162577       0.908380925      -22.9121643      0.908380925      -22.9121643      0.389527306      65.216262        
2.175            0.408874623      63.906197        0.898608779      -24.1189206      0.898608779      -24.1189206      0.408874734      63.906201        
2.3              0.427590172      62.6248619       0.888599356      -25.2969062      0.888599356      -25.2969062      0.427590289      62.6248658       
2.425            0.445674594      61.3726416       0.8783908        -26.4458439      0.8783908        -26.4458439      0.445674717      61.3726453       
2.55             0.463131599      60.1497637       0.868019245      -27.5655814      0.868019245      -27.5655814      0.463131728      60.1497673       
2.675            0.479967523      58.9563168       0.857518704      -28.6560804      0.857518704      -28.6560804      0.479967658      58.9563202       
2.8              0.496190995      57.7922684       0.846920994      -29.7174057      0.846920994      -29.7174057      0.496191135      57.7922718       
2.925            0.51181262       56.657481        0.836255702      -30.7497146      0.836255702      -30.7497146      0.511812765      56.6574843       
3.05             0.526844678      55.5517257       0.825550177      -31.7532476      0.825550177      -31.7532476      0.526844828      55.5517288       
3.175            0.541300847      54.4746945       0.814829558      -32.7283174      0.814829558      -32.7283174      0.541301001      54.4746975       
3.3              0.555195938      53.4260114       0.804116817      -33.6753009      0.804116817      -33.6753009      0.555196098      53.4260143       
3.425            0.568545664      52.4052425       0.793432827      -34.5946299      0.793432827      -34.5946299      0.568545828      52.4052453       
3.55             0.581366418      51.4119051       0.782796442      -35.4867829      0.782796442      -35.4867829      0.581366586      51.4119078       
3.675            0.593675084      50.4454756       0.772224592      -36.352278       0.772224592      -36.352278       0.593675256      50.4454783       
3.8              0.605488863      49.5053975       0.761732383      -37.1916656      0.761732383      -37.1916656      0.605489039      49.5054          
3.925            0.616825124      48.5910872       0.751333203      -38.0055223      0.751333203      -38.0055223      0.616825303      48.5910897       
4.05             0.627701272      47.7019408       0.741038836      -38.794445       0.741038836      -38.794445       0.627701454      47.7019432       
4.175            0.638134631      46.837339        0.730859569      -39.559046       0.730859569      -39.559046       0.638134817      46.8373413       
4.3              0.648142356      45.9966519       0.720804305      -40.2999482      0.720804305      -40.2999482      0.648142546      45.9966542       
4.425            0.657741344      45.1792434       0.710880669      -41.0177808      0.710880669      -41.0177808      0.657741536      45.1792456       
4.55             0.666948169      44.3844744       0.701095116      -41.7131763      0.701095116      -41.7131763      0.666948365      44.3844766       
4.675            0.675779031      43.6117064       0.691453029      -42.3867666      0.691453029      -42.3867666      0.675779229      43.6117086       
4.8              0.684249706      42.8603043       0.681958814      -43.0391809      0.681958814      -43.0391809      0.684249907      42.8603064       
4.925            0.69237552       42.1296384       0.672615996      -43.671043       0.672615996      -43.671043       0.692375723      42.1296404       
5.05             0.700171316      41.4190868       0.663427299      -44.2829691      0.663427299      -44.2829691      0.700171522      41.4190888       
5.175            0.707651441      40.7280368       0.654394729      -44.8755667      0.654394729      -44.8755667      0.707651649      40.7280388       
5.3              0.714829734      40.0558868       0.645519647      -45.4494324      0.645519647      -45.4494324      0.714829944      40.0558886       
5.425            0.721719519      39.4020466       0.63680284       -46.0051514      0.63680284       -46.0051514      0.721719731      39.4020485       
5.55             0.728333603      38.7659395       0.628244581      -46.5432962      0.628244581      -46.5432962      0.728333818      38.7659413       
5.675            0.734684282      38.1470021       0.619844691      -47.0644258      0.619844691      -47.0644258      0.734684499      38.1470038       
5.8              0.740783343      37.5446851       0.611602589      -47.5690855      0.611602589      -47.5690855      0.740783562      37.5446868       
5.925            0.746642074      36.958454        0.603517346      -48.0578059      0.603517346      -48.0578059      0.746642295      36.9584557       
6.05             0.752271275      36.3877891       0.595587724      -48.5311032      0.595587724      -48.5311032      0.752271498      36.3877908       
6.175            0.75768127       35.8321859       0.587812219      -48.9894786      0.587812219      -48.9894786      0.757681494      35.8321876       
6.3              0.762881919      35.2911548       0.5801891        -49.4334183      0.5801891        -49.4334183      0.762882145      35.2911564       
6.425            0.767882636      34.7642214       0.572716435      -49.8633939      0.572716435      -49.8633939      0.767882864      34.7642229       
6.55             0.772692402      34.2509262       0.56539213       -50.2798618      0.56539213       -50.2798618      0.772692631      34.2509277       
6.675            0.777319779      33.7508246       0.558213948      -50.6832639      0.558213948      -50.6832639      0.777320009      33.7508261       
6.8              0.781772929      33.2634867       0.551179537      -51.0740278      0.551179537      -51.0740278      0.781773161      33.2634882       
6.925            0.786059629      32.788497        0.544286451      -51.4525664      0.544286451      -51.4525664      0.786059863      32.7884984       
7.05             0.790187288      32.3254538       0.537532167      -51.8192791      0.537532167      -51.8192791      0.790187523      32.3254553       
7.175            0.794162959      31.8739696       0.530914105      -52.1745514      0.530914105      -52.1745514      0.794163195      31.873971        
7.3              0.797993359      31.4336701       0.524429643      -52.5187554      0.524429643      -52.5187554      0.797993596      31.4336715       
7.425            0.801684883      31.0041941       0.518076126      -52.8522505      0.518076126      -52.8522505      0.801685121      31.0041954       
7.55             0.805243617      30.5851932       0.511850883      -53.1753831      0.511850883      -53.1753831      0.805243856      30.5851945       
7.675            0.808675353      30.1763313       0.505751235      -53.4884877      0.505751235      -53.4884877      0.808675594      30.1763327       
7.8              0.811985606      29.7772845       0.499774505      -53.7918866      0.499774505      -53.7918866      0.811985848      29.7772858       
7.925            0.815179624      29.3877403       0.493918024      -54.0858906      0.493918024      -54.0858906      0.815179867      29.3877416       
8.05             0.818262401      29.0073975       0.48817914       -54.3707996      0.48817914       -54.3707996      0.818262645      29.0073988       
8.175            0.821238692      28.6359658       0.482555224      -54.6469025      0.482555224      -54.6469025      0.821238936      28.6359671       
8.3              0.824113021      28.2731653       0.477043673      -54.9144778      0.477043673      -54.9144778      0.824113266      28.2731665       
8.425            0.826889698      27.9187263       0.471641916      -55.173794       0.471641916      -55.173794       0.826889944      27.9187275       
8.55             0.829572824      27.5723889       0.466347419      -55.4251098      0.466347419      -55.4251098      0.829573071      27.5723901       
8.675            0.832166304      27.2339025       0.461157686      -55.6686747      0.461157686      -55.6686747      0.832166552      27.2339036       
8.8              0.834673859      26.9030256       0.45607026       -55.9047291      0.45607026       -55.9047291      0.834674108      26.9030268       
8.925            0.837099032      26.5795255       0.451082731      -56.1335048      0.451082731      -56.1335048      0.837099281      26.5795267       
9.05             0.839445197      26.263178        0.446192731      -56.3552251      0.446192731      -56.3552251      0.839445447      26.2631791       
9.175            0.84171557       25.9537666       0.441397942      -56.5701053      0.441397942      -56.5701053      0.841715821      25.9537677       
9.3              0.843913218      25.6510831       0.436696089      -56.7783531      0.436696089      -56.7783531      0.843913469      25.6510842       
9.425            0.84604106       25.3549263       0.432084948      -56.9801686      0.432084948      -56.9801686      0.846041312      25.3549274       
9.55             0.848101883      25.0651026       0.427562344      -57.1757449      0.427562344      -57.1757449      0.848102136      25.0651037       
9.675            0.850098343      24.7814251       0.423126149      -57.3652681      0.423126149      -57.3652681      0.850098597      24.7814262       
9.8              0.852032973      24.5037136       0.418774286      -57.5489176      0.418774286      -57.5489176      0.852033227      24.5037146       
9.925            0.853908191      24.2317943       0.414504726      -57.7268667      0.414504726      -57.7268667      0.853908446      24.2317953       
10.05            0.855726303      23.9654995       0.410315488      -57.8992825      0.410315488      -57.8992825      0.855726558      23.9655005       
10.175           0.857489511      23.7046675       0.40620464       -58.066326       0.40620464       -58.066326       0.857489767      23.7046685       
10.3             0.859199917      23.4491422       0.402170299      -58.2281528      0.402170299      -58.2281528      0.859200174      23.4491432       
10.425           0.86085953       23.1987731       0.398210626      -58.384913       0.398210626      -58.384913       0.860859787      23.198774        
10.55            0.862470265      22.9534146       0.394323831      -58.5367515      0.394323831      -58.5367515      0.862470523      22.9534156       
10.675           0.864033956      22.7129265       0.390508169      -58.6838082      0.390508169      -58.6838082      0.864034214      22.7129275       
10.8             0.865552354      22.4771733       0.386761941      -58.8262182      0.386761941      -58.8262182      0.865552613      22.4771742       
10.925           0.867027134      22.2460241       0.383083492      -58.9641119      0.383083492      -58.9641119      0.867027392      22.246025        
11.05            0.868459894      22.0193526       0.379471209      -59.0976153      0.379471209      -59.0976153      0.868460154      22.0193535       
11.175           0.869852168      21.7970366       0.375923521      -59.2268501      0.375923521      -59.2268501      0.869852428      21.7970375       
11.3             0.871205419      21.5789582       0.372438903      -59.351934       0.372438903      -59.351934       0.871205679      21.5789591       
11.425           0.87252105       21.3650035       0.369015865      -59.4729806      0.369015865      -59.4729806      0.87252131       21.3650044       
11.55            0.873800402      21.1550622       0.36565296       -59.5900997      0.36565296       -59.5900997      0.873800663      21.1550631       
11.675           0.87504476       20.9490279       0.362348779      -59.7033977      0.362348779      -59.7033977      0.875045021      20.9490288       
11.8             0.876255355      20.7467977       0.359101952      -59.8129772      0.359101952      -59.8129772      0.876255617      20.7467985       
11.925           0.877433366      20.5482718       0.355911143      -59.9189375      0.355911143      -59.9189375      0.877433628      20.5482727       
12.05            0.878579922      20.3533541       0.352775053      -60.0213747      0.352775053      -60.0213747      0.878580185      20.353355        
12.175           0.879696107      20.1619514       0.349692421      -60.1203818      0.349692421      -60.1203818      0.87969637       20.1619522       
12.3             0.880782958      19.9739734       0.346662017      -60.2160488      0.346662017      -60.2160488      0.880783221      19.9739743       
12.425           0.88184147       19.7893331       0.343682643      -60.3084626      0.343682643      -60.3084626      0.881841734      19.7893339       
12.55            0.8828726        19.6079459       0.340753138      -60.3977076      0.340753138      -60.3977076      0.882872864      19.6079467       
12.675           0.883877264      19.4297301       0.337872367      -60.4838654      0.337872367      -60.4838654      0.883877528      19.4297309       
12.8             0.88485634       19.2546065       0.33503923       -60.5670149      0.33503923       -60.5670149      0.884856604      19.2546073       
12.925           0.885810673      19.0824985       0.332252654      -60.6472328      0.332252654      -60.6472328      0.885810938      19.0824993       
13.05            0.886741075      18.9133318       0.329511595      -60.7245931      0.329511595      -60.7245931      0.88674134       18.9133326       
13.175           0.887648324      18.7470345       0.326815039      -60.7991677      0.326815039      -60.7991677      0.887648589      18.7470353       
13.3             0.888533168      18.5835369       0.324161997      -60.8710263      0.324161997      -60.8710263      0.888533433      18.5835377       
13.425           0.889396326      18.4227714       0.321551507      -60.9402362      0.321551507      -60.9402362      0.889396592      18.4227721       
13.55            0.890238489      18.2646725       0.318982634      -61.006863       0.318982634      -61.006863       0.890238756      18.2646732       
13.675           0.891060323      18.1091767       0.316454467      -61.07097        0.316454467      -61.07097        0.89106059       18.1091774       
13.8             0.891862466      17.9562224       0.313966118      -61.1326188      0.313966118      -61.1326188      0.891862733      17.9562232       
13.925           0.892645532      17.80575         0.311516725      -61.191869       0.311516725      -61.191869       0.892645799      17.8057507       
14.05            0.893410115      17.6577014       0.309105448      -61.2487787      0.309105448      -61.2487787      0.893410382      17.6577022       
14.175           0.894156781      17.5120205       0.306731467      -61.3034038      0.306731467      -61.3034038      0.894157049      17.5120213       
14.3             0.894886081      17.3686528       0.304393986      -61.355799       0.304393986      -61.355799       0.894886349      17.3686535       
14.425           0.895598542      17.2275452       0.302092231      -61.4060173      0.302092231      -61.4060173      0.89559881       17.227546        
14.55            0.896294671      17.0886465       0.299825444      -61.4541099      0.299825444      -61.4541099      0.89629494       17.0886472       
14.675           0.896974959      16.9519066       0.29759289       -61.5001267      0.29759289       -61.5001267      0.896975228      16.9519073       
14.8             0.897639878      16.8172772       0.295393854      -61.5441164      0.295393854      -61.5441164      0.897640146      16.8172779       
14.925           0.898289881      16.6847112       0.293227636      -61.5861258      0.293227636      -61.5861258      0.89829015       16.6847119       
15.05            0.898925408      16.5541628       0.291093556      -61.6262008      0.291093556      -61.6262008      0.898925677      16.5541635       
15.175           0.899546882      16.4255877       0.288990952      -61.6643858      0.288990952      -61.6643858      0.899547151      16.4255884       
15.3             0.900154708      16.2989426       0.286919179      -61.700724       0.286919179      -61.700724       0.900154978      16.2989433       
15.425           0.900749282      16.1741857       0.284877607      -61.7352575      0.284877607      -61.7352575      0.900749552      16.1741864       
15.55            0.901330983      16.0512762       0.282865622      -61.7680269      0.282865622      -61.7680269      0.901331253      16.0512768       
15.675           0.901900176      15.9301743       0.280882629      -61.7990721      0.280882629      -61.7990721      0.901900446      15.9301749       
15.8             0.902457215      15.8108416       0.278928043      -61.8284315      0.278928043      -61.8284315      0.902457485      15.8108422       
15.925           0.903002442      15.6932405       0.277001297      -61.8561429      0.277001297      -61.8561429      0.903002712      15.6932411       
