! Coilcraft 1812PS-102 Power Chip Inductor				
! 1 October 2002			
# MHZ S MA R 50
!Freq             MagS11           AngS11           MagS21           AngS21           MagS12           AngS12           MagS22           AngS22
0.05             0.00318655844    80.0041739       0.999451665      -0.179903866     0.999451665      -0.179903866     0.00318655872    80.004178        
0.798            0.0501917566     86.2891847       0.998009032      -2.87668012      0.998009032      -2.87668012      0.050191763      86.289189        
1.546            0.0972936436     83.5337199       0.993756332      -5.58268291      0.993756332      -5.58268291      0.097293661      83.5337257       
2.294            0.143842316      80.4628626       0.98642018       -8.26820581      0.98642018       -8.26820581      0.143842347      80.4628683       
3.042            0.189202315      77.3474604       0.976172234      -10.9010812      0.976172234      -10.9010812      0.189202361      77.3474657       
3.79             0.232934022      74.2814396       0.9633528        -13.4592072      0.9633528        -13.4592072      0.232934082      74.2814443       
4.538            0.27473895       71.3027188       0.948333368      -15.9273356      0.948333368      -15.9273356      0.274739024      71.302723        
5.286            0.314414289      68.4290182       0.931485372      -18.2944453      0.931485372      -18.2944453      0.314414376      68.4290219       
6.034            0.351832621      65.6697504       0.913169781      -20.5526714      0.913169781      -20.5526714      0.35183272       65.6697538       
6.782            0.38693036       63.0300389       0.893728705      -22.6968222      0.893728705      -22.6968222      0.38693047       63.0300419       
7.53             0.419697907      60.5122273       0.87347796       -24.7240407      0.87347796       -24.7240407      0.419698028      60.51223         
8.278            0.450169858      58.1165876       0.852701571      -26.6334831      0.852701571      -26.6334831      0.450169988      58.1165902       
9.026            0.478415364      55.8417664       0.831648618      -28.4259914      0.831648618      -28.4259914      0.478415503      55.8417688       
9.774            0.504529099      53.6851335       0.810532334      -30.1037711      0.810532334      -30.1037711      0.504529247      53.6851357       
10.522           0.528623228      51.6430823       0.789531018      -31.6700874      0.789531018      -31.6700874      0.528623383      51.6430844       
11.27            0.550820593      49.7112915       0.76879026       -33.1289914      0.76879026       -33.1289914      0.550820755      49.7112934       
12.018           0.571249186      47.8849496       0.748425998      -34.4850824      0.748425998      -34.4850824      0.571249355      47.8849514       
12.766           0.590037847      46.1589432       0.728527982      -35.7433077      0.728527982      -35.7433077      0.590038021      46.1589449       
13.514           0.607313044      44.5280104       0.70916335       -36.9088006      0.70916335       -36.9088006      0.607313224      44.528012        
14.262           0.623196602      42.9868621       0.690380084      -37.9867509      0.690380084      -37.9867509      0.623196786      42.9868637       
15.01            0.637804176      41.530275        0.672210225      -38.982306       0.672210225      -38.982306       0.637804366      41.5302765       
15.758           0.651244335      40.1531607       0.654672748      -39.9004972      0.654672748      -39.9004972      0.651244529      40.1531621       
16.506           0.663618092      38.850615        0.637776097      -40.7461867      0.637776097      -40.7461867      0.66361829       38.8506163       
17.254           0.675018781      37.617951        0.621520353      -41.5240315      0.621520353      -41.5240315      0.675018982      37.6179523       
18.002           0.685532169      36.4507194       0.605899072      -42.238461       0.605899072      -42.238461       0.685532373      36.4507206       
18.75            0.695236734      35.3447189       0.590900814      -42.8936644      0.590900814      -42.8936644      0.695236941      35.3447201       
19.498           0.704204046      34.2959993       0.576510413      -43.4935864      0.576510413      -43.4935864      0.704204256      34.2960004       
20.246           0.712499215      33.3008589       0.562709998      -44.0419283      0.562709998      -44.0419283      0.712499428      33.30086         
20.994           0.72018136       32.3558383       0.549479828      -44.5421536      0.549479828      -44.5421536      0.720181575      32.3558393       
21.742           0.72730409       31.4577109       0.536798955      -44.9974963      0.536798955      -44.9974963      0.727304307      31.4577119       
22.49            0.733915974      30.6034722       0.524645749      -45.4109711      0.524645749      -45.4109711      0.733916193      30.6034732       
23.238           0.740060993      29.7903278       0.512998305      -45.7853851      0.512998305      -45.7853851      0.740061214      29.7903287       
23.986           0.745778962      29.0156805       0.501834763      -46.1233493      0.501834763      -46.1233493      0.745779184      29.0156815       
24.734           0.751105926      28.2771185       0.491133547      -46.4272916      0.491133547      -46.4272916      0.751106151      28.2771194       
25.482           0.756074528      27.5724019       0.480873547      -46.6994683      0.480873547      -46.6994683      0.756074754      27.5724028       
26.23            0.760714338      26.8994517       0.471034246      -46.9419759      0.471034246      -46.9419759      0.760714565      26.8994525       
26.978           0.765052157      26.2563374       0.461595813      -47.1567628      0.461595813      -47.1567628      0.765052385      26.2563382       
27.726           0.769112295      25.6412666       0.452539168      -47.3456398      0.452539168      -47.3456398      0.769112525      25.6412674       
28.474           0.77291682       25.0525743       0.443846011      -47.5102904      0.443846011      -47.5102904      0.772917051      25.0525751       
29.222           0.776485776      24.4887136       0.435498847      -47.6522801      0.435498847      -47.6522801      0.776486009      24.4887143       
29.97            0.779837393      23.9482463       0.427480989      -47.7730654      0.427480989      -47.7730654      0.779837626      23.948247        
30.718           0.782988258      23.4298348       0.419776546      -47.874002       0.419776546      -47.874002       0.782988492      23.4298355       
31.466           0.785953487      22.9322343       0.412370414      -47.9563527      0.412370414      -47.9563527      0.785953722      22.932235        
32.214           0.788746863      22.4542855       0.405248251      -48.0212941      0.405248251      -48.0212941      0.788747099      22.4542862       
32.962           0.79138097       21.9949085       0.398396451      -48.0699235      0.398396451      -48.0699235      0.791381207      21.9949091       
33.71            0.793867308      21.5530958       0.391802119      -48.1032646      0.391802119      -48.1032646      0.793867545      21.5530965       
34.458           0.796216397      21.1279078       0.38545304       -48.1222732      0.38545304       -48.1222732      0.796216636      21.1279084       
35.206           0.798437875      20.7184667       0.379337647      -48.1278422      0.379337647      -48.1278422      0.798438114      20.7184673       
35.954           0.800540574      20.3239524       0.373444988      -48.1208065      0.373444988      -48.1208065      0.800540814      20.323953        
36.702           0.802532605      19.943598        0.3677647        -48.1019471      0.3677647        -48.1019471      0.802532845      19.9435986       
37.45            0.804421417      19.5766858       0.362286974      -48.0719952      0.362286974      -48.0719952      0.804421658      19.5766863       
38.198           0.806213863      19.2225433       0.357002527      -48.0316356      0.357002527      -48.0316356      0.806214104      19.2225439       
38.946           0.807916253      18.8805406       0.351902573      -47.9815103      0.351902573      -47.9815103      0.807916495      18.8805412       
39.694           0.809534404      18.5500866       0.346978796      -47.9222216      0.346978796      -47.9222216      0.809534646      18.5500871       
40.442           0.81107368       18.2306265       0.342223322      -47.8543347      0.342223322      -47.8543347      0.811073923      18.230627        
41.19            0.812539039      17.9216391       0.337628695      -47.7783803      0.337628695      -47.7783803      0.812539283      17.9216397       
41.938           0.813935063      17.6226346       0.333187855      -47.6948573      0.333187855      -47.6948573      0.813935307      17.6226351       
42.686           0.815265993      17.3331519       0.328894109      -47.6042348      0.328894109      -47.6042348      0.815266237      17.3331525       
43.434           0.816535757      17.0527572       0.324741118      -47.5069541      0.324741118      -47.5069541      0.816536002      17.0527577       
44.182           0.817747999      16.7810416       0.320722868      -47.4034306      0.320722868      -47.4034306      0.817748244      16.7810421       
44.93            0.818906099      16.5176198       0.316833659      -47.2940556      0.316833659      -47.2940556      0.818906344      16.5176203       
45.678           0.820013198      16.262128        0.313068082      -47.1791978      0.313068082      -47.1791978      0.820013443      16.2621285       
46.426           0.821072217      16.014223        0.309421002      -47.059205       0.309421002      -47.059205       0.821072463      16.0142235       
47.174           0.822085874      15.7735805       0.305887544      -46.9344051      0.305887544      -46.9344051      0.82208612       15.7735809       
47.922           0.823056702      15.5398938       0.30246308       -46.8051077      0.30246308       -46.8051077      0.823056948      15.5398943       
48.67            0.82398706       15.312873        0.299143209      -46.6716049      0.299143209      -46.6716049      0.823987307      15.3128735       
49.418           0.824879152      15.0922435       0.295923749      -46.5341728      0.295923749      -46.5341728      0.824879399      15.092244        
50.166           0.825735034      14.8777453       0.292800722      -46.3930724      0.292800722      -46.3930724      0.825735281      14.8777457       
50.914           0.82655663       14.6691319       0.289770345      -46.2485502      0.289770345      -46.2485502      0.826556877      14.6691323       
51.662           0.827345737      14.4661696       0.286829014      -46.1008395      0.286829014      -46.1008395      0.827345985      14.46617         
52.41            0.82810404       14.2686366       0.283973302      -45.9501609      0.283973302      -45.9501609      0.828104288      14.2686371       
53.158           0.828833115      14.0763224       0.281199939      -45.7967233      0.281199939      -45.7967233      0.828833363      14.0763228       
53.906           0.829534442      13.8890268       0.278505813      -45.6407243      0.278505813      -45.6407243      0.82953469       13.8890272       
54.654           0.830209407      13.7065597       0.275887955      -45.4823511      0.275887955      -45.4823511      0.830209656      13.7065601       
55.402           0.830859314      13.5287403       0.273343533      -45.321781       0.273343533      -45.321781       0.830859563      13.5287407       
56.15            0.831485387      13.3553963       0.270869847      -45.159182       0.270869847      -45.159182       0.831485636      13.3553967       
56.898           0.832088776      13.1863639       0.268464316      -44.9947133      0.268464316      -44.9947133      0.832089026      13.1863643       
57.646           0.832670566      13.021487        0.266124479      -44.8285259      0.266124479      -44.8285259      0.832670815      13.0214874       
58.394           0.833231775      12.8606168       0.263847982      -44.6607628      0.263847982      -44.6607628      0.833232024      12.8606172       
59.142           0.833773364      12.7036113       0.261632578      -44.4915596      0.261632578      -44.4915596      0.833773614      12.7036117       
59.89            0.834296239      12.5503352       0.259476115      -44.3210451      0.259476115      -44.3210451      0.834296489      12.5503355       
60.638           0.834801255      12.4006591       0.257376538      -44.1493413      0.257376538      -44.1493413      0.834801505      12.4006594       
61.386           0.835289218      12.2544596       0.25533188       -43.976564       0.25533188       -43.976564       0.835289469      12.25446         
62.134           0.835760891      12.1116188       0.253340257      -43.802823       0.253340257      -43.802823       0.835761142      12.1116192       
62.882           0.836216993      11.972024        0.251399866      -43.6282225      0.251399866      -43.6282225      0.836217244      11.9720243       
63.63            0.836658206      11.8355672       0.249508979      -43.4528615      0.249508979      -43.4528615      0.836658457      11.8355675       
64.378           0.837085174      11.7021453       0.247665942      -43.2768338      0.247665942      -43.2768338      0.837085425      11.7021456       
65.126           0.837498507      11.5716595       0.245869168      -43.1002285      0.245869168      -43.1002285      0.837498758      11.5716598       
65.874           0.837898783      11.4440152       0.244117135      -42.9231302      0.244117135      -42.9231302      0.837899034      11.4440155       
66.622           0.83828655       11.3191218       0.242408383      -42.7456189      0.242408383      -42.7456189      0.838286801      11.3191221       
67.37            0.838662328      11.1968924       0.240741513      -42.567771       0.240741513      -42.567771       0.838662579      11.1968927       
68.118           0.839026609      11.0772437       0.239115179      -42.3896584      0.239115179      -42.3896584      0.83902686       11.077244        
68.866           0.839379862      10.9600959       0.237528091      -42.2113499      0.237528091      -42.2113499      0.839380113      10.9600962       
69.614           0.839722531      10.8453722       0.235979008      -42.0329104      0.235979008      -42.0329104      0.839722782      10.8453725       
70.362           0.840055038      10.732999        0.23446674       -41.8544016      0.23446674       -41.8544016      0.84005529       10.7329993       
71.11            0.840377786      10.6229057       0.232990141      -41.675882       0.232990141      -41.675882       0.840378037      10.622906        
71.858           0.840691155      10.5150243       0.23154811       -41.4974071      0.23154811       -41.4974071      0.840691407      10.5150246       
72.606           0.840995511      10.4092895       0.230139587      -41.3190295      0.230139587      -41.3190295      0.840995763      10.4092898       
73.354           0.841291198      10.3056386       0.228763554      -41.1407989      0.228763554      -41.1407989      0.84129145       10.3056389       
74.102           0.841578547      10.2040112       0.227419031      -40.9627628      0.227419031      -40.9627628      0.841578799      10.2040115       
74.85            0.841857872      10.1043492       0.226105073      -40.7849658      0.226105073      -40.7849658      0.841858124      10.1043495       
75.598           0.842129472      10.0065968       0.224820772      -40.6074503      0.224820772      -40.6074503      0.842129724      10.0065971       
76.346           0.842393634      9.91070001       0.223565252      -40.4302566      0.223565252      -40.4302566      0.842393886      9.9107003        
77.094           0.842650629      9.8166071        0.22233767       -40.2534225      0.22233767       -40.2534225      0.842650882      9.81660738       
77.842           0.842900719      9.72426809       0.221137212      -40.0769841      0.221137212      -40.0769841      0.842900972      9.72426837       
78.59            0.843144152      9.63363485       0.219963096      -39.9009754      0.219963096      -39.9009754      0.843144405      9.63363513       
79.338           0.843381166      9.54466096       0.218814565      -39.7254284      0.218814565      -39.7254284      0.843381418      9.54466124       
80.086           0.843611986      9.45730168       0.217690891      -39.5503737      0.217690891      -39.5503737      0.843612239      9.45730195       
80.834           0.843836832      9.37151382       0.216591371      -39.3758397      0.216591371      -39.3758397      0.843837085      9.3715141        
81.582           0.84405591       9.28725574       0.215515325      -39.2018537      0.215515325      -39.2018537      0.844056163      9.28725601       
82.33            0.844269419      9.2044872        0.2144621        -39.0284411      0.2144621        -39.0284411      0.844269672      9.20448747       
83.078           0.844477548      9.12316938       0.213431062      -38.855626       0.213431062      -38.855626       0.844477802      9.12316965       
83.826           0.844680482      9.04326478       0.212421601      -38.6834309      0.212421601      -38.6834309      0.844680735      9.04326504       
84.574           0.844878393      8.96473716       0.211433127      -38.5118773      0.211433127      -38.5118773      0.844878646      8.96473742       
85.322           0.84507145       8.88755151       0.21046507       -38.3409852      0.21046507       -38.3409852      0.845071703      8.88755177       
86.07            0.845259811      8.81167399       0.209516879      -38.1707733      0.209516879      -38.1707733      0.845260065      8.81167425       
86.818           0.845443633      8.73707187       0.208588021      -38.0012594      0.208588021      -38.0012594      0.845443886      8.73707212       
87.566           0.84562306       8.66371349       0.207677981      -37.8324599      0.207677981      -37.8324599      0.845623314      8.66371374       
88.314           0.845798236      8.59156823       0.206786262      -37.6643903      0.206786262      -37.6643903      0.84579849       8.59156849       
89.062           0.845969297      8.52060647       0.205912381      -37.4970652      0.205912381      -37.4970652      0.84596955       8.52060672       
89.81            0.846136372      8.45079952       0.205055873      -37.3304979      0.205055873      -37.3304979      0.846136625      8.45079977       
90.558           0.846299586      8.38211962       0.204216286      -37.1647012      0.204216286      -37.1647012      0.84629984       8.38211986       
91.306           0.846459062      8.31453986       0.203393184      -36.9996866      0.203393184      -36.9996866      0.846459315      8.31454011       
92.054           0.846614913      8.24803421       0.202586144      -36.835465       0.202586144      -36.835465       0.846615167      8.24803445       
92.802           0.846767252      8.18257742       0.201794757      -36.6720465      0.201794757      -36.6720465      0.846767506      8.18257766       
93.55            0.846916185      8.11814504       0.201018626      -36.5094404      0.201018626      -36.5094404      0.846916439      8.11814528       
94.298           0.847061816      8.05471336       0.200257367      -36.3476553      0.200257367      -36.3476553      0.84706207       8.05471359       
95.046           0.847204244      7.99225938       0.199510608      -36.1866989      0.199510608      -36.1866989      0.847204498      7.99225961       
