! Coilcraft 1812PS-222 Power Chip Inductor				
! 1 October 2002			
# MHZ S MA R 50
!Freq             MagS11           AngS11           MagS21           AngS21           MagS12           AngS12           MagS22           AngS22
0.05             0.0069451124     83.5512307       0.999243643      -0.395710287     0.999243643      -0.395710287     0.00694511306    83.5512336       
0.2              0.0276332444     86.7283632       0.99880391       -1.58278215      0.99880391       -1.58278215      0.0276332473     86.7283658       
0.35             0.0483296012     86.1085009       0.997885494      -2.76963045      0.997885494      -2.76963045      0.048329607      86.1085047       
0.5              0.0689931543     85.1029462       0.996484052      -3.95562538      0.996484052      -3.95562538      0.0689931636     85.1029508       
0.65             0.0895925918     83.9729972       0.994591679      -5.13955258      0.994591679      -5.13955258      0.0895926055     83.9730025       
0.8              0.110091293      82.7863858       0.992205476      -6.31980755      0.992205476      -6.31980755      0.110091312      82.7863915       
0.95             0.130450935      81.5710258       0.989329729      -7.4946504       0.989329729      -7.4946504       0.130450959      81.5710316       
1.1              0.150634612      80.3418832       0.98597512       -8.6623889       0.98597512       -8.6623889       0.150634643      80.341889        
1.25             0.170608425      79.1082096       0.982157023      -9.82146767      0.982157023      -9.82146767      0.170608461      79.1082153       
1.4              0.190341943      77.8761683       0.97789394       -10.9704926      0.97789394       -10.9704926      0.190341986      77.8761739       
1.55             0.209808123      76.6500521       0.97320636       -12.1082241      0.97320636       -12.1082241      0.209808172      76.6500576       
1.7              0.228983032      75.4329508       0.968116028      -13.2335596      0.968116028      -13.2335596      0.228983087      75.432956        
1.85             0.247845564      74.2271531       0.962645477      -14.3455164      0.962645477      -14.3455164      0.247845626      74.2271582       
2                0.266377196      73.0343998       0.956817723      -15.4432174      0.956817723      -15.4432174      0.266377264      73.0344046       
2.15             0.284561795      71.8560457       0.950656054      -16.5258801      0.950656054      -16.5258801      0.28456187       71.8560504       
2.3              0.30238547       70.6931665       0.944183853      -17.5928091      0.944183853      -17.5928091      0.30238555       70.6931709       
2.45             0.319836441      69.5466279       0.93742446       -18.6433897      0.93742446       -18.6433897      0.319836526      69.5466322       
2.6              0.336904932      68.4171332       0.930401035      -19.6770836      0.930401035      -19.6770836      0.336905023      68.4171373       
2.75             0.353583068      67.3052544       0.923136442      -20.6934249      0.923136442      -20.6934249      0.353583165      67.3052584       
2.9              0.369864771      66.2114552       0.915653133      -21.6920168      0.915653133      -21.6920168      0.369864873      66.211459        
3.05             0.385745654      65.1361065       0.907973047      -22.6725283      0.907973047      -22.6725283      0.385745761      65.1361101       
3.2              0.401222921      64.0794982       0.900117522      -23.6346907      0.900117522      -23.6346907      0.401223033      64.0795017       
3.35             0.416295254      63.0418488       0.892107211      -24.5782947      0.892107211      -24.5782947      0.416295371      63.0418522       
3.5              0.430962705      62.0233125       0.883962016      -25.5031868      0.883962016      -25.5031868      0.430962827      62.0233158       
3.65             0.445226585      61.0239854       0.875701031      -26.4092661      0.875701031      -26.4092661      0.445226711      61.0239885       
3.8              0.459089353      60.0439108       0.867342496      -27.2964807      0.867342496      -27.2964807      0.459089484      60.0439138       
3.95             0.472554507      59.0830842       0.858903766      -28.1648245      0.858903766      -28.1648245      0.472554643      59.0830871       
4.1              0.485626479      58.1414576       0.850401282      -29.0143333      0.850401282      -29.0143333      0.485626619      58.1414604       
4.25             0.498310527      57.2189435       0.841850564      -29.8450819      0.841850564      -29.8450819      0.49831067       57.2189462       
4.4              0.510612637      56.3154187       0.833266205      -30.6571805      0.833266205      -30.6571805      0.510612784      56.3154213       
4.55             0.52253943       55.4307278       0.824661869      -31.4507716      0.824661869      -31.4507716      0.522539581      55.4307304       
4.7              0.534098069      54.5646869       0.816050311      -32.2260265      0.816050311      -32.2260265      0.534098224      54.5646894       
4.85             0.545296176      53.7170861       0.807443384      -32.9831427      0.807443384      -32.9831427      0.545296335      53.7170885       
5                0.556141755      52.8876932       0.798852069      -33.7223408      0.798852069      -33.7223408      0.556141916      52.8876956       
5.15             0.566643113      52.0762559       0.790286495      -34.4438617      0.790286495      -34.4438617      0.566643278      52.0762583       
5.3              0.576808801      51.282505        0.781755973      -35.1479642      0.781755973      -35.1479642      0.576808969      51.2825072       
5.45             0.586647548      50.506156        0.773269026      -35.8349222      0.773269026      -35.8349222      0.586647719      50.5061582       
5.6              0.596168206      49.7469122       0.764833423      -36.505023       0.764833423      -36.505023       0.59616838       49.7469144       
5.75             0.605379701      49.0044665       0.756456216      -37.1585648      0.756456216      -37.1585648      0.605379879      49.0044686       
5.9              0.614290989      48.278503        0.74814378       -37.7958547      0.74814378       -37.7958547      0.614291169      48.2785051       
6.05             0.622911012      47.5686993       0.739901841      -38.417207       0.739901841      -38.417207       0.622911195      47.5687013       
6.2              0.63124867       46.8747277       0.731735524      -39.0229419      0.731735524      -39.0229419      0.631248856      46.8747296       
6.35             0.639312783      46.1962569       0.723649381      -39.6133835      0.723649381      -39.6133835      0.639312971      46.1962588       
6.5              0.647112068      45.5329533       0.715647435      -40.1888585      0.715647435      -40.1888585      0.647112259      45.5329551       
6.65             0.654655116      44.8844821       0.707733206      -40.7496953      0.707733206      -40.7496953      0.654655309      44.884484        
6.8              0.661950372      44.2505087       0.699909756      -41.2962226      0.699909756      -41.2962226      0.661950568      44.2505104       
6.95             0.669006118      43.630699        0.692179712      -41.8287687      0.692179712      -41.8287687      0.669006316      43.6307008       
7.1              0.67583046       43.0247212       0.684545306      -42.34766        0.684545306      -42.34766        0.675830659      43.0247229       
7.25             0.682431316      42.4322457       0.677008398      -42.8532211      0.677008398      -42.8532211      0.682431517      42.4322474       
7.4              0.688816409      41.8529463       0.66957051       -43.3457735      0.66957051       -43.3457735      0.688816612      41.8529479       
7.55             0.694993259      41.2865005       0.662232853      -43.8256349      0.662232853      -43.8256349      0.694993465      41.2865021       
7.7              0.700969179      40.7325901       0.65499635       -44.2931192      0.65499635       -44.2931192      0.700969386      40.7325917       
7.85             0.70675127       40.1909019       0.647861661      -44.7485358      0.647861661      -44.7485358      0.706751479      40.1909034       
8                0.712346421      39.6611274       0.64082921       -45.1921891      0.64082921       -45.1921891      0.712346632      39.661129        
8.15             0.717761309      39.142964        0.6338992        -45.6243782      0.6338992        -45.6243782      0.717761521      39.1429655       
8.3              0.723002396      38.6361145       0.627071638      -46.0453969      0.627071638      -46.0453969      0.72300261       38.636116        
8.45             0.728075934      38.1402875       0.620346352      -46.455533       0.620346352      -46.455533       0.72807615       38.140289        
8.6              0.732987966      37.655198        0.613723008      -46.8550688      0.613723008      -46.8550688      0.732988183      37.6551994       
8.75             0.737744328      37.1805668       0.607201127      -47.2442801      0.607201127      -47.2442801      0.737744547      37.1805682       
8.9              0.742350654      36.7161214       0.600780099      -47.623437       0.600780099      -47.623437       0.742350875      36.7161227       
9.05             0.746812379      36.2615951       0.5944592        -47.9928031      0.5944592        -47.9928031      0.746812601      36.2615965       
9.2              0.751134743      35.8167281       0.588237598      -48.352636       0.588237598      -48.352636       0.751134967      35.8167294       
9.35             0.755322796      35.3812666       0.582114372      -48.703187       0.582114372      -48.703187       0.755323021      35.3812679       
9.5              0.759381404      34.9549632       0.576088521      -49.044701       0.576088521      -49.044701       0.75938163       34.9549645       
9.65             0.763315252      34.537577        0.570158971      -49.3774169      0.570158971      -49.3774169      0.763315479      34.5375783       
9.8              0.767128849      34.1288732       0.564324588      -49.7015674      0.564324588      -49.7015674      0.767129077      34.1288744       
9.95             0.770826537      33.7286232       0.558584182      -50.0173789      0.558584182      -50.0173789      0.770826767      33.7286244       
10.1             0.774412493      33.3366046       0.55293652       -50.3250721      0.55293652       -50.3250721      0.774412724      33.3366058       
10.25            0.777890734      32.9526009       0.54738033       -50.6248615      0.54738033       -50.6248615      0.777890966      32.9526021       
10.4             0.781265123      32.5764018       0.541914308      -50.9169559      0.541914308      -50.9169559      0.781265356      32.576403        
10.55            0.784539377      32.2078025       0.536537122      -51.2015583      0.536537122      -51.2015583      0.784539611      32.2078036       
10.7             0.787717068      31.846604        0.531247421      -51.478866       0.531247421      -51.478866       0.787717303      31.8466052       
10.85            0.79080163       31.4926131       0.526043837      -51.7490708      0.526043837      -51.7490708      0.790801866      31.4926142       
11               0.793796364      31.1456418       0.520924992      -52.0123592      0.520924992      -52.0123592      0.793796601      31.145643        
11.15            0.796704444      30.8055077       0.515889496      -52.2689123      0.515889496      -52.2689123      0.796704681      30.8055088       
11.3             0.799528919      30.4720335       0.510935959      -52.518906       0.510935959      -52.518906       0.799529157      30.4720346       
11.45            0.802272721      30.145047        0.506062988      -52.7625113      0.506062988      -52.7625113      0.802272961      30.1450481       
11.6             0.804938668      29.824381        0.501269191      -52.9998941      0.501269191      -52.9998941      0.804938908      29.824382        
11.75            0.807529467      29.509873        0.496553183      -53.2312156      0.496553183      -53.2312156      0.807529708      29.5098741       
11.9             0.810047721      29.2013656       0.491913584      -53.4566323      0.491913584      -53.4566323      0.810047963      29.2013667       
12.05            0.812495931      28.8987056       0.487349023      -53.6762963      0.487349023      -53.6762963      0.812496174      28.8987067       
12.2             0.814876502      28.6017445       0.482858139      -53.890355       0.482858139      -53.890355       0.814876745      28.6017455       
12.35            0.817191744      28.310338        0.478439583      -54.0989518      0.478439583      -54.0989518      0.817191988      28.310339        
12.5             0.81944388       28.024346        0.474092022      -54.3022256      0.474092022      -54.3022256      0.819444125      28.024347        
12.65            0.821635046      27.7436327       0.469814135      -54.5003116      0.469814135      -54.5003116      0.821635291      27.7436337       
12.8             0.823767294      27.4680661       0.465604619      -54.6933408      0.465604619      -54.6933408      0.82376754       27.4680671       
12.95            0.8258426        27.1975181       0.461462185      -54.8814405      0.461462185      -54.8814405      0.825842846      27.1975191       
13.1             0.827862862      26.9318644       0.457385565      -55.0647342      0.457385565      -55.0647342      0.827863109      26.9318653       
13.25            0.829829906      26.6709841       0.453373508      -55.2433419      0.453373508      -55.2433419      0.829830154      26.6709851       
13.4             0.831745489      26.4147602       0.44942478       -55.41738        0.44942478       -55.41738        0.831745737      26.4147611       
13.55            0.833611299      26.1630789       0.44553817       -55.5869616      0.44553817       -55.5869616      0.833611548      26.1630798       
13.7             0.835428964      25.9158296       0.441712482      -55.7521964      0.441712482      -55.7521964      0.835429213      25.9158305       
13.85            0.837200046      25.6729051       0.437946545      -55.9131912      0.437946545      -55.9131912      0.837200296      25.672906        
14               0.83892605       25.4342013       0.434239205      -56.0700494      0.434239205      -56.0700494      0.838926301      25.4342022       
14.15            0.840608425      25.199617        0.430589329      -56.2228716      0.430589329      -56.2228716      0.840608677      25.1996179       
14.3             0.842248566      24.969054        0.426995804      -56.3717554      0.426995804      -56.3717554      0.842248818      24.9690549       
14.45            0.843847814      24.742417        0.423457539      -56.5167956      0.423457539      -56.5167956      0.843848066      24.7424178       
14.6             0.845407462      24.5196131       0.419973463      -56.6580844      0.419973463      -56.6580844      0.845407715      24.519614        
14.75            0.846928754      24.3005525       0.416542523      -56.7957112      0.416542523      -56.7957112      0.846929008      24.3005534       
14.9             0.84841289       24.0851477       0.41316369       -56.929763       0.41316369       -56.929763       0.848413144      24.0851486       
15.05            0.849861024      23.8733138       0.409835953      -57.0603242      0.409835953      -57.0603242      0.849861278      23.8733146       
15.2             0.851274269      23.6649682       0.406558322      -57.187477       0.406558322      -57.187477       0.851274524      23.6649691       
15.35            0.852653697      23.4600308       0.403329825      -57.3113011      0.403329825      -57.3113011      0.852653951      23.4600316       
15.5             0.85400034       23.2584235       0.400149513      -57.431874       0.400149513      -57.431874       0.854000595      23.2584243       
15.65            0.855315196      23.0600707       0.397016452      -57.549271       0.397016452      -57.549271       0.855315451      23.0600715       
15.8             0.856599223      22.8648987       0.393929732      -57.6635655      0.393929732      -57.6635655      0.856599479      22.8648994       
15.95            0.857853349      22.6728359       0.390888459      -57.7748285      0.390888459      -57.7748285      0.857853606      22.6728366       
16.1             0.859078466      22.4838127       0.387891758      -57.8831294      0.387891758      -57.8831294      0.859078723      22.4838135       
16.25            0.860275435      22.2977615       0.384938773      -57.9885355      0.384938773      -57.9885355      0.860275692      22.2977623       
16.4             0.861445088      22.1146165       0.382028665      -58.0911121      0.382028665      -58.0911121      0.861445345      22.1146173       
16.55            0.862588225      21.9343137       0.379160615      -58.1909231      0.379160615      -58.1909231      0.862588483      21.9343145       
16.7             0.863705621      21.7567908       0.376333818      -58.2880303      0.376333818      -58.2880303      0.86370588       21.7567916       
16.85            0.864798023      21.5819874       0.37354749       -58.382494       0.37354749       -58.382494       0.864798282      21.5819881       
17               0.865866151      21.4098444       0.370800861      -58.4743728      0.370800861      -58.4743728      0.86586641       21.4098451       
17.15            0.866910703      21.2403046       0.36809318       -58.5637237      0.36809318       -58.5637237      0.866910962      21.2403053       
17.3             0.867932349      21.0733122       0.365423709      -58.6506023      0.365423709      -58.6506023      0.867932609      21.0733129       
17.45            0.86893174       20.908813        0.36279173       -58.7350626      0.36279173       -58.7350626      0.868932         20.9088137       
17.6             0.869909502      20.746754        0.360196536      -58.8171572      0.360196536      -58.8171572      0.869909763      20.7467547       
17.75            0.870866243      20.5870839       0.35763744       -58.8969372      0.35763744       -58.8969372      0.870866504      20.5870846       
17.9             0.871802547      20.4297527       0.355113766      -58.9744526      0.355113766      -58.9744526      0.871802808      20.4297534       
18.05            0.872718982      20.2747115       0.352624855      -59.0497519      0.352624855      -59.0497519      0.872719243      20.2747122       
18.2             0.873616094      20.1219129       0.350170062      -59.1228823      0.350170062      -59.1228823      0.873616355      20.1219136       
18.35            0.874494412      19.9713106       0.347748754      -59.1938899      0.347748754      -59.1938899      0.874494674      19.9713113       
18.5             0.87535445       19.8228597       0.345360316      -59.2628195      0.345360316      -59.2628195      0.875354712      19.8228604       
18.65            0.8761967        19.6765163       0.343004142      -59.3297148      0.343004142      -59.3297148      0.876196962      19.6765169       
18.8             0.877021643      19.5322375       0.340679642      -59.3946184      0.340679642      -59.3946184      0.877021905      19.5322382       
18.95            0.877829741      19.3899819       0.338386237      -59.4575718      0.338386237      -59.4575718      0.877830004      19.3899825       
19.1             0.878621444      19.2497087       0.336123363      -59.5186155      0.336123363      -59.5186155      0.878621707      19.2497094       
