! Coilcraft 1812PS-823 Power Chip Inductor				
! 1 October 2002			
# MHZ S MA R 50
!Freq             MagS11           AngS11           MagS21           AngS21           MagS12           AngS12           MagS22           AngS22
0.05             0.246779869      72.84837         0.956738486      -14.2685788      0.956738486      -14.2685788      0.246779893      72.8483711       
0.077            0.364738445      66.6805322       0.918838912      -21.3786164      0.918838912      -21.3786164      0.364738481      66.6805329       
0.104            0.46738494       60.6491079       0.871931524      -27.8543552      0.871931524      -27.8543552      0.467384987      60.6491084       
0.131            0.554014812      55.1245302       0.820589275      -33.6339412      0.820589275      -33.6339412      0.554014867      55.1245307       
0.158            0.625682002      50.1975847       0.768392495      -38.7241338      0.768392495      -38.7241338      0.625682064      50.1975851       
0.185            0.684312134      45.8598081       0.717739916      -43.173899       0.717739916      -43.173899       0.684312202      45.8598084       
0.212            0.732060459      42.0621808       0.670016682      -47.0520645      0.670016682      -47.0520645      0.732060532      42.0621812       
0.239            0.770953182      38.7417813       0.625876518      -50.432371       0.625876518      -50.432371       0.770953259      38.7417816       
0.266            0.802736733      35.8347213       0.585503266      -53.3851077      0.585503266      -53.3851077      0.802736814      35.8347216       
0.293            0.828846525      33.2820215       0.548806804      -55.9732779      0.548806804      -55.9732779      0.828846608      33.2820218       
0.32             0.85043178       31.0317827       0.515553745      -58.2514348      0.515553745      -58.2514348      0.850431865      31.031783        
0.347            0.868400103      29.0395039       0.485448133      -60.2658976      0.485448133      -60.2658976      0.86840019       29.0395042       
0.374            0.883464067      27.2675572       0.45817822       -62.0555809      0.45817822       -62.0555809      0.883464155      27.2675575       
0.401            0.896182554      25.684346        0.433441806      -63.653016       0.433441806      -63.653016       0.896182643      25.6843463       
0.428            0.906994816      24.263407        0.410958677      -65.085361       0.410958677      -65.085361       0.906994907      24.2634073       
0.455            0.916247474      22.9825735       0.390475604      -66.375309       0.390475604      -66.375309       0.916247566      22.9825738       
0.482            0.924215482      21.823243        0.371767231      -67.5418682      0.371767231      -67.5418682      0.924215575      21.8232433       
0.509            0.931118232      20.7697579       0.354634825      -68.6010134      0.354634825      -68.6010134      0.931118325      20.7697583       
0.536            0.937131884      19.8088916       0.338904036      -69.5662231      0.338904036      -69.5662231      0.937131978      19.8088919       
0.563            0.94239879       18.9294252       0.324422302      -70.4489176      0.324422302      -70.4489176      0.942398885      18.9294255       
0.59             0.947034724      18.1218029       0.311056241      -71.2588161      0.311056241      -71.2588161      0.947034819      18.1218032       
0.617            0.951134434      17.3778501       0.2986892        -72.0042269      0.2986892        -72.0042269      0.951134529      17.3778505       
0.644            0.954775941      16.6905434       0.28721905       -72.6922835      0.28721905       -72.6922835      0.954776036      16.6905437       
0.671            0.958023871      16.0538225       0.276556223      -73.3291377      0.276556223      -73.3291377      0.958023967      16.0538229       
0.698            0.960932065      15.4624369       0.266622007      -73.9201166      0.266622007      -73.9201166      0.960932162      15.4624372       
0.725            0.963545622      14.9118187       0.257347078      -74.4698525      0.257347078      -74.4698525      0.963545719      14.9118191       
0.752            0.965902518      14.3979789       0.248670227      -74.9823891      0.248670227      -74.9823891      0.965902615      14.3979792       
0.779            0.968034891      13.9174202       0.240537278      -75.4612698      0.240537278      -75.4612698      0.968034988      13.9174206       
0.806            0.969970072      13.4670661       0.232900153      -75.909611       0.232900153      -75.909611       0.969970169      13.4670665       
0.833            0.971731404      13.0442003       0.225716082      -76.3301631      0.225716082      -76.3301631      0.971731501      13.0442007       
0.86             0.973338919      12.6464167       0.218946916      -76.7253613      0.218946916      -76.7253613      0.973339016      12.6464171       
0.887            0.974809872      12.2715774       0.212558543      -77.097369       0.212558543      -77.097369       0.974809969      12.2715778       
0.914            0.976159189      11.9177766       0.206520389      -77.448114       0.206520389      -77.448114       0.976159287      11.917777        
0.941            0.977399831      11.5833109       0.200804981      -77.7793187      0.200804981      -77.7793187      0.977399929      11.5833114       
0.968            0.978543089      11.2666533       0.195387579      -78.092527       0.195387579      -78.092527       0.978543187      11.2666537       
0.995            0.979598837      10.9664312       0.19024585       -78.3891259      0.19024585       -78.3891259      0.979598935      10.9664316       
1.022            0.980575738      10.6814078       0.185359591      -78.670365       0.185359591      -78.670365       0.980575837      10.6814082       
1.049            0.981481415      10.4104659       0.180710488      -78.9373726      0.180710488      -78.9373726      0.981481513      10.4104663       
1.076            0.982322596      10.1525938       0.176281902      -79.1911703      0.176281902      -79.1911703      0.982322695      10.1525943       
1.103            0.983105239      9.90687365       0.172058689      -79.4326845      0.172058689      -79.4326845      0.983105338      9.90687414       
1.13             0.983834632      9.67247046       0.168027037      -79.6627578      0.168027037      -79.6627578      0.98383473       9.67247096       
1.157            0.98451548       9.44862337       0.164174324      -79.8821577      0.164174324      -79.8821577      0.984515579      9.44862388       
1.184            0.985151984      9.2346376        0.160488999      -80.0915848      0.160488999      -80.0915848      0.985152083      9.23463811       
1.211            0.9857479        9.02987746       0.156960468      -80.29168        0.156960468      -80.29168        0.985747999      9.02987798       
1.238            0.986306597      8.83376031       0.153579002      -80.4830303      0.153579002      -80.4830303      0.986306696      8.83376085       
1.265            0.986831102      8.64575116       0.150335649      -80.6661748      0.150335649      -80.6661748      0.986831201      8.6457517        
1.292            0.98732414       8.46535792       0.147222159      -80.8416089      0.147222159      -80.8416089      0.987324239      8.46535848       
1.319            0.987788171      8.29212727       0.144230922      -81.009789       0.144230922      -81.009789       0.98778827       8.29212784       
1.346            0.988225421      8.12564088       0.141354901      -81.1711361      0.141354901      -81.1711361      0.98822552       8.12564145       
1.373            0.988637904      7.96551216       0.138587586      -81.3260389      0.138587586      -81.3260389      0.988638003      7.96551275       
1.4              0.989027449      7.81138333       0.13592294       -81.4748572      0.13592294       -81.4748572      0.989027549      7.81138393       
1.427            0.989395721      7.66292279       0.133355363      -81.6179242      0.133355363      -81.6179242      0.989395821      7.66292339       
1.454            0.989744235      7.51982277       0.13087965       -81.7555492      0.13087965       -81.7555492      0.989744335      7.51982339       
1.481            0.990074374      7.38179728       0.128490959      -81.8880192      0.128490959      -81.8880192      0.990074473      7.3817979        
1.508            0.9903874        7.24858018       0.126184779      -82.0156014      0.126184779      -82.0156014      0.9903875        7.24858082       
1.535            0.990684472      7.11992355       0.123956903      -82.1385444      0.123956903      -82.1385444      0.990684571      7.1199242        
1.562            0.990966649      6.99559612       0.121803402      -82.2570801      0.121803402      -82.2570801      0.990966748      6.99559677       
1.589            0.991234904      6.87538191       0.119720605      -82.3714249      0.119720605      -82.3714249      0.991235004      6.87538258       
1.616            0.991490134      6.75907902       0.117705076      -82.4817811      0.117705076      -82.4817811      0.991490234      6.7590797        
1.643            0.991733162      6.6464985        0.115753597      -82.5883377      0.115753597      -82.5883377      0.991733262      6.64649918       
1.67             0.991964747      6.53746328       0.113863149      -82.6912718      0.113863149      -82.6912718      0.991964847      6.53746398       
1.697            0.992185591      6.43180736       0.112030901      -82.7907493      0.112030901      -82.7907493      0.992185691      6.43180806       
1.724            0.992396342      6.32937484       0.110254191      -82.8869261      0.110254191      -82.8869261      0.992396442      6.32937555       
1.751            0.9925976        6.23001926       0.108530518      -82.9799483      0.108530518      -82.9799483      0.9925977        6.23001999       
1.778            0.99278992       6.13360287       0.106857527      -83.0699533      0.106857527      -83.0699533      0.99279002       6.13360361       
1.805            0.992973817      6.03999598       0.105232999      -83.1570705      0.105232999      -83.1570705      0.992973917      6.03999673       
1.832            0.99314977       5.94907638       0.103654842      -83.2414214      0.103654842      -83.2414214      0.99314987       5.94907714       
1.859            0.993318224      5.86072885       0.102121084      -83.3231208      0.102121084      -83.3231208      0.993318324      5.86072962       
1.886            0.993479592      5.77484463       0.100629861      -83.4022769      0.100629861      -83.4022769      0.993479692      5.7748454        
1.913            0.993634259      5.69132097       0.0991794103     -83.4789918      0.0991794103     -83.4789918      0.99363436       5.69132176       
1.94             0.993782586      5.61006076       0.0977680673     -83.5533617      0.0977680673     -83.5533617      0.993782687      5.61006156       
1.967            0.993924908      5.53097213       0.096394255      -83.6254779      0.096394255      -83.6254779      0.993925008      5.53097294       
1.994            0.994061537      5.45396809       0.0950564799     -83.6954265      0.0950564799     -83.6954265      0.994061637      5.45396891       
2.021            0.994192767      5.37896622       0.0937533262     -83.763289       0.0937533262     -83.763289       0.994192867      5.37896705       
2.048            0.994318872      5.30588839       0.0924834514     -83.8291428      0.0924834514     -83.8291428      0.994318972      5.30588923       
2.075            0.994440108      5.23466046       0.0912455808     -83.8930609      0.0912455808     -83.8930609      0.994440209      5.23466131       
2.102            0.994556717      5.16521206       0.090038504      -83.955113       0.090038504      -83.955113       0.994556818      5.16521292       
2.129            0.994668924      5.09747631       0.0888610706     -84.0153647      0.0888610706     -84.0153647      0.994669025      5.09747718       
2.156            0.994776941      5.03138964       0.0877121865     -84.0738788      0.0877121865     -84.0738788      0.994777042      5.03139052       
2.183            0.994880968      4.96689161       0.0865908108     -84.1307145      0.0865908108     -84.1307145      0.994881069      4.9668925        
2.21             0.994981192      4.90392465       0.0854959522     -84.1859284      0.0854959522     -84.1859284      0.994981292      4.90392555       
2.237            0.995077789      4.84243395       0.0844266664     -84.2395741      0.0844266664     -84.2395741      0.995077889      4.84243486       
2.264            0.995170925      4.78236729       0.0833820533     -84.2917028      0.0833820533     -84.2917028      0.995171026      4.78236821       
2.291            0.995260757      4.72367487       0.0823612544     -84.3423632      0.0823612544     -84.3423632      0.995260858      4.7236758        
2.318            0.995347433      4.66630918       0.0813634505     -84.3916016      0.0813634505     -84.3916016      0.995347533      4.66631013       
2.345            0.995431091      4.61022488       0.0803878593     -84.439462       0.0803878593     -84.439462       0.995431192      4.61022584       
2.372            0.995511864      4.55537866       0.0794337339     -84.4859868      0.0794337339     -84.4859868      0.995511965      4.55537963       
2.399            0.995589876      4.50172915       0.0785003598     -84.5312159      0.0785003598     -84.5312159      0.995589977      4.50173012       
2.426            0.995665245      4.44923677       0.0775870544     -84.5751878      0.0775870544     -84.5751878      0.995665346      4.44923776       
2.453            0.995738081      4.39786371       0.0766931643     -84.617939       0.0766931643     -84.617939       0.995738182      4.3978647        
2.48             0.995808491      4.34757375       0.0758180641     -84.6595044      0.0758180641     -84.6595044      0.995808592      4.34757475       
2.507            0.995876573      4.29833223       0.0749611551     -84.6999175      0.0749611551     -84.6999175      0.995876674      4.29833324       
2.534            0.995942424      4.25010595       0.0741218637     -84.7392101      0.0741218637     -84.7392101      0.995942525      4.25010697       
2.561            0.996006131      4.20286309       0.0732996399     -84.7774127      0.0732996399     -84.7774127      0.996006232      4.20286413       
2.588            0.996067782      4.15657316       0.0724939565     -84.8145546      0.0724939565     -84.8145546      0.996067883      4.15657421       
2.615            0.996127456      4.11120691       0.0717043078     -84.8506636      0.0717043078     -84.8506636      0.996127557      4.11120796       
2.642            0.99618523       4.06673626       0.0709302084     -84.8857665      0.0709302084     -84.8857665      0.996185331      4.06673732       
2.669            0.996241177      4.02313426       0.0701711923     -84.9198887      0.0701711923     -84.9198887      0.996241279      4.02313534       
2.696            0.996295368      3.98037506       0.0694268118     -84.953055       0.0694268118     -84.953055       0.996295469      3.98037614       
2.723            0.996347868      3.93843378       0.068696637      -84.9852886      0.068696637      -84.9852886      0.996347969      3.93843488       
2.75             0.996398739      3.89728654       0.0679802543     -85.0166122      0.0679802543     -85.0166122      0.99639884       3.89728765       
2.777            0.996448042      3.85691038       0.0672772663     -85.0470473      0.0672772663     -85.0470473      0.996448144      3.8569115        
2.804            0.996495835      3.8172832        0.0665872905     -85.0766145      0.0665872905     -85.0766145      0.996495936      3.81728433       
2.831            0.996542171      3.77838374       0.065909959      -85.1053337      0.065909959      -85.1053337      0.996542272      3.77838488       
2.858            0.996587102      3.74019156       0.0652449174     -85.1332239      0.0652449174     -85.1332239      0.996587203      3.7401927        
2.885            0.996630678      3.70268694       0.0645918247     -85.1603034      0.0645918247     -85.1603034      0.99663078       3.7026881        
2.912            0.996672946      3.66585092       0.0639503522     -85.1865897      0.0639503522     -85.1865897      0.996673048      3.66585209       
2.939            0.996713952      3.62966521       0.0633201832     -85.2120995      0.0633201832     -85.2120995      0.996714054      3.62966639       
2.966            0.996753739      3.5941122        0.0627010124     -85.2368492      0.0627010124     -85.2368492      0.996753841      3.59411339       
2.993            0.996792348      3.55917489       0.0620925453     -85.2608541      0.0620925453     -85.2608541      0.996792449      3.55917609       
3.02             0.996829818      3.5248369        0.0614944982     -85.2841291      0.0614944982     -85.2841291      0.99682992       3.52483811       
3.047            0.996866187      3.49108241       0.0609065968     -85.3066886      0.0609065968     -85.3066886      0.996866289      3.49108363       
3.074            0.996901491      3.45789618       0.0603285768     -85.3285464      0.0603285768     -85.3285464      0.996901593      3.45789741       
3.101            0.996935766      3.42526346       0.0597601827     -85.3497156      0.0597601827     -85.3497156      0.996935868      3.4252647        
3.128            0.996969044      3.39317004       0.0592011679     -85.3702089      0.0592011679     -85.3702089      0.996969146      3.39317129       
3.155            0.997001356      3.36160217       0.0586512943     -85.3900385      0.0586512943     -85.3900385      0.997001458      3.36160343       
3.182            0.997032734      3.33054657       0.0581103314     -85.4092162      0.0581103314     -85.4092162      0.997032836      3.33054784       
3.209            0.997063206      3.29999042       0.0575780567     -85.4277533      0.0575780567     -85.4277533      0.997063308      3.2999917        
3.236            0.997092801      3.26992129       0.0570542551     -85.4456605      0.0570542551     -85.4456605      0.997092903      3.26992258       
3.263            0.997121545      3.24032721       0.0565387183     -85.4629484      0.0565387183     -85.4629484      0.997121647      3.24032851       
3.29             0.997149465      3.21119654       0.056031245      -85.4796269      0.056031245      -85.4796269      0.997149567      3.21119785       
3.317            0.997176584      3.18251807       0.0555316403     -85.4957057      0.0555316403     -85.4957057      0.997176686      3.18251939       
3.344            0.997202927      3.15428092       0.0550397155     -85.5111942      0.0550397155     -85.5111942      0.997203029      3.15428225       
3.371            0.997228517      3.12647457       0.0545552881     -85.526101       0.0545552881     -85.526101       0.997228619      3.12647591       
3.398            0.997253375      3.09908882       0.0540781811     -85.540435       0.0540781811     -85.540435       0.997253477      3.09909017       
3.425            0.997277523      3.0721138        0.0536082232     -85.5542043      0.0536082232     -85.5542043      0.997277625      3.07211516       
3.452            0.997300981      3.04553994       0.0531452483     -85.5674168      0.0531452483     -85.5674168      0.997301083      3.04554131       
3.479            0.997323769      3.01935798       0.0526890957     -85.5800802      0.0526890957     -85.5800802      0.997323871      3.01935936       
