! Coilcraft 1812PS-472 Power Chip Inductor				
! 1 October 2002			
# MHZ S MA R 50
!Freq             MagS11           AngS11           MagS21           AngS21           MagS12           AngS12           MagS22           AngS22
0.05             0.0147871447     84.9714964       0.998812362      -0.845014345     0.998812362      -0.845014345     0.0147871461     84.9714984       
0.175            0.0515675595     85.568125        0.997341107      -2.95493228      0.997341107      -2.95493228      0.0515675649     85.568127        
0.3              0.0881660656     83.8812289       0.994473605      -5.05724163      0.994473605      -5.05724163      0.0881660753     83.8812317       
0.425            0.124428627      81.9307663       0.99022735       -7.14683135      0.99022735       -7.14683135      0.124428642      81.9307699       
0.55             0.160214467      79.9057033       0.984635579      -9.21825988      0.984635579      -9.21825988      0.160214488      79.9057076       
0.675            0.195384498      77.8590726       0.977747147      -11.2658571      0.977747147      -11.2658571      0.195384526      77.8590775       
0.8              0.229805391      75.8147405       0.969628264      -13.2839437      0.969628264      -13.2839437      0.229805426      75.8147458       
0.925            0.26335469       73.7871589       0.960361834      -15.267084       0.960361834      -15.267084       0.263354734      73.7871645       
1.05             0.29592509       71.7866575       0.950044742      -17.2103025      0.950044742      -17.2103025      0.295925143      71.7866632       
1.175            0.327427182      69.8211713       0.938783999      -19.1092355      0.938783999      -19.1092355      0.327427245      69.8211771       
1.3              0.357790641      67.8969135       0.926692592      -20.9602119      0.926692592      -20.9602119      0.357790713      67.8969193       
1.425            0.386964117      66.0187067       0.9138856        -22.7602759      0.9138856        -22.7602759      0.386964199      66.0187125       
1.55             0.414914209      64.1901985       0.900476904      -24.5071685      0.900476904      -24.5071685      0.414914299      64.1902042       
1.675            0.441623849      62.4140325       0.886576551      -26.1992835      0.886576551      -26.1992835      0.441623949      62.4140381       
1.8              0.46709038       60.6919961       0.872288804      -27.835607       0.872288804      -27.835607       0.467090489      60.6920016       
1.925            0.491323507      59.0251524       0.857710781      -29.4156516      0.857710781      -29.4156516      0.491323625      59.0251578       
2.05             0.514343268      57.4139572       0.842931603      -30.9393881      0.842931603      -30.9393881      0.514343394      57.4139624       
2.175            0.536178098      55.8583621       0.828031962      -32.4071794      0.828031962      -32.4071794      0.536178231      55.8583672       
2.3              0.556863055      54.3579055       0.81308401       -33.8197177      0.81308401       -33.8197177      0.556863195      54.3579104       
2.425            0.576438225      52.9117909       0.798151505      -35.1779672      0.798151505      -35.1779672      0.576438373      52.9117957       
2.55             0.594947325      51.5189551       0.78329014       -36.4831114      0.78329014       -36.4831114      0.594947479      51.5189597       
2.675            0.612436493      50.1781266       0.768548         -37.7365073      0.768548         -37.7365073      0.612436654      50.1781311       
2.8              0.628953273      48.8878755       0.753966099      -38.9396437      0.753966099      -38.9396437      0.62895344       48.8878799       
2.925            0.644545772      47.6466559       0.739578972      -40.0941065      0.739578972      -40.0941065      0.644545944      47.6466602       
3.05             0.659261967      46.452841        0.725415273      -41.2015474      0.725415273      -41.2015474      0.659262145      46.4528452       
3.175            0.673149161      45.3047532       0.711498381      -42.2636584      0.711498381      -42.2636584      0.673149344      45.3047572       
3.3              0.686253554      44.2006883       0.697846979      -43.2821504      0.697846979      -43.2821504      0.686253742      44.2006922       
3.425            0.698619918      43.1389359       0.684475608      -44.2587346      0.684475608      -44.2587346      0.698620111      43.1389396       
3.55             0.710291364      42.1177951       0.671395181      -45.1951083      0.671395181      -45.1951083      0.710291561      42.1177988       
3.675            0.721309177      41.1355884       0.658613462      -46.0929428      0.658613462      -46.0929428      0.721309378      41.135592        
3.8              0.731712717      40.190671        0.64613549       -46.9538745      0.64613549       -46.9538745      0.731712922      40.1906745       
3.925            0.741539362      39.2814392       0.63396398       -47.7794973      0.63396398       -47.7794973      0.74153957       39.2814427       
4.05             0.750824494      38.4063363       0.622099662      -48.5713573      0.622099662      -48.5713573      0.750824706      38.4063396       
4.175            0.759601517      37.5638564       0.610541597      -49.330949       0.610541597      -49.330949       0.759601732      37.5638597       
4.3              0.767901891      36.752548        0.599287449      -50.0597128      0.599287449      -50.0597128      0.767902108      36.7525511       
4.425            0.77575519       35.9710149       0.588333725      -50.7590332      0.588333725      -50.7590332      0.775755411      35.971018        
4.55             0.783189173      35.2179181       0.577675985      -51.430238       0.577675985      -51.430238       0.783189396      35.2179211       
4.675            0.790229857      34.4919749       0.567309023      -52.0745988      0.567309023      -52.0745988      0.790230083      34.4919779       
4.8              0.796901601      33.7919595       0.557227024      -52.6933307      0.557227024      -52.6933307      0.79690183       33.7919623       
4.925            0.803227194      33.116701        0.547423701      -53.2875939      0.547423701      -53.2875939      0.803227425      33.1167039       
5.05             0.809227937      32.4650833       0.53789241       -53.8584948      0.53789241       -53.8584948      0.80922817       32.4650861       
5.175            0.814923732      31.8360427       0.528626246      -54.4070874      0.528626246      -54.4070874      0.814923967      31.8360454       
5.3              0.820333169      31.2285665       0.519618132      -54.9343749      0.519618132      -54.9343749      0.820333406      31.2285691       
5.425            0.825473601      30.6416913       0.510860884      -55.441312       0.510860884      -55.441312       0.82547384       30.6416939       
5.55             0.83036123       30.0745011       0.502347275      -55.9288064      0.502347275      -55.9288064      0.830361471      30.0745036       
5.675            0.83501118       29.5261249       0.494070079      -56.3977208      0.494070079      -56.3977208      0.835011422      29.5261274       
5.8              0.839437566      28.9957353       0.486022119      -56.8488753      0.486022119      -56.8488753      0.83943781       28.9957377       
5.925            0.843653567      28.482546        0.478196293      -57.2830487      0.478196293      -57.2830487      0.843653813      28.4825483       
6.05             0.847671487      27.9858101       0.470585606      -57.700981       0.470585606      -57.700981       0.847671734      27.9858124       
6.175            0.851502817      27.5048182       0.46318319       -58.1033749      0.46318319       -58.1033749      0.851503066      27.5048205       
6.3              0.855158289      27.0388965       0.455982322      -58.490898       0.455982322      -58.490898       0.855158539      27.0388988       
6.425            0.858647931      26.587405        0.448976437      -58.8641845      0.448976437      -58.8641845      0.858648182      26.5874072       
6.55             0.861981115      26.1497355       0.442159137      -59.2238367      0.442159137      -59.2238367      0.861981367      26.1497377       
6.675            0.865166606      25.7253105       0.435524201      -59.5704269      0.435524201      -59.5704269      0.865166859      25.7253126       
6.8              0.8682126        25.313581        0.429065586      -59.9044988      0.429065586      -59.9044988      0.868212854      25.3135831       
6.925            0.871126767      24.9140253       0.422777433      -60.2265692      0.422777433      -60.2265692      0.871127022      24.9140274       
7.05             0.873916287      24.5261476       0.416654067      -60.5371294      0.416654067      -60.5371294      0.873916544      24.5261496       
7.175            0.876587885      24.1494763       0.410689997      -60.8366465      0.410689997      -60.8366465      0.876588143      24.1494783       
7.3              0.879147863      23.7835629       0.404879914      -61.1255646      0.404879914      -61.1255646      0.879148121      23.7835649       
7.425            0.881602126      23.427981        0.399218692      -61.4043064      0.399218692      -61.4043064      0.881602385      23.4279829       
7.55             0.883956215      23.0823244       0.393701379      -61.673274       0.393701379      -61.673274       0.883956475      23.0823263       
7.675            0.886215328      22.7462069       0.388323201      -61.9328502      0.388323201      -61.9328502      0.886215589      22.7462087       
7.8              0.888384346      22.4192603       0.383079551      -62.1833993      0.383079551      -62.1833993      0.888384608      22.4192622       
7.925            0.890467853      22.1011344       0.377965992      -62.4252686      0.377965992      -62.4252686      0.890468115      22.1011362       
8.05             0.892470157      21.7914951       0.372978244      -62.6587888      0.372978244      -62.6587888      0.892470421      21.7914969       
8.175            0.89439531       21.4900243       0.368112187      -62.8842751      0.368112187      -62.8842751      0.894395574      21.490026        
8.3              0.896247122      21.1964183       0.363363853      -63.102028       0.363363853      -63.102028       0.896247387      21.19642         
8.425            0.89802918       20.9103878       0.358729418      -63.3123343      0.358729418      -63.3123343      0.898029446      20.9103895       
8.55             0.899744863      20.6316567       0.354205203      -63.5154674      0.354205203      -63.5154674      0.899745129      20.6316583       
8.675            0.901397354      20.3599612       0.349787666      -63.7116884      0.349787666      -63.7116884      0.90139762       20.3599629       
8.8              0.902989652      20.0950498       0.345473395      -63.9012464      0.345473395      -63.9012464      0.90298992       20.0950515       
8.925            0.904524589      19.8366821       0.341259108      -64.0843797      0.341259108      -64.0843797      0.904524857      19.8366838       
9.05             0.906004835      19.5846284       0.337141644      -64.2613156      0.337141644      -64.2613156      0.906005104      19.58463         
9.175            0.907432912      19.338669        0.333117962      -64.4322716      0.333117962      -64.4322716      0.907433181      19.3386706       
9.3              0.908811202      19.0985942       0.329185131      -64.5974555      0.329185131      -64.5974555      0.908811471      19.0985957       
9.425            0.910141955      18.8642029       0.325340334      -64.7570662      0.325340334      -64.7570662      0.910142225      18.8642045       
9.55             0.911427301      18.6353032       0.321580855      -64.9112939      0.321580855      -64.9112939      0.911427572      18.6353047       
9.675            0.912669254      18.411711        0.31790408       -65.0603208      0.31790408       -65.0603208      0.912669525      18.4117125       
9.8              0.91386972       18.1932503       0.314307491      -65.2043213      0.314307491      -65.2043213      0.913869992      18.1932518       
9.925            0.915030505      17.9797523       0.310788666      -65.3434623      0.310788666      -65.3434623      0.915030776      17.9797538       
10.05            0.916153317      17.7710553       0.307345268      -65.477904       0.307345268      -65.477904       0.916153589      17.7710568       
10.175           0.917239779      17.5670044       0.303975049      -65.6077998      0.303975049      -65.6077998      0.917240051      17.5670059       
10.3             0.918291427      17.367451        0.300675839      -65.7332968      0.300675839      -65.7332968      0.9182917        17.3674524       
10.425           0.919309721      17.1722524       0.297445552      -65.8545362      0.297445552      -65.8545362      0.919309994      17.1722538       
10.55            0.920296045      16.981272        0.294282173      -65.9716533      0.294282173      -65.9716533      0.920296319      16.9812734       
10.675           0.921251713      16.7943784       0.291183762      -66.0847781      0.291183762      -66.0847781      0.921251987      16.7943798       
10.8             0.922177975      16.6114455       0.288148449      -66.1940354      0.288148449      -66.1940354      0.922178249      16.6114469       
10.925           0.923076018      16.4323522       0.285174428      -66.2995452      0.285174428      -66.2995452      0.923076293      16.4323536       
11.05            0.923946971      16.2569822       0.282259961      -66.4014225      0.282259961      -66.4014225      0.923947245      16.2569836       
11.175           0.924791907      16.0852237       0.279403367      -66.4997782      0.279403367      -66.4997782      0.924792182      16.085225        
11.3             0.925611849      15.9169689       0.276603027      -66.5947185      0.276603027      -66.5947185      0.925612125      15.9169702       
11.425           0.926407771      15.7521147       0.273857379      -66.686346       0.273857379      -66.686346       0.926408047      15.752116        
11.55            0.927180599      15.5905614       0.271164914      -66.774759       0.271164914      -66.774759       0.927180874      15.5905626       
11.675           0.927931216      15.4322132       0.268524174      -66.8600524      0.268524174      -66.8600524      0.927931492      15.4322145       
11.8             0.928660464      15.2769781       0.265933754      -66.9423174      0.265933754      -66.9423174      0.928660741      15.2769793       
11.925           0.929369147      15.1247672       0.263392295      -67.0216418      0.263392295      -67.0216418      0.929369424      15.1247684       
12.05            0.930058031      14.9754949       0.260898485      -67.0981104      0.260898485      -67.0981104      0.930058308      14.9754961       
12.175           0.930727847      14.829079        0.258451056      -67.1718045      0.258451056      -67.1718045      0.930728125      14.8290802       
12.3             0.931379294      14.6854399       0.256048782      -67.2428029      0.256048782      -67.2428029      0.931379571      14.6854411       
12.425           0.932013037      14.5445011       0.253690479      -67.3111813      0.253690479      -67.3111813      0.932013315      14.5445023       
12.55            0.932629716      14.4061888       0.251375002      -67.3770128      0.251375002      -67.3770128      0.932629993      14.40619         
12.675           0.933229937      14.2704317       0.249101243      -67.4403678      0.249101243      -67.4403678      0.933230215      14.2704328       
12.8             0.933814285      14.137161        0.246868132      -67.5013144      0.246868132      -67.5013144      0.933814564      14.1371622       
12.925           0.934383317      14.0063105       0.244674633      -67.5599183      0.244674633      -67.5599183      0.934383595      14.0063117       
13.05            0.934937564      13.8778161       0.242519742      -67.6162427      0.242519742      -67.6162427      0.934937843      13.8778172       
13.175           0.935477539      13.7516159       0.240402491      -67.670349       0.240402491      -67.670349       0.935477818      13.751617        
13.3             0.93600373       13.6276502       0.238321938      -67.7222963      0.238321938      -67.7222963      0.936004009      13.6276513       
13.425           0.936516604      13.5058611       0.236277176      -67.7721417      0.236277176      -67.7721417      0.936516883      13.5058622       
13.55            0.93701661       13.386193        0.234267323      -67.8199403      0.234267323      -67.8199403      0.93701689       13.386194        
13.675           0.93750418       13.2685918       0.232291528      -67.8657457      0.232291528      -67.8657457      0.937504459      13.2685929       
13.8             0.937979724      13.1530054       0.230348962      -67.9096093      0.230348962      -67.9096093      0.937980004      13.1530064       
13.925           0.938443638      13.0393833       0.228438826      -67.9515812      0.228438826      -67.9515812      0.938443918      13.0393843       
14.05            0.938896302      12.9276767       0.226560344      -67.9917097      0.226560344      -67.9917097      0.938896583      12.9276778       
14.175           0.939338081      12.8178384       0.224712764      -68.0300414      0.224712764      -68.0300414      0.939338361      12.8178394       
14.3             0.939769323      12.7098226       0.222895356      -68.0666216      0.222895356      -68.0666216      0.939769603      12.7098236       
14.425           0.940190365      12.6035851       0.221107413      -68.1014942      0.221107413      -68.1014942      0.940190645      12.6035861       
14.55            0.940601529      12.4990829       0.21934825       -68.1347015      0.21934825       -68.1347015      0.94060181       12.499084        
14.675           0.941003125      12.3962747       0.2176172        -68.1662847      0.2176172        -68.1662847      0.941003406      12.3962757       
14.8             0.941395452      12.29512         0.215913619      -68.1962835      0.215913619      -68.1962835      0.941395733      12.295121        
14.925           0.941778796      12.1955799       0.214236879      -68.2247366      0.214236879      -68.2247366      0.941779077      12.1955809       
15.05            0.942153432      12.0976167       0.212586374      -68.2516813      0.212586374      -68.2516813      0.942153713      12.0976177       
15.175           0.942519626      12.0011937       0.210961511      -68.2771539      0.210961511      -68.2771539      0.942519907      12.0011947       
15.3             0.942877633      11.9062753       0.209361719      -68.3011895      0.209361719      -68.3011895      0.942877915      11.9062763       
15.425           0.943227699      11.8128271       0.207786439      -68.3238222      0.207786439      -68.3238222      0.94322798       11.8128281       
15.55            0.943570059      11.7208157       0.206235132      -68.3450852      0.206235132      -68.3450852      0.943570341      11.7208167       
15.675           0.943904943      11.6302086       0.204707272      -68.3650105      0.204707272      -68.3650105      0.943905225      11.6302096       
15.8             0.944232569      11.5409744       0.203202349      -68.3836293      0.203202349      -68.3836293      0.944232851      11.5409753       
15.925           0.944553149      11.4530824       0.201719865      -68.4009718      0.201719865      -68.4009718      0.944553431      11.4530833       
