! Coilcraft 1812PS-153 Power Chip Inductor				
! 1 October 2002			
# MHZ S MA R 50
!Freq             MagS11           AngS11           MagS21           AngS21           MagS12           AngS12           MagS22           AngS22
0.05             0.0470402551     83.314148        0.995619969      -2.68964343      0.995619969      -2.68964343      0.0470402605     83.3141533       
0.137            0.12776108       81.1142064       0.98835888       -7.33754012      0.98835888       -7.33754012      0.127761105      81.1142129       
0.224            0.206044794      77.0471953       0.974723026      -11.8885894      0.974723026      -11.8885894      0.206044844      77.0472009       
0.311            0.280461578      72.8208061       0.955501722      -16.2857244      0.955501722      -16.2857244      0.280461653      72.8208107       
0.398            0.350001238      68.6870525       0.931706226      -20.4851628      0.931706226      -20.4851628      0.350001335      68.6870563       
0.485            0.414035545      64.7345263       0.904430046      -24.4560017      0.904430046      -24.4560017      0.414035663      64.7345295       
0.572            0.472284368      61.0040235       0.874742429      -28.179575       0.874742429      -28.179575       0.472284505      61.0040263       
0.659            0.524755259      57.5136939       0.843610018      -31.6479989      0.843610018      -31.6479989      0.524755412      57.5136964       
0.746            0.571669302      54.2680853       0.811851793      -34.8621257      0.811851793      -34.8621257      0.57166947       54.2680875       
0.833            0.613388227      51.2629308       0.780123523      -37.829328       0.780123523      -37.829328       0.613388407      51.2629328       
0.92             0.650352285      48.4883098       0.748923406      -40.5614367      0.748923406      -40.5614367      0.650352478      48.4883116       
1.007            0.683032692      45.9309067       0.71861008       -43.0730048      0.71861008       -43.0730048      0.683032894      45.9309083       
1.094            0.711898415      43.5756341       0.689425959      -45.3799553      0.689425959      -45.3799553      0.711898626      43.5756357       
1.181            0.737395106      41.4067704       0.661521133      -47.4985938      0.661521133      -47.4985938      0.737395326      41.4067719       
1.268            0.759933283      39.4087238       0.634975161      -49.4449317      0.634975161      -49.4449317      0.759933509      39.4087251       
1.355            0.77988302       37.5665186       0.609815565      -51.2342535      0.609815565      -51.2342535      0.779883253      37.5665199       
1.442            0.797572927      35.8660809       0.586032772      -52.8808654      0.586032772      -52.8808654      0.797573164      35.8660821       
1.529            0.813291721      34.2943831       0.563591758      -54.3979726      0.563591758      -54.3979726      0.813291964      34.2943842       
1.616            0.827291235      32.8394946       0.542440866      -55.7976435      0.542440866      -55.7976435      0.827291482      32.8394956       
1.703            0.839790065      31.4905715       0.522518326      -57.0908306      0.522518326      -57.0908306      0.839790316      31.4905725       
1.79             0.850977387      30.2378095       0.50375697       -58.2874252      0.50375697       -58.2874252      0.850977642      30.2378104       
1.877            0.861016653      29.072375        0.486087563      -59.3963304      0.486087563      -59.3963304      0.86101691       29.0723759       
1.964            0.870048997      27.9863275       0.46944111       -60.4255437      0.46944111       -60.4255437      0.870049257      27.9863283       
2.051            0.878196315      26.9725383       0.453750381      -61.3822404      0.453750381      -61.3822404      0.878196578      26.9725392       
2.138            0.885563968      26.0246115       0.438950901      -62.2728551      0.438950901      -62.2728551      0.885564233      26.0246123       
2.225            0.892243141      25.1368081       0.42498153       -63.103159       0.42498153       -63.103159       0.892243408      25.1368089       
2.312            0.898312873      24.303977        0.411784768      -63.8783303      0.411784768      -63.8783303      0.898313142      24.3039777       
2.399            0.903841806      23.5214905       0.399306862      -64.6030194      0.399306862      -64.6030194      0.903842077      23.5214912       
2.486            0.908889671      22.7851875       0.387497792      -65.2814068      0.387497792      -65.2814068      0.908889943      22.7851882       
2.573            0.913508557      22.091322        0.376311153      -65.9172552      0.376311153      -65.9172552      0.913508831      22.0913227       
2.66             0.917743993      21.4365166       0.365704001      -66.5139562      0.365704001      -66.5139562      0.917744268      21.4365172       
2.747            0.921635863      20.8177224       0.355636655      -67.0745708      0.355636655      -67.0745708      0.92163614       20.817723        
2.834            0.92521919       20.2321825       0.346072491      -67.6018665      0.346072491      -67.6018665      0.925219467      20.2321831       
2.921            0.928524797      19.6774006       0.336977725      -68.098349       0.336977725      -68.098349       0.928525075      19.6774012       
3.008            0.931579876      19.1511123       0.328321202      -68.5662906      0.328321202      -68.5662906      0.931580156      19.1511128       
3.095            0.934408473      18.6512603       0.320074193      -69.0077555      0.320074193      -69.0077555      0.934408753      18.6512609       
3.182            0.937031895      18.1759729       0.312210202      -69.4246218      0.312210202      -69.4246218      0.937032176      18.1759735       
3.269            0.939469069      17.723544        0.30470478       -69.8186009      0.30470478       -69.8186009      0.93946935       17.7235446       
3.356            0.941736843      17.2924163       0.297535358      -70.1912549      0.297535358      -70.1912549      0.941737126      17.2924168       
3.443            0.943850248      16.881166        0.290681088      -70.5440119      0.290681088      -70.5440119      0.943850531      16.8811665       
3.53             0.945822721      16.4884891       0.2841227        -70.8781795      0.2841227        -70.8781795      0.945823004      16.4884896       
3.617            0.947666296      16.11319         0.277842369      -71.1949567      0.277842369      -71.1949567      0.94766658       16.1131904       
3.704            0.949391779      15.7541704       0.27182359       -71.4954448      0.27182359       -71.4954448      0.949392064      15.7541709       
3.791            0.951008887      15.4104203       0.266051071      -71.7806566      0.266051071      -71.7806566      0.951009172      15.4104207       
3.878            0.952526374      15.0810091       0.260510629      -72.0515249      0.260510629      -72.0515249      0.952526659      15.0810096       
3.965            0.953952145      14.7650787       0.255189098      -72.3089101      0.255189098      -72.3089101      0.953952431      14.7650791       
4.052            0.955293347      14.4618362       0.250074246      -72.5536068      0.250074246      -72.5536068      0.955293634      14.4618366       
4.139            0.956556457      14.1705485       0.245154698      -72.78635        0.245154698      -72.78635        0.956556744      14.1705489       
4.226            0.957747351      13.8905366       0.240419863      -73.0078202      0.240419863      -73.0078202      0.957747638      13.890537        
4.313            0.958871371      13.621171        0.235859876      -73.2186484      0.235859876      -73.2186484      0.958871658      13.6211714       
4.4              0.95993338       13.361867        0.231465535      -73.4194204      0.231465535      -73.4194204      0.959933668      13.3618674       
4.487            0.960937814      13.1120814       0.227228252      -73.6106807      0.227228252      -73.6106807      0.960938102      13.1120818       
4.574            0.961888722      12.8713085       0.223140002      -73.792936       0.223140002      -73.792936       0.96188901       12.8713089       
4.661            0.962789809      12.6390774       0.219193282      -73.9666581      0.219193282      -73.9666581      0.962790098      12.6390778       
4.748            0.963644468      12.4149486       0.215381069      -74.1322875      0.215381069      -74.1322875      0.963644757      12.414949        
4.835            0.964455811      12.198512        0.211696784      -74.290235       0.211696784      -74.290235       0.964456101      12.1985124       
4.922            0.965226697      11.9893842       0.208134257      -74.4408847      0.208134257      -74.4408847      0.965226986      11.9893845       
5.009            0.965959754      11.7872063       0.2046877        -74.5845962      0.2046877        -74.5845962      0.965960043      11.7872066       
5.096            0.966657401      11.5916424       0.201351676      -74.7217059      0.201351676      -74.7217059      0.966657691      11.5916428       
5.183            0.967321873      11.4023776       0.198121075      -74.8525295      0.198121075      -74.8525295      0.967322163      11.4023779       
5.27             0.967955228      11.2191163       0.19499109       -74.9773628      0.19499109       -74.9773628      0.967955518      11.2191166       
5.357            0.96855937       11.0415808       0.191957196      -75.0964842      0.191957196      -75.0964842      0.96855966       11.0415812       
5.444            0.969136061      10.8695103       0.189015127      -75.2101548      0.189015127      -75.2101548      0.969136352      10.8695106       
5.531            0.969686933      10.7026592       0.186160863      -75.3186206      0.186160863      -75.3186206      0.969687224      10.7026595       
5.618            0.9702135        10.5407963       0.18339061       -75.4221133      0.18339061       -75.4221133      0.970213791      10.5407966       
5.705            0.970717166      10.3837036       0.180700786      -75.520851       0.180700786      -75.520851       0.970717457      10.3837039       
5.792            0.971199236      10.2311756       0.178088004      -75.6150397      0.178088004      -75.6150397      0.971199527      10.2311759       
5.879            0.971660924      10.0830183       0.175549063      -75.7048736      0.175549063      -75.7048736      0.971661216      10.0830186       
5.966            0.972103363      9.93904841       0.173080934      -75.7905363      0.173080934      -75.7905363      0.972103654      9.9390487        
6.053            0.972527604      9.79909257       0.170680746      -75.8722014      0.170680746      -75.8722014      0.972527896      9.79909285       
6.14             0.972934631      9.66298684       0.168345782      -75.950033       0.168345782      -75.950033       0.972934923      9.66298712       
6.227            0.973325363      9.53057598       0.166073463      -76.0241866      0.166073463      -76.0241866      0.973325655      9.53057625       
6.314            0.973700657      9.40171291       0.163861345      -76.0948095      0.163861345      -76.0948095      0.973700949      9.40171318       
6.401            0.974061314      9.27625818       0.161707104      -76.1620414      0.161707104      -76.1620414      0.974061606      9.27625844       
6.488            0.974408088      9.15407949       0.159608536      -76.2260146      0.159608536      -76.2260146      0.97440838       9.15407975       
6.575            0.97474168       9.03505124       0.157563543      -76.2868549      0.157563543      -76.2868549      0.974741972      9.0350515        
6.662            0.975062752      8.91905413       0.155570131      -76.3446819      0.155570131      -76.3446819      0.975063044      8.91905438       
6.749            0.975371922      8.80597473       0.153626403      -76.3996091      0.153626403      -76.3996091      0.975372214      8.80597498       
6.836            0.975669772      8.69570518       0.151730552      -76.4517445      0.151730552      -76.4517445      0.975670065      8.69570543       
6.923            0.975956849      8.58814282       0.149880856      -76.5011908      0.149880856      -76.5011908      0.975957142      8.58814306       
7.01             0.976233668      8.48318989       0.148075674      -76.5480459      0.148075674      -76.5480459      0.97623396       8.48319014       
7.097            0.976500711      8.38075326       0.146313442      -76.5924032      0.146313442      -76.5924032      0.976501004      8.3807535        
7.184            0.976758435      8.28074414       0.144592667      -76.6343514      0.144592667      -76.6343514      0.976758728      8.28074438       
7.271            0.977007269      8.18307783       0.142911922      -76.6739754      0.142911922      -76.6739754      0.977007562      8.18307807       
7.358            0.97724762       8.08767352       0.141269845      -76.7113562      0.141269845      -76.7113562      0.977247913      8.08767375       
7.445            0.977479868      7.99445402       0.139665137      -76.7465709      0.139665137      -76.7465709      0.977480162      7.99445425       
7.532            0.977704376      7.90334562       0.138096552      -76.7796934      0.138096552      -76.7796934      0.97770467       7.90334584       
7.619            0.977921485      7.81427784       0.1365629        -76.8107942      0.1365629        -76.8107942      0.977921779      7.81427807       
7.706            0.978131518      7.72718332       0.135063042      -76.8399409      0.135063042      -76.8399409      0.978131811      7.72718354       
7.793            0.978334779      7.64199757       0.133595889      -76.8671979      0.133595889      -76.8671979      0.978335072      7.64199779       
7.88             0.978531559      7.5586589        0.132160396      -76.892627       0.132160396      -76.892627       0.978531852      7.55865911       
7.967            0.97872213       7.4771082        0.130755561      -76.9162875      0.130755561      -76.9162875      0.978722424      7.47710842       
8.054            0.978906753      7.39728889       0.129380425      -76.9382359      0.129380425      -76.9382359      0.978907047      7.3972891        
8.141            0.979085674      7.31914669       0.128034069      -76.9585266      0.128034069      -76.9585266      0.979085968      7.3191469        
8.228            0.979259127      7.24262957       0.126715608      -76.9772118      0.126715608      -76.9772118      0.979259421      7.24262978       
8.315            0.979427333      7.16768763       0.125424197      -76.9943413      0.125424197      -76.9943413      0.979427626      7.16768784       
8.402            0.979590502      7.09427298       0.12415902       -77.0099632      0.12415902       -77.0099632      0.979590796      7.09427319       
8.489            0.979748836      7.02233963       0.122919297      -77.0241234      0.122919297      -77.0241234      0.97974913       7.02233983       
8.576            0.979902524      6.95184341       0.121704276      -77.0368663      0.121704276      -77.0368663      0.979902818      6.95184361       
8.663            0.980051747      6.88274188       0.120513234      -77.0482343      0.120513234      -77.0482343      0.980052041      6.88274208       
8.75             0.980196679      6.81499427       0.119345478      -77.0582683      0.119345478      -77.0582683      0.980196973      6.81499446       
8.837            0.980337482      6.74856134       0.11820034       -77.0670075      0.11820034       -77.0670075      0.980337776      6.74856153       
8.924            0.980474314      6.68340537       0.117077175      -77.0744897      0.117077175      -77.0744897      0.980474608      6.68340556       
9.011            0.980607323      6.61949006       0.115975366      -77.0807513      0.115975366      -77.0807513      0.980607617      6.61949025       
9.098            0.980736652      6.55678045       0.114894316      -77.0858274      0.114894316      -77.0858274      0.980736946      6.55678064       
9.185            0.980862435      6.4952429        0.113833451      -77.0897515      0.113833451      -77.0897515      0.98086273       6.49524308       
9.272            0.980984803      6.43484498       0.112792217      -77.0925562      0.112792217      -77.0925562      0.980985098      6.43484517       
9.359            0.981103879      6.37555547       0.111770081      -77.0942728      0.111770081      -77.0942728      0.981104174      6.37555565       
9.446            0.981219781      6.31734424       0.110766528      -77.0949315      0.110766528      -77.0949315      0.981220076      6.31734442       
9.533            0.981332622      6.26018226       0.109781061      -77.0945612      0.109781061      -77.0945612      0.981332916      6.26018244       
9.62             0.981442509      6.20404154       0.108813203      -77.0931902      0.108813203      -77.0931902      0.981442803      6.20404172       
9.707            0.981549546      6.14889504       0.107862491      -77.0908454      0.107862491      -77.0908454      0.98154984       6.14889522       
9.794            0.98165383       6.09471669       0.106928478      -77.087553       0.106928478      -77.087553       0.981654125      6.09471686       
9.881            0.981755458      6.0414813        0.106010733      -77.0833383      0.106010733      -77.0833383      0.981755752      6.04148147       
9.968            0.981854518      5.98916457       0.10510884       -77.0782256      0.10510884       -77.0782256      0.981854812      5.98916474       
10.055           0.981951097      5.93774299       0.104222397      -77.0722384      0.104222397      -77.0722384      0.981951392      5.93774316       
10.142           0.98204528       5.88719387       0.103351014      -77.0653995      0.103351014      -77.0653995      0.982045574      5.88719404       
10.229           0.982137143      5.83749527       0.102494316      -77.0577309      0.102494316      -77.0577309      0.982137438      5.83749544       
10.316           0.982226766      5.78862598       0.101651939      -77.0492539      0.101651939      -77.0492539      0.98222706       5.78862614       
10.403           0.982314219      5.74056547       0.10082353       -77.039989       0.10082353       -77.039989       0.982314513      5.74056563       
10.49            0.982399573      5.6932939        0.100008749      -77.0299562      0.100008749      -77.0299562      0.982399868      5.69329406       
10.577           0.982482897      5.64679207       0.099207267      -77.0191746      0.099207267      -77.0191746      0.982483191      5.64679223       
10.664           0.982564254      5.60104137       0.0984187644     -77.007663       0.0984187644     -77.007663       0.982564548      5.60104153       
10.751           0.982643706      5.55602383       0.0976429324     -76.9954394      0.0976429324     -76.9954394      0.982644         5.55602399       
10.838           0.982721313      5.511722         0.0968794714     -76.9825213      0.0968794714     -76.9825213      0.982721608      5.51172216       
10.925           0.982797133      5.46811901       0.0961280915     -76.9689256      0.0961280915     -76.9689256      0.982797428      5.46811916       
11.012           0.98287122       5.42519849       0.0953885115     -76.9546687      0.0953885115     -76.9546687      0.982871515      5.42519865       
11.099           0.982943628      5.3829446        0.094660459      -76.9397666      0.094660459      -76.9397666      0.982943923      5.38294476       
