! Coilcraft 1812PS-683 Power Chip Inductor				
! 1 October 2002			
# MHZ S MA R 50
!Freq             MagS11           AngS11           MagS21           AngS21           MagS12           AngS12           MagS22           AngS22
0.05             0.20679683       74.7328449       0.966362839      -11.9139738      0.966362839      -11.9139738      0.20679685       74.7328462       
0.082            0.327053516      68.7774523       0.932835781      -19.076125       0.932835781      -19.076125       0.327053549      68.7774531       
0.114            0.433217866      62.7078705       0.889040429      -25.6607919      0.889040429      -25.6607919      0.433217909      62.707871        
0.146            0.523871965      57.0656509       0.839527608      -31.5825357      0.839527608      -31.5825357      0.523872017      57.0656514       
0.178            0.599543684      51.9919148       0.788090867      -36.8281312      0.788090867      -36.8281312      0.599543744      51.9919152       
0.21             0.66185348       47.5013612       0.737420905      -41.4326389      0.737420905      -41.4326389      0.661853546      47.5013615       
0.242            0.712826071      43.5566843       0.689173944      -45.4566987      0.689173944      -45.4566987      0.712826142      43.5566846       
0.274            0.754466142      40.1004705       0.644214576      -48.9700928      0.644214576      -48.9700928      0.754466217      40.1004708       
0.306            0.788554635      37.0708444       0.602874253      -52.04185        0.602874253      -52.04185        0.788554714      37.0708446       
0.338            0.816583814      34.408949        0.565158832      -54.7352438      0.565158832      -54.7352438      0.816583895      34.4089493       
0.37             0.839763784      32.062069        0.530893554      -57.1058586      0.530893554      -57.1058586      0.839763868      32.0620692       
0.402            0.859058515      29.9844903       0.499815939      -59.2013497      0.499815939      -59.2013497      0.859058601      29.9844905       
0.434            0.875229266      28.1372686       0.471631555      -61.0620196      0.471631555      -61.0620196      0.875229353      28.1372689       
0.466            0.888875458      26.487536        0.446045535      -62.7217134      0.446045535      -62.7217134      0.888875547      26.4875362       
0.498            0.900469429      25.0076697       0.42277905       -64.2087735      0.42277905       -64.2087735      0.900469519      25.0076699       
0.53             0.910384521      23.6744782       0.401576883      -65.5469321      0.401576883      -65.5469321      0.910384612      23.6744784       
0.562            0.918917168      22.4684696       0.382209903      -66.7560948      0.382209903      -66.7560948      0.91891726       22.4684698       
0.594            0.926304015      21.3732222       0.364474788      -67.8530046      0.364474788      -67.8530046      0.926304107      21.3732224       
0.626            0.932735095      20.3748561       0.34819236       -68.8517939      0.34819236       -68.8517939      0.932735189      20.3748564       
0.658            0.938363955      19.4615963       0.33320531       -69.7644392      0.33320531       -69.7644392      0.938364049      19.4615965       
0.69             0.94331543       18.6234126       0.319375771      -70.6011326      0.319375771      -70.6011326      0.943315524      18.6234129       
0.722            0.94769164       17.8517262       0.306582953      -71.3705847      0.306582953      -71.3705847      0.947691735      17.8517265       
0.754            0.951576632      17.1391681       0.294720956      -72.0802721      0.294720956      -72.0802721      0.951576727      17.1391684       
0.786            0.955039982      16.4793825       0.283696818      -72.7366398      0.283696818      -72.7366398      0.955040078      16.4793827       
0.818            0.958139618      15.8668647       0.27342879       -73.3452665      0.27342879       -73.3452665      0.958139714      15.8668649       
0.85             0.96092403       15.2968281       0.263844832      -73.9110006      0.263844832      -73.9110006      0.960924126      15.2968284       
0.882            0.963434025      14.7650946       0.254881321      -74.4380722      0.254881321      -74.4380722      0.963434121      14.7650949       
0.914            0.965704111      14.2680033       0.24648193       -74.9301865      0.24648193       -74.9301865      0.965704207      14.2680036       
0.946            0.967763615      13.8023349       0.23859667       -75.3905997      0.23859667       -75.3905997      0.967763712      13.8023352       
0.978            0.969637574      13.365249        0.231181069      -75.8221845      0.231181069      -75.8221845      0.969637671      13.3652493       
1.01             0.971347451      12.9542306       0.224195463      -76.2274829      0.224195463      -76.2274829      0.971347549      12.9542309       
1.042            0.972911731      12.5670462       0.217604389      -76.6087518      0.217604389      -76.6087518      0.972911829      12.5670465       
1.074            0.97434639       12.2017061       0.211376065      -76.9680012      0.211376065      -76.9680012      0.974346488      12.2017064       
1.106            0.975665292      11.8564323       0.205481941      -77.3070262      0.205481941      -77.3070262      0.975665389      11.8564326       
1.138            0.976880509      11.529632        0.199896307      -77.6274348      0.199896307      -77.6274348      0.976880607      11.5296324       
1.17             0.978002594      11.2198743       0.194595965      -77.930671       0.194595965      -77.930671       0.978002692      11.2198746       
1.202            0.979040799      10.9258701       0.18955993       -78.218035       0.18955993       -78.218035       0.979040897      10.9258704       
1.234            0.98000326       10.6464558       0.184769186      -78.4907003      0.184769186      -78.4907003      0.980003358      10.6464561       
1.266            0.980897159      10.380578        0.180206461      -78.7497287      0.180206461      -78.7497287      0.980897257      10.3805783       
1.298            0.981728847      10.1272814       0.175856037      -78.9960831      0.175856037      -78.9960831      0.981728946      10.1272817       
1.33             0.982503963      9.88569737       0.171703582      -79.2306383      0.171703582      -79.2306383      0.982504061      9.88569772       
1.362            0.983227521      9.65503479       0.167736006      -79.4541912      0.167736006      -79.4541912      0.983227619      9.65503514       
1.394            0.983903995      9.43457142       0.163941327      -79.6674688      0.163941327      -79.6674688      0.983904093      9.43457177       
1.426            0.984537385      9.22364675       0.160308565      -79.8711357      0.160308565      -79.8711357      0.984537483      9.22364711       
1.458            0.985131275      9.02165563       0.156827633      -80.0658007      0.156827633      -80.0658007      0.985131374      9.02165599       
1.49             0.985688888      8.82804256       0.153489255      -80.2520225      0.153489255      -80.2520225      0.985688986      8.82804293       
1.522            0.986213121      8.64229682       0.150284888      -80.4303143      0.150284888      -80.4303143      0.98621322       8.6422972        
1.554            0.986706591      8.46394803       0.147206645      -80.6011488      0.147206645      -80.6011488      0.98670669       8.46394842       
1.586            0.987171662      8.29256231       0.144247244      -80.7649618      0.144247244      -80.7649618      0.987171761      8.2925627        
1.618            0.987610476      8.12773882       0.141399942      -80.9221557      0.141399942      -80.9221557      0.987610575      8.12773921       
1.65             0.988024977      7.96910668       0.138658494      -81.0731026      0.138658494      -81.0731026      0.988025076      7.96910708       
1.682            0.988416931      7.81632227       0.136017104      -81.2181472      0.136017104      -81.2181472      0.98841703       7.81632268       
1.714            0.988787947      7.66906679       0.133470389      -81.3576091      0.133470389      -81.3576091      0.988788046      7.6690672        
1.746            0.989139494      7.52704402       0.13101334       -81.4917852      0.13101334       -81.4917852      0.989139593      7.52704445       
1.778            0.989472912      7.38997845       0.128641294      -81.6209514      0.128641294      -81.6209514      0.989473012      7.38997888       
1.81             0.98978943       7.25761343       0.126349899      -81.7453646      0.126349899      -81.7453646      0.989789529      7.25761387       
1.842            0.990090171      7.12970966       0.124135097      -81.8652642      0.124135097      -81.8652642      0.99009027       7.1297101        
1.874            0.990376169      7.00604371       0.121993094      -81.9808737      0.121993094      -81.9808737      0.990376268      7.00604416       
1.906            0.990648372      6.88640675       0.119920339      -82.0924017      0.119920339      -82.0924017      0.990648471      6.88640721       
1.938            0.990907655      6.77060339       0.117913509      -82.2000435      0.117913509      -82.2000435      0.990907754      6.77060385       
1.97             0.991154823      6.65845061       0.115969487      -82.3039816      0.115969487      -82.3039816      0.991154922      6.65845108       
2.002            0.991390618      6.5497768        0.114085348      -82.4043872      0.114085348      -82.4043872      0.991390718      6.54977728       
2.034            0.991615729      6.44442091       0.112258345      -82.501421       0.112258345      -82.501421       0.991615828      6.44442139       
2.066            0.99183079       6.34223161       0.110485896      -82.5952335      0.110485896      -82.5952335      0.991830889      6.3422321        
2.098            0.99203639       6.24306663       0.108765571      -82.6859665      0.108765571      -82.6859665      0.992036489      6.24306712       
2.13             0.992233074      6.14679203       0.107095081      -82.7737532      0.107095081      -82.7737532      0.992233174      6.14679253       
2.162            0.992421351      6.05328165       0.105472268      -82.8587189      0.105472268      -82.8587189      0.99242145       6.05328216       
2.194            0.992601689      5.96241656       0.103895097      -82.9409818      0.103895097      -82.9409818      0.992601789      5.96241707       
2.226            0.992774529      5.87408448       0.102361645      -83.0206532      0.102361645      -83.0206532      0.992774629      5.87408501       
2.258            0.992940278      5.78817944       0.100870098      -83.0978382      0.100870098      -83.0978382      0.992940378      5.78817996       
2.29             0.993099316      5.70460121       0.0994187362     -83.1726361      0.0994187362     -83.1726361      0.993099416      5.70460175       
2.322            0.993251999      5.62325505       0.0980059358     -83.2451406      0.0980059358     -83.2451406      0.993252099      5.62325559       
2.354            0.993398658      5.54405123       0.0966301573     -83.3154404      0.0966301573     -83.3154404      0.993398758      5.54405178       
2.386            0.993539604      5.46690479       0.0952899418     -83.3836193      0.0952899418     -83.3836193      0.993539704      5.46690534       
2.418            0.993675126      5.39173515       0.0939839059     -83.449757       0.0939839059     -83.449757       0.993675226      5.39173571       
2.45             0.993805496      5.31846591       0.0927107367     -83.5139285      0.0927107367     -83.5139285      0.993805596      5.31846647       
2.482            0.99393097       5.24702452       0.0914691872     -83.5762054      0.0914691872     -83.5762054      0.99393107       5.24702509       
2.514            0.994051786      5.17734207       0.0902580727     -83.6366554      0.0902580727     -83.6366554      0.994051885      5.17734265       
2.546            0.994168168      5.10935309       0.0890762667     -83.6953428      0.0890762667     -83.6953428      0.994168268      5.10935368       
2.578            0.994280328      5.04299527       0.0879226971     -83.7523285      0.0879226971     -83.7523285      0.994280427      5.04299587       
2.61             0.994388463      4.97820934       0.0867963436     -83.8076708      0.0867963436     -83.8076708      0.994388563      4.97820994       
2.642            0.994492761      4.91493886       0.0856962342     -83.8614246      0.0856962342     -83.8614246      0.994492861      4.91493946       
2.674            0.994593397      4.85313003       0.0846214425     -83.9136427      0.0846214425     -83.9136427      0.994593497      4.85313064       
2.706            0.994690536      4.79273159       0.0835710848     -83.9643748      0.0835710848     -83.9643748      0.994690636      4.79273221       
2.738            0.994784336      4.73369462       0.0825443183     -84.0136687      0.0825443183     -84.0136687      0.994784436      4.73369525       
2.77             0.994874943      4.67597246       0.0815403382     -84.0615696      0.0815403382     -84.0615696      0.994875043      4.67597309       
2.802            0.994962497      4.61952053       0.0805583758     -84.1081209      0.0805583758     -84.1081209      0.994962597      4.61952117       
2.834            0.995047129      4.56429624       0.0795976965     -84.1533637      0.0795976965     -84.1533637      0.995047229      4.56429689       
2.866            0.995128964      4.5102589        0.0786575979     -84.1973373      0.0786575979     -84.1973373      0.995129065      4.51025956       
2.898            0.99520812       4.45736958       0.0777374081     -84.2400794      0.0777374081     -84.2400794      0.99520822       4.45737024       
2.93             0.995284708      4.40559103       0.0768364841     -84.2816256      0.0768364841     -84.2816256      0.995284808      4.4055917        
2.962            0.995358833      4.35488759       0.0759542103     -84.3220104      0.0759542103     -84.3220104      0.995358934      4.35488827       
2.994            0.995430597      4.30522513       0.0750899968     -84.3612665      0.0750899968     -84.3612665      0.995430697      4.30522581       
3.026            0.995500093      4.25657091       0.0742432783     -84.399425       0.0742432783     -84.399425       0.995500193      4.2565716        
3.058            0.995567412      4.20889358       0.0734135129     -84.436516       0.0734135129     -84.436516       0.995567512      4.20889428       
3.09             0.99563264       4.16216307       0.0726001808     -84.472568       0.0726001808     -84.472568       0.99563274       4.16216377       
3.122            0.995695857      4.1163505        0.0718027831     -84.5076085      0.0718027831     -84.5076085      0.995695958      4.11635121       
3.154            0.995757142      4.07142819       0.071020841      -84.5416636      0.071020841      -84.5416636      0.995757242      4.07142891       
3.186            0.995816568      4.02736955       0.0702538944     -84.5747585      0.0702538944     -84.5747585      0.995816668      4.02737027       
3.218            0.995874204      3.98414901       0.0695015015     -84.6069173      0.0695015015     -84.6069173      0.995874304      3.98414974       
3.25             0.995930117      3.94174204       0.0687632375     -84.6381629      0.0687632375     -84.6381629      0.995930218      3.94174277       
3.282            0.995984371      3.90012503       0.0680386942     -84.6685174      0.0680386942     -84.6685174      0.995984472      3.90012577       
3.314            0.996037027      3.85927527       0.0673274786     -84.6980021      0.0673274786     -84.6980021      0.996037127      3.85927602       
3.346            0.996088141      3.81917095       0.0666292128     -84.7266372      0.0666292128     -84.7266372      0.996088241      3.8191717        
3.378            0.996137769      3.77979103       0.065943533      -84.7544423      0.065943533      -84.7544423      0.996137869      3.77979179       
3.41             0.996185963      3.74111528       0.0652700887     -84.7814358      0.0652700887     -84.7814358      0.996186063      3.74111605       
3.442            0.996232773      3.70312421       0.0646085426     -84.8076359      0.0646085426     -84.8076359      0.996232873      3.70312499       
3.474            0.996278247      3.66579905       0.0639585693     -84.8330597      0.0639585693     -84.8330597      0.996278348      3.66579983       
3.506            0.996322432      3.62912169       0.0633198556     -84.8577237      0.0633198556     -84.8577237      0.996322532      3.62912248       
3.538            0.99636537       3.5930747        0.062692099      -84.8816437      0.062692099      -84.8816437      0.99636547       3.59307549       
3.57             0.996407103      3.55764124       0.0620750082     -84.9048349      0.0620750082     -84.9048349      0.996407203      3.55764204       
3.602            0.996447671      3.52280508       0.0614683017     -84.9273121      0.0614683017     -84.9273121      0.996447772      3.52280589       
3.634            0.996487114      3.48855056       0.0608717082     -84.9490892      0.0608717082     -84.9490892      0.996487214      3.48855138       
3.666            0.996525466      3.45486256       0.0602849654     -84.9701797      0.0602849654     -84.9701797      0.996525567      3.45486338       
3.698            0.996562764      3.42172646       0.0597078204     -84.9905965      0.0597078204     -84.9905965      0.996562864      3.42172729       
3.73             0.99659904       3.38912817       0.0591400285     -85.0103521      0.0591400285     -85.0103521      0.996599141      3.38912901       
3.762            0.996634328      3.35705406       0.0585813535     -85.0294585      0.0585813535     -85.0294585      0.996634429      3.3570549        
3.794            0.996668658      3.32549095       0.0580315669     -85.0479271      0.0580315669     -85.0479271      0.996668759      3.3254918        
3.826            0.99670206       3.29442612       0.057490448      -85.0657689      0.057490448      -85.0657689      0.996702161      3.29442698       
3.858            0.996734562      3.26384724       0.0569577831     -85.0829947      0.0569577831     -85.0829947      0.996734663      3.26384811       
3.89             0.996766191      3.23374241       0.0564333658     -85.0996146      0.0564333658     -85.0996146      0.996766292      3.23374328       
3.922            0.996796975      3.2041001        0.0559169959     -85.1156383      0.0559169959     -85.1156383      0.996797075      3.20410098       
3.954            0.996826937      3.17490915       0.0554084801     -85.1310753      0.0554084801     -85.1310753      0.996827038      3.17491004       
3.986            0.996856102      3.14615878       0.0549076309     -85.1459347      0.0549076309     -85.1459347      0.996856203      3.14615967       
4.018            0.996884494      3.11783851       0.054414267      -85.1602251      0.054414267      -85.1602251      0.996884595      3.11783941       
4.05             0.996912135      3.08993822       0.0539282126     -85.1739549      0.0539282126     -85.1739549      0.996912236      3.08993913       
4.082            0.996939046      3.06244811       0.0534492974     -85.1871321      0.0534492974     -85.1871321      0.996939147      3.06244902       
4.114            0.996965248      3.03535865       0.0529773564     -85.1997645      0.0529773564     -85.1997645      0.996965349      3.03535957       
