! Coilcraft 1812PS-333 Power Chip Inductor				
! 1 October 2002			
# MHZ S MA R 50
!Freq             MagS11           AngS11           MagS21           AngS21           MagS12           AngS12           MagS22           AngS22
0.05             0.102758146      81.6168          0.990250532      -5.89242825      0.990250532      -5.89242825      0.102758156      81.6168009       
0.1              0.202096177      76.9317333       0.974397201      -11.6559754      0.974397201      -11.6559754      0.202096197      76.9317338       
0.15             0.295449832      71.7334334       0.949778759      -17.1813385      0.949778759      -17.1813385      0.295449862      71.7334337       
0.2              0.380897042      66.6724173       0.918379708      -22.3860767      0.918379708      -22.3860767      0.380897081      66.6724176       
0.25             0.457432241      61.9128705       0.882333993      -27.2181547      0.882333993      -27.2181547      0.457432287      61.9128708       
0.3              0.524842266      57.5152524       0.843623015      -31.6539183      0.843623015      -31.6539183      0.524842319      57.5152526       
0.35             0.583494017      53.4958784       0.803894594      -35.692549       0.803894594      -35.692549       0.583494075      53.4958786       
0.4              0.634109491      49.8470361       0.764400721      -39.3493564      0.764400721      -39.3493564      0.634109554      49.8470363       
0.45             0.677579011      46.5476197       0.726017385      -42.649576       0.726017385      -42.649576       0.677579079      46.54762         
0.5              0.714829865      43.5697926       0.689305877      -45.6234641      0.689305877      -45.6234641      0.714829937      43.5697928       
0.55             0.746746281      40.8832413       0.654585653      -48.302834       0.654585653      -48.302834       0.746746356      40.8832416       
0.6              0.77412822       38.4577836       0.622001963      -50.7188405      0.622001963      -50.7188405      0.774128297      38.4577838       
0.65             0.797675797      36.2648495       0.591581287      -52.9007062      0.591581287      -52.9007062      0.797675877      36.2648498       
0.7              0.817988866      34.2782243       0.563273461      -54.8750969      0.563273461      -54.8750969      0.817988948      34.2782246       
0.75             0.835574487      32.474327        0.536982025      -56.665913       0.536982025      -56.665913       0.83557457       32.4743272       
0.8              0.850857774      30.8322151       0.512585228      -58.2943269      0.512585228      -58.2943269      0.850857859      30.8322153       
0.85             0.864193514      29.3334401       0.489950061      -59.7789559      0.489950061      -59.7789559      0.8641936        29.3334404       
0.9              0.875877207      27.9618301       0.468941298      -61.1360973      0.468941298      -61.1360973      0.875877295      27.9618304       
0.95             0.886154929      26.7032467       0.449427086      -62.3799837      0.449427086      -62.3799837      0.886155018      26.703247        
1                0.895231824      25.5453429       0.4312822        -63.5230332      0.4312822        -63.5230332      0.895231914      25.5453432       
1.05             0.903279254      24.4773356       0.41438975       -64.5760833      0.41438975       -64.5760833      0.903279344      24.4773359       
1.1              0.91044074       23.4897999       0.398641887      -65.5486006      0.398641887      -65.5486006      0.910440832      23.4898002       
1.15             0.916836858      22.5744859       0.383939896      -66.4488667      0.383939896      -66.4488667      0.916836949      22.5744862       
1.2              0.922569239      21.7241593       0.370193899      -67.2841404      0.370193899      -67.2841404      0.922569331      21.7241597       
1.25             0.927723857      20.932463        0.357322357      -68.0607976      0.357322357      -68.0607976      0.927723949      20.9324634       
1.3              0.932373696      20.1937979       0.345251454      -68.7844517      0.345251454      -68.7844517      0.932373789      20.1937982       
1.35             0.936580945      19.5032203       0.333914454      -69.4600567      0.333914454      -69.4600567      0.936581039      19.5032207       
1.4              0.940398785      18.856355        0.32325105       -70.0919962      0.32325105       -70.0919962      0.940398879      18.8563554       
1.45             0.943872859      18.2493196       0.313206745      -70.684158       0.313206745      -70.684158       0.943872953      18.24932         
1.5              0.947042479      17.6786604       0.303732274      -71.2399997      0.303732274      -71.2399997      0.947042574      17.6786608       
1.55             0.949941623      17.1412978       0.294783068      -71.7626035      0.294783068      -71.7626035      0.949941719      17.1412982       
1.6              0.952599757      16.6344786       0.286318767      -72.2547239      0.286318767      -72.2547239      0.952599852      16.634479        
1.65             0.955042517      16.1557356       0.278302787      -72.7188287      0.278302787      -72.7188287      0.955042613      16.155736        
1.7              0.957292281      15.7028526       0.270701922      -73.1571336      0.270701922      -73.1571336      0.957292377      15.7028531       
1.75             0.959368642      15.2738346       0.263485991      -73.5716329      0.263485991      -73.5716329      0.959368738      15.2738351       
1.8              0.961288804      14.8668811       0.256627529      -73.9641257      0.256627529      -73.9641257      0.961288901      14.8668816       
1.85             0.963067922      14.4803641       0.250101505      -74.3362382      0.250101505      -74.3362382      0.963068019      14.4803646       
1.9              0.964719378      14.1128083       0.243885074      -74.6894437      0.243885074      -74.6894437      0.964719475      14.1128089       
1.95             0.966255022      13.7628741       0.237957352      -75.0250795      0.237957352      -75.0250795      0.966255119      13.7628746       
2                0.967685377      13.4293424       0.232299226      -75.3443622      0.232299226      -75.3443622      0.967685475      13.429343        
2.05             0.969019809      13.1111021       0.226893176      -75.6484003      0.226893176      -75.6484003      0.969019906      13.1111026       
2.1              0.970266673      12.8071382       0.221723115      -75.938206       0.221723115      -75.938206       0.97026677       12.8071388       
2.15             0.971433443      12.5165223       0.216774258      -76.2147048      0.216774258      -76.2147048      0.97143354       12.5165229       
2.2              0.972526817      12.2384032       0.212032993      -76.478745       0.212032993      -76.478745       0.972526914      12.2384038       
2.25             0.973552813      11.9719996       0.207486771      -76.7311049      0.207486771      -76.7311049      0.97355291       11.9720002       
2.3              0.974516847      11.716593        0.20312401       -76.9725001      0.20312401       -76.9725001      0.974516945      11.7165936       
2.35             0.975423806      11.4715215       0.198934004      -77.2035892      0.198934004      -77.2035892      0.975423904      11.4715222       
2.4              0.976278105      11.2361748       0.194906844      -77.4249798      0.194906844      -77.4249798      0.976278204      11.2361755       
2.45             0.977083744      11.0099889       0.191033349      -77.6372326      0.191033349      -77.6372326      0.977083843      11.0099896       
2.5              0.97784435       10.7924421       0.187305         -77.8408663      0.187305         -77.8408663      0.977844449      10.7924427       
2.55             0.97856322       10.583051        0.183713884      -78.0363612      0.183713884      -78.0363612      0.978563319      10.5830517       
2.6              0.979243354      10.3813674       0.180252641      -78.2241626      0.180252641      -78.2241626      0.979243453      10.3813682       
2.65             0.97988749       10.1869749       0.17691442       -78.4046838      0.17691442       -78.4046838      0.979887589      10.1869757       
2.7              0.980498126      9.99948622       0.173692834      -78.5783093      0.173692834      -78.5783093      0.980498225      9.99948696       
2.75             0.981077549      9.81854068       0.170581923      -78.7453965      0.170581923      -78.7453965      0.981077648      9.81854144       
2.8              0.981627853      9.64380218       0.16757612       -78.9062788      0.16757612       -78.9062788      0.981627952      9.64380295       
2.85             0.98215096       9.47495696       0.164670219      -79.061267       0.164670219      -79.061267       0.982151059      9.47495775       
2.9              0.982648635      9.31171191       0.161859349      -79.2106513      0.161859349      -79.2106513      0.982648734      9.3117127        
2.95             0.983122502      9.15379283       0.159138943      -79.354703       0.159138943      -79.354703       0.983122602      9.15379364       
3                0.983574059      9.00094301       0.15650472       -79.493676       0.15650472       -79.493676       0.983574158      9.00094383       
3.05             0.984004684      8.85292183       0.153952662      -79.6278083      0.153952662      -79.6278083      0.984004784      8.85292266       
3.1              0.984415654      8.70950355       0.151478992      -79.7573227      0.151478992      -79.7573227      0.984415753      8.7095044        
3.15             0.984808146      8.57047618       0.149080159      -79.8824285      0.149080159      -79.8824285      0.984808245      8.57047704       
3.2              0.985183252      8.43564045       0.14675282       -80.0033222      0.14675282       -80.0033222      0.985183352      8.43564132       
3.25             0.985541984      8.30480888       0.144493828      -80.1201887      0.144493828      -80.1201887      0.985542084      8.30480977       
3.3              0.98588528       8.17780496       0.142300213      -80.2332018      0.142300213      -80.2332018      0.98588538       8.17780586       
3.35             0.986214013      8.0544623        0.140169176      -80.3425254      0.140169176      -80.3425254      0.986214113      8.05446321       
3.4              0.986528993      7.93462397       0.138098072      -80.4483136      0.138098072      -80.4483136      0.986529092      7.93462489       
3.45             0.986830974      7.81814183       0.136084401      -80.5507121      0.136084401      -80.5507121      0.986831074      7.81814277       
3.5              0.987120661      7.70487593       0.134125801      -80.6498584      0.134125801      -80.6498584      0.987120761      7.70487688       
3.55             0.98739871       7.59469394       0.132220034      -80.7458821      0.132220034      -80.7458821      0.98739881       7.59469491       
3.6              0.987665732      7.48747066       0.130364983      -80.8389061      0.130364983      -80.8389061      0.987665832      7.48747164       
3.65             0.9879223        7.38308754       0.12855864       -80.9290463      0.12855864       -80.9290463      0.9879224        7.38308853       
3.7              0.988168949      7.28143223       0.126799101      -81.0164128      0.126799101      -81.0164128      0.988169049      7.28143324       
3.75             0.988406181      7.18239824       0.125084559      -81.1011095      0.125084559      -81.1011095      0.988406281      7.18239925       
3.8              0.988634465      7.08588448       0.1234133        -81.1832351      0.1234133        -81.1832351      0.988634565      7.08588551       
3.85             0.988854241      6.99179499       0.121783694      -81.2628833      0.121783694      -81.2628833      0.988854341      6.99179604       
3.9              0.989065922      6.90003861       0.120194189      -81.3401428      0.120194189      -81.3401428      0.989066023      6.90003967       
3.95             0.989269897      6.81052866       0.118643313      -81.4150979      0.118643313      -81.4150979      0.989269998      6.81052973       
4                0.98946653       6.72318269       0.117129662      -81.4878288      0.117129662      -81.4878288      0.989466631      6.72318377       
4.05             0.989656165      6.63792221       0.115651898      -81.5584117      0.115651898      -81.5584117      0.989656266      6.63792331       
4.1              0.989839124      6.55467248       0.114208749      -81.6269189      0.114208749      -81.6269189      0.989839225      6.55467359       
4.15             0.990015712      6.47336227       0.112798999      -81.6934196      0.112798999      -81.6934196      0.990015813      6.47336339       
4.2              0.990186216      6.39392366       0.11142149       -81.7579792      0.11142149       -81.7579792      0.990186317      6.3939248        
4.25             0.990350907      6.31629187       0.110075116      -81.8206605      0.110075116      -81.8206605      0.990351008      6.31629302       
4.3              0.990510039      6.24040504       0.108758821      -81.8815229      0.108758821      -81.8815229      0.99051014       6.2404062        
4.35             0.990663854      6.16620412       0.107471594      -81.9406233      0.107471594      -81.9406233      0.990663955      6.16620529       
4.4              0.990812581      6.09363267       0.106212472      -81.9980161      0.106212472      -81.9980161      0.990812683      6.09363385       
4.45             0.990956436      6.02263674       0.104980531      -82.0537529      0.104980531      -82.0537529      0.990956537      6.02263794       
4.5              0.991095622      5.95316473       0.103774888      -82.1078832      0.103774888      -82.1078832      0.991095723      5.95316594       
4.55             0.991230333      5.88516726       0.102594699      -82.1604541      0.102594699      -82.1604541      0.991230435      5.88516849       
4.6              0.991360753      5.81859706       0.101439153      -82.2115109      0.101439153      -82.2115109      0.991360854      5.8185983        
4.65             0.991487055      5.75340886       0.100307475      -82.2610967      0.100307475      -82.2610967      0.991487156      5.75341012       
4.7              0.991609404      5.68955927       0.0991989212     -82.3092527      0.0991989212     -82.3092527      0.991609505      5.68956054       
4.75             0.991727957      5.6270067        0.0981127779     -82.3560184      0.0981127779     -82.3560184      0.991728058      5.62700798       
4.8              0.991842862      5.56571125       0.097048361      -82.4014316      0.097048361      -82.4014316      0.991842964      5.56571254       
4.85             0.991954261      5.50563466       0.0960050139     -82.4455284      0.0960050139     -82.4455284      0.991954362      5.50563596       
4.9              0.992062288      5.44674018       0.0949821059     -82.4883436      0.0949821059     -82.4883436      0.992062389      5.4467415        
4.95             0.99216707       5.38899254       0.0939790312     -82.5299103      0.0939790312     -82.5299103      0.992167172      5.38899387       
5                0.99226873       5.33235786       0.0929952076     -82.5702604      0.0929952076     -82.5702604      0.992268832      5.3323592        
5.05             0.992367383      5.27680355       0.0920300755     -82.6094243      0.0920300755     -82.6094243      0.992367485      5.2768049        
5.1              0.99246314       5.22229831       0.0910830967     -82.6474314      0.0910830967     -82.6474314      0.992463242      5.22229968       
5.15             0.992556106      5.16881202       0.0901537535     -82.6843096      0.0901537535     -82.6843096      0.992556208      5.1688134        
5.2              0.99264638       5.11631571       0.0892415475     -82.720086       0.0892415475     -82.720086       0.992646482      5.11631711       
5.25             0.992734059      5.0647815        0.088345999      -82.7547863      0.088345999      -82.7547863      0.992734161      5.06478291       
5.3              0.992819234      5.01418253       0.0874666461     -82.7884355      0.0874666461     -82.7884355      0.992819336      5.01418395       
5.35             0.992901992      4.96449295       0.0866030436     -82.8210573      0.0866030436     -82.8210573      0.992902094      4.96449438       
5.4              0.992982417      4.91568784       0.0857547625     -82.8526747      0.0857547625     -82.8526747      0.992982519      4.91568928       
5.45             0.993060587      4.86774318       0.0849213894     -82.8833096      0.0849213894     -82.8833096      0.99306069       4.86774464       
5.5              0.99313658       4.82063583       0.0841025255     -82.9129832      0.0841025255     -82.9129832      0.993136683      4.8206373        
5.55             0.993210468      4.77434345       0.083297786      -82.9417159      0.083297786      -82.9417159      0.993210571      4.77434494       
5.6              0.993282321      4.72884451       0.0825067997     -82.9695271      0.0825067997     -82.9695271      0.993282423      4.72884601       
5.65             0.993352204      4.68411822       0.0817292084     -82.9964358      0.0817292084     -82.9964358      0.993352307      4.68411973       
5.7              0.993420183      4.64014451       0.0809646661     -83.0224599      0.0809646661     -83.0224599      0.993420286      4.64014603       
5.75             0.993486319      4.596904         0.0802128385     -83.0476168      0.0802128385     -83.0476168      0.993486422      4.59690553       
5.8              0.99355067       4.55437796       0.0794734029     -83.0719234      0.0794734029     -83.0719234      0.993550773      4.55437951       
5.85             0.993613292      4.51254833       0.0787460473     -83.0953956      0.0787460473     -83.0953956      0.993613395      4.51254989       
5.9              0.993674239      4.47139761       0.0780304701     -83.1180491      0.0780304701     -83.1180491      0.993674342      4.47139918       
5.95             0.993733563      4.43090891       0.0773263796     -83.1398987      0.0773263796     -83.1398987      0.993733666      4.4309105        
6                0.993791314      4.39106589       0.0766334939     -83.1609589      0.0766334939     -83.1609589      0.993791418      4.39106748       
6.05             0.99384754       4.35185273       0.07595154       -83.1812434      0.07595154       -83.1812434      0.993847643      4.35185434       
6.1              0.993902285      4.31325414       0.0752802538     -83.2007656      0.0752802538     -83.2007656      0.993902389      4.31325577       
6.15             0.993955595      4.27525533       0.0746193798     -83.2195383      0.0746193798     -83.2195383      0.993955699      4.27525697       
6.2              0.994007511      4.23784196       0.0739686704     -83.2375739      0.0739686704     -83.2375739      0.994007615      4.23784361       
6.25             0.994058075      4.20100015       0.0733278859     -83.2548844      0.0733278859     -83.2548844      0.994058179      4.20100181       
6.3              0.994107325      4.16471646       0.0726967942     -83.2714811      0.0726967942     -83.2714811      0.994107428      4.16471814       
6.35             0.994155299      4.12897788       0.0720751702     -83.2873752      0.0720751702     -83.2873752      0.994155402      4.12897957       
6.4              0.994202033      4.09377178       0.0714627959     -83.3025773      0.0714627959     -83.3025773      0.994202136      4.09377348       
