! Coilcraft 1812PS-684 Power Chip Inductor				
! 1 October 2002			
# MHZ S MA R 50
!Freq             MagS11           AngS11           MagS21           AngS21           MagS12           AngS12           MagS22           AngS22
0.05             0.894460015      24.7139078       0.418320082      -63.3755336      0.418320082      -63.3755336      0.894460104      24.7139085       
0.052            0.901236763      23.8956261       0.405281829      -64.2594334      0.405281829      -64.2594334      0.901236852      23.8956268       
0.054            0.907407882      23.1260108       0.39294513       -65.0896683      0.39294513       -65.0896683      0.907407972      23.1260115       
0.056            0.913040032      22.4011828       0.381262825      -65.8706551      0.381262825      -65.8706551      0.913040123      22.4011835       
0.058            0.918191437      21.7176227       0.370190835      -66.6063762      0.370190835      -66.6063762      0.918191529      21.7176233       
0.06             0.922913055      21.0721368       0.359688104      -67.3004268      0.359688104      -67.3004268      0.922913147      21.0721374       
0.062            0.92724957       20.4618255       0.349716497      -67.9560559      0.349716497      -67.9560559      0.927249663      20.4618261       
0.064            0.931240255      19.8840541       0.340240653      -68.5762041      0.340240653      -68.5762041      0.931240348      19.8840547       
0.066            0.934919694      19.3364266       0.331227825      -69.1635361      0.331227825      -69.1635361      0.934919788      19.3364272       
0.068            0.938318415      18.8167615       0.322647717      -69.7204705      0.322647717      -69.7204705      0.938318508      18.8167621       
0.07             0.941463418      18.3230706       0.314472309      -70.2492055      0.314472309      -70.2492055      0.941463512      18.3230711       
0.072            0.944378638      17.8535394       0.306675692      -70.7517419      0.306675692      -70.7517419      0.944378732      17.8535399       
0.074            0.947085339      17.4065101       0.299233911      -71.2299039      0.299233911      -71.2299039      0.947085434      17.4065106       
0.076            0.94960245       16.980466        0.292124808      -71.6853572      0.292124808      -71.6853572      0.949602544      16.9804665       
0.078            0.951946856      16.5740177       0.285327883      -72.1196245      0.285327883      -72.1196245      0.951946951      16.5740182       
0.08             0.954133652      16.1858906       0.278824158      -72.5341007      0.278824158      -72.5341007      0.954133747      16.1858911       
0.082            0.956176359      15.814914        0.272596057      -72.9300647      0.272596057      -72.9300647      0.956176454      15.8149144       
0.084            0.95808711       15.4600111       0.266627287      -73.3086912      0.266627287      -73.3086912      0.958087205      15.4600116       
0.086            0.959876815      15.1201905       0.260902738      -73.6710609      0.260902738      -73.6710609      0.959876911      15.120191        
0.088            0.961555304      14.7945377       0.255408386      -74.0181687      0.255408386      -74.0181687      0.9615554        14.7945382       
0.09             0.963131446      14.4822085       0.250131199      -74.3509325      0.250131199      -74.3509325      0.963131542      14.482209        
0.092            0.964613261      14.1824225       0.245059065      -74.6701999      0.245059065      -74.6701999      0.964613357      14.1824229       
0.094            0.966008012      13.8944572       0.240180711      -74.9767547      0.240180711      -74.9767547      0.966008109      13.8944576       
0.096            0.967322289      13.6176432       0.23548564       -75.2713226      0.23548564       -75.2713226      0.967322385      13.6176436       
0.098            0.968562078      13.3513593       0.230964066      -75.5545765      0.230964066      -75.5545765      0.968562174      13.3513597       
0.1              0.969732828      13.0950285       0.22660686       -75.8271409      0.22660686       -75.8271409      0.969732925      13.0950289       
0.102            0.970839507      12.8481143       0.222405499      -76.089596       0.222405499      -76.089596       0.970839604      12.8481147       
0.104            0.97188665       12.6101171       0.218352016      -76.3424819      0.218352016      -76.3424819      0.971886747      12.6101175       
0.106            0.972878402      12.3805713       0.214438961      -76.5863014      0.214438961      -76.5863014      0.972878499      12.3805717       
0.108            0.973818559      12.1590424       0.210659357      -76.8215236      0.210659357      -76.8215236      0.973818657      12.1590428       
0.11             0.974710602      11.9451248       0.20700667       -77.0485862      0.20700667       -77.0485862      0.974710699      11.9451252       
0.112            0.975557725      11.7384391       0.203474771      -77.2678982      0.203474771      -77.2678982      0.975557822      11.7384395       
0.114            0.976362866      11.5386303       0.200057908      -77.4798423      0.200057908      -77.4798423      0.976362963      11.5386307       
0.116            0.977128728      11.3453659       0.196750679      -77.6847766      0.196750679      -77.6847766      0.977128825      11.3453663       
0.118            0.977857803      11.158334        0.193548005      -77.883037       0.193548005      -77.883037       0.977857901      11.1583344       
0.12             0.978552391      10.9772421       0.19044511       -78.0749384      0.19044511       -78.0749384      0.978552489      10.9772425       
0.122            0.979214616      10.8018152       0.187437495      -78.2607766      0.187437495      -78.2607766      0.979214714      10.8018156       
0.124            0.979846442      10.6317949       0.184520923      -78.4408296      0.184520923      -78.4408296      0.97984654       10.6317952       
0.126            0.980449689      10.466938        0.181691398      -78.6153588      0.181691398      -78.6153588      0.980449786      10.4669383       
0.128            0.981026042      10.3070155       0.178945148      -78.7846104      0.178945148      -78.7846104      0.98102614       10.3070158       
0.13             0.981577067      10.1518114       0.176278614      -78.9488162      0.176278614      -78.9488162      0.981577165      10.1518118       
0.132            0.982104217      10.0011223       0.17368843       -79.108195       0.17368843       -79.108195       0.982104315      10.0011226       
0.134            0.982608843      9.85475576       0.171171416      -79.2629532      0.171171416      -79.2629532      0.982608941      9.85475608       
0.136            0.983092204      9.7125303        0.16872456       -79.4132857      0.16872456       -79.4132857      0.983092302      9.71253062       
0.138            0.983555472      9.57427419       0.166345011      -79.5593767      0.166345011      -79.5593767      0.98355557       9.57427451       
0.14             0.983999739      9.439825         0.164030069      -79.7014005      0.164030069      -79.7014005      0.983999837      9.43982531       
0.142            0.984426025      9.3090289        0.161777173      -79.8395221      0.161777173      -79.8395221      0.984426124      9.30902921       
0.144            0.984835284      9.1817402        0.159583893      -79.9738978      0.159583893      -79.9738978      0.984835383      9.18174051       
0.146            0.985228407      9.05782073       0.157447922      -80.1046755      0.157447922      -80.1046755      0.985228505      9.05782103       
0.148            0.985606227      8.93713943       0.15536707       -80.2319958      0.15536707       -80.2319958      0.985606326      8.93713973       
0.15             0.985969526      8.81957186       0.153339253      -80.355992       0.153339253      -80.355992       0.985969624      8.81957216       
0.152            0.986319035      8.70499985       0.151362493      -80.4767907      0.151362493      -80.4767907      0.986319134      8.70500015       
0.154            0.986655442      8.59331103       0.149434904      -80.5945123      0.149434904      -80.5945123      0.98665554       8.59331133       
0.156            0.986979391      8.48439857       0.147554692      -80.7092712      0.147554692      -80.7092712      0.98697949       8.48439886       
0.158            0.987291488      8.37816077       0.145720149      -80.8211761      0.145720149      -80.8211761      0.987291587      8.37816107       
0.16             0.987592303      8.27450083       0.143929645      -80.9303308      0.143929645      -80.9303308      0.987592401      8.27450112       
0.162            0.987882371      8.17332648       0.142181628      -81.036834       0.142181628      -81.036834       0.98788247       8.17332677       
0.164            0.988162198      8.07454981       0.140474614      -81.1407797      0.140474614      -81.1407797      0.988162296      8.0745501        
0.166            0.988432258      7.97808695       0.13880719       -81.2422578      0.13880719       -81.2422578      0.988432357      7.97808723       
0.168            0.988693001      7.88385785       0.137178005      -81.3413537      0.137178005      -81.3413537      0.988693099      7.88385813       
0.17             0.988944848      7.79178612       0.135585766      -81.4381492      0.135585766      -81.4381492      0.988944947      7.7917864        
0.172            0.9891882        7.70179875       0.13402924       -81.5327223      0.13402924       -81.5327223      0.989188299      7.70179903       
0.174            0.989423434      7.61382599       0.132507247      -81.6251477      0.132507247      -81.6251477      0.989423533      7.61382627       
0.176            0.989650907      7.52780114       0.131018656      -81.7154967      0.131018656      -81.7154967      0.989651005      7.52780141       
0.178            0.989870955      7.44366037       0.129562387      -81.8038373      0.129562387      -81.8038373      0.989871054      7.44366064       
0.18             0.990083898      7.36134261       0.128137403      -81.890235       0.128137403      -81.890235       0.990083997      7.36134288       
0.182            0.990290038      7.28078938       0.126742712      -81.9747522      0.126742712      -81.9747522      0.990290137      7.28078965       
0.184            0.990489663      7.20194466       0.125377364      -82.0574487      0.125377364      -82.0574487      0.990489762      7.20194493       
0.186            0.990683043      7.12475475       0.124040446      -82.1383819      0.124040446      -82.1383819      0.990683142      7.12475502       
0.188            0.990870436      7.04916818       0.122731082      -82.2176067      0.122731082      -82.2176067      0.990870535      7.04916844       
0.19             0.991052086      6.97513556       0.121448433      -82.295176       0.121448433      -82.295176       0.991052185      6.97513582       
0.192            0.991228227      6.90260951       0.120191693      -82.3711402      0.120191693      -82.3711402      0.991228326      6.90260977       
0.194            0.991399078      6.83154453       0.118960086      -82.445548       0.118960086      -82.445548       0.991399177      6.8315448        
0.196            0.991564849      6.76189695       0.11775287       -82.518446       0.11775287       -82.518446       0.991564948      6.76189722       
0.198            0.99172574       6.69362479       0.116569327      -82.589879       0.116569327      -82.589879       0.991725839      6.69362506       
0.2              0.99188194       6.62668771       0.115408771      -82.65989        0.115408771      -82.65989        0.991882039      6.62668797       
0.202            0.99203363       6.56104692       0.114270539      -82.7285204      0.114270539      -82.7285204      0.992033729      6.56104718       
0.204            0.992180982      6.49666512       0.113153996      -82.7958101      0.113153996      -82.7958101      0.992181081      6.49666538       
0.206            0.99232416       6.4335064        0.112058527      -82.8617972      0.112058527      -82.8617972      0.99232426       6.43350666       
0.208            0.992463321      6.37153622       0.110983542      -82.9265188      0.110983542      -82.9265188      0.99246342       6.37153648       
0.21             0.992598613      6.3107213        0.109928474      -82.9900101      0.109928474      -82.9900101      0.992598712      6.31072156       
0.212            0.992730178      6.25102961       0.108892773      -83.0523055      0.108892773      -83.0523055      0.992730277      6.25102986       
0.214            0.992858153      6.19243026       0.107875913      -83.1134379      0.107875913      -83.1134379      0.992858252      6.19243051       
0.216            0.992982666      6.13489349       0.106877383      -83.1734389      0.106877383      -83.1734389      0.992982765      6.13489375       
0.218            0.993103843      6.07839062       0.105896693      -83.2323392      0.105896693      -83.2323392      0.993103942      6.07839087       
0.22             0.9932218        6.02289396       0.104933369      -83.2901683      0.104933369      -83.2901683      0.993221899      6.02289421       
0.222            0.993336652      5.96837681       0.103986953      -83.3469545      0.103986953      -83.3469545      0.993336751      5.96837706       
0.224            0.993448506      5.91481341       0.103057004      -83.4027255      0.103057004      -83.4027255      0.993448605      5.91481366       
0.226            0.993557466      5.86217887       0.102143095      -83.4575076      0.102143095      -83.4575076      0.993557565      5.86217913       
0.228            0.993663631      5.81044919       0.101244815      -83.5113265      0.101244815      -83.5113265      0.993663731      5.81044944       
0.23             0.993767097      5.75960114       0.100361765      -83.5642069      0.100361765      -83.5642069      0.993767196      5.75960139       
0.232            0.993867954      5.70961232       0.099493561      -83.6161726      0.099493561      -83.6161726      0.993868053      5.70961257       
0.234            0.993966288      5.66046105       0.098639831      -83.6672468      0.098639831      -83.6672468      0.993966388      5.6604613        
0.236            0.994062185      5.61212637       0.0978002152     -83.7174518      0.0978002152     -83.7174518      0.994062284      5.61212662       
0.238            0.994155723      5.56458804       0.0969743658     -83.7668092      0.0969743658     -83.7668092      0.994155823      5.56458829       
0.24             0.99424698       5.51782645       0.0961619461     -83.8153397      0.0961619461     -83.8153397      0.99424708       5.5178267        
0.242            0.99433603       5.47182263       0.0953626304     -83.8630636      0.0953626304     -83.8630636      0.994336129      5.47182288       
0.244            0.994422942      5.42655825       0.0945761031     -83.9100005      0.0945761031     -83.9100005      0.994423042      5.4265585        
0.246            0.994507786      5.38201552       0.093802059      -83.9561692      0.093802059      -83.9561692      0.994507885      5.38201577       
0.248            0.994590626      5.33817724       0.0930402021     -84.001588       0.0930402021     -84.001588       0.994590726      5.33817749       
0.25             0.994671526      5.29502676       0.0922902459     -84.0462747      0.0922902459     -84.0462747      0.994671625      5.295027         
0.252            0.994750544      5.25254792       0.0915519127     -84.0902465      0.0915519127     -84.0902465      0.994750644      5.25254816       
0.254            0.994827741      5.21072508       0.0908249332     -84.13352        0.0908249332     -84.13352        0.99482784       5.21072533       
0.256            0.99490317       5.16954308       0.0901090465     -84.1761113      0.0901090465     -84.1761113      0.994903269      5.16954333       
0.258            0.994976886      5.12898721       0.0894039995     -84.2180361      0.0894039995     -84.2180361      0.994976986      5.12898746       
0.26             0.995048941      5.08904323       0.0887095468     -84.2593095      0.0887095468     -84.2593095      0.99504904       5.08904347       
0.262            0.995119384      5.04969729       0.0880254501     -84.2999463      0.0880254501     -84.2999463      0.995119483      5.04969753       
0.264            0.995188262      5.01093598       0.0873514784     -84.3399606      0.0873514784     -84.3399606      0.995188362      5.01093623       
0.266            0.995255623      4.97274629       0.0866874073     -84.3793664      0.0866874073     -84.3793664      0.995255723      4.97274654       
0.268            0.99532151       4.93511558       0.0860330191     -84.4181771      0.0860330191     -84.4181771      0.99532161       4.93511582       
0.27             0.995385967      4.89803157       0.0853881023     -84.4564057      0.0853881023     -84.4564057      0.995386066      4.89803182       
0.272            0.995449034      4.86148236       0.0847524517     -84.4940649      0.0847524517     -84.4940649      0.995449133      4.86148261       
0.274            0.995510751      4.82545637       0.0841258676     -84.5311669      0.0841258676     -84.5311669      0.99551085       4.82545662       
0.276            0.995571156      4.78994237       0.0835081563     -84.5677238      0.0835081563     -84.5677238      0.995571256      4.78994262       
0.278            0.995630287      4.75492943       0.0828991294     -84.6037471      0.0828991294     -84.6037471      0.995630387      4.75492968       
0.28             0.99568818       4.72040695       0.0822986037     -84.6392481      0.0822986037     -84.6392481      0.995688279      4.72040719       
0.282            0.995744868      4.68636459       0.0817064013     -84.6742377      0.0817064013     -84.6742377      0.995744967      4.68636484       
0.284            0.995800385      4.65279234       0.0811223492     -84.7087266      0.0811223492     -84.7087266      0.995800484      4.65279259       
0.286            0.995854763      4.61968044       0.0805462789     -84.7427252      0.0805462789     -84.7427252      0.995854862      4.61968068       
0.288            0.995908033      4.5870194        0.0799780266     -84.7762436      0.0799780266     -84.7762436      0.995908132      4.58701965       
0.29             0.995960225      4.5548           0.0794174332     -84.8092914      0.0794174332     -84.8092914      0.995960325      4.55480024       
0.292            0.996011368      4.52301325       0.0788643435     -84.8418783      0.0788643435     -84.8418783      0.996011468      4.52301349       
0.294            0.99606149       4.49165042       0.0783186066     -84.8740136      0.0783186066     -84.8740136      0.99606159       4.49165066       
0.296            0.996110618      4.460703         0.0777800757     -84.9057062      0.0777800757     -84.9057062      0.996110718      4.46070325       
0.298            0.996158779      4.43016272       0.0772486077     -84.936965       0.0772486077     -84.936965       0.996158878      4.43016297       
0.3              0.996205997      4.40002152       0.0767240634     -84.9677985      0.0767240634     -84.9677985      0.996206097      4.40002176       
0.302            0.996252297      4.37027154       0.0762063071     -84.998215       0.0762063071     -84.998215       0.996252397      4.37027178       
0.304            0.996297703      4.34090513       0.0756952066     -85.0282226      0.0756952066     -85.0282226      0.996297802      4.34090538       
