! Coilcraft 1812PS-103 Power Chip Inductor				
! 1 October 2002			
# MHZ S MA R 50
!Freq             MagS11           AngS11           MagS21           AngS21           MagS12           AngS12           MagS22           AngS22
0.05             0.0313982793     85.2054747       0.997866151      -1.79682211      0.997866151      -1.79682211      0.0313982836     85.2054806       
0.15             0.0937350608     83.4409984       0.993665917      -5.37737359      0.993665917      -5.37737359      0.0937350833     83.4410041       
0.25             0.154952007      80.1962567       0.985515745      -8.91292929      0.985515745      -8.91292929      0.15495205       80.1962609       
0.35             0.214341049      76.8116533       0.973723147      -12.3756098      0.973723147      -12.3756098      0.214341111      76.8116564       
0.45             0.271326901      73.4546973       0.958689035      -15.7416564      0.958689035      -15.7416564      0.27132698       73.4546999       
0.55             0.325459635      70.1835186       0.940880713      -18.9913852      0.940880713      -18.9913852      0.32545973       70.1835207       
0.65             0.376420819      67.0279376       0.92079947       -22.1095245      0.92079947       -22.1095245      0.37642093       67.0279393       
0.75             0.424019272      64.0054837       0.89894907       -25.0852323      0.89894907       -25.0852323      0.424019398      64.0054852       
0.85             0.468177989      61.1263295       0.875809801      -27.9118224      0.875809801      -27.9118224      0.468178128      61.1263309       
0.95             0.508915644      58.3954661       0.851819859      -30.5862896      0.851819859      -30.5862896      0.508915796      58.3954674       
1.05             0.546325937      55.8140095       0.827364103      -33.1087261      0.827364103      -33.1087261      0.5463261        55.8140106       
1.15             0.580557331      53.3801604       0.802769235      -35.4817047      0.802769235      -35.4817047      0.580557504      53.3801615       
1.25             0.61179486       51.0899739       0.77830393       -37.7096861      0.77830393       -37.7096861      0.611795043      51.0899748       
1.35             0.640244881      48.9379892       0.754182362      -39.798486       0.754182362      -39.798486       0.640245073      48.93799         
1.45             0.666123005      46.9177412       0.73056977       -41.7548209      0.73056977       -41.7548209      0.666123204      46.917742        
1.55             0.689645054      45.0221663       0.707588974      -43.5859364      0.707588974      -43.5859364      0.689645261      45.0221671       
1.65             0.711020661      43.2439163       0.685327053      -45.2993151      0.685327053      -45.2993151      0.711020874      43.243917        
1.75             0.730449022      41.5755939       0.663841708      -46.9024552      0.663841708      -46.9024552      0.73044924       41.5755945       
1.85             0.748116345      40.0099234       0.643167002      -48.4027087      0.643167002      -48.4027087      0.748116569      40.0099241       
1.95             0.764194555      38.5398706       0.623318368      -49.8071692      0.623318368      -49.8071692      0.764194784      38.5398712       
2.05             0.778840901      37.1587204       0.604296852      -51.1225978      0.604296852      -51.1225978      0.778841134      37.1587209       
2.15             0.792198186      35.8601247       0.58609262       -52.3553784      0.58609262       -52.3553784      0.792198424      35.8601253       
2.25             0.804395398      34.6381273       0.56868783       -53.5114961      0.56868783       -53.5114961      0.804395639      34.6381278       
2.35             0.815548578      33.4871707       0.552058917      -54.5965311      0.552058917      -54.5965311      0.815548822      33.4871712       
2.45             0.825761813      32.4020928       0.536178409      -55.6156637      0.536178409      -55.6156637      0.82576206       32.4020932       
2.55             0.835128281      31.3781138       0.521016344      -56.5736884      0.521016344      -56.5736884      0.835128531      31.3781143       
2.65             0.84373128       30.4108196       0.506541353      -57.4750312      0.506541353      -57.4750312      0.843731533      30.4108201       
2.75             0.851645218      29.4961405       0.492721494      -58.3237716      0.492721494      -58.3237716      0.851645474      29.4961409       
2.85             0.858936539      28.6303293       0.479524864      -59.1236644      0.479524864      -59.1236644      0.858936797      28.6303297       
2.95             0.865664581      27.8099384       0.466920058      -59.8781637      0.466920058      -59.8781637      0.865664841      27.8099388       
3.05             0.871882352      27.0317974       0.45487649       -60.5904449      0.45487649       -60.5904449      0.871882613      27.0317978       
3.15             0.877637234      26.2929914       0.443364619      -61.2634274      0.443364619      -61.2634274      0.877637498      26.2929918       
3.25             0.882971615      25.59084         0.432356098      -61.8997948      0.432356098      -61.8997948      0.88297188       25.5908403       
3.35             0.887923447      24.9228777       0.421823859      -62.5020154      0.421823859      -62.5020154      0.887923714      24.9228781       
3.45             0.892526751      24.2868363       0.41174216       -63.0723596      0.41174216       -63.0723596      0.892527018      24.2868366       
3.55             0.896812054      23.6806273       0.402086597      -63.6129177      0.402086597      -63.6129177      0.896812322      23.6806276       
3.65             0.900806786      23.1023267       0.39283409       -64.1256151      0.39283409       -64.1256151      0.900807056      23.102327        
3.75             0.904535625      22.5501609       0.383962856      -64.6122264      0.383962856      -64.6122264      0.904535896      22.5501612       
3.85             0.908020802      22.0224934       0.375452363      -65.074389       0.375452363      -65.074389       0.908021074      22.0224937       
3.95             0.911282369      21.5178132       0.367283283      -65.5136146      0.367283283      -65.5136146      0.911282642      21.5178135       
4.05             0.914338441      21.0347236       0.359437435      -65.9313002      0.359437435      -65.9313002      0.914338715      21.0347239       
4.15             0.917205403      20.5719325       0.351897728      -66.3287381      0.351897728      -66.3287381      0.917205678      20.5719328       
4.25             0.919898099      20.1282438       0.344648105      -66.7071247      0.344648105      -66.7071247      0.919898375      20.1282441       
4.35             0.922429992      19.7025487       0.337673479      -67.0675689      0.337673479      -67.0675689      0.922430269      19.702549        
4.45             0.924813311      19.2938186       0.330959678      -67.4110992      0.330959678      -67.4110992      0.924813589      19.2938188       
4.55             0.92705918       18.9010983       0.324493391      -67.7386705      0.324493391      -67.7386705      0.927059458      18.9010985       
4.65             0.929177731      18.5235001       0.318262114      -68.0511706      0.318262114      -68.0511706      0.929178009      18.5235003       
4.75             0.931178203      18.1601979       0.312254094      -68.3494252      0.312254094      -68.3494252      0.931178482      18.1601982       
4.85             0.933069036      17.8104226       0.306458288      -68.6342033      0.306458288      -68.6342033      0.933069316      17.8104229       
4.95             0.934857947      17.4734572       0.300864312      -68.9062215      0.300864312      -68.9062215      0.934858227      17.4734574       
5.05             0.936552         17.1486325       0.295462399      -69.1661486      0.295462399      -69.1661486      0.936552281      17.1486328       
5.15             0.938157675      16.835324        0.290243362      -69.414609       0.290243362      -69.414609       0.938157956      16.8353242       
5.25             0.939680916      16.5329474       0.285198549      -69.6521865      0.285198549      -69.6521865      0.939681198      16.5329476       
5.35             0.941127188      16.2409565       0.280319814      -69.8794269      0.280319814      -69.8794269      0.94112747       16.2409567       
5.45             0.942501518      15.9588395       0.275599481      -70.0968416      0.275599481      -70.0968416      0.9425018        15.9588397       
5.55             0.943808538      15.6861169       0.271030315      -70.3049098      0.271030315      -70.3049098      0.943808821      15.6861172       
5.65             0.945052519      15.422339        0.266605489      -70.5040808      0.266605489      -70.5040808      0.945052802      15.4223392       
5.75             0.946237405      15.1670833       0.262318564      -70.6947767      0.262318564      -70.6947767      0.946237688      15.1670835       
5.85             0.94736684       14.919953        0.258163457      -70.8773939      0.258163457      -70.8773939      0.947367124      14.9199532       
5.95             0.948444198      14.6805751       0.254134423      -71.0523052      0.254134423      -71.0523052      0.948444482      14.6805753       
6.05             0.949472602      14.4485981       0.250226031      -71.2198613      0.250226031      -71.2198613      0.949472887      14.4485983       
6.15             0.950454949      14.2236915       0.246433143      -71.3803926      0.246433143      -71.3803926      0.950455234      14.2236917       
6.25             0.951393927      14.0055434       0.2427509        -71.5342107      0.2427509        -71.5342107      0.951394212      14.0055436       
6.35             0.952292033      13.7938597       0.239174699      -71.6816091      0.239174699      -71.6816091      0.952292319      13.7938599       
6.45             0.953151591      13.5883628       0.23570018       -71.8228653      0.23570018       -71.8228653      0.953151877      13.5883629       
6.55             0.953974762      13.3887903       0.23232321       -71.9582411      0.23232321       -71.9582411      0.953975048      13.3887904       
6.65             0.95476356       13.1948943       0.22903987       -72.0879841      0.22903987       -72.0879841      0.954763847      13.1948945       
6.75             0.955519865      13.0064403       0.22584644       -72.2123285      0.22584644       -72.2123285      0.955520151      13.0064404       
6.85             0.956245428      12.8232062       0.222739389      -72.3314961      0.222739389      -72.3314961      0.956245714      12.8232063       
6.95             0.956941887      12.6449816       0.219715364      -72.4456969      0.219715364      -72.4456969      0.956942174      12.6449818       
7.05             0.957610774      12.4715673       0.216771175      -72.5551299      0.216771175      -72.5551299      0.957611061      12.4715674       
7.15             0.958253521      12.302774        0.213903791      -72.6599839      0.213903791      -72.6599839      0.958253809      12.3027742       
7.25             0.95887147       12.1384224       0.211110329      -72.7604381      0.211110329      -72.7604381      0.958871758      12.1384225       
7.35             0.959465879      11.9783418       0.208388042      -72.8566626      0.208388042      -72.8566626      0.959466167      11.978342        
7.45             0.960037926      11.8223705       0.205734317      -72.9488192      0.205734317      -72.9488192      0.960038214      11.8223706       
7.55             0.960588719      11.6703543       0.20314666       -73.0370616      0.20314666       -73.0370616      0.960589007      11.6703544       
7.65             0.961119297      11.5221467       0.200622699      -73.121536       0.200622699      -73.121536       0.961119585      11.5221469       
7.75             0.961630638      11.3776083       0.198160166      -73.2023816      0.198160166      -73.2023816      0.961630926      11.3776085       
7.85             0.962123662      11.2366063       0.1957569        -73.2797309      0.1957569        -73.2797309      0.96212395       11.2366065       
7.95             0.962599233      11.099014        0.193410839      -73.3537105      0.193410839      -73.3537105      0.962599522      11.0990142       
8.05             0.963058168      10.9647108       0.19112001       -73.4244405      0.19112001       -73.4244405      0.963058457      10.964711        
8.15             0.963501235      10.8335816       0.18888253       -73.4920361      0.18888253       -73.4920361      0.963501524      10.8335817       
8.25             0.963929158      10.7055164       0.1866966        -73.5566067      0.1866966        -73.5566067      0.963929447      10.7055165       
8.35             0.964342623      10.5804103       0.184560496      -73.6182572      0.184560496      -73.6182572      0.964342912      10.5804104       
8.45             0.964742275      10.4581631       0.182472571      -73.6770875      0.182472571      -73.6770875      0.964742564      10.4581632       
8.55             0.965128725      10.3386789       0.180431248      -73.7331934      0.180431248      -73.7331934      0.965129014      10.3386791       
8.65             0.96550255       10.2218662       0.178435017      -73.7866661      0.178435017      -73.7866661      0.96550284       10.2218663       
8.75             0.965864297      10.1076372       0.176482431      -73.8375932      0.176482431      -73.8375932      0.965864587      10.1076373       
8.85             0.966214484      9.99590802       0.174572103      -73.8860585      0.174572103      -73.8860585      0.966214773      9.99590816       
8.95             0.966553599      9.88659833       0.172702703      -73.932142       0.172702703      -73.932142       0.966553889      9.88659846       
9.05             0.966882108      9.77963111       0.170872957      -73.9759207      0.170872957      -73.9759207      0.966882398      9.77963124       
9.15             0.96720045       9.67493259       0.169081639      -74.0174681      0.169081639      -74.0174681      0.96720074       9.67493272       
9.25             0.967509044      9.57243201       0.167327576      -74.0568547      0.167327576      -74.0568547      0.967509334      9.57243214       
9.35             0.967808286      9.47206152       0.16560964       -74.0941485      0.16560964       -74.0941485      0.967808576      9.47206165       
9.45             0.968098553      9.37375598       0.163926746      -74.1294141      0.163926746      -74.1294141      0.968098843      9.37375611       
9.55             0.968380202      9.27745287       0.162277854      -74.1627142      0.162277854      -74.1627142      0.968380493      9.277453         
9.65             0.968653575      9.18309216       0.160661962      -74.1941085      0.160661962      -74.1941085      0.968653866      9.18309228       
9.75             0.968918995      9.09061614       0.159078107      -74.2236547      0.159078107      -74.2236547      0.968919286      9.09061626       
9.85             0.96917677       8.99996937       0.157525363      -74.2514079      0.157525363      -74.2514079      0.969177061      8.99996949       
9.95             0.969427193      8.91109855       0.15600284       -74.2774215      0.15600284       -74.2774215      0.969427484      8.91109867       
10.05            0.969670544      8.82395239       0.154509678      -74.3017466      0.154509678      -74.3017466      0.969670835      8.82395251       
10.15            0.969907089      8.73848156       0.153045052      -74.3244323      0.153045052      -74.3244323      0.96990738       8.73848168       
10.25            0.970137082      8.65463858       0.151608166      -74.3455261      0.151608166      -74.3455261      0.970137373      8.6546387        
10.35            0.970360766      8.57237772       0.150198252      -74.3650736      0.150198252      -74.3650736      0.970361057      8.57237784       
10.45            0.97057837       8.49165494       0.148814572      -74.3831187      0.148814572      -74.3831187      0.970578661      8.49165506       
10.55            0.970790116      8.41242782       0.147456412      -74.3997037      0.147456412      -74.3997037      0.970790408      8.41242793       
10.65            0.970996215      8.33465545       0.146123084      -74.4148695      0.146123084      -74.4148695      0.970996507      8.33465556       
10.75            0.971196868      8.2582984        0.144813927      -74.4286553      0.144813927      -74.4286553      0.97119716       8.25829851       
10.85            0.971392267      8.18331865       0.143528298      -74.4410992      0.143528298      -74.4410992      0.971392559      8.18331876       
10.95            0.971582597      8.10967952       0.142265581      -74.4522376      0.142265581      -74.4522376      0.971582888      8.10967963       
11.05            0.971768033      8.03734559       0.141025178      -74.462106       0.141025178      -74.462106       0.971768324      8.0373457        
11.15            0.971948744      7.9662827        0.139806512      -74.4707385      0.139806512      -74.4707385      0.971949035      7.96628281       
11.25            0.97212489       7.89645785       0.138609028      -74.4781678      0.138609028      -74.4781678      0.972125182      7.89645795       
11.35            0.972296627      7.82783915       0.137432186      -74.484426       0.137432186      -74.484426       0.972296919      7.82783925       
11.45            0.972464103      7.76039581       0.136275466      -74.4895437      0.136275466      -74.4895437      0.972464395      7.76039592       
11.55            0.972627459      7.69409807       0.135138365      -74.4935505      0.135138365      -74.4935505      0.972627751      7.69409817       
11.65            0.972786831      7.62891716       0.134020395      -74.4964753      0.134020395      -74.4964753      0.972787123      7.62891726       
11.75            0.972942349      7.56482524       0.132921087      -74.4983457      0.132921087      -74.4983457      0.972942641      7.56482534       
11.85            0.973094139      7.50179541       0.131839984      -74.4991887      0.131839984      -74.4991887      0.973094431      7.50179552       
11.95            0.973242321      7.43980164       0.130776645      -74.4990302      0.130776645      -74.4990302      0.973242613      7.43980174       
12.05            0.973387009      7.37881872       0.129730642      -74.4978953      0.129730642      -74.4978953      0.973387301      7.37881882       
12.15            0.973528315      7.31882226       0.128701563      -74.4958085      0.128701563      -74.4958085      0.973528607      7.31882236       
12.25            0.973666344      7.25978864       0.127689006      -74.4927932      0.127689006      -74.4927932      0.973666636      7.25978874       
12.35            0.973801199      7.20169499       0.126692583      -74.4888724      0.126692583      -74.4888724      0.973801492      7.20169509       
12.45            0.973932979      7.14451916       0.125711918      -74.4840681      0.125711918      -74.4840681      0.973933271      7.14451925       
12.55            0.974061777      7.08823966       0.124746645      -74.4784017      0.124746645      -74.4784017      0.974062069      7.08823976       
12.65            0.974187684      7.03283569       0.123796412      -74.4718941      0.123796412      -74.4718941      0.974187976      7.03283579       
12.75            0.974310788      6.97828708       0.122860874      -74.4645654      0.122860874      -74.4645654      0.97431108       6.97828718       
